! File generated for n1 = 1, n2 = 13
! b1 = 100.000000
! b2 = 0.010000
! Q0 = 10000.000000
! f0 = 1000000000.000000
! n = 1001
! rel_span = 10.000000
# Hz S RI R 50
9.49495000000000000000e+08 9.81389188104778820154e-01 -1.91057797753933916729e-01 -1.86108118952212244065e-04 -1.91057797753933864687e-03 -1.86108118952212244065e-04 -1.91057797753933864687e-03 9.99998138918810508535e-01 -1.91057797753933791504e-05
9.49596010000000000000e+08 9.81313205605233829232e-01 -1.91443708741694057496e-01 -1.86867943947661258822e-04 -1.91443708741693995913e-03 -1.86867943947661258822e-04 -1.91443708741693995913e-03 9.99998131320560479374e-01 -1.91443708741693930861e-05
9.49697020000000000000e+08 9.81236766900113743795e-01 -1.91831123055287378065e-01 -1.87632330998862537118e-04 -1.91831123055287325156e-03 -1.87632330998862537118e-04 -1.91831123055287325156e-03 9.99998123676690053863e-01 -1.91831123055287266880e-05
9.49798030000000000000e+08 9.81159868358333908667e-01 -1.92220049406198717490e-01 -1.88401316416660709503e-04 -1.92220049406198641162e-03 -1.88401316416660709503e-04 -1.92220049406198641162e-03 9.99998115986835856006e-01 -1.92220049406198566623e-05
9.49899040000000000000e+08 9.81082506312799917936e-01 -1.92610496572554107386e-01 -1.89174936872000837990e-04 -1.92610496572554064885e-03 -1.89174936872000837990e-04 -1.92610496572554064885e-03 9.99998108250631290161e-01 -1.92610496572553998478e-05
9.50000050000000000000e+08 9.81004677059979957043e-01 -1.93002473399749435723e-01 -1.89953229400200009980e-04 -1.93002473399749366334e-03 -1.89953229400200009980e-04 -1.93002473399749366334e-03 9.99998100467705985928e-01 -1.93002473399749291795e-05
9.50101060000000000000e+08 9.80926376859471371716e-01 -1.93395988801090212839e-01 -1.90736231405286505098e-04 -1.93395988801090164266e-03 -1.90736231405286505098e-04 -1.93395988801090164266e-03 9.99998092637685909168e-01 -1.93395988801090093793e-05
9.50202070000000000000e+08 9.80847601933561241694e-01 -1.93791051758432447683e-01 -1.91523980664387181907e-04 -1.93791051758432364416e-03 -1.91523980664387181907e-04 -1.93791051758432364416e-03 9.99998084760193362008e-01 -1.93791051758432292587e-05
9.50303080000000000000e+08 9.80768348466781070272e-01 -1.94187671322837679400e-01 -1.92316515332189295114e-04 -1.94187671322837624756e-03 -1.92316515332189295114e-04 -1.94187671322837624756e-03 9.99998076834846649774e-01 -1.94187671322837552927e-05
9.50404090000000000000e+08 9.80688612605454590465e-01 -1.94585856615230395894e-01 -1.93113873945454191843e-04 -1.94585856615230338648e-03 -1.93113873945454191843e-04 -1.94585856615230338648e-03 9.99998068861260525075e-01 -1.94585856615230274951e-05
9.50505100000000000000e+08 9.80608390457240464144e-01 -1.94985616827062974155e-01 -1.93916095427594758994e-04 -1.94985616827062901296e-03 -1.93916095427594758994e-04 -1.94985616827062901296e-03 9.99998060839045743720e-01 -1.94985616827062853862e-05
9.50606110000000000000e+08 9.80527678090667653699e-01 -1.95386961220991944854e-01 -1.94723219093323858747e-04 -1.95386961220991861587e-03 -1.94723219093323858747e-04 -1.95386961220991861587e-03 9.99998052767809064711e-01 -1.95386961220991815509e-05
9.50707120000000000000e+08 9.80446471534663910319e-01 -1.95789899131558337020e-01 -1.95535284653360660456e-04 -1.95789899131558258957e-03 -1.95535284653360660456e-04 -1.95789899131558258957e-03 9.99998044647153472297e-01 -1.95789899131558221010e-05
9.50808130000000000000e+08 9.80364766778079599341e-01 -1.96194439965876044063e-01 -1.96352332219203407028e-04 -1.96194439965875983348e-03 -1.96352332219203407028e-04 -1.96194439965875983348e-03 9.99998036476677842899e-01 -1.96194439965875897967e-05
9.50909140000000000000e+08 9.80282559769202421762e-01 -1.96600593204331069996e-01 -1.97174402307975961271e-04 -1.96600593204330998873e-03 -1.97174402307975961271e-04 -1.96600593204330998873e-03 9.99998028255976945111e-01 -1.96600593204330920268e-05
9.51010150000000000000e+08 9.80199846415266917710e-01 -1.97008368401283301408e-01 -1.98001535847330649431e-04 -1.97008368401283256305e-03 -1.98001535847330649431e-04 -1.97008368401283256305e-03 9.99998019984641550728e-01 -1.97008368401283188542e-05
9.51111160000000000000e+08 9.80116622581956420390e-01 -1.97417775185783322955e-01 -1.98833774180435265922e-04 -1.97417775185783263975e-03 -1.98833774180435265922e-04 -1.97417775185783263975e-03 9.99998011662258212695e-01 -1.97417775185783189436e-05
9.51212170000000000000e+08 9.80032884092898570749e-01 -1.97828823262289427154e-01 -1.99671159071013800280e-04 -1.97828823262289352561e-03 -1.99671159071013800280e-04 -1.97828823262289352561e-03 9.99998003288409265110e-01 -1.97828823262289296995e-05
9.51313180000000000000e+08 9.79948626729152616477e-01 -1.98241522411400417081e-01 -2.00513732708473954493e-04 -1.98241522411400335549e-03 -2.00513732708473954493e-04 -1.98241522411400335549e-03 9.99997994862672934246e-01 -1.98241522411400286760e-05
9.51414190000000000000e+08 9.79863846228690271722e-01 -1.98655882490591850775e-01 -2.01361537713097625384e-04 -1.98655882490591812611e-03 -2.01361537713097625384e-04 -1.98655882490591812611e-03 9.99997986384622894462e-01 -1.98655882490591712323e-05
9.51515200000000000000e+08 9.79778538285869582403e-01 -1.99071913434960362510e-01 -2.02214617141303784576e-04 -1.99071913434960279243e-03 -2.02214617141303784576e-04 -1.99071913434960279243e-03 9.99997977853828601269e-01 -1.99071913434960210125e-05
9.51616210000000000000e+08 9.79692698550900020749e-01 -1.99489625257982583495e-01 -2.03073014490999260171e-04 -1.99489625257982545331e-03 -2.03073014490999260171e-04 -1.99489625257982545331e-03 9.99997969269855069285e-01 -1.99489625257982440977e-05
9.51717220000000000000e+08 9.79606322629301029536e-01 -1.99909028052275061782e-01 -2.03936773706989257944e-04 -1.99909028052275023618e-03 -2.03936773706989257944e-04 -1.99909028052275023618e-03 9.99997960632262983260e-01 -1.99909028052274946369e-05
9.51818230000000000000e+08 9.79519406081352683735e-01 -2.00330131990366505645e-01 -2.04805939186473127955e-04 -2.00330131990366418909e-03 -2.04805939186473127955e-04 -2.00330131990366418909e-03 9.99997951940608142962e-01 -2.00330131990366371475e-05
9.51919240000000000000e+08 9.79431944421537692413e-01 -2.00752947325481351237e-01 -2.05680555784623370769e-04 -2.00752947325481302665e-03 -2.05680555784623370769e-04 -2.00752947325481302665e-03 9.99997943194442129311e-01 -2.00752947325481207797e-05
9.52020250000000000000e+08 9.79343933117976628289e-01 -2.01177484392327216023e-01 -2.06560668820234059721e-04 -2.01177484392327157042e-03 -2.06560668820234059721e-04 -2.01177484392327157042e-03 9.99997934393311749268e-01 -2.01177484392327059464e-05
9.52121260000000000000e+08 9.79255367591853942422e-01 -2.01603753607896452049e-01 -2.07446324081460986696e-04 -2.01603753607896380926e-03 -2.07446324081460986696e-04 -2.01603753607896380926e-03 9.99997925536759146858e-01 -2.01603753607896309097e-05
9.52222270000000000000e+08 9.79166243216836651442e-01 -2.02031765472272084594e-01 -2.08337567831633663391e-04 -2.02031765472272025613e-03 -2.08337567831633663391e-04 -2.02031765472272025613e-03 9.99997916624321692147e-01 -2.02031765472271951074e-05
9.52323280000000000000e+08 9.79076555318483698898e-01 -2.02461530569448239225e-01 -2.09234446815162596859e-04 -2.02461530569448188918e-03 -2.09234446815162596859e-04 -2.02461530569448188918e-03 9.99997907655531870219e-01 -2.02461530569448129287e-05
9.52424290000000000000e+08 9.78986299173647767091e-01 -2.02893059568155648131e-01 -2.10137008263521917091e-04 -2.02893059568155570069e-03 -2.10137008263521917091e-04 -2.02893059568155570069e-03 9.99997898629917392199e-01 -2.02893059568155519924e-05
9.52525300000000000000e+08 9.78895470009867207928e-01 -2.03326363222700950972e-01 -2.11045299901328037816e-04 -2.03326363222700859032e-03 -2.11045299901328037816e-04 -2.03326363222700859032e-03 9.99997889547000973209e-01 -2.03326363222700808888e-05
9.52626310000000000000e+08 9.78804063004750646293e-01 -2.03761452373809909266e-01 -2.11959369952493750658e-04 -2.03761452373809855490e-03 -2.11959369952493750658e-04 -2.03761452373809855490e-03 9.99997880406300443390e-01 -2.03761452373809760622e-05
9.52727320000000000000e+08 9.78712073285351147334e-01 -2.04198337949488745169e-01 -2.12879267146488950586e-04 -2.04198337949488672310e-03 -2.12879267146488950586e-04 -2.04198337949488672310e-03 9.99997871207328525855e-01 -2.04198337949488582864e-05
9.52828330000000000000e+08 9.78619495927532501156e-01 -2.04637030965886423939e-01 -2.13805040724674436580e-04 -2.04637030965886326794e-03 -2.13805040724674436580e-04 -2.04637030965886326794e-03 9.99997861949592725672e-01 -2.04637030965886273939e-05
9.52929340000000000000e+08 9.78526325955325515515e-01 -2.05077542528175532643e-01 -2.14736740446744620416e-04 -2.05077542528175459785e-03 -2.14736740446744620416e-04 -2.05077542528175459785e-03 9.99997852632595551903e-01 -2.05077542528175401509e-05
9.53030350000000000000e+08 9.78432558340274871611e-01 -2.05519883831436989130e-01 -2.15674416597251523498e-04 -2.05519883831436914537e-03 -2.15674416597251523498e-04 -2.05519883831436914537e-03 9.99997843255834073517e-01 -2.05519883831436845419e-05
9.53131360000000000000e+08 9.78338188000776987074e-01 -2.05964066161557934898e-01 -2.16618119992230498969e-04 -2.05964066161557889795e-03 -2.16618119992230498969e-04 -2.05964066161557889795e-03 9.99997833818800030414e-01 -2.05964066161557788151e-05
9.53232370000000000000e+08 9.78243209801407442860e-01 -2.06410100896141646132e-01 -2.17567901985925591995e-04 -2.06410100896141585416e-03 -2.17567901985925591995e-04 -2.06410100896141585416e-03 9.99997824320980166490e-01 -2.06410100896141495970e-05
9.53333380000000000000e+08 9.78147618552239417333e-01 -2.06857999505424272613e-01 -2.18523814477606027245e-04 -2.06857999505424220571e-03 -2.18523814477606027245e-04 -2.06857999505424220571e-03 9.99997814761855230437e-01 -2.06857999505424147387e-05
9.53434390000000000000e+08 9.78051409008150574032e-01 -2.07307773553207702610e-01 -2.19485909918494450505e-04 -2.07307773553207621078e-03 -2.19485909918494450505e-04 -2.07307773553207621078e-03 9.99997805140900863918e-01 -2.07307773553207551960e-05
9.53535400000000000000e+08 9.77954575868121622761e-01 -2.07759434697796924185e-01 -2.20454241318783343041e-04 -2.07759434697796837449e-03 -2.20454241318783343041e-04 -2.07759434697796837449e-03 9.99997795457586824419e-01 -2.07759434697796781884e-05
9.53636410000000000000e+08 9.77857113774523112326e-01 -2.08212994692954761478e-01 -2.21428862254768909264e-04 -2.08212994692954676476e-03 -2.21428862254768909264e-04 -2.08212994692954676476e-03 9.99997785711377429330e-01 -2.08212994692954608713e-05
9.53737420000000000000e+08 9.77759017312391676136e-01 -2.08668465388864438070e-01 -2.22409826876082976268e-04 -2.08668465388864386029e-03 -2.22409826876082976268e-04 -2.08668465388864386029e-03 9.99997775901731222881e-01 -2.08668465388864308779e-05
9.53838430000000000000e+08 9.77660281008696396832e-01 -2.09125858733104769138e-01 -2.23397189913035617518e-04 -2.09125858733104699749e-03 -2.23397189913035617518e-04 -2.09125858733104699749e-03 9.99997766028100865121e-01 -2.09125858733104631987e-05
9.53939440000000000000e+08 9.77560899331593957662e-01 -2.09585186771634540692e-01 -2.24391006684060748642e-04 -2.09585186771634466099e-03 -2.24391006684060748642e-04 -2.09585186771634466099e-03 9.99997756089933131918e-01 -2.09585186771634392915e-05
9.54040450000000000000e+08 9.77460866689671137308e-01 -2.10046461649795401794e-01 -2.25391333103288683294e-04 -2.10046461649795361895e-03 -2.25391333103288683294e-04 -2.10046461649795361895e-03 9.99997746086668914955e-01 -2.10046461649795256185e-05
9.54141460000000000000e+08 9.77360177431179200092e-01 -2.10509695613316144547e-01 -2.26398225688207973064e-04 -2.10509695613316080362e-03 -2.26398225688207973064e-04 -2.10509695613316080362e-03 9.99997736017743110715e-01 -2.10509695613316012599e-05
9.54242470000000000000e+08 9.77258825843253076116e-01 -2.10974901009340937152e-01 -2.27411741567468844195e-04 -2.10974901009340892050e-03 -2.27411741567468844195e-04 -2.10974901009340892050e-03 9.99997725882584287405e-01 -2.10974901009340809379e-05
9.54343480000000000000e+08 9.77156806151121881676e-01 -2.11442090287459916187e-01 -2.28431938488781339364e-04 -2.11442090287459853737e-03 -2.28431938488781339364e-04 -2.11442090287459853737e-03 9.99997715680615129052e-01 -2.11442090287459752093e-05
9.54444490000000000000e+08 9.77054112517305450858e-01 -2.11911276000757931026e-01 -2.29458874826945542378e-04 -2.11911276000757882454e-03 -2.29458874826945542378e-04 -2.11911276000757882454e-03 9.99997705411251769370e-01 -2.11911276000757802494e-05
9.54545500000000000000e+08 9.76950739040800320012e-01 -2.12382470806873557834e-01 -2.30492609591997134897e-04 -2.12382470806873500588e-03 -2.30492609591997134897e-04 -2.12382470806873500588e-03 9.99997695073904124818e-01 -2.12382470806873400299e-05
9.54646510000000000000e+08 9.76846679756252056492e-01 -2.12855687469072074602e-01 -2.31533202437479262688e-04 -2.12855687469072022561e-03 -2.31533202437479262688e-04 -2.12855687469072022561e-03 9.99997684667975672568e-01 -2.12855687469071958864e-05
9.54747520000000000000e+08 9.76741928633116152092e-01 -2.13330938857331092739e-01 -2.32580713668838515943e-04 -2.13330938857331014677e-03 -2.32580713668838515943e-04 -2.13330938857331014677e-03 9.99997674192863339471e-01 -2.13330938857330948270e-05
9.54848530000000000000e+08 9.76636479574805149717e-01 -2.13808237949439122749e-01 -2.33635204251948303336e-04 -2.13808237949439068973e-03 -2.33635204251948303336e-04 -2.13808237949439068973e-03 9.99997663647957502064e-01 -2.13808237949438971395e-05
9.54949540000000000000e+08 9.76530326417824223739e-01 -2.14287597832105991547e-01 -2.34696735821758101963e-04 -2.14287597832105939505e-03 -2.34696735821758101963e-04 -2.14287597832105939505e-03 9.99997653032641764526e-01 -2.14287597832105851413e-05
9.55050550000000000000e+08 9.76423462930891328249e-01 -2.14769031702091828251e-01 -2.35765370691086309854e-04 -2.14769031702091760597e-03 -2.35765370691086309854e-04 -2.14769031702091760597e-03 9.99997642346293069693e-01 -2.14769031702091692834e-05
9.55151560000000000000e+08 9.76315882814047020233e-01 -2.15252552867342183962e-01 -2.36841171859530083901e-04 -2.15252552867342119777e-03 -2.36841171859530083901e-04 -2.15252552867342119777e-03 9.99997631588281366000e-01 -2.15252552867342041173e-05
9.55252570000000000000e+08 9.76207579697747518388e-01 -2.15738174748142969017e-01 -2.37924203022525150054e-04 -2.15738174748142906567e-03 -2.37924203022525150054e-04 -2.15738174748142906567e-03 9.99997620757969829519e-01 -2.15738174748142829318e-05
9.55353580000000000000e+08 9.76098547141945549477e-01 -2.16225910878289351302e-01 -2.39014528580544066130e-04 -2.16225910878289255893e-03 -2.39014528580544066130e-04 -2.16225910878289255893e-03 9.99997609854714197830e-01 -2.16225910878289215235e-05
9.55454590000000000000e+08 9.75988778635157872010e-01 -2.16715774906262592658e-01 -2.40112213648421580223e-04 -2.16715774906262514596e-03 -2.40112213648421580223e-04 -2.16715774906262514596e-03 9.99997598877863547173e-01 -2.16715774906262449544e-05
9.55555600000000000000e+08 9.75878267593515369427e-01 -2.17207780596431282438e-01 -2.41217324064846197311e-04 -2.17207780596431233866e-03 -2.41217324064846197311e-04 -2.17207780596431233866e-03 9.99997587826759404273e-01 -2.17207780596431137643e-05
9.55656610000000000000e+08 9.75767007359802152067e-01 -2.17701941830258732802e-01 -2.42329926401978868562e-04 -2.17701941830258666882e-03 -2.42329926401978868562e-04 -2.17701941830258666882e-03 9.99997576700735968380e-01 -2.17701941830258566594e-05
9.55757620000000000000e+08 9.75654991202477450685e-01 -2.18198272607527304912e-01 -2.43450087975225339196e-04 -2.18198272607527223380e-03 -2.43450087975225339196e-04 -2.18198272607527223380e-03 9.99997565499120222299e-01 -2.18198272607527175946e-05
9.55858630000000000000e+08 9.75542212314682744001e-01 -2.18696787047583690589e-01 -2.44577876853172590348e-04 -2.18696787047583610791e-03 -2.44577876853172590348e-04 -2.18696787047583610791e-03 9.99997554221231488292e-01 -2.18696787047583560647e-05
9.55959640000000000000e+08 9.75428663813234231306e-01 -2.19197499390589634061e-01 -2.45713361867658068582e-04 -2.19197499390589569876e-03 -2.45713361867658068582e-04 -2.19197499390589569876e-03 9.99997542866381317062e-01 -2.19197499390589504824e-05
9.56060650000000000000e+08 9.75314338737598651718e-01 -2.19700423998795968394e-01 -2.46856612624012875662e-04 -2.19700423998795899005e-03 -2.46856612624012875662e-04 -2.19700423998795899005e-03 9.99997531433873709794e-01 -2.19700423998795817690e-05
9.56161660000000000000e+08 9.75199230048853893393e-01 -2.20205575357830557470e-01 -2.48007699511460812363e-04 -2.20205575357830486347e-03 -2.48007699511460812363e-04 -2.20205575357830486347e-03 9.99997519923004896114e-01 -2.20205575357830399610e-05
9.56262670000000000000e+08 9.75083330628632727333e-01 -2.20712968077999255323e-01 -2.49166693713672978208e-04 -2.20712968077999178995e-03 -2.49166693713672978208e-04 -2.20712968077999178995e-03 9.99997508333062889996e-01 -2.20712968077999115298e-05
9.56363680000000000000e+08 9.74966633278050553990e-01 -2.21222616895605794785e-01 -2.50333667219494379868e-04 -2.21222616895605734069e-03 -2.50333667219494379868e-04 -2.21222616895605734069e-03 9.99997496663327822830e-01 -2.21222616895605674438e-05
9.56464690000000000000e+08 9.74849130716616052439e-01 -2.21734536674288523761e-01 -2.51508692833839783524e-04 -2.21734536674288466515e-03 -2.51508692833839783524e-04 -2.21734536674288466515e-03 9.99997484913071610357e-01 -2.21734536674288385200e-05
9.56565700000000000000e+08 9.74730815581124176994e-01 -2.22248742406372351565e-01 -2.52691844188757618571e-04 -2.22248742406372292585e-03 -2.52691844188757618571e-04 -2.22248742406372292585e-03 9.99997473081558063690e-01 -2.22248742406372188230e-05
9.56666710000000000000e+08 9.74611680424533166622e-01 -2.22765249214237626152e-01 -2.53883195754668654701e-04 -2.22765249214237556763e-03 -2.53883195754668654701e-04 -2.22765249214237556763e-03 9.99997461168042445223e-01 -2.22765249214237461895e-05
9.56767720000000000000e+08 9.74491717714822014429e-01 -2.23284072351705081827e-01 -2.55082822851779560808e-04 -2.23284072351705034989e-03 -2.55082822851779560808e-04 -2.23284072351705034989e-03 9.99997449171771468635e-01 -2.23284072351704955030e-05
9.56868730000000000000e+08 9.74370919833830950729e-01 -2.23805227205443824090e-01 -2.56290801661690752916e-04 -2.23805227205443749497e-03 -2.56290801661690752916e-04 -2.23805227205443749497e-03 9.99997437091983409907e-01 -2.23805227205443691221e-05
9.56969740000000000000e+08 9.74249279076083385398e-01 -2.24328729296387557879e-01 -2.57507209239166330334e-04 -2.24328729296387500633e-03 -2.57507209239166330334e-04 -2.24328729296387500633e-03 9.99997424927907663239e-01 -2.24328729296387411186e-05
9.57070750000000000000e+08 9.74126787647588643360e-01 -2.24854594281178016280e-01 -2.58732123524113371248e-04 -2.24854594281177939952e-03 -2.58732123524113371248e-04 -2.24854594281177939952e-03 9.99997412678764741045e-01 -2.24854594281177883031e-05
9.57171760000000000000e+08 9.74003437664626381398e-01 -2.25382837953620046578e-01 -2.59965623353736435385e-04 -2.25382837953619959842e-03 -2.59965623353736435385e-04 -2.25382837953619959842e-03 9.99997400343766496000e-01 -2.25382837953619901566e-05
9.57272770000000000000e+08 9.73879221152510909931e-01 -2.25913476246156819105e-01 -2.61207788474891071991e-04 -2.25913476246156728899e-03 -2.61207788474891071991e-04 -2.25913476246156728899e-03 9.99997387922115232861e-01 -2.25913476246156650295e-05
9.57373780000000000000e+08 9.73754130044335863836e-01 -2.26446525231366491138e-01 -2.62458699556641591490e-04 -2.26446525231366411340e-03 -2.62458699556641591490e-04 -2.26446525231366411340e-03 9.99997375413004485623e-01 -2.26446525231366340867e-05
