! Touchstone file generated by MATLAB
! b1 = 0.000631
! b2 = 0.000631
! Q0 = 10000.000000
! f0 = 1000000000.000000
! n = 401
! rel_span = 5.000000
# Hz S RI R 50
9.99749684521327733994e+08 9.99951537657674083270e-01 -2.42342046408879470626e-04 -4.84623423259178206135e-05 -2.42342046408879470626e-04 -4.84623423259178206135e-05 -2.42342046408879470626e-04 9.99951537657674083270e-01 -2.42342046408879470626e-04
9.99750936098721146584e+08 9.99951068273709275935e-01 -2.43465661326398185487e-04 -4.89317262907475376311e-05 -2.43465661326398185487e-04 -4.89317262907475376311e-05 -2.43465661326398185487e-04 9.99951068273709275935e-01 -2.43465661326398185487e-04
9.99752187676114439964e+08 9.99950592131412352437e-01 -2.44599260620263292756e-04 -4.94078685876571854687e-05 -2.44599260620263292756e-04 -4.94078685876571854687e-05 -2.44599260620263292756e-04 9.99950592131412352437e-01 -2.44599260620263292756e-04
9.99753439253507852554e+08 9.99950109102288986485e-01 -2.45742970247269699752e-04 -4.98908977110565040637e-05 -2.45742970247269699752e-04 -4.98908977110565040637e-05 -2.45742970247269699752e-04 9.99950109102288986485e-01 -2.45742970247269699752e-04
9.99754690830901145935e+08 9.99949619054823601871e-01 -2.46896918117956798780e-04 -5.03809451763722771921e-05 -2.46896918117956798780e-04 -5.03809451763722771921e-05 -2.46896918117956798780e-04 9.99949619054823601871e-01 -2.46896918117956798780e-04
9.99755942408294558525e+08 9.99949121854395439613e-01 -2.48061234130050086832e-04 -5.08781456045066788176e-05 -2.48061234130050086832e-04 -5.08781456045066788176e-05 -2.48061234130050086832e-04 9.99949121854395439613e-01 -2.48061234130050086832e-04
9.99757193985687851906e+08 9.99948617363191516461e-01 -2.49236050201243888522e-04 -5.13826368085215678169e-05 -2.49236050201243888522e-04 -5.13826368085215678169e-05 -2.49236050201243888522e-04 9.99948617363191516461e-01 -2.49236050201243888522e-04
9.99758445563081264496e+08 9.99948105440116585818e-01 -2.50421500303098394907e-04 -5.18945598833966788223e-05 -2.50421500303098394907e-04 -5.18945598833966788223e-05 -2.50421500303098394907e-04 9.99948105440116585818e-01 -2.50421500303098394907e-04
9.99759697140474677086e+08 9.99947585940701322293e-01 -2.51617720495289176434e-04 -5.24140592986442453325e-05 -2.51617720495289176434e-04 -5.24140592986442453325e-05 -2.51617720495289176434e-04 9.99947585940701322293e-01 -2.51617720495289176434e-04
9.99760948717867970467e+08 9.99947058717006176387e-01 -2.52824848960036781872e-04 -5.29412829938097622296e-05 -2.52824848960036781872e-04 -5.29412829938097622296e-05 -2.52824848960036781872e-04 9.99947058717006176387e-01 -2.52824848960036781872e-04
9.99762200295261383057e+08 9.99946523617522564642e-01 -2.54043026037668244303e-04 -5.34763824773863723889e-05 -2.54043026037668244303e-04 -5.34763824773863723889e-05 -2.54043026037668244303e-04 9.99946523617522564642e-01 -2.54043026037668244303e-04
9.99763451872654676437e+08 9.99945980487071617304e-01 -2.55272394261213538772e-04 -5.40195129283422618397e-05 -2.55272394261213538772e-04 -5.40195129283422618397e-05 -2.55272394261213538772e-04 9.99945980487071617304e-01 -2.55272394261213538772e-04
9.99764703450048089027e+08 9.99945429166698041001e-01 -2.56513098393638440137e-04 -5.45708333019640062767e-05 -2.56513098393638440137e-04 -5.45708333019640062767e-05 -2.56513098393638440137e-04 9.99945429166698041001e-01 -2.56513098393638440137e-04
9.99765955027441382408e+08 9.99944869493561871998e-01 -2.57765285463052037061e-04 -5.51305064380931786707e-05 -2.57765285463052037061e-04 -5.51305064380931786707e-05 -2.57765285463052037061e-04 9.99944869493561871998e-01 -2.57765285463052037061e-04
9.99767206604834794998e+08 9.99944301300826232648e-01 -2.59029104800107044890e-04 -5.56986991737476534237e-05 -2.59029104800107044890e-04 -5.56986991737476534237e-05 -2.59029104800107044890e-04 9.99944301300826232648e-01 -2.59029104800107044890e-04
9.99768458182228207588e+08 9.99943724417540980021e-01 -2.60304708074801476308e-04 -5.62755824590328610304e-05 -2.60304708074801476308e-04 -5.62755824590328610304e-05 -2.60304708074801476308e-04 9.99943724417540980021e-01 -2.60304708074801476308e-04
9.99769709759621500969e+08 9.99943138668523023860e-01 -2.61592249333802463751e-04 -5.68613314769824963442e-05 -2.61592249333802463751e-04 -5.68613314769824963442e-05 -2.61592249333802463751e-04 9.99943138668523023860e-01 -2.61592249333802463751e-04
9.99770961337014913559e+08 9.99942543874232092627e-01 -2.62891885039273219722e-04 -5.74561257679329605297e-05 -2.62891885039273219722e-04 -5.74561257679329605297e-05 -2.62891885039273219722e-04 9.99942543874232092627e-01 -2.62891885039273219722e-04
9.99772212914408206940e+08 9.99941939850643057852e-01 -2.64203774105633019866e-04 -5.80601493569642249136e-05 -2.64203774105633019866e-04 -5.80601493569642249136e-05 -2.64203774105633019866e-04 9.99941939850643057852e-01 -2.64203774105633019866e-04
9.99773464491801619530e+08 9.99941326409113040441e-01 -2.65528077939380490868e-04 -5.86735908869103227120e-05 -2.65528077939380490868e-04 -5.86735908869103227120e-05 -2.65528077939380490868e-04 9.99941326409113040441e-01 -2.65528077939380490868e-04
9.99774716069194912910e+08 9.99940703356245075284e-01 -2.66864960477077007260e-04 -5.92966437548747207905e-05 -2.66864960477077007260e-04 -5.92966437548747207905e-05 -2.66864960477077007260e-04 9.99940703356245075284e-01 -2.66864960477077007260e-04
9.99775967646588325500e+08 9.99940070493746113733e-01 -2.68214588224628203497e-04 -5.99295062538664189441e-05 -2.68214588224628203497e-04 -5.99295062538664189441e-05 -2.68214588224628203497e-04 9.99940070493746113733e-01 -2.68214588224628203497e-04
9.99777219223981738091e+08 9.99939427618280807231e-01 -2.69577130296567600218e-04 -6.05723817191538397328e-05 -2.69577130296567600218e-04 -6.05723817191538397328e-05 -2.69577130296567600218e-04 9.99939427618280807231e-01 -2.69577130296567600218e-04
9.99778470801375031471e+08 9.99938774521320516975e-01 -2.70952758455357957217e-04 -6.12254786795382111367e-05 -2.70952758455357957217e-04 -6.12254786795382111367e-05 -2.70952758455357957217e-04 9.99938774521320516975e-01 -2.70952758455357957217e-04
9.99779722378768444061e+08 9.99938110988985773275e-01 -2.72341647151711776457e-04 -6.18890110142305329430e-05 -2.72341647151711776457e-04 -6.18890110142305329430e-05 -2.72341647151711776457e-04 9.99938110988985773275e-01 -2.72341647151711776457e-04
9.99780973956161737442e+08 9.99937436801885737303e-01 -2.73743973563328598861e-04 -6.25631981143130581381e-05 -2.73743973563328598861e-04 -6.25631981143130581381e-05 -2.73743973563328598861e-04 9.99937436801885737303e-01 -2.73743973563328598861e-04
9.99782225533555150032e+08 9.99936751734949225145e-01 -2.75159917635672335908e-04 -6.32482650507354301995e-05 -2.75159917635672335908e-04 -6.32482650507354301995e-05 -2.75159917635672335908e-04 9.99936751734949225145e-01 -2.75159917635672335908e-04
9.99783477110948443413e+08 9.99936055557252512216e-01 -2.76589662121375730233e-04 -6.39444427474586461844e-05 -2.76589662121375730233e-04 -6.39444427474586461844e-05 -2.76589662121375730233e-04 9.99936055557252512216e-01 -2.76589662121375730233e-04
9.99784728688341856003e+08 9.99935348031838922012e-01 -2.78033392620436771697e-04 -6.46519681610314083482e-05 -2.78033392620436771697e-04 -6.46519681610314083482e-05 -2.78033392620436771697e-04 9.99935348031838922012e-01 -2.78033392620436771697e-04
9.99785980265735149384e+08 9.99934628915534085003e-01 -2.79491297619260383941e-04 -6.53710844659145633162e-05 -2.79491297619260383941e-04 -6.53710844659145633162e-05 -2.79491297619260383941e-04 9.99934628915534085003e-01 -2.79491297619260383941e-04
9.99787231843128561974e+08 9.99933897958752759827e-01 -2.80963568531492568180e-04 -6.61020412472719401734e-05 -2.80963568531492568180e-04 -6.61020412472719401734e-05 -2.80963568531492568180e-04 9.99933897958752759827e-01 -2.80963568531492568180e-04
9.99788483420521974564e+08 9.99933154905300325410e-01 -2.82450399736939358059e-04 -6.68450946996994993781e-05 -2.82450399736939358059e-04 -6.68450946996994993781e-05 -2.82450399736939358059e-04 9.99933154905300325410e-01 -2.82450399736939358059e-04
9.99789734997915267944e+08 9.99932399492166945620e-01 -2.83951988620250882125e-04 -6.76005078330039370967e-05 -2.83951988620250882125e-04 -6.76005078330039370967e-05 -2.83951988620250882125e-04 9.99932399492166945620e-01 -2.83951988620250882125e-04
9.99790986575308680534e+08 9.99931631449313851334e-01 -2.85468535610919099850e-04 -6.83685506861327822563e-05 -2.85468535610919099850e-04 -6.83685506861327822563e-05 -2.85468535610919099850e-04 9.99931631449313851334e-01 -2.85468535610919099850e-04
9.99792238152701973915e+08 9.99930850499452295033e-01 -2.87000244220799219895e-04 -6.91495005476888669436e-05 -2.87000244220799219895e-04 -6.91495005476888669436e-05 -2.87000244220799219895e-04 9.99930850499452295033e-01 -2.87000244220799219895e-04
9.99793489730095386505e+08 9.99930056357814955881e-01 -2.88547321082433102721e-04 -6.99436421850163094448e-05 -2.88547321082433102721e-04 -6.99436421850163094448e-05 -2.88547321082433102721e-04 9.99930056357814955881e-01 -2.88547321082433102721e-04
9.99794741307488679886e+08 9.99929248731918796089e-01 -2.90109975986084522599e-04 -7.07512680811699616731e-05 -2.90109975986084522599e-04 -7.07512680811699616731e-05 -2.90109975986084522599e-04 9.99929248731918796089e-01 -2.90109975986084522599e-04
9.99795992884882092476e+08 9.99928427321319035492e-01 -2.91688421917155906154e-04 -7.15726786810074420975e-05 -2.91688421917155906154e-04 -7.15726786810074420975e-05 -2.91688421917155906154e-04 9.99928427321319035492e-01 -2.91688421917155906154e-04
9.99797244462275505066e+08 9.99927591817354910475e-01 -2.93282875090686019192e-04 -7.24081826450966264778e-05 -2.93282875090686019192e-04 -7.24081826450966264778e-05 -2.93282875090686019192e-04 9.99927591817354910475e-01 -2.93282875090686019192e-04
9.99798496039668798447e+08 9.99926741902886107027e-01 -2.94893554986885885524e-04 -7.32580971139042347795e-05 -2.94893554986885885524e-04 -7.32580971139042347795e-05 -2.94893554986885885524e-04 9.99926741902886107027e-01 -2.94893554986885885524e-04
9.99799747617062211037e+08 9.99925877252018757702e-01 -2.96520684384969364193e-04 -7.41227479812950855583e-05 -2.96520684384969364193e-04 -7.41227479812950855583e-05 -2.96520684384969364193e-04 9.99925877252018757702e-01 -2.96520684384969364193e-04
9.99800999194455504417e+08 9.99924997529822445763e-01 -2.98164489394795535673e-04 -7.50024701775333795016e-05 -2.98164489394795535673e-04 -7.50024701775333795016e-05 -2.98164489394795535673e-04 9.99924997529822445763e-01 -2.98164489394795535673e-04
9.99802250771848917007e+08 9.99924102392036218134e-01 -2.99825199489055411756e-04 -7.58976079637270999298e-05 -2.99825199489055411756e-04 -7.58976079637270999298e-05 -2.99825199489055411756e-04 9.99924102392036218134e-01 -2.99825199489055411756e-04
9.99803502349242210388e+08 9.99923191484764273262e-01 -3.01503047531416956597e-04 -7.68085152357821673939e-05 -3.01503047531416956597e-04 -7.68085152357821673939e-05 -3.01503047531416956597e-04 9.99923191484764273262e-01 -3.01503047531416956597e-04
9.99804753926635622978e+08 9.99922264444159103469e-01 -3.03198269805324206912e-04 -7.77355558409163988152e-05 -3.03198269805324206912e-04 -7.77355558409163988152e-05 -3.03198269805324206912e-04 9.99922264444159103469e-01 -3.03198269805324206912e-04
9.99806005504029035568e+08 9.99921320896094978359e-01 -3.04911106039232673859e-04 -7.86791039050343263619e-05 -3.04911106039232673859e-04 -7.86791039050343263619e-05 -3.04911106039232673859e-04 9.99921320896094978359e-01 -3.04911106039232673859e-04
9.99807257081422328949e+08 9.99920360455827550439e-01 -3.06641799430031958881e-04 -7.96395441724896089057e-05 -3.06641799430031958881e-04 -7.96395441724896089057e-05 -3.06641799430031958881e-04 9.99920360455827550439e-01 -3.06641799430031958881e-04
9.99808508658815741539e+08 9.99919382727641026243e-01 -3.08390596664763353210e-04 -8.06172723589328014699e-05 -3.08390596664763353210e-04 -8.06172723589328014699e-05 -3.08390596664763353210e-04 9.99919382727641026243e-01 -3.08390596664763353210e-04
9.99809760236209034920e+08 9.99918387304483347044e-01 -3.10157747938468624557e-04 -8.16126955166998201575e-05 -3.10157747938468624557e-04 -8.16126955166998201575e-05 -3.10157747938468624557e-04 9.99918387304483347044e-01 -3.10157747938468624557e-04
9.99811011813602447510e+08 9.99917373767585049293e-01 -3.11943506970916112440e-04 -8.26262324149649773951e-05 -3.11943506970916112440e-04 -8.26262324149649773951e-05 -3.11943506970916112440e-04 9.99917373767585049293e-01 -3.11943506970916112440e-04
9.99812263390995740891e+08 9.99916341686067466910e-01 -3.13748131017224120547e-04 -8.36583139325820828369e-05 -3.13748131017224120547e-04 -8.36583139325820828369e-05 -3.13748131017224120547e-04 9.99916341686067466910e-01 -3.13748131017224120547e-04
9.99813514968389153481e+08 9.99915290616531726720e-01 -3.15571880879172560631e-04 -8.47093834682239763770e-05 -3.15571880879172560631e-04 -8.47093834682239763770e-05 -3.15571880879172560631e-04 9.99915290616531726720e-01 -3.15571880879172560631e-04
9.99814766545782566071e+08 9.99914220102636530640e-01 -3.17415020908065625711e-04 -8.57798973634314395904e-05 -3.17415020908065625711e-04 -8.57798973634314395904e-05 -3.17415020908065625711e-04 9.99914220102636530640e-01 -3.17415020908065625711e-04
9.99816018123175859451e+08 9.99913129674656175894e-01 -3.19277819006826468675e-04 -8.68703253437934776009e-05 -3.19277819006826468675e-04 -8.68703253437934776009e-05 -3.19277819006826468675e-04 9.99913129674656175894e-01 -3.19277819006826468675e-04
9.99817269700569272041e+08 9.99912018849023587208e-01 -3.21160546626583483319e-04 -8.79811509764582064383e-05 -3.21160546626583483319e-04 -8.79811509764582064383e-05 -3.21160546626583483319e-04 9.99912018849023587208e-01 -3.21160546626583483319e-04
9.99818521277962565422e+08 9.99910887127855807499e-01 -3.23063478756583808901e-04 -8.91128721441955502303e-05 -3.23063478756583808901e-04 -8.91128721441955502303e-05 -3.23063478756583808901e-04 9.99910887127855807499e-01 -3.23063478756583808901e-04
9.99819772855355978012e+08 9.99909733998460392712e-01 -3.24986893911835105896e-04 -9.02660015396028155617e-05 -3.24986893911835105896e-04 -9.02660015396028155617e-05 -3.24986893911835105896e-04 9.99909733998460392712e-01 -3.24986893911835105896e-04
9.99821024432749271393e+08 9.99908558932823487986e-01 -3.26931074111737123792e-04 -9.14410671765211757224e-05 -3.26931074111737123792e-04 -9.14410671765211757224e-05 -3.26931074111737123792e-04 9.99908558932823487986e-01 -3.26931074111737123792e-04
9.99822276010142683983e+08 9.99907361387077364689e-01 -3.28896304854559202481e-04 -9.26386129226376686934e-05 -3.28896304854559202481e-04 -9.26386129226376686934e-05 -3.28896304854559202481e-04 9.99907361387077364689e-01 -3.28896304854559202481e-04
9.99823527587536096573e+08 9.99906140800948306513e-01 -3.30882875083220900133e-04 -9.38591990517185050576e-05 -3.30882875083220900133e-04 -9.38591990517185050576e-05 -3.30882875083220900133e-04 9.99906140800948306513e-01 -3.30882875083220900133e-04
9.99824779164929389954e+08 9.99904896597182069051e-01 -3.32891077144513577394e-04 -9.51034028179761870784e-05 -3.32891077144513577394e-04 -9.51034028179761870784e-05 -3.32891077144513577394e-04 9.99904896597182069051e-01 -3.32891077144513577394e-04
9.99826030742322802544e+08 9.99903628180947023907e-01 -3.34921206740297584467e-04 -9.63718190529890087479e-05 -3.34921206740297584467e-04 -9.63718190529890087479e-05 -3.34921206740297584467e-04 9.99903628180947023907e-01 -3.34921206740297584467e-04
9.99827282319716095924e+08 9.99902334939214765264e-01 -3.36973562868626830540e-04 -9.76650607852582499637e-05 -3.36973562868626830540e-04 -9.76650607852582499637e-05 -3.36973562868626830540e-04 9.99902334939214765264e-01 -3.36973562868626830540e-04
9.99828533897109508514e+08 9.99901016240114848266e-01 -3.39048447756838981434e-04 -9.89837598851103989735e-05 -3.39048447756838981434e-04 -9.89837598851103989735e-05 -3.39048447756838981434e-04 9.99901016240114848266e-01 -3.39048447756838981434e-04
9.99829785474502801895e+08 9.99899671432266323734e-01 -3.41146166782106045976e-04 -1.00328567733636733294e-04 -3.41146166782106045976e-04 -1.00328567733636733294e-04 -3.41146166782106045976e-04 9.99899671432266323734e-01 -3.41146166782106045976e-04
9.99831037051896214485e+08 9.99898299844080518106e-01 -3.43267028382964400294e-04 -1.01700155919491258614e-04 -3.43267028382964400294e-04 -1.01700155919491258614e-04 -3.43267028382964400294e-04 9.99898299844080518106e-01 -3.43267028382964400294e-04
9.99832288629289627075e+08 9.99896900783038056204e-01 -3.45411343956685728054e-04 -1.03099216961978422630e-04 -3.45411343956685728054e-04 -1.03099216961978422630e-04 -3.45411343956685728054e-04 9.99896900783038056204e-01 -3.45411343956685728054e-04
9.99833540206682920456e+08 9.99895473534936241045e-01 -3.47579427744923398404e-04 -1.04526465063768008498e-04 -3.47579427744923398404e-04 -1.04526465063768008498e-04 -3.47579427744923398404e-04 9.99895473534936241045e-01 -3.47579427744923398404e-04
9.99834791784076333046e+08 9.99894017363107012741e-01 -3.49771596704244686158e-04 -1.05982636892943741483e-04 -3.49771596704244686158e-04 -1.05982636892943741483e-04 -3.49771596704244686158e-04 9.99894017363107012741e-01 -3.49771596704244686158e-04
9.99836043361469626427e+08 9.99892531507604154228e-01 -3.51988170360733459985e-04 -1.07468492395819940509e-04 -3.51988170360733459985e-04 -1.07468492395819940509e-04 -3.51988170360733459985e-04 9.99892531507604154228e-01 -3.51988170360733459985e-04
9.99837294938863039017e+08 9.99891015184356413137e-01 -3.54229470650094051785e-04 -1.08984815643608181257e-04 -3.54229470650094051785e-04 -1.08984815643608181257e-04 -3.54229470650094051785e-04 9.99891015184356413137e-01 -3.54229470650094051785e-04
9.99838546516256332397e+08 9.99889467584289315383e-01 -3.56495821736544607917e-04 -1.10532415710680063589e-04 -3.56495821736544607917e-04 -1.10532415710680063589e-04 -3.56495821736544607917e-04 9.99889467584289315383e-01 -3.56495821736544607917e-04
9.99839798093649744987e+08 9.99887887872409786283e-01 -3.58787549815670048746e-04 -1.12112127590249184062e-04 -3.58787549815670048746e-04 -1.12112127590249184062e-04 -3.58787549815670048746e-04 9.99887887872409786283e-01 -3.58787549815670048746e-04
9.99841049671043157578e+08 9.99886275186855244534e-01 -3.61104982893463509041e-04 -1.13724813144715350063e-04 -3.61104982893463509041e-04 -1.13724813144715350063e-04 -3.61104982893463509041e-04 9.99886275186855244534e-01 -3.61104982893463509041e-04
9.99842301248436450958e+08 9.99884628637904171455e-01 -3.63448450545324403850e-04 -1.15371362095871465478e-04 -3.63448450545324403850e-04 -1.15371362095871465478e-04 -3.63448450545324403850e-04 9.99884628637904171455e-01 -3.63448450545324403850e-04
9.99843552825829863548e+08 9.99882947306946712196e-01 -3.65818283648589818308e-04 -1.17052693053341566923e-04 -3.65818283648589818308e-04 -1.17052693053341566923e-04 -3.65818283648589818308e-04 9.99882947306946712196e-01 -3.65818283648589818308e-04
9.99844804403223156929e+08 9.99881230245415086877e-01 -3.68214814089733405260e-04 -1.18769754584960394311e-04 -3.68214814089733405260e-04 -1.18769754584960394311e-04 -3.68214814089733405260e-04 9.99881230245415086877e-01 -3.68214814089733405260e-04
9.99846055980616569519e+08 9.99879476473669037695e-01 -3.70638374444370866101e-04 -1.20523526330957764957e-04 -3.70638374444370866101e-04 -1.20523526330957764957e-04 -3.70638374444370866101e-04 9.99879476473669037695e-01 -3.70638374444370866101e-04
9.99847307558009862900e+08 9.99877684979838865509e-01 -3.73089297624247518120e-04 -1.22315020161084861807e-04 -3.73089297624247518120e-04 -1.22315020161084861807e-04 -3.73089297624247518120e-04 9.99877684979838865509e-01 -3.73089297624247518120e-04
