!Keysight Technologies N9918A: A.08.19
!Date: Sunday, 27 October 2019 13:12:36
!Timezone: (GMT+01:00) Brussels, Copenhagen, Madrid, Paris
!Model: N9918A
!Serial: MY53103324
!GPS Latitude: 
!GPS Longitude: 
!GPS TimeStamp: 0001-01-01 00:00:00Z
!GPS Seconds Since Last Read: 0
!CHECKSUM:0327846087
!Correction: S11(Rdy)S21(ON U*)S12(OFF)S22(Rdy)
!S2P File: Measurements:S11,S21,S12,S22:
# Hz S DB R 50
1217375000	-1.64902783426473	-68.4487941899823	-53.6042174816818	52.3998009929843	0	0	-1.81738269953295	-78.466519448951	
1217437500	-1.64910470822599	-68.8242331957701	-53.3877312918594	49.0300280778098	0	0	-1.81756082597809	-78.8475157042265	
1217500000	-1.64947105438988	-69.2017706712842	-53.2530893131824	50.3046354387651	0	0	-1.81805354923393	-79.2339352967851	
1217562500	-1.64873695973957	-69.5892677433973	-53.3786589822148	52.2184332378829	0	0	-1.81838772957509	-79.6212679999754	
1217625000	-1.64778221909472	-69.9670935534367	-53.3477424003237	49.569520147476	0	0	-1.81810561393926	-80.0057217487382	
1217687500	-1.64783181518411	-70.3397264965502	-52.9901674501911	51.0079667483716	0	0	-1.81910934974248	-80.3968777294945	
1217750000	-1.64873066633134	-70.7260109916416	-53.1186013046942	49.3236035590079	0	0	-1.82019939790878	-80.7818767874558	
1217812500	-1.64820869372059	-71.1031642540631	-53.3441582969269	50.265861352846	0	0	-1.820129026591	-81.169531665402	
1217875000	-1.64868399441255	-71.484393530539	-53.2902054611508	50.2093471155996	0	0	-1.82026302687362	-81.5583823296832	
1217937500	-1.64837989748094	-71.8640071261038	-53.2398529708889	50.1197515978993	0	0	-1.82032537477998	-81.9473516526303	
1218000000	-1.64817644254775	-72.2451844731547	-52.8858640235553	49.557716711949	0	0	-1.8211039150407	-82.3335717732566	
1218062500	-1.64953406375995	-72.6258689459524	-53.1334649626089	47.29411992696	0	0	-1.82060847425381	-82.7224117361342	
1218125000	-1.64939627838743	-73.0065493932542	-52.9671914987224	49.5110227528614	0	0	-1.82153413102209	-83.1083957828227	
1218187500	-1.64913360658964	-73.3870042186005	-53.1075056051333	49.9074426119409	0	0	-1.82176308054117	-83.4927812602047	
1218250000	-1.64858829141956	-73.7648459283015	-52.7633929866852	49.9557668559541	0	0	-1.82187531631781	-83.8830993109926	
1218312500	-1.64899598289895	-74.1462121171105	-52.6144562945617	49.2448625905469	0	0	-1.82257636534258	-84.2650981091309	
1218375000	-1.64977123430782	-74.5326177925617	-52.8968158484344	47.9674044383396	0	0	-1.82391176377552	-84.6535716316642	
1218437500	-1.64964857944484	-74.9044745703661	-52.7366030617621	48.2007982809151	0	0	-1.82427233372678	-85.0445104174755	
1218500000	-1.64904284912982	-75.2906149142001	-52.5870874019542	49.8488624883183	0	0	-1.8239683824964	-85.4287913282578	
1218562500	-1.64897784576907	-75.674065819317	-52.8678732690204	48.2169207170964	0	0	-1.82504428992517	-85.8228175716818	
1218625000	-1.64956247832805	-76.0546526545661	-52.4104596182413	50.7633786414054	0	0	-1.82450767711108	-86.2098393120404	
1218687500	-1.6501454832222	-76.4308376770378	-52.3528743750153	47.4508222425325	0	0	-1.82588668783792	-86.5932457515198	
1218750000	-1.64936121215659	-76.8182904478093	-52.5733891086733	47.980610580778	0	0	-1.82615300626532	-86.9844440399822	
1218812500	-1.64974985412527	-77.1981710838168	-52.4634615800076	49.5109577517518	0	0	-1.82627797794253	-87.3748141139035	
1218875000	-1.64914761104465	-77.5813702358944	-52.0159220356654	47.1185001651927	0	0	-1.82727394871333	-87.7642426376918	
1218937500	-1.65077931143031	-77.9594771536004	-51.8589693640281	45.2967386111582	0	0	-1.82707503020622	-88.1490886250458	
1219000000	-1.65013536317985	-78.3396551267569	-52.0727763485592	45.3615038493135	0	0	-1.82796071637025	-88.5396883785145	
1219062500	-1.65095870539173	-78.7235566796115	-51.965361406636	48.122213645423	0	0	-1.8279285899495	-88.9235489152718	
1219125000	-1.65079127096376	-79.1006295242779	-52.048332983321	47.379263596647	0	0	-1.82804616621947	-89.3181963507984	
1219187500	-1.65095884083922	-79.4767296512138	-52.0546843256277	45.6474749581014	0	0	-1.83003737137863	-89.703107006559	
1219250000	-1.65024347632285	-79.8660852091442	-52.017070690036	47.7800737068213	0	0	-1.82999403790475	-90.0966044404277	
1219312500	-1.65151834203472	-80.2492517185793	-51.74115563117	46.9210058343208	0	0	-1.83071746087695	-90.4886850014437	
1219375000	-1.65134879247605	-80.629719892303	-51.7333896759293	45.7642125594965	0	0	-1.83020540152727	-90.8710081991696	
1219437500	-1.65129197540577	-81.0080532939291	-51.6667083956151	46.5221512909773	0	0	-1.83139514393078	-91.2589767492438	
1219500000	-1.65197281458084	-81.3987841164882	-51.5290997814235	46.5618014575589	0	0	-1.83140002447031	-91.6492421940057	
1219562500	-1.65224370351295	-81.7766821848347	-51.7198767655712	45.2977657690369	0	0	-1.83200452322014	-92.0417906141481	
1219625000	-1.65193833704848	-82.159452031983	-51.4959268232267	47.0147543878316	0	0	-1.83328761556282	-92.4307174904349	
1219687500	-1.65215973174251	-82.5402892931821	-51.6128991886209	48.0023385459236	0	0	-1.83383615823912	-92.8192957227578	
1219750000	-1.65264701541159	-82.9200894477156	-51.7377596299752	45.6996671540712	0	0	-1.83357787517435	-93.2056051599281	
1219812500	-1.65223492805922	-83.3046709188531	-51.637098059114	45.7183367241163	0	0	-1.8341839930161	-93.5967403771734	
1219875000	-1.65359064699978	-83.6880896252376	-51.5414875082466	45.193934368281	0	0	-1.83516809256654	-93.98690344239	
1219937500	-1.65385228602082	-84.0636429535178	-51.4410265836477	46.2507573346637	0	0	-1.83516838339282	-94.3759348439753	
1220000000	-1.65358049172355	-84.4499387736831	-51.5234744012571	45.3990853194607	0	0	-1.8358796031699	-94.7674208155345	
1220062500	-1.65444308205174	-84.8330198629161	-51.4027128385612	45.584355024752	0	0	-1.83582197691338	-95.1565970393216	
1220125000	-1.65440433928011	-85.2148069059731	-51.1858531140847	44.7061683069602	0	0	-1.83685968711768	-95.546292135633	
1220187500	-1.6544419828625	-85.5998062519473	-50.9358705480229	45.3524276469017	0	0	-1.83735317065206	-95.935876875886	
1220250000	-1.65496238781791	-85.9817988459991	-51.1134416912719	44.6852450607677	0	0	-1.83837332381841	-96.3241914224698	
1220312500	-1.65535798350677	-86.3659772402588	-51.0332657669242	44.542506398937	0	0	-1.8386347492299	-96.7159479149569	
1220375000	-1.65544337377067	-86.7459132284263	-50.798016621322	45.5048364774202	0	0	-1.8395771845451	-97.1046340743337	
1220437500	-1.65566036452915	-87.132383928298	-50.8366273861876	44.8310947625521	0	0	-1.8399835670711	-97.5003064102135	
1220500000	-1.65603374658129	-87.5150651147463	-50.7340812802038	44.5499758488515	0	0	-1.84081224400281	-97.8876141214836	
1220562500	-1.65621898557331	-87.8989028497971	-50.5142238898479	44.6900171666236	0	0	-1.8409460585132	-98.2763711617709	
1220625000	-1.65718403888795	-88.2825277336343	-50.5203001310275	43.7823841725076	0	0	-1.84236793802156	-98.6711335447206	
1220687500	-1.65706842340475	-88.6612634510562	-50.4996982780332	43.94472554693	0	0	-1.84240291660693	-99.0621238136233	
1220750000	-1.65709981589309	-89.0442714117541	-50.6263573956728	43.4718960711083	0	0	-1.84281652586059	-99.4483583632864	
1220812500	-1.65755735246095	-89.42671394088	-50.4668427757814	43.2810647883536	0	0	-1.84322180223366	-99.8378208001502	
1220875000	-1.65799340726127	-89.8122245278567	-50.5941294147778	42.8314438170169	0	0	-1.84496111463911	-100.231589742278	
1220937500	-1.65922653156495	-90.1959310583784	-50.5765776426929	43.7051457302018	0	0	-1.8447556638155	-100.625544097967	
1221000000	-1.65900708124845	-90.5792323314581	-50.3983283710895	42.2628385576139	0	0	-1.8455941377127	-101.018192960318	
1221062500	-1.65931612455244	-90.9633432214643	-50.2260043745526	41.770272575864	0	0	-1.8463896099995	-101.406192182489	
1221125000	-1.65938303013892	-91.3456655519503	-50.1596001016899	42.2926386385686	0	0	-1.84669862297821	-101.799204573665	
1221187500	-1.65997852349031	-91.7338744745723	-49.826716021291	41.5154358813815	0	0	-1.84777172573574	-102.18711820128	
1221250000	-1.66022004771887	-92.1138615706293	-49.9619993248226	41.9369221249391	0	0	-1.8481696888595	-102.579689411455	
1221312500	-1.66105304006764	-92.4994739900027	-49.9082459777166	41.4121453422606	0	0	-1.84921544455297	-102.972307561798	
1221375000	-1.66081005897416	-92.8823846081376	-49.7545309673125	41.5070613338331	0	0	-1.84960080562815	-103.364400995339	
1221437500	-1.66158768033172	-93.2667210412354	-49.850879895141	40.4533727059818	0	0	-1.85093859581128	-103.760040036769	
1221500000	-1.66272362220183	-93.6490002194139	-49.74086843535	41.890346227867	0	0	-1.85095442772927	-104.150655655167	
1221562500	-1.66208334685592	-94.0323177350141	-49.8958415411078	42.0146668125097	0	0	-1.85207031773479	-104.538603966004	
1221625000	-1.66257439220144	-94.4191998667273	-49.7949088276029	40.6369902468896	0	0	-1.85244397244618	-104.938971390887	
1221687500	-1.66342885721903	-94.8080469418047	-49.7837540608664	41.0205535699596	0	0	-1.8529160109236	-105.331928899398	
1221750000	-1.66394077855584	-95.1873319188697	-49.6797136419139	41.4775729217556	0	0	-1.85366557517752	-105.718468341392	
1221812500	-1.66378299682995	-95.5704773288063	-49.5725680055927	40.2055290348176	0	0	-1.85419138647846	-106.113275354583	
1221875000	-1.6645717217738	-95.9590257434732	-49.1738800489307	39.3535577037053	0	0	-1.85532293895451	-106.506375701896	
1221937500	-1.66520027760707	-96.3424700881541	-49.3016245297767	40.1440087865401	0	0	-1.85658071661721	-106.900159807976	
1222000000	-1.6658480523034	-96.7328064282594	-49.3608597611895	39.5931209271398	0	0	-1.85708898432332	-107.295924943105	
1222062500	-1.66657765139158	-97.114342147415	-49.23281442483	40.8451358849231	0	0	-1.85751694529664	-107.686940258038	
1222125000	-1.66753029158727	-97.5035426284432	-49.0998730710868	39.7348143800977	0	0	-1.85875678938913	-108.077170538333	
1222187500	-1.66807587250448	-97.8858379163301	-49.0402076908532	39.7575903689929	0	0	-1.85860190116519	-108.470225151516	
1222250000	-1.66802771194719	-98.2729102129611	-49.2359144775095	39.3740794330143	0	0	-1.86018044302466	-108.865367844874	
1222312500	-1.66860941160774	-98.6535584395324	-49.1031490931429	39.2072815682346	0	0	-1.86051974547962	-109.259091812386	
1222375000	-1.66924040681355	-99.0390823568641	-49.0770046511847	39.2051513880035	0	0	-1.86042395347283	-109.657352091507	
1222437500	-1.66947224010049	-99.4328666303771	-48.8394069717289	38.2978136201454	0	0	-1.86204058728516	-110.04558782158	
1222500000	-1.67070219008169	-99.8132238698678	-48.5403211037289	38.7224582821475	0	0	-1.86328649579638	-110.440987176896	
1222562500	-1.6713147808233	-100.200768007659	-48.6255107792676	37.9629112271492	0	0	-1.86421389344774	-110.836838705875	
1222625000	-1.67101845633598	-100.584550290521	-48.8212356800735	39.1817280384088	0	0	-1.86412026161964	-111.233561061797	
1222687500	-1.6715645862689	-100.970792017011	-48.7052302615271	36.4502820417767	0	0	-1.86484389371745	-111.634105037394	
1222750000	-1.67192307665926	-101.353759859295	-48.7816742168449	38.7367495436212	0	0	-1.86670044371203	-112.02300979119	
1222812500	-1.67320368964181	-101.736701020699	-48.7863542278989	37.8438023082794	0	0	-1.86627430334764	-112.414805823116	
1222875000	-1.67302505783946	-102.129259759637	-48.7315042499096	38.3808703877678	0	0	-1.86702756047425	-112.809233910652	
1222937500	-1.67398611801976	-102.510110932881	-48.4724849738056	38.0724597272068	0	0	-1.86858041050415	-113.204211789033	
1223000000	-1.67455597745276	-102.898329781773	-48.4125541733843	37.0778418205558	0	0	-1.86956304737372	-113.602828244168	
1223062500	-1.67640853108894	-103.287938114168	-47.9106477357529	37.4564001980216	0	0	-1.87009269746299	-113.997607967147	
1223125000	-1.67622256067375	-103.680869929311	-48.1658962365067	36.242641335485	0	0	-1.87058134300743	-114.38922294254	
1223187500	-1.67724915209611	-104.063618761254	-48.0806382949351	36.5124163688555	0	0	-1.87236899055254	-114.786359267232	
1223250000	-1.67759863964893	-104.442693994577	-48.1521505159786	35.8984269496223	0	0	-1.872962910833	-115.183167345761	
1223312500	-1.67835079483499	-104.843981471086	-47.817311332664	35.4500115799606	0	0	-1.87334134423597	-115.579689408175	
1223375000	-1.67871508197728	-105.226745155764	-47.8102397016307	36.000869013135	0	0	-1.87405554175295	-115.977220020482	
1223437500	-1.67968395121487	-105.61446410063	-47.5728941753763	35.5648789155523	0	0	-1.87539083590771	-116.372729793709	
1223500000	-1.68040972515703	-106.001705130284	-47.7587599631841	35.7024451937586	0	0	-1.87686343778604	-116.768590509214	
1223562500	-1.68101417934688	-106.39067633137	-47.5666100463471	35.0811866241694	0	0	-1.877497770312	-117.163174191443	
1223625000	-1.68159651075011	-106.778721427249	-47.2917313962476	34.3828811248466	0	0	-1.87865380370778	-117.565664650708	
1223687500	-1.68266851489583	-107.166725581158	-47.4173076307109	34.9259075519218	0	0	-1.87786833400968	-117.950377414209	
1223750000	-1.68368964915884	-107.554494592646	-47.3223936247967	34.5184467801619	0	0	-1.88021292786757	-118.348856951138	
1223812500	-1.68480316365616	-107.941762020137	-47.268127079896	34.8370802641003	0	0	-1.88162686141267	-118.746600257827	
1223875000	-1.68524743762105	-108.328247265781	-47.2149072672385	34.7447847159063	0	0	-1.88202900291158	-119.143264451976	
1223937500	-1.68519978614696	-108.718696629055	-47.166655169229	34.259582839598	0	0	-1.88365957184469	-119.537648904487	
1224000000	-1.68660910902246	-109.107444407029	-47.1238093102688	34.6643547201809	0	0	-1.88317145826595	-119.934719887904	
1224062500	-1.68737670943818	-109.495690394836	-46.9670929074985	34.5808628149184	0	0	-1.88440509510255	-120.343545495908	
1224125000	-1.6878962485689	-109.885542030741	-46.8457070568339	34.1459390344107	0	0	-1.88604262319744	-120.736329687799	
1224187500	-1.68870306805447	-110.279080618365	-46.9446941156488	33.9430990869797	0	0	-1.88616512947894	-121.124270505998	
1224250000	-1.68954423546719	-110.665107629841	-46.9810676774902	33.1758865558686	0	0	-1.88669818701712	-121.525319036664	
1224312500	-1.69066489565552	-111.051467466505	-46.8206874229624	33.0506952786364	0	0	-1.88842836549951	-121.921791125469	
1224375000	-1.69116194328125	-111.443342673989	-46.6587856914838	33.1362270411181	0	0	-1.88926146196649	-122.322773092461	
1224437500	-1.69218083993242	-111.8342069867	-46.4359789322272	32.8023257587733	0	0	-1.89098106083925	-122.722651369795	
1224500000	-1.69240143201679	-112.223093840324	-46.4558170978488	32.4216787455772	0	0	-1.89155134373116	-123.12459798336	
1224562500	-1.69365425744948	-112.608548982835	-46.3356845841786	32.6086260235245	0	0	-1.89240960277451	-123.518191885289	
1224625000	-1.69491771741215	-113.004920349898	-46.2024921708607	31.2480984329509	0	0	-1.89311073982098	-123.915604448766	
1224687500	-1.69524377982482	-113.392618577064	-45.9798818588648	31.1666188348536	0	0	-1.89406320243808	-124.316845662701	
1224750000	-1.69581560396286	-113.775759394775	-46.04338843208	32.0672479749184	0	0	-1.89534476247351	-124.715317071072	
1224812500	-1.69764086435826	-114.168961186717	-46.0731310056246	30.4868444649569	0	0	-1.89739455530862	-125.111761890562	
1224875000	-1.69786262599785	-114.557756883648	-45.9924270662012	31.2691596196239	0	0	-1.89766083489327	-125.521313335604	
1224937500	-1.69915888591142	-114.95338694635	-45.8123696980637	30.5892230005903	0	0	-1.89866363734303	-125.910890710164	
1225000000	-1.70007148819514	-115.342824844126	-45.7663389702101	31.2526487523329	0	0	-1.90013879038095	-126.317242751201	
1225062500	-1.70020361077351	-115.732653742763	-45.6352494376667	30.6656801670616	0	0	-1.90082164743931	-126.711911278808	
1225125000	-1.70106019488406	-116.122823905238	-45.5100921226416	29.7135728016742	0	0	-1.90181471616693	-127.112665237668	
1225187500	-1.70324452285747	-116.523577316291	-45.056338448297	29.5632943247205	0	0	-1.90295374313278	-127.516103419705	
1225250000	-1.70503154873403	-116.916049535103	-44.891330609154	29.6428132083552	0	0	-1.90454431564784	-127.920302834506	
1225312500	-1.70539140604765	-117.305559043122	-44.8797130665592	29.597310801573	0	0	-1.90491854972818	-128.320907588846	
1225375000	-1.706224192464	-117.69615368124	-44.8539079489188	29.2742972652478	0	0	-1.90640252159056	-128.718925643566	
1225437500	-1.70735044935024	-118.090818186794	-44.7471155080912	28.1268299648883	0	0	-1.90835028417991	-129.121557117366	
1225500000	-1.70699933990108	-118.476752630656	-44.6874863106133	28.6470564290683	0	0	-1.90933075314988	-129.5202399226	
1225562500	-1.70852718174425	-118.860604571163	-44.8861051066949	28.0502841545258	0	0	-1.91017409586667	-129.924322914641	
1225625000	-1.70939204927062	-119.252397277468	-45.0976520087168	28.6555924261657	0	0	-1.90976378018444	-130.31206546515	
1225687500	-1.71046449909934	-119.644833922327	-44.8305310164236	28.5110338647032	0	0	-1.91143284123115	-130.708279473829	
1225750000	-1.71244300202813	-120.045831270243	-44.4013098794943	26.9603172295776	0	0	-1.91358009436958	-131.112904703161	
1225812500	-1.71337847362225	-120.435797018892	-44.2584498571487	27.4935964186673	0	0	-1.91389482208699	-131.510464984935	
1225875000	-1.71301492268812	-120.831246555785	-44.3367283604841	27.6836329979573	0	0	-1.91624646083671	-131.912689452921	
1225937500	-1.71582010411893	-121.222737489725	-44.1673859160621	26.5573281495712	0	0	-1.91719561286178	-132.324581371241	
1226000000	-1.71697695752354	-121.6193835279	-43.7805147523521	26.1259324721163	0	0	-1.91868897240213	-132.730311280245	
1226062500	-1.71859370432667	-122.020597434855	-43.4249712268915	25.41085887476	0	0	-1.92118236955135	-133.136033437281	
1226125000	-1.71904523319385	-122.409015866245	-43.5659191475749	25.3152813993977	0	0	-1.92254018401078	-133.542023110851	
1226187500	-1.72000352243226	-122.799689672018	-43.5810601876343	25.4175267020821	0	0	-1.92437212355852	-133.944471436255	
1226250000	-1.72281721954766	-123.199043473624	-43.3136967786575	24.876207426082	0	0	-1.92451592381808	-134.341702247005	
1226312500	-1.72379769576734	-123.601004668134	-43.0073486811354	23.6279318043103	0	0	-1.92559024294395	-134.73972409677	
1226375000	-1.72600498660091	-123.995688144579	-42.7884630412484	24.5692872926946	0	0	-1.92658407148496	-135.149799468574	
1226437500	-1.72759715607949	-124.394392046151	-42.6693766553592	23.5222642737795	0	0	-1.92839981473706	-135.547828738801	
1226500000	-1.72672191687999	-124.77285967144	-42.8891546441338	23.7646050234758	0	0	-1.92987970433825	-135.950129533692	
1226562500	-1.7282685620727	-125.164804696258	-42.7965101762815	23.4644444109624	0	0	-1.93215057066318	-136.366080464959	
1226625000	-1.72985317554759	-125.570110994694	-42.5511701602748	22.6684192184441	0	0	-1.93436887744242	-136.774432919526	
1226687500	-1.73189790207011	-125.964133984531	-42.3268585765183	20.8953754715405	0	0	-1.93633732771824	-137.174118524866	
1226750000	-1.73279687456335	-126.352521954941	-42.4449662446354	21.5322086379943	0	0	-1.93657786379714	-137.568841095243	
1226812500	-1.7335683002933	-126.745166701872	-42.4386431202827	21.4316074377057	0	0	-1.93880838053602	-137.97317844214	
1226875000	-1.73512425273332	-127.142130550741	-42.2892467284304	20.8231224059455	0	0	-1.93884188522208	-138.366058955366	
1226937500	-1.73702536760363	-127.544439440589	-42.0183935037997	20.5826312899252	0	0	-1.94040021249794	-138.773188862773	
1227000000	-1.73929571964691	-127.949119121761	-41.6052447695077	19.6765572255115	0	0	-1.94187392849751	-139.174546150355	
1227062500	-1.74187384801327	-128.345882727736	-41.4335936430048	18.8125304200462	0	0	-1.94389686109054	-139.589794338082	
1227125000	-1.74358852075891	-128.747157172756	-41.1728081177417	17.9281416068155	0	0	-1.94821212052431	-140.009299411886	
1227187500	-1.74734679363301	-129.148705052868	-40.9535605844637	17.4617740491305	0	0	-1.95074390716764	-140.423987787717	
1227250000	-1.74893919404788	-129.547185240332	-40.6569220561779	16.9627284090721	0	0	-1.95429262369138	-140.83557443667	
1227312500	-1.74877345286334	-129.933277790641	-40.9406656531445	17.3265247317807	0	0	-1.95522682537775	-141.238374937562	
