!Keysight Technologies,N5245B,MY49151052,A.14.00.23
!Date: Friday, February 19, 2021 17:57:19
!Correction: S11(C* 2-Port  ) 
!S21(C* 2-Port  ) 
!S12(C* 2-Port  ) 
!S22(C* 2-Port  ) 
!S2P File: Measurement: :
# Hz S  dB   R 50
11751000000 -0.00010846356 137.04118 -49.996521 35.890247 -49.945522 35.8381 -0.17362726 121.5937
11751006250 -0.00016619109 137.04102 -50.0187 35.722092 -49.941017 35.581985 -0.17357768 121.59464
11751012500 -0.00041057085 137.04091 -50.010479 35.882111 -49.961319 35.862686 -0.17371131 121.59453
11751018750 -0.00044293152 137.0397 -49.947266 36.018452 -49.957958 35.718948 -0.17375953 121.59248
11751025000 -0.00010432171 137.03966 -49.950249 35.889896 -49.952038 35.902279 -0.17414942 121.5932
11751031250 -0.00056719861 137.03917 -49.940231 35.956184 -49.951363 35.706387 -0.17395273 121.59249
11751037500 -0.00059852481 137.03938 -49.964916 35.829021 -49.935501 35.416893 -0.17395246 121.59313
11751043750 -0.00041833738 137.03899 -49.984257 36.027855 -49.967541 35.553158 -0.17380588 121.59225
11751050000 -0.00048202349 137.03905 -49.980408 35.983562 -50.014286 35.45739 -0.17439598 121.5913
11751056250 -0.00034766248 137.0374 -49.996807 35.522114 -49.946419 35.498356 -0.17454903 121.59039
11751062500 -0.00042765724 137.03722 -49.970867 35.595814 -49.945953 35.66642 -0.17398991 121.59032
11751068750 -0.00081237766 137.03491 -49.970669 35.673065 -49.995983 35.400101 -0.17387216 121.59073
11751075000 -0.0004602769 137.03784 -50.013214 35.503254 -49.961941 35.456478 -0.17379268 121.58968
11751081250 -0.00067049835 137.03601 -49.95829 35.58387 -49.970051 35.64484 -0.17411546 121.58909
11751087500 -0.00092629873 137.03418 -49.91103 35.853622 -49.975719 35.406395 -0.17393009 121.58999
11751093750 -0.00056901085 137.03421 -49.974533 35.939571 -49.953529 35.504494 -0.17403732 121.58569
11751100000 -0.00055477174 137.03384 -49.972599 35.574604 -49.945049 35.474865 -0.17360516 121.58929
11751106250 -0.0003005465 137.03427 -49.934193 35.666946 -49.934265 35.3069 -0.17389669 121.58685
11751112500 -0.00053897931 137.03317 -49.948341 35.672981 -49.94371 35.329811 -0.1738859 121.58772
11751118750 -0.00018249991 137.03203 -49.944016 35.671806 -49.943935 35.359287 -0.17406131 121.5872
11751125000 -0.00021900081 137.03221 -49.99543 35.52634 -49.96051 35.597416 -0.17386273 121.58573
11751131250 -0.00082765328 137.0312 -49.920696 35.417534 -49.964737 35.773026 -0.17415723 121.58648
11751137500 -0.0011412035 137.03116 -49.93486 35.46656 -49.988777 35.25948 -0.17362726 121.58573
11751143750 -0.00057651877 137.0296 -49.970669 35.561802 -49.957382 35.147888 -0.17371725 121.58365
11751150000 -0.00096228806 137.02846 -49.928993 35.741703 -49.932671 35.069859 -0.17333144 121.58261
11751156250 -0.00098895654 137.02849 -49.956032 35.625736 -49.905762 35.309406 -0.17339098 121.58551
11751162500 -0.00068473787 137.02905 -49.969501 35.637074 -49.958229 35.450302 -0.17315957 121.58279
11751168750 -0.0007512758 137.02797 -49.970631 35.685127 -49.951595 35.148037 -0.17328322 121.58344
11751175000 -0.0012098198 137.0267 -49.969231 35.462574 -49.949856 35.162788 -0.17371616 121.58231
11751181250 -0.0007331525 137.02689 -49.969723 35.759666 -49.942562 35.238953 -0.17376573 121.58209
11751187500 -0.00095995778 137.02609 -49.928051 35.746525 -49.954773 35.424267 -0.17354751 121.58136
11751193750 -0.00081548456 137.0267 -49.920738 35.499905 -49.948269 35.225674 -0.17427848 121.58055
11751200000 -0.0011458641 137.02509 -49.968147 35.38155 -49.922714 35.43119 -0.17404138 121.58103
11751206250 -0.00099517067 137.02457 -49.966736 35.4627 -49.941498 35.250206 -0.1738067 121.5795
11751212500 -0.00088979187 137.02573 -49.940098 35.68716 -49.939957 35.089321 -0.17351033 121.57891
11751218750 -0.00093820883 137.0248 -49.945374 35.260765 -49.926987 35.160179 -0.17364773 121.5799
11751225000 -0.0015524001 137.02274 -49.952038 35.22982 -49.949833 35.112579 -0.17388968 121.57893
11751231250 -0.001239856 137.02197 -49.924744 35.490742 -49.948719 35.458141 -0.17349093 121.57673
11751237500 -0.0010868289 137.02136 -49.915981 35.686699 -49.94548 35.448219 -0.17367198 121.57774
11751243750 -0.0010329729 137.02319 -49.954517 35.321877 -49.930222 34.994965 -0.17419064 121.57694
11751250000 -0.0011437926 137.021 -49.951988 35.24395 -49.909824 35.17778 -0.17412247 121.57381
11751256250 -0.001312099 137.02118 -49.945839 35.537254 -49.922127 35.184998 -0.17343274 121.57642
11751262500 -0.0015505874 137.02074 -49.899162 35.460873 -49.951832 35.393711 -0.17372695 121.57722
11751268750 -0.0014503741 137.01808 -49.948524 35.415092 -49.946606 35.444847 -0.17397213 121.57599
11751275000 -0.0015078605 137.01906 -49.935955 35.323849 -49.938931 34.86124 -0.17401281 121.57689
11751281250 -0.0014462309 137.01779 -49.911995 35.436897 -49.948608 35.135632 -0.17390665 121.57661
11751287500 -0.0013874506 137.01718 -49.95636 35.285305 -49.942665 35.407501 -0.1737555 121.57619
11751293750 -0.0013322963 137.01732 -49.930103 35.201145 -49.960117 35.131142 -0.1736092 121.57395
11751300000 -0.0013048488 137.01758 -49.932587 35.081539 -49.921947 35.076939 -0.17393737 121.5749
11751306250 -0.0014514099 137.01471 -49.938969 35.282345 -49.92868 34.955296 -0.17382582 121.57364
11751312500 -0.0013064024 137.01552 -49.944241 35.325016 -49.909599 35.173859 -0.17449136 121.57478
11751318750 -0.001139132 137.01523 -49.93996 35.376316 -49.934856 34.800919 -0.17397454 121.57316
11751325000 -0.0013980673 137.01491 -49.895866 35.489075 -49.896584 35.054005 -0.17392039 121.57455
11751331250 -0.0019392919 137.01483 -49.883266 35.279896 -49.914307 35.240002 -0.17431378 121.57118
11751337500 -0.0016419985 137.01346 -49.923016 35.328308 -49.94405 34.938965 -0.17397428 121.5713
11751343750 -0.0014011746 137.01329 -49.938656 35.264629 -49.916542 35.218143 -0.17424804 121.56999
11751350000 -0.0016601256 137.0135 -49.921772 35.427319 -49.884377 34.889839 -0.17398128 121.56953
11751356250 -0.0014933593 137.01288 -49.943886 35.04755 -49.95525 34.667011 -0.17383794 121.57011
11751362500 -0.0012670441 137.01184 -49.961777 35.02755 -49.936073 34.975121 -0.17330289 121.5714
11751368750 -0.0018750665 137.01057 -49.905434 35.318436 -49.890766 35.134148 -0.1739926 121.56766
11751375000 -0.0015000921 137.01007 -49.880474 35.2714 -49.923283 34.843369 -0.17382528 121.56726
11751381250 -0.0017828736 137.01122 -49.917408 35.20784 -49.902954 34.74762 -0.17372909 121.56702
11751387500 -0.0022643181 137.00827 -49.91571 35.276028 -49.905354 34.943298 -0.17414807 121.56857
11751393750 -0.001994713 137.00754 -49.922855 35.209003 -49.880337 34.993557 -0.17416236 121.56657
11751400000 -0.0015088964 137.0089 -49.950611 35.031723 -49.910641 34.929501 -0.17413594 121.56707
11751406250 -0.0016570181 137.00893 -49.920284 34.977669 -49.879494 34.868439 -0.17404892 121.56565
11751412500 -0.0018755845 137.00876 -49.87088 34.970867 -49.921055 34.727409 -0.1739371 121.56638
11751418750 -0.0018408825 137.00676 -49.923759 35.019249 -49.926308 34.712151 -0.17361809 121.56686
11751425000 -0.00226898 137.00745 -49.922234 35.016697 -49.961704 34.838898 -0.17378271 121.56667
11751431250 -0.0020744791 137.00584 -49.918365 34.935974 -49.89687 34.800819 -0.17370458 121.56409
11751437500 -0.0019758076 137.00545 -49.907764 35.323357 -49.905888 34.778179 -0.1736674 121.56567
11751443750 -0.0021355997 137.0061 -49.897224 34.967869 -49.923656 34.680912 -0.17369838 121.56464
11751450000 -0.0020646378 137.00369 -49.922596 34.843899 -49.908543 34.803108 -0.17368868 121.56278
11751456250 -0.002438107 137.00325 -49.886444 34.945946 -49.895535 34.799324 -0.17348689 121.56323
11751462500 -0.0018012603 137.00333 -49.935291 34.774734 -49.902855 34.538403 -0.17374419 121.56387
11751468750 -0.002111255 137.00388 -49.896423 34.933765 -49.925926 35.102398 -0.17390746 121.56282
11751475000 -0.0023166353 137.00278 -49.893227 34.952129 -49.925835 34.567448 -0.17402871 121.56116
11751481250 -0.0023210384 137.00156 -49.927845 34.971626 -49.925617 34.444702 -0.17363749 121.56107
11751487500 -0.0024173867 137.00238 -49.945126 34.865082 -49.8591 34.575951 -0.17344297 121.56083
11751493750 -0.0024930164 137.00191 -49.925674 35.077076 -49.934753 34.615589 -0.17336619 121.56155
11751500000 -0.0023839753 137.00021 -49.88332 34.946793 -49.91959 34.44471 -0.1737873 121.55965
11751506250 -0.0025797852 137.00175 -49.880417 34.767529 -49.920284 34.304871 -0.17419118 121.55969
11751512500 -0.0025318679 137.00006 -49.912132 34.966698 -49.881111 34.76656 -0.17396997 121.55759
11751518750 -0.0025634672 137.00018 -49.858494 34.839405 -49.898586 34.377518 -0.17346507 121.55808
11751525000 -0.0026077586 136.99765 -49.942757 34.908005 -49.872074 34.515297 -0.17341496 121.5577
11751531250 -0.0024924984 136.99754 -49.882912 34.777401 -49.910988 34.608524 -0.17345752 121.55733
11751537500 -0.0028504627 136.9967 -49.863445 34.968624 -49.882652 34.523533 -0.17348905 121.55731
11751543750 -0.0025593231 136.99811 -49.924679 34.798203 -49.867279 34.413872 -0.17389749 121.55627
11751550000 -0.0027737906 136.99765 -49.913738 34.514626 -49.872341 34.446514 -0.17373341 121.5571
11751556250 -0.0026168241 136.99625 -49.910862 34.824821 -49.923172 34.435234 -0.17400795 121.55812
11751562500 -0.0024888723 136.99544 -49.887207 34.792175 -49.902966 34.784878 -0.17351949 121.55643
11751568750 -0.0029856781 136.99527 -49.874161 34.793167 -49.948719 34.381042 -0.17348392 121.55811
11751575000 -0.0027494424 136.99574 -49.862377 34.759537 -49.874504 34.364388 -0.17375819 121.55677
11751581250 -0.0028468361 136.99496 -49.891396 34.847652 -49.910351 34.140697 -0.17350979 121.55477
11751587500 -0.0029229915 136.99306 -49.858612 34.725983 -49.887497 34.349266 -0.17349389 121.55607
11751593750 -0.0027919223 136.99365 -49.92178 34.603401 -49.852558 34.441223 -0.17383955 121.55397
11751600000 -0.0028289633 136.99084 -49.895718 34.395988 -49.899853 34.59782 -0.17406751 121.5535
11751606250 -0.0027559178 136.99223 -49.881615 34.627449 -49.879688 34.155041 -0.1735203 121.5533
11751612500 -0.0026769163 136.99252 -49.87595 34.658264 -49.861946 34.038445 -0.17399907 121.55211
11751618750 -0.0030007025 136.99068 -49.901184 34.594753 -49.858749 34.66209 -0.17369084 121.55064
11751625000 -0.0027968439 136.99036 -49.864689 34.364067 -49.890583 34.385529 -0.17375819 121.55164
11751631250 -0.0027722365 136.99098 -49.893684 34.682201 -49.834282 34.296883 -0.17335568 121.55129
11751637500 -0.0029442324 136.98981 -49.900639 34.625858 -49.895508 34.258511 -0.17340203 121.55088
11751643750 -0.0028297403 136.98845 -49.884647 34.701946 -49.843128 34.203033 -0.17363049 121.5511
11751650000 -0.0028605647 136.9902 -49.855137 34.76989 -49.870071 34.188305 -0.17367305 121.55164
11751656250 -0.0029087446 136.98946 -49.88134 34.562378 -49.884346 34.489525 -0.17388859 121.54935
11751662500 -0.0034796912 136.98799 -49.81881 34.563187 -49.876274 34.469303 -0.17371508 121.54829
11751668750 -0.0030670168 136.98779 -49.850395 34.499699 -49.843258 34.391083 -0.17368948 121.5499
11751675000 -0.0030268654 136.9864 -49.917992 34.461376 -49.876221 34.136574 -0.1736674 121.54884
11751681250 -0.0032442056 136.98686 -49.858967 34.607319 -49.85384 33.869049 -0.1738013 121.5476
11751687500 -0.0031403264 136.98709 -49.856739 34.324196 -49.84795 34.088116 -0.17389399 121.54766
11751693750 -0.0032680384 136.98723 -49.896469 34.42577 -49.867455 33.815529 -0.17346857 121.54661
11751700000 -0.0034537846 136.98563 -49.828724 34.103642 -49.845757 33.891171 -0.17386058 121.54785
11751706250 -0.0033048245 136.98602 -49.837189 34.162022 -49.866169 34.208744 -0.17356367 121.54692
11751712500 -0.003236434 136.98589 -49.874668 34.579216 -49.876026 34.181858 -0.17336324 121.54499
11751718750 -0.0034068939 136.98201 -49.853889 34.153763 -49.876987 34.187267 -0.1739926 121.5444
11751725000 -0.003706899 136.98369 -49.864437 34.301399 -49.857056 34.1049 -0.17356798 121.5458
11751731250 -0.0034690695 136.98338 -49.900414 34.295357 -49.853539 33.946716 -0.17384388 121.54532
11751737500 -0.0035936823 136.98271 -49.848984 34.32476 -49.863262 33.839729 -0.173915 121.54359
11751743750 -0.0036232169 136.9812 -49.860619 34.373749 -49.85434 34.326317 -0.17356637 121.54652
11751750000 -0.003726071 136.98212 -49.85321 33.830673 -49.848888 33.958221 -0.17360975 121.54244
11751756250 -0.0035563759 136.98178 -49.879436 34.129452 -49.898861 34.127598 -0.17388645 121.54454
11751762500 -0.0035296914 136.98053 -49.850372 33.994469 -49.876354 33.992836 -0.17373933 121.54256
11751768750 -0.0039944882 136.98076 -49.879124 34.270588 -49.890266 33.918915 -0.17394976 121.54174
11751775000 -0.0039869742 136.97885 -49.883148 34.208698 -49.848015 33.924297 -0.17362699 121.54331
11751781250 -0.0038949957 136.97963 -49.869049 34.254093 -49.874294 33.738575 -0.17383525 121.54063
11751787500 -0.0040354258 136.97845 -49.847717 34.013435 -49.878792 33.709751 -0.17406535 121.54066
11751793750 -0.0040198797 136.97792 -49.8582 34.226421 -49.858665 33.655327 -0.17400095 121.5408
11751800000 -0.0042110994 136.97789 -49.854321 34.204178 -49.849926 33.830299 -0.17401604 121.54006
11751806250 -0.0045427741 136.97653 -49.871986 34.220131 -49.839882 34.055004 -0.17362995 121.54113
11751812500 -0.0044660717 136.97705 -49.861694 34.084557 -49.849445 33.967632 -0.17348285 121.53904
11751818750 -0.0043961084 136.97667 -49.858402 34.256779 -49.849113 33.836155 -0.17400014 121.538
11751825000 -0.00423131 136.97694 -49.839703 34.121216 -49.816715 33.805573 -0.17380588 121.53809
11751831250 -0.0042968658 136.97601 -49.866611 34.156509 -49.859604 33.704216 -0.17391393 121.53857
11751837500 -0.0043064533 136.97571 -49.865479 34.200363 -49.843803 33.892757 -0.17397967 121.53755
11751843750 -0.0042354558 136.9745 -49.882442 33.812401 -49.838524 33.645237 -0.17344244 121.53756
11751850000 -0.0040587448 136.97594 -49.826626 33.909897 -49.789093 33.894585 -0.17371185 121.53823
11751856250 -0.0040082205 136.976 -49.886791 33.960491 -49.852448 33.817646 -0.17368248 121.53566
11751862500 -0.0044842106 136.97412 -49.841091 34.069122 -49.838287 33.821426 -0.17352757 121.53707
11751868750 -0.0047899918 136.97231 -49.838909 34.05365 -49.894138 33.896568 -0.17362995 121.535
11751875000 -0.0045365547 136.97279 -49.859776 33.811993 -49.912804 33.670727 -0.17365986 121.5354
11751881250 -0.0045541758 136.97076 -49.849541 34.025654 -49.842175 33.512939 -0.17394707 121.5351
11751887500 -0.004347912 136.97165 -49.874538 33.795887 -49.822487 33.674583 -0.1732711 121.53539
11751893750 -0.0042960886 136.97229 -49.831226 33.850334 -49.845024 33.753433 -0.17359923 121.53345
11751900000 -0.0046648262 136.97079 -49.858952 33.840256 -49.818878 33.648479 -0.17395757 121.53319
11751906250 -0.0045666141 136.97102 -49.860748 33.968697 -49.885265 33.878155 -0.17402144 121.53394
11751912500 -0.0048796567 136.97105 -49.822475 33.909046 -49.861397 33.69891 -0.17326087 121.53419
11751918750 -0.004801394 136.96976 -49.850563 33.906361 -49.817146 33.479984 -0.17337455 121.53043
11751925000 -0.0048470041 136.96893 -49.778854 33.61021 -49.839462 33.620998 -0.17332013 121.53197
11751931250 -0.0051756171 136.97081 -49.874619 33.493423 -49.837646 33.610577 -0.17307794 121.53175
11751937500 -0.0049231942 136.96953 -49.849777 33.769562 -49.847706 33.608318 -0.1735308 121.53154
11751943750 -0.0048972792 136.96898 -49.844971 33.894341 -49.872242 33.525097 -0.17359222 121.53056
11751950000 -0.0047277971 136.9687 -49.868603 33.89703 -49.813702 33.609352 -0.1738067 121.52927
11751956250 -0.0050854273 136.96758 -49.862404 33.873756 -49.864105 33.500252 -0.17364611 121.53177
11751962500 -0.0054430868 136.96675 -49.844711 33.772903 -49.827175 33.557816 -0.17365097 121.52976
11751968750 -0.005434793 136.9677 -49.847076 33.464748 -49.856091 33.552029 -0.17384198 121.53001
11751975000 -0.0052865422 136.96719 -49.853626 33.801327 -49.819283 33.516335 -0.17385304 121.52863
11751981250 -0.0056364429 136.96686 -49.815193 33.43095 -49.832363 33.221176 -0.17382528 121.52762
11751987500 -0.005370257 136.96596 -49.874443 33.529118 -49.843342 33.612835 -0.17376304 121.5266
11751993750 -0.0051906486 136.96518 -49.822849 33.703831 -49.841843 33.17918 -0.17342143 121.52788
11752000000 -0.0053839935 136.96527 -49.831585 33.745556 -49.854309 33.285725 -0.1735168 121.52636
11752006250 -0.0054342747 136.96524 -49.840549 33.479465 -49.846676 33.34745 -0.17325117 121.52699
11752012500 -0.0051113437 136.96364 -49.827518 33.49802 -49.846252 33.395596 -0.17392579 121.52557
11752018750 -0.0051885755 136.96407 -49.862106 33.55727 -49.83596 32.966381 -0.17346776 121.52515
11752025000 -0.0057271621 136.96451 -49.818981 33.320351 -49.799221 33.255928 -0.17374122 121.52467
11752031250 -0.005701242 136.96272 -49.847084 33.262848 -49.843212 33.48175 -0.1739786 121.52374
11752037500 -0.0056789513 136.96265 -49.809776 33.367977 -49.816708 33.307529 -0.17393926 121.52557
11752043750 -0.0056011924 136.96013 -49.822746 33.403397 -49.831501 33.223709 -0.17335004 121.52491
11752050000 -0.0054814462 136.96284 -49.824467 33.50465 -49.832218 33.337452 -0.17344405 121.52406
11752056250 -0.0055719037 136.96179 -49.805553 33.586613 -49.820415 33.445435 -0.17305586 121.52188
11752062500 -0.0055962675 136.96146 -49.836781 33.535496 -49.874092 33.206722 -0.17378353 121.52222
11752068750 -0.0056413673 136.96092 -49.788315 32.954605 -49.811005 33.044655 -0.17346938 121.52252
11752075000 -0.0055903061 136.95886 -49.859875 33.209122 -49.852364 32.845791 -0.17396134 121.52197
11752081250 -0.0053731077 136.9604 -49.808472 33.272438 -49.795769 33.203003 -0.17387298 121.522
11752087500 -0.0056613255 136.95932 -49.793251 33.197994 -49.772217 33.236275 -0.17398721 121.52046
11752093750 -0.0057167942 136.95747 -49.805035 33.380013 -49.835403 33.140171 -0.17349039 121.51846
11752100000 -0.0060408069 136.95879 -49.836929 33.385033 -49.839436 33.036396 -0.17316064 121.52007
11752106250 -0.0058334363 136.95773 -49.833717 33.075405 -49.816784 33.277294 -0.17341766 121.51976
11752112500 -0.0057556746 136.95638 -49.830273 33.058613 -49.860886 32.756805 -0.17376143 121.51853
11752118750 -0.0055991188 136.95702 -49.843288 33.115421 -49.790241 32.998444 -0.17337348 121.51927
11752125000 -0.0057162759 136.95656 -49.850582 33.350525 -49.795441 33.079113 -0.17344244 121.52053
11752131250 -0.0058303257 136.95563 -49.858898 33.046581 -49.822086 32.861019 -0.17373368 121.51877
11752137500 -0.0058471742 136.95763 -49.850704 32.973404 -49.822296 33.058502 -0.1736356 121.51814
11752143750 -0.0059866305 136.95627 -49.802521 33.050919 -49.814209 32.883251 -0.17393386 121.51743
11752150000 -0.0059428229 136.95499 -49.788471 32.992737 -49.784683 32.991585 -0.17389938 121.51891
11752156250 -0.0055636093 136.95569 -49.828987 33.195087 -49.827641 32.999958 -0.17401147 121.51765
11752162500 -0.0060739876 136.95535 -49.82584 32.828667 -49.791138 32.88575 -0.17428818 121.51604
11752168750 -0.0061564208 136.95465 -49.828991 33.187363 -49.790257 33.198605 -0.17391393 121.51688
11752175000 -0.0062108589 136.95436 -49.833767 33.223938 -49.769413 32.871071 -0.17430571 121.51579
11752181250 -0.0062818886 136.95436 -49.844292 33.016312 -49.826256 32.699677 -0.17429411 121.51523
11752187500 -0.0060589523 136.9523 -49.815277 32.965103 -49.815426 32.872818 -0.17411223 121.51488
11752193750 -0.0061823437 136.95193 -49.850201 32.710804 -49.790291 32.660015 -0.1740931 121.51307
11752200000 -0.0062170802 136.95238 -49.78056 33.101738 -49.819832 32.885452 -0.17450295 121.51364
11752206250 -0.0063539562 136.95137 -49.819023 32.78009 -49.817162 32.705765 -0.17411546 121.51224
11752212500 -0.0063466975 136.95108 -49.815784 32.887062 -49.795601 32.578339 -0.17381477 121.51273
11752218750 -0.0063373647 136.95087 -49.819065 32.972088 -49.766479 32.465187 -0.17406049 121.51048
11752225000 -0.0065888329 136.95149 -49.839935 32.771412 -49.829361 32.797684 -0.17387889 121.51019
11752231250 -0.0062922579 136.95088 -49.83041 32.458218 -49.804379 32.775589 -0.17385735 121.51054
11752237500 -0.0064690597 136.95134 -49.781364 32.668541 -49.828865 32.364006 -0.17409013 121.51158
