!Keysight Technologies N9918A: A.08.18
!Date: Thursday, 13 June 2019 10:34:14
!Timezone: (GMT+01:00) Brussels, Copenhagen, Madrid, Paris
!Model: N9918A
!Serial: MY53103324
!GPS Latitude: 41 30.10388 N
!GPS Longitude: 2 6.57844 E
!GPS TimeStamp: 2019-06-13 10:34:14Z
!GPS Seconds Since Last Read: 1
!CHECKSUM:1719475316
!Correction: S11(Rdy)S21(ON U*)S12(OFF)S22(Rdy)
!S2P File: Measurements:S11,S21,S12,S22:
# Hz S DB R 50
7894850717	-7.25393369902426	-62.4753164082436	-27.8382513889276	37.8691797007721	0	0	-7.11137673421427	-137.614331993247	
7894855219.79	-7.25318587061712	-62.535787989317	-27.8279707907009	38.6989441558277	0	0	-7.1118607412494	-137.737662206883	
7894859722.58	-7.26604533117843	-62.6157610993296	-27.8018860426129	37.6148682348733	0	0	-7.11265091168986	-137.767851274928	
7894864225.37	-7.24801850019049	-62.7084526794826	-27.728117370181	38.8320350398573	0	0	-7.1215948184229	-137.859691188866	
7894868728.16	-7.26109311554227	-62.8189159227356	-27.6807098399053	37.6420775012334	0	0	-7.11172116860568	-137.91683430129	
7894873230.95	-7.2527837804219	-62.8658462602379	-27.6625897189405	38.800152759925	0	0	-7.12736929590632	-137.98298789418	
7894877733.74	-7.25975345576435	-62.9947604801761	-27.3484784855405	38.4437275752089	0	0	-7.12279121499277	-138.021178178368	
7894882236.53	-7.25968475832495	-63.0846755029099	-27.2976735728913	38.2655578809757	0	0	-7.12280057424786	-138.106606354112	
7894886739.32	-7.26258008710383	-63.1437127190283	-27.2074609745849	37.6187632007288	0	0	-7.11432448092944	-138.161026933482	
7894891242.11	-7.26416956830121	-63.2600060588124	-27.1395714373024	36.9860956017928	0	0	-7.1169787285694	-138.236173748145	
7894895744.9	-7.25620876426751	-63.377395674648	-27.1040920449963	37.7596493082403	0	0	-7.11880640246241	-138.336101060308	
7894900247.69	-7.26556535095714	-63.4405561420368	-26.9808326052239	37.8268071551747	0	0	-7.11745837453819	-138.36269452424	
7894904750.48	-7.26776069100134	-63.5504273097194	-26.9329946124181	37.2129036093197	0	0	-7.11733612847509	-138.469888160776	
7894909253.27	-7.25809673732972	-63.6342141391037	-26.7364908707995	37.0633814033195	0	0	-7.1189280188309	-138.498390842782	
7894913756.06	-7.2776088564229	-63.7493061642294	-26.7526610062182	36.3686577853915	0	0	-7.12470945284953	-138.62621001664	
7894918258.85	-7.27160426385933	-63.843281868914	-26.5124182083008	37.493112369387	0	0	-7.12595406440219	-138.667278044352	
7894922761.64	-7.26358252694187	-63.9518182199035	-26.413739606732	37.2099099944974	0	0	-7.11808726494744	-138.706310140415	
7894927264.43	-7.27173162142808	-64.0384424330385	-26.3795927821648	36.7635879415505	0	0	-7.12706673335394	-138.784438947326	
7894931767.22	-7.28265703436786	-64.1515815956534	-26.242376810977	36.894992427443	0	0	-7.12374219448867	-138.889606943243	
7894936270.01	-7.27669694770864	-64.2269290801857	-26.2086669811076	36.1109128792936	0	0	-7.11628126124795	-138.941329238627	
7894940772.8	-7.28323456483738	-64.3334447819204	-26.0872774108679	36.8507006952127	0	0	-7.12289032526187	-139.056635277496	
7894945275.59	-7.2791815705441	-64.4398618164733	-25.9299811174934	36.6870866077556	0	0	-7.12542905314948	-139.119472912796	
7894949778.38	-7.27953347709382	-64.5484707590895	-25.8588774142257	36.0351045991435	0	0	-7.11726098980429	-139.143695682798	
7894954281.17	-7.28019965077872	-64.6344984179652	-25.7186146228414	36.599084127147	0	0	-7.12716904000188	-139.29855933301	
7894958783.96	-7.28380675081884	-64.8256648768455	-25.6228123641302	36.5229703670504	0	0	-7.12279969441361	-139.310657848126	
7894963286.75	-7.2835407141685	-64.9281506780886	-25.4249267008903	35.5221881551831	0	0	-7.12103180391396	-139.401369063761	
7894967789.54	-7.29326594104978	-65.0229053877193	-25.3751543194595	36.0832886541979	0	0	-7.12346214336689	-139.515885067002	
7894972292.33	-7.29328817035196	-65.1723429123626	-25.3120484039544	35.5664269448718	0	0	-7.12431255523648	-139.609956037969	
7894976795.12	-7.28948235690287	-65.2387583001282	-25.1271905847214	35.1872239814913	0	0	-7.14298557166158	-139.670842336949	
7894981297.91	-7.29682014808965	-65.4520872259858	-25.0347448097999	35.1412316789203	0	0	-7.13347118855959	-139.730290957114	
7894985800.7	-7.29660973246876	-65.5083969139042	-24.9576740618906	34.8603937921053	0	0	-7.1353270081841	-139.858177380489	
7894990303.49	-7.30521140943975	-65.6439195476974	-24.7339874808181	35.0558968343251	0	0	-7.13302651168024	-139.94691747372	
7894994806.28	-7.30866474788272	-65.7640662445852	-24.6932994665647	35.2311610760171	0	0	-7.13957855463715	-140.013197314819	
7894999309.07	-7.30193071471486	-65.8235832762223	-24.5940220463831	34.3415830475083	0	0	-7.14224304238503	-140.099237051623	
7895003811.86	-7.30944531735285	-66.0564254493749	-24.4528989449279	34.7620810490487	0	0	-7.14293999969406	-140.216609890942	
7895008314.65	-7.31640697797699	-66.2029352787066	-24.2539836895329	34.335120661441	0	0	-7.1431882249047	-140.278661912425	
7895012817.44	-7.31346857997307	-66.3409590299589	-24.1342867433315	34.2400616432538	0	0	-7.14477684595538	-140.395302385936	
7895017320.23	-7.32029629983846	-66.4510469639811	-23.9490773136808	34.5562204491215	0	0	-7.14620687486177	-140.495908730644	
7895021823.02	-7.32537575202284	-66.6321844691853	-23.8967674357816	34.303361718077	0	0	-7.15031063282725	-140.577182171777	
7895026325.81	-7.33083524483652	-66.7477553175864	-23.7237530725261	33.8924928867147	0	0	-7.15150941852861	-140.671311820647	
7895030828.6	-7.32608702546121	-66.8770071203282	-23.6314050595503	33.7118005339884	0	0	-7.14568417413643	-140.787619858192	
7895035331.39	-7.32601145027692	-67.0975896186664	-23.543381939102	33.1185847289863	0	0	-7.15952794174276	-140.83269558256	
7895039834.18	-7.33548092894591	-67.2028379413016	-23.3577204764667	33.7440648656102	0	0	-7.15424407653711	-141.021092855425	
7895044336.97	-7.3472940805888	-67.392934710307	-23.1814749501463	33.317061552081	0	0	-7.16030857568567	-141.103233246274	
7895048839.76	-7.34945392601239	-67.5564879860183	-22.9670571300894	33.1365297796093	0	0	-7.16415715598735	-141.199639995073	
7895053342.55	-7.34998596639827	-67.7629730036025	-22.8723511356814	32.7495464481002	0	0	-7.1709846288594	-141.327996317831	
7895057845.34	-7.35494154322462	-67.8981654580135	-22.7886527251731	32.7517548710222	0	0	-7.16763359440751	-141.437078984304	
7895062348.13	-7.36127217667861	-68.0720387824561	-22.5639908109432	32.0540368292079	0	0	-7.17562212238923	-141.533499839356	
7895066850.92	-7.36541530285536	-68.2523936493508	-22.4165597014274	32.5069404537666	0	0	-7.17828209668775	-141.699038142041	
7895071353.71	-7.37062572811151	-68.4498148940673	-22.2804950817255	31.6625880102116	0	0	-7.18445909850777	-141.788523026745	
7895075856.5	-7.37889841278165	-68.6581347328072	-22.0637812548119	31.8382768014694	0	0	-7.18704653494096	-141.94073400452	
7895080359.29	-7.38682381242216	-68.903084991545	-21.8991778371341	31.6746341378186	0	0	-7.18669778490565	-142.063160732271	
7895084862.08	-7.3957279876625	-69.1132990227782	-21.7372224737528	31.0399340675907	0	0	-7.19471467769488	-142.217478876842	
7895089364.87	-7.40271855916582	-69.2942450506568	-21.6225285067589	30.8377031505874	0	0	-7.18577408425979	-142.353295175776	
7895093867.66	-7.41376154896847	-69.5022103800438	-21.3407122571323	30.5608689357629	0	0	-7.20379837266828	-142.455362245862	
7895098370.45	-7.41963175494008	-69.8270784706833	-21.1945257226959	30.7259880445736	0	0	-7.2097925398458	-142.650853485253	
7895102873.24	-7.42956216393076	-70.0367092085903	-21.0297045847127	30.2294480193512	0	0	-7.21266195705805	-142.755329303203	
7895107376.03	-7.42907557181707	-70.269309137634	-20.8341782972274	29.862485220515	0	0	-7.2178749355942	-142.883697754686	
7895111878.82	-7.44856480965866	-70.5485003611665	-20.6519832154949	29.371531621191	0	0	-7.22859365226349	-143.127335529085	
7895116381.61	-7.45604298788125	-70.8427196604271	-20.4134030008031	28.8531630232895	0	0	-7.23403540221923	-143.254856615228	
7895120884.4	-7.47487863497702	-71.0548693384802	-20.2524352279895	28.7112200106363	0	0	-7.23817495792367	-143.42299541319	
7895125387.19	-7.48270954805288	-71.3077584576022	-20.0318707421658	28.5128212691119	0	0	-7.24442931281331	-143.571335915071	
7895129889.98	-7.49912522385768	-71.685197210871	-19.8114946488365	28.1213177811852	0	0	-7.25613099415995	-143.776786659175	
7895134392.77	-7.51456532894772	-71.9850894336753	-19.6218646020025	27.5562742554954	0	0	-7.27111839790068	-143.937751128154	
7895138895.56	-7.53392366048686	-72.2767968967208	-19.3555807257986	27.102693568272	0	0	-7.26975781746221	-144.109351036359	
7895143398.35	-7.55558160519263	-72.6539261825896	-19.1362447208223	26.8859396861414	0	0	-7.29129946696965	-144.334889916891	
7895147901.14	-7.56343940736281	-72.9721386577746	-18.9324609806339	26.6867003653037	0	0	-7.29993442782009	-144.555108632496	
7895152403.93	-7.5985700137762	-73.3512440340503	-18.7046274910299	25.7790859647515	0	0	-7.30883182502428	-144.783343610015	
7895156906.72	-7.61642581713772	-73.7257220371943	-18.4296034739594	25.3752791748034	0	0	-7.32792220130542	-144.980695228197	
7895161409.51	-7.63747352920546	-74.1370650664281	-18.1416039382717	24.7208975417276	0	0	-7.347588179746	-145.238750691559	
7895165912.3	-7.67157383527458	-74.610174787771	-17.9388192934926	24.2487637462932	0	0	-7.36017867831011	-145.539964206525	
7895170415.09	-7.69344284159802	-75.0727684257403	-17.6612284212805	23.3699161081834	0	0	-7.37689470683998	-145.743943743462	
7895174917.88	-7.72432450539706	-75.5868656655644	-17.4131820995963	22.9020435226692	0	0	-7.40002818010892	-146.047266918436	
7895179420.67	-7.76447350867314	-76.0044715825205	-17.0961331481477	22.2480994742489	0	0	-7.42227841289098	-146.314823955039	
7895183923.46	-7.80649473880144	-76.5540228965956	-16.8014667426005	21.4467080165954	0	0	-7.44260369912899	-146.624762508434	
7895188426.25	-7.84704649509564	-77.1778080090348	-16.5177350465598	20.6666649985854	0	0	-7.47919140406214	-146.893910900396	
7895192929.04	-7.8932683114506	-77.7542349230518	-16.1864061839946	19.8273191943257	0	0	-7.50454802294893	-147.24676768292	
7895197431.83	-7.94702826048755	-78.3644754402678	-15.9069090043643	18.6767460527032	0	0	-7.53853081635779	-147.609260762012	
7895201934.62	-8.01668597728225	-79.1051841259016	-15.577909259102	17.8295920240548	0	0	-7.57610647336809	-148.003387040732	
7895206437.41	-8.08113981963236	-79.7722381339133	-15.2436553170175	16.9463809696808	0	0	-7.62959573842984	-148.39391659729	
7895210940.2	-8.15329366331785	-80.6049076652177	-14.8913997082705	15.6974044757378	0	0	-7.67453602016798	-148.752703222922	
7895215442.99	-8.23823434024705	-81.417085648342	-14.5584728709556	14.6951216796739	0	0	-7.72687732629373	-149.177321870382	
7895219945.78	-8.34349724982446	-82.3345280352731	-14.1879933281335	13.4638015673418	0	0	-7.78619606850341	-149.666266417087	
7895224448.57	-8.47188792583795	-83.2920776730431	-13.8063860332068	11.8854952831896	0	0	-7.86699685703319	-150.117892551787	
7895228951.36	-8.59263264744648	-84.2501940653224	-13.4184420473996	10.2830175182916	0	0	-7.94553322650894	-150.62575050759	
7895233454.15	-8.74596051210116	-85.3769136249787	-13.0431441923257	8.50892459350088	0	0	-8.03625795887026	-151.127978813447	
7895237956.94	-8.9338901815607	-86.5827401469252	-12.6453453141708	6.77452732013136	0	0	-8.14015958807679	-151.653026164834	
7895242459.73	-9.14943727878285	-87.8480033272719	-12.199405083306	4.55820862503081	0	0	-8.27067536264972	-152.185899161537	
7895246962.52	-9.39899267808491	-89.179931957095	-11.7828807973166	2.45259163028623	0	0	-8.41615394901173	-152.735517490907	
7895251465.31	-9.69653736064551	-90.5098525199453	-11.3613890192868	-0.00699644064490222	0	0	-8.58278380889763	-153.269253579362	
7895255968.1	-10.0601708582102	-91.9363106576199	-10.9209791999027	-2.90970386696779	0	0	-8.78321197818632	-153.733740273471	
7895260470.89	-10.4903878252853	-93.4081278879588	-10.4854850379356	-6.04761898674952	0	0	-9.00356441957031	-154.079518255536	
7895264973.68	-11.0094700702969	-94.7041524296957	-10.0573072957156	-9.33830371121838	0	0	-9.27456097126251	-154.33537950826	
7895269476.47	-11.627172149088	-95.7551522243913	-9.6490341705348	-13.0878406363811	0	0	-9.57607508693377	-154.342481433677	
7895273979.26	-12.4279879160752	-96.5997681977435	-9.23538270891233	-17.1391820918082	0	0	-9.92585779331281	-154.086021255898	
7895278482.05	-13.3745526613758	-96.6898010195283	-8.88185945669113	-21.5201087771942	0	0	-10.3024118567182	-153.381712167176	
7895282984.84	-14.4970407166803	-95.2640410509918	-8.56446639763869	-26.3109391821426	0	0	-10.7021635334492	-152.067238734666	
7895287487.63	-15.7833932712965	-91.9372766388915	-8.29156484058927	-31.5020009692389	0	0	-11.1006631186135	-149.965315639063	
7895291990.42	-17.1622600636258	-84.5459749496742	-8.09098679583978	-36.9785244214205	0	0	-11.4536894898663	-147.200213548934	
7895296493.21	-18.2514318031087	-72.8305844337455	-7.9801068582039	-42.6545936358852	0	0	-11.6903105290053	-143.651333936835	
7895300996	-18.5232454354431	-57.9619713668866	-7.92735714394851	-48.2545269543077	0	0	-11.7682481002737	-139.62831901017	
7895305498.79	-17.806280493154	-44.2115971245099	-7.98564971444193	-53.9719599866906	0	0	-11.7140151889481	-135.445337747655	
7895310001.58	-16.4585197624991	-34.7170750155959	-8.09949025488515	-59.6005098575582	0	0	-11.4846175225331	-131.84632899887	
7895314504.37	-15.0469758986713	-29.6531549318504	-8.31435146299406	-64.9587528262034	0	0	-11.1428405750529	-128.837031993061	
7895319007.16	-13.8298860985035	-27.4961579911663	-8.58990294170943	-69.9758125521322	0	0	-10.75283985346	-126.713404602154	
7895323509.95	-12.7634116766129	-26.9209737088761	-8.94415001479659	-74.866429638421	0	0	-10.3664460991317	-125.292384326513	
7895328012.74	-11.8788704627971	-27.6423615753069	-9.28792989473764	-79.2690335820035	0	0	-9.97944456327149	-124.525816838785	
7895332515.53	-11.1768037049631	-28.6623697288612	-9.68965223026813	-83.2714284843997	0	0	-9.61454214381305	-124.216028261913	
7895337018.32	-10.6016646028835	-30.0600220752269	-10.1022739521316	-86.9367211563511	0	0	-9.30856009605352	-124.156441885577	
7895341521.11	-10.1226888330739	-31.5224525492463	-10.5382935971631	-90.2601961424471	0	0	-9.04590631703052	-124.40855588514	
7895346023.9	-9.71967501194711	-33.149832189733	-10.9765504799434	-93.2642917333745	0	0	-8.80947144823758	-124.80439900062	
7895350526.69	-9.39469601821372	-34.5619525386313	-11.3934306111396	-96.1065988188173	0	0	-8.6019193818979	-125.240776258499	
7895355029.48	-9.12154736581721	-36.0226625274891	-11.8429243469695	-98.6226735065621	0	0	-8.42984348894566	-125.772493446596	
7895359532.27	-8.90203547759927	-37.3548187757016	-12.2670481608908	-100.976157370229	0	0	-8.28026732457774	-126.279299348656	
7895364035.06	-8.70350159436414	-38.6109505502642	-12.6680492959717	-102.85785287345	0	0	-8.15556639760166	-126.840325443966	
7895368537.85	-8.53305082227881	-39.865244112212	-13.0738761992645	-104.624902487135	0	0	-8.03902208872097	-127.368744740365	
7895373040.64	-8.40518759883166	-40.8855190726271	-13.4866845560754	-106.334308472681	0	0	-7.94235893945843	-127.847316623492	
7895377543.43	-8.27481501637291	-41.9514840987507	-13.8765778968219	-107.841228547753	0	0	-7.85867459852129	-128.32613010181	
7895382046.22	-8.17045764978121	-42.8991175526533	-14.2404165272051	-109.39459109855	0	0	-7.79824224541898	-128.822593709549	
7895386549.01	-8.08098083575645	-43.8706009445985	-14.6088363063326	-110.580701714096	0	0	-7.72104494456583	-129.305754117111	
7895391051.8	-8.00590912315165	-44.6125634570727	-14.9364570752765	-111.87768923457	0	0	-7.66618965639916	-129.700115296013	
7895395554.59	-7.92278968606804	-45.4764704498359	-15.3126721700982	-113.072504207001	0	0	-7.6242696396652	-130.108514472796	
7895400057.38	-7.8730986686441	-46.22728299627	-15.6520288818874	-113.995366864556	0	0	-7.57867974742399	-130.486005261339	
7895404560.17	-7.8026673787152	-46.9087054654029	-15.972904197749	-115.049845047009	0	0	-7.53467052284152	-130.855247814587	
7895409062.96	-7.76928663192094	-47.5350449733988	-16.2952540438712	-115.662612955382	0	0	-7.49388474351152	-131.221280527386	
7895413565.75	-7.71567714853558	-48.1781436139763	-16.5827176833049	-116.638917328366	0	0	-7.46757852232144	-131.528489884009	
7895418068.54	-7.68624692700974	-48.7551964905873	-16.8811143841317	-117.512561284042	0	0	-7.43748250946028	-131.862598821265	
7895422571.33	-7.647471972362	-49.2324765780491	-17.1581542658232	-118.094622443498	0	0	-7.4117774804945	-132.155368166341	
7895427074.12	-7.61741306775541	-49.7762708047279	-17.4237649004302	-118.845473057105	0	0	-7.38788706420219	-132.434041261545	
7895431576.91	-7.5805484121981	-50.2425337642449	-17.7057949799362	-119.746611299245	0	0	-7.3629404083085	-132.70513832816	
7895436079.7	-7.55453579138935	-50.7414690549205	-17.9831164694533	-120.213110238051	0	0	-7.34622076968617	-133.046797790346	
7895440582.49	-7.53299499916097	-51.1323595378475	-18.2113941615593	-120.539046494425	0	0	-7.32721884908718	-133.243371602386	
7895445085.27999	-7.51587749597335	-51.5289549421682	-18.4920456002208	-121.155410478136	0	0	-7.30628794028525	-133.515357565769	
7895449588.06999	-7.48844518381538	-51.9488697561678	-18.7077265852325	-121.698362498056	0	0	-7.29076753136107	-133.692297846465	
7895454090.85999	-7.47760391870036	-52.3503807097565	-18.9499015590813	-122.200342023894	0	0	-7.27911636929639	-133.947701885705	
7895458593.64999	-7.45971845547544	-52.6949977224087	-19.1934731855909	-122.613502854082	0	0	-7.27591060516691	-134.158914576708	
7895463096.43999	-7.43607954596212	-53.0138199755164	-19.450863552152	-122.936501300895	0	0	-7.25335156531249	-134.332434542579	
7895467599.22999	-7.43750222561463	-53.3437772516544	-19.6807488388729	-123.447133261496	0	0	-7.2507140344302	-134.56398447361	
7895472102.01999	-7.41580093949717	-53.6070083102997	-19.8649751819651	-124.064533842269	0	0	-7.24015313372247	-134.75080856708	
7895476604.80999	-7.40503750405411	-53.9542607886136	-20.0937653397789	-124.084484264936	0	0	-7.22284673296573	-134.96622978088	
7895481107.59999	-7.39810764743226	-54.3151786215353	-20.244599194338	-124.633720963744	0	0	-7.21860333095173	-135.119583881817	
7895485610.38999	-7.37259390092352	-54.5566288244264	-20.4582057447447	-124.786498462297	0	0	-7.2129747163632	-135.257404935357	
7895490113.17999	-7.37829603383744	-54.79404886981	-20.6562381995436	-125.256453656656	0	0	-7.19498525594617	-135.449552813185	
7895494615.96999	-7.36439996349078	-55.0632981071529	-20.854421998533	-125.71640952321	0	0	-7.19350219550737	-135.593219207458	
7895499118.75999	-7.35421696227253	-55.2781385453146	-21.0732958331466	-126.140800542836	0	0	-7.18828592516517	-135.735761114639	
7895503621.54999	-7.34520226776146	-55.5490309047123	-21.2305021573485	-126.601075466354	0	0	-7.18267343812887	-135.906361838679	
7895508124.33999	-7.34084088129329	-55.790199533409	-21.4235412756935	-126.867022302944	0	0	-7.18182871448511	-136.043905030055	
7895512627.12999	-7.32428043424625	-55.9546909960589	-21.6141788911659	-126.763364749395	0	0	-7.17991008867249	-136.159597526752	
7895517129.91999	-7.32758004685381	-56.2390032037872	-21.7824651667989	-127.407375309857	0	0	-7.16842921096694	-136.312751196676	
7895521632.70999	-7.31200006885064	-56.4496817091287	-21.921495297689	-127.251400395621	0	0	-7.15805258111576	-136.496679696157	
7895526135.49999	-7.30894229357082	-56.6281772691269	-22.1223128260466	-127.793731219981	0	0	-7.15527418169549	-136.598982916305	
7895530638.28999	-7.29841120873758	-56.8127387146375	-22.265790619487	-128.037090496597	0	0	-7.15131015096262	-136.691415376421	
7895535141.07999	-7.29484801705031	-57.0559095786602	-22.4593068556032	-127.775918169081	0	0	-7.14092037294227	-136.803952054397	
7895539643.86999	-7.29919199003106	-57.2578519236689	-22.5987453932443	-128.21903290542	0	0	-7.14310742088966	-136.948368802711	
7895544146.65999	-7.30116245094673	-57.4303378752273	-22.7512531077695	-128.08672335775	0	0	-7.13811519894741	-137.059429330554	
