! File generated for n1 = 4, n2 = 10
! b1 = 10.000000
! b2 = 0.010000
! Q0 = 10000.000000
! f0 = 1000000000.000000
! n = 1001
! rel_span = 10.000000
# Hz S RI R 50
9.94495000000000000000e+08 9.82112720104129532928e-01 -1.79367871713352416974e-01 -5.65645456158902354415e-04 -5.67211013671081905330e-03 -5.65645456158902354415e-04 -5.67211013671081905330e-03 9.99982112720104177050e-01 -1.79367871713352318528e-04
9.94506010000000000000e+08 9.82041467837170944932e-01 -1.79721204142756080246e-01 -5.67898650679295982809e-04 -5.68328348919198110545e-03 -5.67898650679295982809e-04 -5.68328348919198110545e-03 9.99982041467837201587e-01 -1.79721204142755985921e-04
9.94517020000000000000e+08 9.81969791209405418186e-01 -1.80075912998284431987e-01 -5.70165264666687410765e-04 -5.69450036808899322238e-03 -5.70165264666687410765e-04 -5.69450036808899322238e-03 9.99981969791209457377e-01 -1.80075912998284341998e-04
9.94528030000000000000e+08 9.81897686857368778846e-01 -1.80432006250193038843e-01 -5.72445404483152685965e-04 -5.70576102544346607653e-03 -5.72445404483152685965e-04 -5.70576102544346607653e-03 9.99981897686857412744e-01 -1.80432006250192945819e-04
9.94539040000000000000e+08 9.81825151384331351601e-01 -1.80789491929652879065e-01 -5.74739177542711978178e-04 -5.71706571522332621799e-03 -5.74739177542711978178e-04 -5.71706571522332621799e-03 9.99981825151384340344e-01 -1.80789491929652767609e-04
9.94550050000000000000e+08 9.81752181359900832902e-01 -1.81148378129342008114e-01 -5.77046692323897325583e-04 -5.72841469334152333243e-03 -5.77046692323897325583e-04 -5.72841469334152333243e-03 9.99981752181359873077e-01 -1.81148378129341919209e-04
9.94561060000000000000e+08 9.81678773319623498850e-01 -1.81508673004022402786e-01 -5.79368058382356485025e-04 -5.73980821767427259322e-03 -5.79368058382356485025e-04 -5.73980821767427259322e-03 9.99981678773319671016e-01 -1.81508673004022314098e-04
9.94572070000000000000e+08 9.81604923764581083212e-01 -1.81870384771117582501e-01 -5.81703386363595126470e-04 -5.75124654807932303435e-03 -5.81703386363595126470e-04 -5.75124654807932303435e-03 9.99981604923764533233e-01 -1.81870384771117492946e-04
9.94583080000000000000e+08 9.81530629160977996506e-01 -1.82233521711320262115e-01 -5.84052788016045589144e-04 -5.76272994641517134762e-03 -5.84052788016045589144e-04 -5.76272994641517134762e-03 9.99981530629160952905e-01 -1.82233521711320156297e-04
9.94594090000000000000e+08 9.81455885939724770317e-01 -1.82598092169192649514e-01 -5.86416376204227903293e-04 -5.77425867656004409428e-03 -5.86416376204227903293e-04 -5.77425867656004409428e-03 9.99981455885939674033e-01 -1.82598092169192568633e-04
9.94605100000000000000e+08 9.81380690496015062330e-01 -1.82964104553778705853e-01 -5.88794264922124616600e-04 -5.78583300443125895379e-03 -5.88794264922124616600e-04 -5.78583300443125895379e-03 9.99981380690496024499e-01 -1.82964104553778617599e-04
9.94616110000000000000e+08 9.81305039188901440106e-01 -1.83331567339201362277e-01 -5.91186569306602132876e-04 -5.79745319800411152561e-03 -5.91186569306602132876e-04 -5.79745319800411152561e-03 9.99981305039188916872e-01 -1.83331567339201290719e-04
9.94627120000000000000e+08 9.81228928340856842993e-01 -1.83700489065306782344e-01 -5.93593405651280151512e-04 -5.80911952733225139117e-03 -5.93593405651280151512e-04 -5.80911952733225139117e-03 9.99981228928340848405e-01 -1.83700489065306691487e-04
9.94638130000000000000e+08 9.81152354237336488119e-01 -1.84070878338283117071e-01 -5.96014891420381157615e-04 -5.82083226456724198844e-03 -5.96014891420381157615e-04 -5.82083226456724198844e-03 9.99981152354237345925e-01 -1.84070878338283037490e-04
9.94649140000000000000e+08 9.81075313126330450508e-01 -1.84442743831300742796e-01 -5.98451145262869285690e-04 -5.83259168397881350848e-03 -5.98451145262869285690e-04 -5.83259168397881350848e-03 9.99981075313126299697e-01 -1.84442743831300664950e-04
9.94660150000000000000e+08 9.80997801217913689698e-01 -1.84816094285146725884e-01 -6.00902287026702048786e-04 -5.84439806197492237039e-03 -6.00902287026702048786e-04 -5.84439806197492237039e-03 9.99980997801217963428e-01 -1.84816094285146639365e-04
9.94671160000000000000e+08 9.80919814683783863885e-01 -1.85190938508889291203e-01 -6.03368437773430530205e-04 -5.85625167712276392673e-03 -6.03368437773430530205e-04 -5.85625167712276392673e-03 9.99980919814683733016e-01 -1.85190938508889181699e-04
9.94682170000000000000e+08 9.80841349656796590573e-01 -1.85567285380532437378e-01 -6.05849719792894659751e-04 -5.86815281016947812298e-03 -6.05849719792894659751e-04 -5.86815281016947812298e-03 9.99980841349656812689e-01 -1.85567285380532336764e-04
9.94693180000000000000e+08 9.80762402230494823030e-01 -1.85945143847676686022e-01 -6.08346256618112670583e-04 -5.88010174406303556816e-03 -6.08346256618112670583e-04 -5.88010174406303556816e-03 9.99980762402230549668e-01 -1.85945143847676604707e-04
9.94704190000000000000e+08 9.80682968458628123720e-01 -1.86324522928202201966e-01 -6.10858173040482047358e-04 -5.89209876397384611779e-03 -6.10858173040482047358e-04 -5.89209876397384611779e-03 9.99980682968458656212e-01 -1.86324522928202096798e-04
9.94715200000000000000e+08 9.80603044354671049554e-01 -1.86705431710931207823e-01 -6.13385595125007037319e-04 -5.90414415731570479257e-03 -6.13385595125007037319e-04 -5.90414415731570479257e-03 9.99980603044354654507e-01 -1.86705431710931118484e-04
9.94726210000000000000e+08 9.80522625891324328684e-01 -1.87087879356347769333e-01 -6.15928650226070322458e-04 -5.91623821376855221765e-03 -6.15928650226070322458e-04 -5.91623821376855221765e-03 9.99980522625891321553e-01 -1.87087879356347673056e-04
9.94737220000000000000e+08 9.80441709000022032505e-01 -1.87471875097264484289e-01 -6.18487467003025039383e-04 -5.92838122529956018658e-03 -6.18487467003025039383e-04 -5.92838122529956018658e-03 9.99980441709000023032e-01 -1.87471875097264381507e-04
9.94748230000000000000e+08 9.80360289570420984084e-01 -1.87857428239546736526e-01 -6.21062175436337682299e-04 -5.94057348618602914375e-03 -6.21062175436337682299e-04 -5.94057348618602914375e-03 9.99980360289570380239e-01 -1.87857428239546648272e-04
9.94759240000000000000e+08 9.80278363449887391035e-01 -1.88244548162822433746e-01 -6.23652906843811345380e-04 -5.95281529303783724094e-03 -6.23652906843811345380e-04 -5.95281529303783724094e-03 9.99980278363449937018e-01 -1.88244548162822325759e-04
9.94770250000000000000e+08 9.80195926442977816251e-01 -1.88633244321197518500e-01 -6.26259793897026022409e-04 -5.96510694482006546824e-03 -6.26259793897026022409e-04 -5.96510694482006546824e-03 9.99980195926442938514e-01 -1.88633244321197423308e-04
9.94781260000000000000e+08 9.80112974310908269260e-01 -1.89023526243992129325e-01 -6.28882970638093650312e-04 -5.97744874287627504100e-03 -6.28882970638093650312e-04 -5.97744874287627504100e-03 9.99980112974310886287e-01 -1.89023526243992036518e-04
9.94792270000000000000e+08 9.80029502771019744856e-01 -1.89415403536474624691e-01 -6.31522572496587709240e-04 -5.98984099095172146943e-03 -6.31522572496587709240e-04 -5.98984099095172146943e-03 9.99980029502770983996e-01 -1.89415403536474541858e-04
9.94803280000000000000e+08 9.79945507496233325639e-01 -1.89808885880610733743e-01 -6.34178736306756449942e-04 -6.00228399521704480968e-03 -6.34178736306756449942e-04 -6.00228399521704480968e-03 9.99979945507496248425e-01 -1.89808885880610644838e-04
9.94814290000000000000e+08 9.79860984114497290953e-01 -1.90203983035825252568e-01 -6.36851600325013785311e-04 -6.01477806429235369728e-03 -6.36851600325013785311e-04 -6.01477806429235369728e-03 9.99979860984114510281e-01 -1.90203983035825167566e-04
9.94825300000000000000e+08 9.79775928208230895144e-01 -1.90600704839750251240e-01 -6.39541304247530470635e-04 -6.02732350927089131215e-03 -6.39541304247530470635e-04 -6.02732350927089131215e-03 9.99979775928208192148e-01 -1.90600704839750148241e-04
9.94836310000000000000e+08 9.79690335313752380664e-01 -1.90999061209016746110e-01 -6.42247989228315451643e-04 -6.03992064374406396887e-03 -6.42247989228315451643e-04 -6.03992064374406396887e-03 9.99979690335313753380e-01 -1.90999061209016661109e-04
9.94847320000000000000e+08 9.79604200920705214806e-01 -1.91399062140026915424e-01 -6.44971797897365625718e-04 -6.05256978382586342119e-03 -6.44971797897365625718e-04 -6.05256978382586342119e-03 9.99979604200920690893e-01 -1.91399062140026822616e-04
9.94858330000000000000e+08 9.79517520471473668309e-01 -1.91800717709745660589e-01 -6.47712874379149537371e-04 -6.06527124817790152383e-03 -6.47712874379149537371e-04 -6.06527124817790152383e-03 9.99979517520471428149e-01 -1.91800717709745584261e-04
9.94869340000000000000e+08 9.79430289360588512970e-01 -1.92204038076505379085e-01 -6.50471364311386952492e-04 -6.07802535803485342175e-03 -6.50471364311386952492e-04 -6.07802535803485342175e-03 9.99979430289360537998e-01 -1.92204038076505291915e-04
9.94880350000000000000e+08 9.79342502934127612235e-01 -1.92609033480808322647e-01 -6.53247414864022179527e-04 -6.09083243722983308510e-03 -6.53247414864022179527e-04 -6.09083243722983308510e-03 9.99979342502934076542e-01 -1.92609033480808212275e-04
9.94891360000000000000e+08 9.79254156489099636396e-01 -1.93015714246170339008e-01 -6.56041174758694388934e-04 -6.10369281222107856050e-03 -6.56041174758694388934e-04 -6.10369281222107856050e-03 9.99979254156489139049e-01 -1.93015714246170231889e-04
9.94902370000000000000e+08 9.79165245272834772194e-01 -1.93424090779905882842e-01 -6.58852794288020690919e-04 -6.11660681211676805769e-03 -6.58852794288020690919e-04 -6.11660681211676805769e-03 9.99979165245272860751e-01 -1.93424090779905792420e-04
9.94913380000000000000e+08 9.79075764482346788675e-01 -1.93834173574009921426e-01 -6.61682425335766090553e-04 -6.12957476870291430304e-03 -6.61682425335766090553e-04 -6.12957476870291430304e-03 9.99979075764482305821e-01 -1.93834173574009834906e-04
9.94924390000000000000e+08 9.78985709263696990412e-01 -1.94245973205996735889e-01 -6.64530221396943403429e-04 -6.14259701646988846152e-03 -6.64530221396943403429e-04 -6.14259701646988846152e-03 9.99978985709263690218e-01 -1.94245973205996646984e-04
9.94935400000000000000e+08 9.78895074711353063712e-01 -1.94659500339734531371e-01 -6.67396337598108869808e-04 -6.15567389263881395434e-03 -6.67396337598108869808e-04 -6.15567389263881395434e-03 9.99978895074711382485e-01 -1.94659500339734427505e-04
9.94946410000000000000e+08 9.78803855867525052226e-01 -1.95074765726345716876e-01 -6.70280930718346237146e-04 -6.16880573719003066913e-03 -6.70280930718346237146e-04 -6.16880573719003066913e-03 9.99978803855867570682e-01 -1.95074765726345608022e-04
9.94957420000000000000e+08 9.78712047721502109709e-01 -1.95491780205072018806e-01 -6.73184159210243144786e-04 -6.18199289289046022278e-03 -6.73184159210243144786e-04 -6.18199289289046022278e-03 9.99978712047721485234e-01 -1.95491780205071910602e-04
9.94968430000000000000e+08 9.78619645208976263184e-01 -1.95910554704164796558e-01 -6.76106183221282541242e-04 -6.19523570532175358455e-03 -6.76106183221282541242e-04 -6.19523570532175358455e-03 9.99978619645208954836e-01 -1.95910554704164694643e-04
9.94979440000000000000e+08 9.78526643211354740792e-01 -1.96331100241789791028e-01 -6.79047164615578769352e-04 -6.20853452290890360510e-03 -6.79047164615578769352e-04 -6.20853452290890360510e-03 9.99978526643211407254e-01 -1.96331100241789696485e-04
9.94990450000000000000e+08 9.78433036555064306050e-01 -1.96753427926934482128e-01 -6.82007266995880256748e-04 -6.22188969694893994483e-03 -6.82007266995880256748e-04 -6.22188969694893994483e-03 9.99978433036555092173e-01 -1.96753427926934371106e-04
9.95001460000000000000e+08 9.78338820010843379649e-01 -1.97177548960334847461e-01 -6.84986655725962410683e-04 -6.23530158164023549233e-03 -6.84986655725962410683e-04 -6.23530158164023549233e-03 9.99978338820010859145e-01 -1.97177548960334776554e-04
9.95012470000000000000e+08 9.78243988293023947200e-01 -1.97603474635408782323e-01 -6.87985497953321921069e-04 -6.24877053411202008221e-03 -6.87985497953321921069e-04 -6.24877053411202008221e-03 9.99978243988293047373e-01 -1.97603474635408692551e-04
9.95023480000000000000e+08 9.78148536058805584403e-01 -1.98031216339189963804e-01 -6.91003962632138536183e-04 -6.26229691445391589699e-03 -6.91003962632138536183e-04 -6.26229691445391589699e-03 9.99978148536058819573e-01 -1.98031216339189877502e-04
9.95034490000000000000e+08 9.78052457907512162727e-01 -1.98460785553303264983e-01 -6.94042220546794226717e-04 -6.27588108574678171792e-03 -6.94042220546794226717e-04 -6.27588108574678171792e-03 9.99978052457907495842e-01 -1.98460785553303172826e-04
9.95045500000000000000e+08 9.77955748379845446472e-01 -1.98892193854910748207e-01 -6.97100444335454908287e-04 -6.28952341409262649652e-03 -6.97100444335454908287e-04 -6.28952341409262649652e-03 9.99977955748379887524e-01 -1.98892193854910659086e-04
9.95056510000000000000e+08 9.77858401957119038883e-01 -1.99325452917710338463e-01 -7.00178808514303010514e-04 -6.30322426864619259762e-03 -7.00178808514303010514e-04 -6.30322426864619259762e-03 9.99977858401957075962e-01 -1.99325452917710233295e-04
9.95067520000000000000e+08 9.77760413060487776349e-01 -1.99760574512915928258e-01 -7.03277489501918039692e-04 -6.31698402164594750158e-03 -7.03277489501918039692e-04 -6.31698402164594750158e-03 9.99977760413060523526e-01 -1.99760574512915808996e-04
9.95078530000000000000e+08 9.77661776050162245610e-01 -2.00197570510260380861e-01 -7.06396665644103073818e-04 -6.33080304844580062096e-03 -7.06396665644103073818e-04 -6.33080304844580062096e-03 9.99977661776050186226e-01 -2.00197570510260257478e-04
9.95089540000000000000e+08 9.77562485224609423184e-01 -2.00636452879019600015e-01 -7.09536517239155888927e-04 -6.34468172754749232256e-03 -7.09536517239155888927e-04 -6.34468172754749232256e-03 9.99977562485224624744e-01 -2.00636452879019490944e-04
9.95100550000000000000e+08 9.77462534819750206161e-01 -2.01077233689013645801e-01 -7.12697226563267479185e-04 -6.35862044063224222251e-03 -7.12697226563267479185e-04 -6.35862044063224222251e-03 9.99977462534819783180e-01 -2.01077233689013533478e-04
9.95111560000000000000e+08 9.77361919008126189823e-01 -2.01519925111694836461e-01 -7.15878977896848111943e-04 -6.37261957259517217156e-03 -7.15878977896848111943e-04 -6.37261957259517217156e-03 9.99977361919008100877e-01 -2.01519925111694734763e-04
9.95122570000000000000e+08 9.77260631898076215229e-01 -2.01964539421156774601e-01 -7.19081957550589487976e-04 -6.38667951157719914618e-03 -7.19081957550589487976e-04 -6.38667951157719914618e-03 9.99977260631898068333e-01 -2.01964539421156674421e-04
9.95133580000000000000e+08 9.77158667532887270646e-01 -2.02411088995206100982e-01 -7.22306353892291047418e-04 -6.40080064899893781682e-03 -7.22306353892291047418e-04 -6.40080064899893781682e-03 9.99977158667532894931e-01 -2.02411088995206004271e-04
9.95144590000000000000e+08 9.77056019889928739630e-01 -2.02859586316470053013e-01 -7.25552357374260143905e-04 -6.41498337959572027811e-03 -7.25552357374260143905e-04 -6.41498337959572027811e-03 9.99977056019889953831e-01 -2.02859586316469933751e-04
9.95155600000000000000e+08 9.76952682879785760939e-01 -2.03310043973457005295e-01 -7.28820160560698124090e-04 -6.42922810145113779456e-03 -7.28820160560698124090e-04 -6.42922810145113779456e-03 9.99976952682879782763e-01 -2.03310043973456904898e-04
9.95166610000000000000e+08 9.76848650345371605219e-01 -2.03762474661668246956e-01 -7.32109958155781706014e-04 -6.44353521603218803299e-03 -7.32109958155781706014e-04 -6.44353521603218803299e-03 9.99976848650345417902e-01 -2.03762474661668170628e-04
9.95177620000000000000e+08 9.76743916061024952668e-01 -2.04216891184727938890e-01 -7.35421947032215334895e-04 -6.45790512822501817231e-03 -7.35421947032215334895e-04 -6.45790512822501817231e-03 9.99976743916061061590e-01 -2.04216891184727858660e-04
9.95188630000000000000e+08 9.76638473731594958238e-01 -2.04673306455515541247e-01 -7.38756326260139699336e-04 -6.47233824637073133085e-03 -7.38756326260139699336e-04 -6.47233824637073133085e-03 9.99976638473731638257e-01 -2.04673306455515447788e-04
9.95199640000000000000e+08 9.76532316991518989369e-01 -2.05131733497289719947e-01 -7.42113297136324959018e-04 -6.48683498230092671355e-03 -7.42113297136324959018e-04 -6.48683498230092671355e-03 9.99976532316991573168e-01 -2.05131733497289624754e-04
9.95210650000000000000e+08 9.76425439403872941213e-01 -2.05592185444876035527e-01 -7.45493063214183520823e-04 -6.50139575137525897730e-03 -7.45493063214183520823e-04 -6.50139575137525897730e-03 9.99976425439403904250e-01 -2.05592185444875919301e-04
9.95221660000000000000e+08 9.76317834459416999948e-01 -2.06054675545828264172e-01 -7.48895830333949023144e-04 -6.51602097251816232693e-03 -7.48895830333949023144e-04 -6.51602097251816232693e-03 9.99976317834459393907e-01 -2.06054675545828182856e-04
9.95232670000000000000e+08 9.76209495575623531494e-01 -2.06519217161617890666e-01 -7.52321806653427020001e-04 -6.53071106825646278959e-03 -7.52321806653427020001e-04 -6.53071106825646278959e-03 9.99976209495575640851e-01 -2.06519217161617795690e-04
9.95243680000000000000e+08 9.76100416095689427110e-01 -2.06985823768835924819e-01 -7.55771202679210462629e-04 -6.54546646475738774090e-03 -7.55771202679210462629e-04 -6.54546646475738774090e-03 9.99976100416095636803e-01 -2.06985823768835830276e-04
9.95254690000000000000e+08 9.75990589287528576001e-01 -2.07454508960433187115e-01 -7.59244231298557086494e-04 -6.56028759186778540058e-03 -7.59244231298557086494e-04 -6.56028759186778540058e-03 9.99975990589287544452e-01 -2.07454508960433080429e-04
9.95265700000000000000e+08 9.75880008342760341122e-01 -2.07925286446921847583e-01 -7.62741107811367303852e-04 -6.57517488315211874605e-03 -7.62741107811367303852e-04 -6.57517488315211874605e-03 9.99975880008342810079e-01 -2.07925286446921763883e-04
9.95276710000000000000e+08 9.75768666375670723490e-01 -2.08398170057641773933e-01 -7.66262049963035095888e-04 -6.59012877593251247127e-03 -7.66262049963035095888e-04 -6.59012877593251247127e-03 9.99975768666375719462e-01 -2.08398170057641680692e-04
9.95287720000000000000e+08 9.75656556422156207020e-01 -2.08873173742047141266e-01 -7.69807277977849571150e-04 -6.60514971132943919108e-03 -7.69807277977849571150e-04 -6.60514971132943919108e-03 9.99975656556422176635e-01 -2.08873173742047025690e-04
9.95298730000000000000e+08 9.75543671438666937235e-01 -2.09350311570940167405e-01 -7.73377014592413762790e-04 -6.62023813430073597430e-03 -7.73377014592413762790e-04 -6.62023813430073597430e-03 9.99975543671438704685e-01 -2.09350311570940047926e-04
9.95309740000000000000e+08 9.75430004301113040555e-01 -2.09829597737806711200e-01 -7.76971485090232846273e-04 -6.63539449368383445205e-03 -7.76971485090232846273e-04 -6.63539449368383445205e-03 9.99975430004301113485e-01 -2.09829597737806598009e-04
9.95320750000000000000e+08 9.75315547803765836576e-01 -2.10311046560115066928e-01 -7.80590917336456855888e-04 -6.65061924223683560015e-03 -7.80590917336456855888e-04 -6.65061924223683560015e-03 9.99975315547803722538e-01 -2.10311046560114975204e-04
9.95331760000000000000e+08 9.75200294658136734860e-01 -2.10794672480651423818e-01 -7.84235541813324663236e-04 -6.66591283668073984747e-03 -7.84235541813324663236e-04 -6.66591283668073984747e-03 9.99975200294658139732e-01 -2.10794672480651312145e-04
9.95342770000000000000e+08 9.75084237491839478373e-01 -2.11280490068871285025e-01 -7.87905591656170006115e-04 -6.68127573774218545821e-03 -7.87905591656170006115e-04 -6.68127573774218545821e-03 9.99975084237491818051e-01 -2.11280490068871168365e-04
9.95353780000000000000e+08 9.74967368847440840618e-01 -2.11768514022231651994e-01 -7.91601302689726974045e-04 -6.69670841019557195467e-03 -7.91601302689726974045e-04 -6.69670841019557195467e-03 9.99974967368847389437e-01 -2.11768514022231553982e-04
