! File generated for n1 = 6, n2 = 8
! b1 = 2.154435
! b2 = 0.010000
! Q0 = 10000.000000
! f0 = 1000000000.000000
! n = 1001
! rel_span = 10.000000
# Hz S RI R 50
9.98417782654984116554e+08 9.86539392526570746433e-01 -1.34712731521604234253e-01 -9.17060511634969124234e-04 -9.17787155868033874273e-03 -9.17060511634969124234e-04 -9.17787155868033874273e-03 9.99937521394657635732e-01 -6.25281110376154280681e-04
9.98420947089674115181e+08 9.86485881676493536752e-01 -1.34977553422884533063e-01 -9.20706163411579708855e-04 -9.19591366478585137134e-03 -9.20706163411579708855e-04 -9.19591366478585137134e-03 9.99937273019293471066e-01 -6.26510304756033062183e-04
9.98424111524364233017e+08 9.86432052349221044629e-01 -1.35243406897827683766e-01 -9.24373512786933284636e-04 -9.21402605118687781371e-03 -9.24373512786933284636e-04 -9.21402605118687781371e-03 9.99937023165689109483e-01 -6.27744287276706287859e-04
9.98427275959054231644e+08 9.86377902021433938806e-01 -1.35510297919411132339e-01 -9.28062731672753314996e-04 -9.23220912481763529567e-03 -9.28062731672753314996e-04 -9.23220912481763529567e-03 9.99936771822132253185e-01 -6.28983085662279521079e-04
9.98430440393744230270e+08 9.86323428144853964206e-01 -1.35778232506304163962e-01 -9.31773993681228986444e-04 -9.25046329572529017760e-03 -9.31773993681228986444e-04 -9.25046329572529017760e-03 9.99936518976795030156e-01 -6.30226727848940955316e-04
9.98433604828434228897e+08 9.86268628145961945286e-01 -1.36047216723228975299e-01 -9.35507474144183686152e-04 -9.26878897709455286391e-03 -9.35507474144183686152e-04 -9.26878897709455286391e-03 9.99936264617732106785e-01 -6.31475241986637157027e-04
9.98436769263124346733e+08 9.86213499425685702349e-01 -1.36317256681457776857e-01 -9.39263350134338808640e-04 -9.28718658528155521781e-03 -9.39263350134338808640e-04 -9.28718658528155521781e-03 9.99936008732879688665e-01 -6.32728656441381223652e-04
9.98439933697814345360e+08 9.86158039359108840038e-01 -1.36588358539192544772e-01 -9.43041800485159751287e-04 -9.30565653983971355356e-03 -9.43041800485159751287e-04 -9.30565653983971355356e-03 9.99935751310053966279e-01 -6.33986999797014503730e-04
9.98443098132504343987e+08 9.86102245295151447202e-01 -1.36860528502067618772e-01 -9.46843005812631898117e-04 -9.32419926355397381268e-03 -9.46843005812631898117e-04 -9.32419926355397381268e-03 9.99935492336949671710e-01 -6.35250300857540342071e-04
9.98446262567194461823e+08 9.86046114556261898976e-01 -1.37133772823577276823e-01 -9.50667148536211092068e-04 -9.34281518246993757104e-03 -9.50667148536211092068e-04 -9.34281518246993757104e-03 9.99935231801138857399e-01 -6.36518588649107627635e-04
9.98449427001884460449e+08 9.85989644438103884916e-01 -1.37408097805517104284e-01 -9.54514412900194127165e-04 -9.36150472592394387872e-03 -9.54514412900194127165e-04 -9.36150472592394387872e-03 9.99934969690069008763e-01 -6.37791892422060586153e-04
9.98452591436574459076e+08 9.85932832209228893205e-01 -1.37683509798474129626e-01 -9.58384984995994657943e-04 -9.38026832657645054381e-03 -9.58384984995994657943e-04 -9.38026832657645054381e-03 9.99934705991061822949e-01 -6.39070241653212894190e-04
9.98455755871264457703e+08 9.85875675110757021535e-01 -1.37960015202264391077e-01 -9.62279052783919725336e-04 -9.39910642044185055954e-03 -9.62279052783919725336e-04 -9.39910642044185055954e-03 9.99934440691311765548e-01 -6.40353666047879474012e-04
9.98458920305954575539e+08 9.85818170356038581126e-01 -1.38237620466443250633e-01 -9.66196806116201246592e-04 -9.41801944692322902386e-03 -9.66196806116201246592e-04 -9.41801944692322902386e-03 9.99934173777884405254e-01 -6.41642195542244174293e-04
9.98462084740644574165e+08 9.85760315130331465916e-01 -1.38516332090724197945e-01 -9.70138436758981250081e-04 -9.43700784884091668780e-03 -9.70138436758981250081e-04 -9.43700784884091668780e-03 9.99933905237714748537e-01 -6.42935860305304720391e-04
9.98465249175334572792e+08 9.85702106590450877199e-01 -1.38796156625514671701e-01 -9.74104138416188175542e-04 -9.45607207246897465969e-03 -9.74104138416188175542e-04 -9.45607207246897465969e-03 9.99933635057606018393e-01 -6.44234690741359006770e-04
9.98468413610024571419e+08 9.85643541864425931642e-01 -1.39077100672399589509e-01 -9.78094106752926259127e-04 -9.47521256756814894695e-03 -9.78094106752926259127e-04 -9.47521256756814894695e-03 9.99933363224227655941e-01 -6.45538717492250046018e-04
9.98471578044714689255e+08 9.85584618051157490548e-01 -1.39359170884600258589e-01 -9.82108539418766364471e-04 -9.49442978741713017321e-03 -9.82108539418766364471e-04 -9.49442978741713017321e-03 9.99933089724113988161e-01 -6.46847971439495450334e-04
9.98474742479404687881e+08 9.85525332220063887689e-01 -1.39642373967478278241e-01 -9.86147636071927919527e-04 -9.51372418884688722529e-03 -9.86147636071927919527e-04 -9.51372418884688722529e-03 9.99932814543662340512e-01 -6.48162483706626814557e-04
9.98477906914094686508e+08 9.85465681410710780952e-01 -1.39926716679089929718e-01 -9.90211598404440755325e-04 -9.53309623227843044857e-03 -9.90211598404440755325e-04 -9.53309623227843044857e-03 9.99932537669131815683e-01 -6.49482285661762527920e-04
9.98481071348784804344e+08 9.85405662632457102212e-01 -1.40212205830652275607e-01 -9.94300630166320646014e-04 -9.55254638175458310745e-03 -9.94300630166320646014e-04 -9.55254638175458310745e-03 9.99932259086640851109e-01 -6.50807408919772058427e-04
9.98484235783474802971e+08 9.85345272864090571119e-01 -1.40498848287034600046e-01 -9.98414937190359591535e-04 -9.57207510497343899702e-03 -9.98414937190359591535e-04 -9.57207510497343899702e-03 9.99931978782166330788e-01 -6.52137885344555487920e-04
9.98487400218164801598e+08 9.85284509053434454096e-01 -1.40786650967370668974e-01 -1.00255472741893423422e-03 -9.59168287333009815521e-03 -1.00255472741893423422e-03 -9.59168287333009815521e-03 9.99931696741541253814e-01 -6.53473747051887157537e-04
9.98490564652854800224e+08 9.85223368116986852883e-01 -1.41075620845497129441e-01 -1.00672021092858992621e-03 -9.61137016194651971901e-03 -1.00672021092858992621e-03 -9.61137016194651971901e-03 9.99931412950453402111e-01 -6.54815026411449522571e-04
9.98493729087544918060e+08 9.85161846939524354916e-01 -1.41365764950538458367e-01 -1.01091159995701481214e-03 -9.63113744971137719642e-03 -1.01091159995701481214e-03 -9.63113744971137719642e-03 9.99931127394443008960e-01 -6.56161756049547886284e-04
9.98496893522234916687e+08 9.85099942373718451272e-01 -1.41657090367416804710e-01 -1.01512910892921919166e-03 -9.65098521931479803870e-03 -1.01512910892921919166e-03 -9.65098521931479803870e-03 9.99930840058901648781e-01 -6.57513968851477972194e-04
9.98500057956924915314e+08 9.85037651239735190245e-01 -1.41949604237414372943e-01 -1.01937295448476525697e-03 -9.67091395728667847786e-03 -1.01937295448476525697e-03 -9.67091395728667847786e-03 9.99930550929069683619e-01 -6.58871697964135598705e-04
9.98503222391615033150e+08 9.84974970324824505852e-01 -1.42243313758767919719e-01 -1.02364335550575837400e-03 -9.69092415403717544198e-03 -1.02364335550575837400e-03 -9.69092415403717544198e-03 9.99930259990035041895e-01 -6.60234976798775973633e-04
9.98506386826305031776e+08 9.84911896382934526351e-01 -1.42538226187125555144e-01 -1.02794053314314418925e-03 -9.71101630388784310688e-03 -1.02794053314314418925e-03 -9.71101630388784310688e-03 9.99929967226730664898e-01 -6.61603839033134285240e-04
9.98509551260995030403e+08 9.84848426134276699884e-01 -1.42834348836210656142e-01 -1.03226471084631689010e-03 -9.73119090511685540246e-03 -1.03226471084631689010e-03 -9.73119090511685540246e-03 9.99929672623933174513e-01 -6.62978318614507546903e-04
9.98512715695685029030e+08 9.84784556264917010360e-01 -1.43131689078342977384e-01 -1.03661611439096541971e-03 -9.75144845999450712859e-03 -1.03661611439096541971e-03 -9.75144845999450712859e-03 9.99929376166260763803e-01 -6.64358449762172693226e-04
9.98515880130375146866e+08 9.84720283426337106292e-01 -1.43430254345080915312e-01 -1.04099497190900417906e-03 -9.77178947482698102844e-03 -1.04099497190900417906e-03 -9.77178947482698102844e-03 9.99929077838170865533e-01 -6.65744266970368136008e-04
9.98519044565065145493e+08 9.84655604235030734728e-01 -1.43730052127671814599e-01 -1.04540151391601570177e-03 -9.79221445998701596480e-03 -1.04540151391601570177e-03 -9.79221445998701596480e-03 9.99928777623958819909e-01 -6.67135805010383889195e-04
9.98522208999755144119e+08 9.84590515272027899663e-01 -1.44031089977822740478e-01 -1.04983597334371557032e-03 -9.81272392996642393859e-03 -1.04983597334371557032e-03 -9.81272392996642393859e-03 9.99928475507754876972e-01 -6.68533098934139327629e-04
9.98525373434445142746e+08 9.84525013082481526006e-01 -1.44333375508154032607e-01 -1.05429858556810068966e-03 -9.83331840340699418757e-03 -1.05429858556810068966e-03 -9.83331840340699418757e-03 9.99928171473523308421e-01 -6.69936184076287731884e-04
9.98528537869135260582e+08 9.84459094175195836840e-01 -1.44636916392900938266e-01 -1.05878958844157788390e-03 -9.85399840314828308341e-03 -1.05878958844157788390e-03 -9.85399840314828308341e-03 9.99927865505059410012e-01 -6.71345096057473882112e-04
9.98531702303825259209e+08 9.84392755022186483060e-01 -1.44941720368443105471e-01 -1.06330922232290348874e-03 -9.87476445626370505360e-03 -1.06330922232290348874e-03 -9.87476445626370505360e-03 9.99927557585987503153e-01 -6.72759870786791185429e-04
9.98534866738515257835e+08 9.84325992058195042844e-01 -1.45247795234026977340e-01 -1.06785773011032090671e-03 -9.89561709410973107393e-03 -1.06785773011032090671e-03 -9.89561709410973107393e-03 9.99927247699759380595e-01 -6.74180544465134787974e-04
9.98538031173205375671e+08 9.84258801680230610565e-01 -1.45555148852331228682e-01 -1.07243535727273879218e-03 -9.91655685236442728525e-03 -1.07243535727273879218e-03 -9.91655685236442728525e-03 9.99926935829651308829e-01 -6.75607153587826319945e-04
9.98541195607895374298e+08 9.84191180247099173251e-01 -1.45863789150069950162e-01 -1.07704235188181888204e-03 -9.93758427106853671484e-03 -1.07704235188181888204e-03 -9.93758427106853671484e-03 9.99926621958762362752e-01 -6.77039734947413305612e-04
9.98544360042585372925e+08 9.84123124078898015021e-01 -1.46173724118728337595e-01 -1.08167896464641003981e-03 -9.95869989467560411123e-03 -1.08167896464641003981e-03 -9.95869989467560411123e-03 9.99926306070011983174e-01 -6.78478325637084183318e-04
9.98547524477275371552e+08 9.84054629456539986521e-01 -1.46484961815138231556e-01 -1.08634544894497500796e-03 -9.97990427209119630725e-03 -1.08634544894497500796e-03 -9.97990427209119630725e-03 9.99925988146137645352e-01 -6.79922963053339671213e-04
9.98550688911965489388e+08 9.83985692621241470057e-01 -1.46797510362191824251e-01 -1.09104206086045553079e-03 -1.00011979567215161108e-02 -1.09104206086045553079e-03 -1.00011979567215161108e-02 9.99925668169692749565e-01 -6.81373684899305546991e-04
9.98553853346655488014e+08 9.83916309774029884672e-01 -1.47111377949443039581e-01 -1.09576905921384575894e-03 -1.00225815065143782079e-02 -1.09576905921384575894e-03 -1.00225815065143782079e-02 9.99925346123043845559e-01 -6.82830529187523817963e-04
9.98557017781345486641e+08 9.83846477075214331798e-01 -1.47426572833847968624e-01 -1.10052670560024674212e-03 -1.00440554840096497174e-02 -1.10052670560024674212e-03 -1.00440554840096497174e-02 9.99925021988368856185e-01 -6.84293534243389533524e-04
9.98560182216035604477e+08 9.83776190643866343954e-01 -1.47743103340431808368e-01 -1.10531526442422291245e-03 -1.00656204563846964767e-02 -1.10531526442422291245e-03 -1.00656204563846964767e-02 9.99924695747653857758e-01 -6.85762738708246941295e-04
9.98563346650725603104e+08 9.83705446557303853083e-01 -1.48060977862918830006e-01 -1.11013500293499875644e-03 -1.00872769954972966305e-02 -1.11013500293499875644e-03 -1.00872769954972966305e-02 9.99924367382691636763e-01 -6.87238181542312713025e-04
9.98566511085415601730e+08 9.83634240850532970413e-01 -1.48380204864520498509e-01 -1.11498619126446704003e-03 -1.01090256779393337927e-02 -1.11498619126446704003e-03 -1.01090256779393337927e-02 9.99924036875078248165e-01 -6.88719902028334693238e-04
9.98569675520105600357e+08 9.83562569515707640910e-01 -1.48700792878615817294e-01 -1.11986910246399378605e-03 -1.01308670850831505916e-02 -1.11986910246399378605e-03 -1.01308670850831505916e-02 9.99923704206210794965e-01 -6.90207939774749529641e-04
9.98572839954795718193e+08 9.83490428501581859244e-01 -1.49022750509439722011e-01 -1.12478401254176730434e-03 -1.01528018031284538586e-02 -1.12478401254176730434e-03 -1.01528018031284538586e-02 9.99923369357285207748e-01 -6.91702334718878250608e-04
9.98576004389485716820e+08 9.83417813712950117377e-01 -1.49346086432790681187e-01 -1.12973120050087407103e-03 -1.01748304231505069806e-02 -1.12973120050087407103e-03 -1.01748304231505069806e-02 9.99923032309293136066e-01 -6.93203127130209879880e-04
9.98579168824175715446e+08 9.83344721010055433652e-01 -1.49670809396860393647e-01 -1.13471094837969241516e-03 -1.01969535411566766814e-02 -1.13471094837969241516e-03 -1.01969535411566766814e-02 9.99922693043019616965e-01 -6.94710357614253606884e-04
9.98582333258865833282e+08 9.83271146208029911406e-01 -1.49996928222880659964e-01 -1.13972354128993912450e-03 -1.02191717581304863244e-02 -1.13972354128993912450e-03 -1.02191717581304863244e-02 9.99922351539040077384e-01 -6.96224067115540183603e-04
9.98585497693555831909e+08 9.83197085076300658635e-01 -1.50324451805902564727e-01 -1.14476926745720494587e-03 -1.02414856800847123286e-02 -1.14476926745720494587e-03 -1.02414856800847123286e-02 9.99922007777718002686e-01 -6.97744296921239365132e-04
9.98588662128245830536e+08 9.83122533337986048707e-01 -1.50653389115580266244e-01 -1.14984841826202850018e-03 -1.02638959181147824268e-02 -1.14984841826202850018e-03 -1.02638959181147824268e-02 9.99921661739201939056e-01 -6.99271088664798166901e-04
9.98591826562935829163e+08 9.83047486669297310158e-01 -1.50983749196906574808e-01 -1.15496128828070717016e-03 -1.02864030884488779488e-02 -1.15496128828070717016e-03 -1.02864030884488779488e-02 9.99921313403422495902e-01 -7.00804484329353716277e-04
9.98594990997625946999e+08 9.82971940698912138856e-01 -1.51315541171038181467e-01 -1.16010817532798148934e-03 -1.03090078125041718221e-02 -1.16010817532798148934e-03 -1.03090078125041718221e-02 9.99920962750090014381e-01 -7.02344526251565256722e-04
9.98598155432315945625e+08 9.82895891007365629655e-01 -1.51648774236008948568e-01 -1.16528938049847530060e-03 -1.03317107169354181762e-02 -1.16528938049847530060e-03 -1.03317107169354181762e-02 9.99920609758690903668e-01 -7.03891257124924217027e-04
9.98601319867005944252e+08 9.82819333126393468447e-01 -1.51983457667627441801e-01 -1.17050520821149780896e-03 -1.03545124336960961409e-02 -1.17050520821149780896e-03 -1.03545124336960961409e-02 9.99920254408485420505e-01 -7.05444720003919824476e-04
9.98604484301695942879e+08 9.82742262538309430120e-01 -1.52319600820185530043e-01 -1.17575596625342873071e-03 -1.03774136000866924051e-02 -1.17575596625342873071e-03 -1.03774136000866924051e-02 9.99919896678504449561e-01 -7.07004958307328791080e-04
9.98607648736386060715e+08 9.82664674675325144904e-01 -1.52657213127388086127e-01 -1.18104196582406121424e-03 -1.04004148588180394402e-02 -1.18104196582406121424e-03 -1.04004148588180394402e-02 9.99919536547545950711e-01 -7.08572015822530438221e-04
9.98610813171076059341e+08 9.82586564918923488499e-01 -1.52996304103015845488e-01 -1.18636352157931073206e-03 -1.04235168580564703522e-02 -1.18636352157931073206e-03 -1.04235168580564703522e-02 9.99919173994172849618e-01 -7.10145936708583011901e-04
9.98613977605766057968e+08 9.82507928599139823689e-01 -1.53336883341952529003e-01 -1.19172095168016464045e-03 -1.04467202514938063002e-02 -1.19172095168016464045e-03 -1.04467202514938063002e-02 9.99918808996709040926e-01 -7.11726765500992003891e-04
9.98617142040456175804e+08 9.82428760993902194798e-01 -1.53678960520921559230e-01 -1.19711457783763168365e-03 -1.04700256983975385772e-02 -1.19711457783763168365e-03 -1.04700256983975385772e-02 9.99918441533236501684e-01 -7.13314547115128315923e-04
9.98620306475146174431e+08 9.82349057328337216255e-01 -1.54022545399337906780e-01 -1.20254472536005766088e-03 -1.04934338636688689883e-02 -1.20254472536005766088e-03 -1.04934338636688689883e-02 9.99918071581592515784e-01 -7.14909326850183862896e-04
9.98623470909836173058e+08 9.82268812774048760694e-01 -1.54367647820238290679e-01 -1.20801172320224000159e-03 -1.05169454179060810339e-02 -1.20801172320224000159e-03 -1.05169454179060810339e-02 9.99917699119365344096e-01 -7.16511150393487781726e-04
9.98626635344526171684e+08 9.82188022448408526444e-01 -1.54714277711125031134e-01 -1.21351590401377320769e-03 -1.05405610374620390540e-02 -1.21351590401377320769e-03 -1.05405610374620390540e-02 9.99917324123892004017e-01 -7.18120063824424195893e-04
9.98629799779216289520e+08 9.82106681413821069881e-01 -1.55062445084882011281e-01 -1.21905760418911492463e-03 -1.05642814045065758233e-02 -1.21905760418911492463e-03 -1.05642814045065758233e-02 9.99916946572254161651e-01 -7.19736113618682830061e-04
9.98632964213906288147e+08 9.82024784677001827404e-01 -1.55412160040597407962e-01 -1.22463716391677814553e-03 -1.05881072070825605486e-02 -1.22463716391677814553e-03 -1.05881072070825605486e-02 9.99916566441275023180e-01 -7.21359346652078762749e-04
9.98636128648596286774e+08 9.81942327188195296372e-01 -1.55763432764605275205e-01 -1.23025492723261389329e-03 -1.06120391391768559980e-02 -1.23025492723261389329e-03 -1.06120391391768559980e-02 9.99916183707515671131e-01 -7.22989810205386450141e-04
9.98639293083286404610e+08 9.81859303840430186483e-01 -1.56116273531325344681e-01 -1.23591124207051003200e-03 -1.06360779007775262117e-02 -1.23591124207051003200e-03 -1.06360779007775262117e-02 9.99915798347271733704e-01 -7.24627551968237649735e-04
9.98642457517976403236e+08 9.81775709468744373076e-01 -1.56470692704198915957e-01 -1.24160646031525306182e-03 -1.06602241979376118758e-02 -1.24160646031525306182e-03 -1.06602241979376118758e-02 9.99915410336569610017e-01 -7.26272620043465926866e-04
9.98645621952666401863e+08 9.81691538849393197097e-01 -1.56826700736649171652e-01 -1.24734093785642272470e-03 -1.06844787428405398055e-02 -1.24734093785642272470e-03 -1.06844787428405398055e-02 9.99915019651162695347e-01 -7.27925062951563484580e-04
9.98648786387356400490e+08 9.81606786699036892863e-01 -1.57184308173091064065e-01 -1.25311503464375613784e-03 -1.07088422538689411606e-02 -1.25311503464375613784e-03 -1.07088422538689411606e-02 9.99914626266527939435e-01 -7.29584929635369036985e-04
9.98651950822046518326e+08 9.81521447673948221890e-01 -1.57543525649816135159e-01 -1.25892911474116036066e-03 -1.07333154556649226774e-02 -1.25892911474116036066e-03 -1.07333154556649226774e-02 9.99914230157862071735e-01 -7.31252269464174767082e-04
9.98655115256736516953e+08 9.81435516369167926243e-01 -1.57904363896051780358e-01 -1.26478354638422324854e-03 -1.07578990792022346351e-02 -1.26478354638422324854e-03 -1.07578990792022346351e-02 9.99913831300077382558e-01 -7.32927132238642533094e-04
9.98658279691426515579e+08 9.81348987317680276909e-01 -1.58266833734894696306e-01 -1.27067870203638661787e-03 -1.07825938618498744920e-02 -1.27067870203638661787e-03 -1.07825938618498744920e-02 9.99913429667798170364e-01 -7.34609568195137207711e-04
9.98661444126116514206e+08 9.81261854989549764383e-01 -1.58630946084364288229e-01 -1.27661495844777245386e-03 -1.08074005474438437219e-02 -1.27661495844777245386e-03 -1.08074005474438437219e-02 9.99913025235356855980e-01 -7.36299628010615779365e-04
9.98664608560806632042e+08 9.81174113791043689403e-01 -1.58996711958469677528e-01 -1.28259269671495779522e-03 -1.08323198863598500752e-02 -1.28259269671495779522e-03 -1.08323198863598500752e-02 9.99912617976789652730e-01 -7.37997362807579987756e-04
