! File generated for n1 = 4, n2 = 11
! b1 = 10.000000
! b2 = 0.004642
! Q0 = 10000.000000
! f0 = 1000000000.000000
! n = 1001
! rel_span = 10.000000
# Hz S RI R 50
9.94497679205583214760e+08 9.82103962509850880735e-01 -1.79455447646649030036e-01 -3.85558439828883746554e-04 -3.86625041725141126853e-03 -3.85558439828883746554e-04 -3.86625041725141126853e-03 9.99991693395221981078e-01 -8.32958401927668220426e-05
9.94508683847172021866e+08 9.82032675456669945646e-01 -1.79808952090626472664e-01 -3.87094272832115397515e-04 -3.87386643962326585738e-03 -3.87094272832115397515e-04 -3.87386643962326585738e-03 9.99991660306702945249e-01 -8.34599224207466526592e-05
9.94519688488760828972e+08 9.81960963835704747638e-01 -1.80163833630774233852e-01 -3.88639252870974461970e-04 -3.88151213063272831558e-03 -3.88639252870974461970e-04 -3.88151213063272831558e-03 9.99991627021117102103e-01 -8.36246438401471689798e-05
9.94530693130349755287e+08 9.81888824281850203235e-01 -1.80520100241232939187e-01 -3.90193452444449414857e-04 -3.88918766207745156965e-03 -3.90193452444449414857e-04 -3.88918766207745156965e-03 9.99991593536902256822e-01 -8.37900081522365854482e-05
9.94541697771938562393e+08 9.81816253396723626068e-01 -1.80877759957070449737e-01 -3.91756944768481107488e-04 -3.89689320706772474381e-03 -3.91756944768481107488e-04 -3.89689320706772474381e-03 9.99991559852481337600e-01 -8.39560190865630393995e-05
9.94552702413527369499e+08 9.81743247748257497065e-01 -1.81236820874916854107e-01 -3.93329803784716995358e-04 -3.90462894004015405661e-03 -3.93329803784716995358e-04 -3.90462894004015405661e-03 9.99991525966261063374e-01 -8.41226804012492907631e-05
9.94563707055116176605e+08 9.81669803870311885596e-01 -1.81597291153491047222e-01 -3.94912104168882534174e-04 -3.91239503676901138191e-03 -3.94912104168882534174e-04 -3.91239503676901138191e-03 9.99991491876632609959e-01 -8.42899958832372232049e-05
9.94574711696705102921e+08 9.81595918262259892195e-01 -1.81959179014231003935e-01 -3.96503921339694676961e-04 -3.92019167437980715907e-03 -3.96503921339694676961e-04 -3.92019167437980715907e-03 9.99991457581971276980e-01 -8.44579693485802805589e-05
9.94585716338293910027e+08 9.81521587388585081690e-01 -1.82322492741851388542e-01 -3.98105331467549531863e-04 -3.92801903136130899086e-03 -3.98105331467549531863e-04 -3.92801903136130899086e-03 9.99991423080636043785e-01 -8.46266046427023878578e-05
9.94596720979882717133e+08 9.81446807678458266189e-01 -1.82687240684974550042e-01 -3.99716411483626245151e-04 -3.93587728757913233452e-03 -3.99716411483626245151e-04 -3.93587728757913233452e-03 9.99991388370969236377e-01 -8.47959056406907536827e-05
9.94607725621471524239e+08 9.81371575525316064414e-01 -1.83053431256737730859e-01 -4.01337239088981397473e-04 -3.94376662428882421990e-03 -4.01337239088981397473e-04 -3.94376662428882421990e-03 9.99991353451297082522e-01 -8.49658762475777762802e-05
9.94618730263060331345e+08 9.81295887286434020957e-01 -1.83421072935398055126e-01 -4.02967892763728943641e-04 -3.95168722414889709432e-03 -4.02967892763728943641e-04 -3.95168722414889709432e-03 9.99991318319928601532e-01 -8.51365203986218248202e-05
9.94629734904649257660e+08 9.81219739282493952359e-01 -1.83790174264951422511e-01 -4.04608451776381373294e-04 -3.95963927123416364190e-03 -4.04608451776381373294e-04 -3.95963927123416364190e-03 9.99991282975156159374e-01 -8.53078420595944716563e-05
9.94640739546238064766e+08 9.81143127797140079949e-01 -1.84160743855775244082e-01 -4.06258996193393942618e-04 -3.96762295104958247899e-03 -4.06258996193393942618e-04 -3.96762295104958247899e-03 9.99991247415254580488e-01 -8.54798452270789189738e-05
9.94651744187826871872e+08 9.81066049076535273699e-01 -1.84532790385254302779e-01 -4.07919606888737149540e-04 -3.97563845054373869031e-03 -4.07919606888737149540e-04 -3.97563845054373869031e-03 9.99991211638481702906e-01 -8.56525339287603481317e-05
9.94662748829415678978e+08 9.80988499328904417496e-01 -1.84906322598441780203e-01 -4.09590365553727845348e-04 -3.98368595812309284759e-03 -4.09590365553727845348e-04 -3.98368595812309284759e-03 9.99991175643077490065e-01 -8.58259122237329115076e-05
9.94673753471004605293e+08 9.80910474724078218500e-01 -1.85281349308697579348e-01 -4.11271354706864520484e-04 -3.99176566366572956046e-03 -4.11271354706864520484e-04 -3.99176566366572956046e-03 9.99991139427264030815e-01 -8.59999842027959094260e-05
9.94684758112593412399e+08 9.80831971393029800055e-01 -1.85657879398334307863e-01 -4.12962657703800717704e-04 -3.99987775853527169345e-03 -4.12962657703800717704e-04 -3.99987775853527169345e-03 9.99991102989245539412e-01 -8.61747539887535991647e-05
9.94695762754182219505e+08 9.80752985427397194762e-01 -1.86035921819311694803e-01 -4.14664358747646524805e-04 -4.00802243559584409072e-03 -4.14664358747646524805e-04 -4.00802243559584409072e-03 9.99991066327207911435e-01 -8.63502257367376637853e-05
9.94706767395771026611e+08 9.80673512879006947784e-01 -1.86415485593895702277e-01 -4.16376542899218676178e-04 -4.01619988922627662448e-03 -4.16376542899218676178e-04 -4.01619988922627662448e-03 9.99991029439318612759e-01 -8.65264036345129571460e-05
9.94717772037359833717e+08 9.80593549759387839160e-01 -1.86796579815344226949e-01 -4.18099296087524516762e-04 -4.02441031533487016125e-03 -4.18099296087524516762e-04 -4.02441031533487016125e-03 9.99990992323726346491e-01 -8.67032919027959476325e-05
9.94728776678948760033e+08 9.80513092039279055001e-01 -1.87179213648592773778e-01 -4.19832705120356500413e-04 -4.03265391137417640588e-03 -4.19832705120356500413e-04 -4.03265391137417640588e-03 9.99990954978560830924e-01 -8.68808947955728366275e-05
9.94739781320537567139e+08 9.80432135648131808381e-01 -1.87563396330946347002e-01 -4.21576857695031862946e-04 -4.04093087635589657408e-03 -4.21576857695031862946e-04 -4.04093087635589657408e-03 9.99990917401932688513e-01 -8.70592166004208076148e-05
9.94750785962126374245e+08 9.80350676473597748561e-01 -1.87949137172806035601e-01 -4.23331842409406273065e-04 -4.04924141086654247601e-03 -4.23331842409406273065e-04 -4.04924141086654247601e-03 9.99990879591933223836e-01 -8.72382616388452401595e-05
9.94761790603715181351e+08 9.80268710361021256006e-01 -1.88336445558355630725e-01 -4.25097748772824653770e-04 -4.05758571708222590124e-03 -4.25097748772824653770e-04 -4.05758571708222590124e-03 9.99990841546633868475e-01 -8.74180342665984111373e-05
9.94772795245304107666e+08 9.80186233112910976217e-01 -1.88725330946314967528e-01 -4.26874667217497336287e-04 -4.06596399878488608953e-03 -4.26874667217497336287e-04 -4.06596399878488608953e-03 9.99990803264086514091e-01 -8.75985388740291228294e-05
9.94783799886892914772e+08 9.80103240488419236165e-01 -1.89115802870630927979e-01 -4.28662689109714884709e-04 -4.07437646137718493394e-03 -4.28662689109714884709e-04 -4.07437646137718493394e-03 9.99990764742322624237e-01 -8.77797798864035590033e-05
9.94794804528481721878e+08 9.80019728202798034999e-01 -1.89507870941253320218e-01 -4.30461906761574880902e-04 -4.08282331189921236791e-03 -4.30461906761574880902e-04 -4.08282331189921236791e-03 9.99990725979353345387e-01 -8.79617617642652535864e-05
9.94805809170070528984e+08 9.79935691926858476464e-01 -1.89901544844864822448e-01 -4.32272413442627665304e-04 -4.09130475904422117456e-03 -4.32272413442627665304e-04 -4.09130475904422117456e-03 9.99990686973169395912e-01 -8.81444890037740393703e-05
9.94816813811659336090e+08 9.79851127286420209295e-01 -1.90296834345628829155e-01 -4.34094303391731870835e-04 -4.09982101317473476149e-03 -4.34094303391731870835e-04 -4.09982101317473476149e-03 9.99990647721740288922e-01 -8.83279661370531011264e-05
9.94827818453248262405e+08 9.79766029861746323704e-01 -1.90693749285978125796e-01 -4.35927671829229579619e-04 -4.10837228633953877727e-03 -4.35927671829229579619e-04 -4.10837228633953877727e-03 9.99990608223014665334e-01 -8.85121977325550293638e-05
9.94838823094837069511e+08 9.79680395186980579325e-01 -1.91092299587364872204e-01 -4.37772614969077786349e-04 -4.11695879228984179532e-03 -4.37772614969077786349e-04 -4.11695879228984179532e-03 9.99990568474919627739e-01 -8.86971883954100118576e-05
9.94849827736425876617e+08 9.79594218749568867999e-01 -1.91492495251053135297e-01 -4.39629230031310651739e-04 -4.12558074649634499292e-03 -4.39629230031310651739e-04 -4.12558074649634499292e-03 9.99990528475360740401e-01 -8.88829427677935814730e-05
9.94860832378014683723e+08 9.79507495989672682946e-01 -1.91894346358916889628e-01 -4.41497615254667638909e-04 -4.13423836616643933239e-03 -4.41497615254667638909e-04 -4.13423836616643933239e-03 9.99990488222221252101e-01 -8.90694655292971151526e-05
9.94871837019603610039e+08 9.79420222299576592739e-01 -1.92297863074239544501e-01 -4.43377869909367095490e-04 -4.14293187026142789575e-03 -4.43377869909367095490e-04 -4.14293187026142789575e-03 9.99990447713362762272e-01 -8.92567613972988885577e-05
9.94882841661192417145e+08 9.79332393023091274387e-01 -1.92703055642501869249e-01 -4.45270094309970962919e-04 -4.15166147951350275602e-03 -4.45270094309970962919e-04 -4.15166147951350275602e-03 9.99990406946623888729e-01 -8.94448351273298181184e-05
9.94893846302781224251e+08 9.79244003454935230124e-01 -1.93109934392234838807e-01 -4.47174389828695255465e-04 -4.16042741644411743357e-03 -4.47174389828695255465e-04 -4.16042741644411743357e-03 9.99990365919820600737e-01 -8.96336915134693032470e-05
9.94904850944370031357e+08 9.79155048840119168752e-01 -1.93518509735830984697e-01 -4.49090858908676303796e-04 -4.16922990538147030665e-03 -4.49090858908676303796e-04 -4.16922990538147030665e-03 9.99990324630745885948e-01 -8.98233353887218510673e-05
9.94915855585958838463e+08 9.79065524373314732820e-01 -1.93928792170396546712e-01 -4.51019605077577871721e-04 -4.17806917247885798578e-03 -4.51019605077577871721e-04 -4.17806917247885798578e-03 9.99990283077169417325e-01 -9.00137716254125391574e-05
9.94926860227547764778e+08 9.78975425198220450262e-01 -1.94340792278580115626e-01 -4.52960732961241586796e-04 -4.18694544573253342457e-03 -4.52960732961241586796e-04 -4.18694544573253342457e-03 9.99990241256836887018e-01 -9.02050051355717582430e-05
9.94937864869136571884e+08 9.78884746406910366545e-01 -1.94754520729451235939e-01 -4.54914348297725515315e-04 -4.19585895500063262020e-03 -4.54914348297725515315e-04 -4.19585895500063262020e-03 9.99990199167470339425e-01 -9.03970408713428857667e-05
9.94948869510725378990e+08 9.78793483039180012284e-01 -1.95169988279357053962e-01 -4.56880557951400796332e-04 -4.20480993202162946915e-03 -4.56880557951400796332e-04 -4.20480993202162946915e-03 9.99990156806767505060e-01 -9.05898838253800119027e-05
9.94959874152314186096e+08 9.78701630081874052181e-01 -1.95587205772823985450e-01 -4.58859469927419560704e-04 -4.21379861043376206797e-03 -4.58859469927419560704e-04 -4.21379861043376206797e-03 9.99990114172401356463e-01 -9.07835390312664144898e-05
9.94970878793903112411e+08 9.78609182468217042583e-01 -1.96006184143418582533e-01 -4.60851193386154444048e-04 -4.22282522579358211151e-03 -4.60851193386154444048e-04 -4.22282522579358211151e-03 9.99990071262020219223e-01 -9.09780115639141281902e-05
9.94981883435491919518e+08 9.78516135077122428676e-01 -1.96426934414663523221e-01 -4.62855838658065925871e-04 -4.23189001559568650501e-03 -4.62855838658065925871e-04 -4.23189001559568650501e-03 9.99990028073247105844e-01 -9.11733065399891414761e-05
9.94992888077080726624e+08 9.78422482732492104773e-01 -1.96849467700968561168e-01 -4.64873517258810198954e-04 -4.24099321929277423698e-03 -4.64873517258810198954e-04 -4.24099321929277423698e-03 9.99989984603679382680e-01 -9.13694291183434511953e-05
9.95003892718669533730e+08 9.78328220202519083237e-01 -1.97273795208504798548e-01 -4.66904341904249460538e-04 -4.25013507831448200669e-03 -4.66904341904249460538e-04 -4.25013507831448200669e-03 9.99989940850888769930e-01 -9.15663845004209472076e-05
9.95014897360258340836e+08 9.78233342198957744884e-01 -1.97699928236193617215e-01 -4.68948426526184932676e-04 -4.25931583608869356733e-03 -4.68948426526184932676e-04 -4.25931583608869356733e-03 9.99989896812420564487e-01 -9.17641779307163551636e-05
9.95025902001847267151e+08 9.78137843376401527884e-01 -1.98127878176620170203e-01 -4.71005886287907628209e-04 -4.26853573806121409234e-03 -4.71005886287907628209e-04 -4.26853573806121409234e-03 9.99989852485793750958e-01 -9.19628146971992679751e-05
9.95036906643436074257e+08 9.78041718331545073539e-01 -1.98557656516983094264e-01 -4.73076837600104518206e-04 -4.27779503171623557561e-03 -4.73076837600104518206e-04 -4.27779503171623557561e-03 9.99989807868500224508e-01 -9.21623001317549824180e-05
9.95047911285024881363e+08 9.77944961602426721115e-01 -1.98989274840090490937e-01 -4.75161398137170895746e-04 -4.28709396659779622824e-03 -4.75161398137170895746e-04 -4.28709396659779622824e-03 9.99989762958004901883e-01 -9.23626396106467893862e-05
9.95058915926613688469e+08 9.77847567667671668801e-01 -1.99422744825316078376e-01 -4.77259686853519487105e-04 -4.29643279433037164616e-03 -4.77259686853519487105e-04 -4.29643279433037164616e-03 9.99989717751744944252e-01 -9.25638385549597107358e-05
9.95069920568202614784e+08 9.77749530945713041241e-01 -1.99858078249614434796e-01 -4.79371824000366882935e-04 -4.30581176864075921423e-03 -4.79371824000366882935e-04 -4.30581176864075921423e-03 9.99989672247129535165e-01 -9.27659024310718832848e-05
9.95080925209791421890e+08 9.77650845794016731816e-01 -2.00295286988476511914e-01 -4.81497931142424180195e-04 -4.31523114537865452867e-03 -4.81497931142424180195e-04 -4.31523114537865452867e-03 9.99989626441539658508e-01 -9.29688367510979026334e-05
9.95091929851380228996e+08 9.77551506508268830409e-01 -2.00734383017012990580e-01 -4.83638131175406196707e-04 -4.32469118253999730561e-03 -4.83638131175406196707e-04 -4.32469118253999730561e-03 9.99989580332327765433e-01 -9.31726470733917710000e-05
9.95102934492969036102e+08 9.77451507321578705323e-01 -2.01175378410927863104e-01 -4.85792548343208757233e-04 -4.33419214028794158589e-03 -4.85792548343208757233e-04 -4.33419214028794158589e-03 9.99989533916816886183e-01 -9.33773390029987520287e-05
9.95113939134557843208e+08 9.77350842403650554857e-01 -2.01618285347584746958e-01 -4.87961308255743927628e-04 -4.34373428097583474949e-03 -4.87961308255743927628e-04 -4.34373428097583474949e-03 9.99989487192300963159e-01 -9.35829181921503768437e-05
9.95124943776146769524e+08 9.77249505859949407771e-01 -2.02063116107060680715e-01 -4.90144537906921345244e-04 -4.35331786916991723968e-03 -4.90144537906921345244e-04 -4.35331786916991723968e-03 9.99989440156044073760e-01 -9.37893903407534734393e-05
9.95135948417735576630e+08 9.77147491730859463210e-01 -2.02509883073185015245e-01 -4.92342365692768923514e-04 -4.36294317167170309785e-03 -4.92342365692768923514e-04 -4.36294317167170309785e-03 9.99989392805279764254e-01 -9.39967611968724604636e-05
9.95146953059324383736e+08 9.77044793990814897100e-01 -2.02958598734658740570e-01 -4.94554921430166130776e-04 -4.37261045754209869141e-03 -4.94554921430166130776e-04 -4.37261045754209869141e-03 9.99989345137211493864e-01 -9.42050365572488155848e-05
9.95157957700913190842e+08 9.76941406547434665342e-01 -2.03409275686111057357e-01 -4.96782336375487551354e-04 -4.38231999812416575524e-03 -4.96782336375487551354e-04 -4.38231999812416575524e-03 9.99989297149011191479e-01 -9.44142222677915956587e-05
9.95168962342502117157e+08 9.76837323240628330190e-01 -2.03861926629234080366e-01 -4.99024743243855388800e-04 -4.39207206706756451281e-03 -4.99024743243855388800e-04 -4.39207206706756451281e-03 9.99989248837819699745e-01 -9.46243242241040066190e-05
9.95179966984090924263e+08 9.76732537841699444137e-01 -2.04316564373886483397e-01 -5.01282276228468405381e-04 -4.40186694035233413297e-03 -5.01282276228468405381e-04 -4.40186694035233413297e-03 9.99989200200745997904e-01 -9.48353483719957432137e-05
9.95190971625679731369e+08 9.76627044052433168631e-01 -2.04773201839215018838e-01 -5.03555071020248966492e-04 -4.41170489631305482586e-03 -5.03555071020248966492e-04 -4.41170489631305482586e-03 9.99989151234866535667e-01 -9.50473007080035686787e-05
9.95201976267268538475e+08 9.76520835504161133223e-01 -2.05231852054830965493e-01 -5.05843264828001503222e-04 -4.42158621566419041821e-03 -5.05843264828001503222e-04 -4.42158621566419041821e-03 9.99989101937225344230e-01 -9.52601872799372782936e-05
9.95212980908857345581e+08 9.76413905756823408133e-01 -2.05692528161946525112e-01 -5.08146996398609680952e-04 -4.43151118152457657723e-03 -5.08146996398609680952e-04 -4.43151118152457657723e-03 9.99989052304833259122e-01 -9.54740141874072450546e-05
9.95223985550446271896e+08 9.76306248298005385777e-01 -2.06155243414572975080e-01 -5.10466406037790847855e-04 -4.44148007944322915919e-03 -5.10466406037790847855e-04 -4.44148007944322915919e-03 9.99989002334667365091e-01 -9.56887875823805747304e-05
9.95234990192035079002e+08 9.76197856541973330025e-01 -2.06620011180676244056e-01 -5.12801635630881708430e-04 -4.45149319742424529750e-03 -5.12801635630881708430e-04 -4.45149319742424529750e-03 9.99988952023670885083e-01 -9.59045136697173929152e-05
9.95245994833623886108e+08 9.76088723828678395122e-01 -2.07086844943411757525e-01 -5.15152828664279071984e-04 -4.46155082595339931573e-03 -5.15152828664279071984e-04 -4.46155082595339931573e-03 9.99988901368752625132e-01 -9.61211987077440356119e-05
9.95256999475212693214e+08 9.75978843422754538395e-01 -2.07555758302342019395e-01 -5.17520130247050712431e-04 -4.47165325802438649166e-03 -5.17520130247050712431e-04 -4.47165325802438649166e-03 9.99988850366786086177e-01 -9.63388490088182980345e-05
9.95268004116801619530e+08 9.75868208512500445728e-01 -2.08026764974662270458e-01 -5.19903687132851756274e-04 -4.48180078916521947713e-03 -5.19903687132851756274e-04 -4.48180078916521947713e-03 9.99988799014609686111e-01 -9.65574709398981799631e-05
9.95279008758390426636e+08 9.75756812208847690293e-01 -2.08499878796436777240e-01 -5.22303647742160368113e-04 -4.49199371746486497692e-03 -5.22303647742160368113e-04 -4.49199371746486497692e-03 9.99988747309025760579e-01 -9.67770709231158217161e-05
9.95290013399979233742e+08 9.75644647544301357733e-01 -2.08975113723897543139e-01 -5.24720162185104001089e-04 -4.50223234360122744058e-03 -5.24720162185104001089e-04 -4.50223234360122744058e-03 9.99988695246800340932e-01 -9.69976554363802934535e-05
9.95301018041568040848e+08 9.75531707471875342286e-01 -2.09452483834710101451e-01 -5.27153382284397320143e-04 -4.51251697086841718071e-03 -5.27153382284397320143e-04 -4.51251697086841718071e-03 9.99988642824662377073e-01 -9.72192310139650972284e-05
9.95312022683156847954e+08 9.75417984864007991952e-01 -2.09932003329266592129e-01 -5.29603461598700036780e-04 -4.52284790520460742991e-03 -5.29603461598700036780e-04 -4.52284790520460742991e-03 9.99988590039303737456e-01 -9.74418042471083948632e-05
9.95323027324745774269e+08 9.75303472511457436589e-01 -2.10413686532009119867e-01 -5.32070555446420025668e-04 -4.53322545522054885792e-03 -5.32070555446420025668e-04 -4.53322545522054885792e-03 9.99988536887377987838e-01 -9.76653817846272626893e-05
9.95334031966334581375e+08 9.75188163122185369680e-01 -2.10897547892744202658e-01 -5.34554820929761362498e-04 -4.54364993222788633026e-03 -5.34554820929761362498e-04 -4.54364993222788633026e-03 9.99988483365500613331e-01 -9.78899703335277179004e-05
9.95345036607923388481e+08 9.75072049320213185553e-01 -2.11383601988014063755e-01 -5.37056416959365095186e-04 -4.55412165026870038170e-03 -5.37056416959365095186e-04 -4.55412165026870038170e-03 9.99988429470248019193e-01 -9.81155766596413485151e-05
9.95356041249512195587e+08 9.74955123644469900945e-01 -2.11871863522444275896e-01 -5.39575504279133245228e-04 -4.56464092614454648722e-03 -5.39575504279133245228e-04 -4.56464092614454648722e-03 9.99988375198156864698e-01 -9.83422075882507354004e-05
