! File generated for n1 = 5, n2 = 12
! b1 = 4.641589
! b2 = 0.001000
! Q0 = 10000.000000
! f0 = 1000000000.000000
! n = 1001
! rel_span = 10.000000
# Hz S RI R 50
9.97178705583193659782e+08 9.83756442404677522440e-01 -1.62665363543433499904e-01 -2.38422819419911740822e-04 -2.38760101476529320100e-03 -2.38422819419911740822e-04 -2.38760101476529320100e-03 9.99996500431602708403e-01 -3.50451902084620661748e-05
9.97184348172027230263e+08 9.83691827232650473078e-01 -1.62985342695285084780e-01 -2.39371240441697933103e-04 -2.39229766641271390099e-03 -2.39371240441697933103e-04 -2.39229766641271390099e-03 9.99996486510685844706e-01 -3.51141276269456697741e-05
9.97189990760860919952e+08 9.83626827410672088803e-01 -1.63306568299508791942e-01 -2.40325307352652227030e-04 -2.39701261347892392514e-03 -2.40325307352652227030e-04 -2.39701261347892392514e-03 9.99996472506898714805e-01 -3.51833335854522623104e-05
9.97195633349694490433e+08 9.83561439890779487527e-01 -1.63629047573428942908e-01 -2.41285064890752837209e-04 -2.40174596189975716326e-03 -2.41285064890752837209e-04 -2.40174596189975716326e-03 9.99996458419584621780e-01 -3.52528096389072555738e-05
9.97201275938528060913e+08 9.83495661594868342270e-01 -1.63952787789533094287e-01 -2.42250558236390984429e-04 -2.40649781842073185595e-03 -2.42250558236390984429e-04 -2.40649781842073185595e-03 9.99996444248080429418e-01 -3.53225573541205773494e-05
9.97206918527361750603e+08 9.83429489414331503561e-01 -1.64277796276015741750e-01 -2.43221833017679881341e-04 -2.41126829060503379207e-03 -2.43221833017679881341e-04 -2.41126829060503379207e-03 9.99996429991716229146e-01 -3.53925783099038736724e-05
9.97212561116195321083e+08 9.83362920209709168162e-01 -1.64604080417244585943e-01 -2.44198935315587399748e-04 -2.41605748684035762444e-03 -2.44198935315587399748e-04 -2.41605748684035762444e-03 9.99996415649815895144e-01 -3.54628740971709398300e-05
9.97218203705028891563e+08 9.83295950810305185996e-01 -1.64931647654376262180e-01 -2.45181911669570967455e-04 -2.42086551634794608021e-03 -2.45181911669570967455e-04 -2.42086551634794608021e-03 9.99996401221696196160e-01 -3.55334463190703792740e-05
9.97223846293862581253e+08 9.83228578013824683346e-01 -1.65260505485844616524e-01 -2.46170809082888722343e-04 -2.42569248918975697085e-03 -2.46170809082888722343e-04 -2.42569248918975697085e-03 9.99996386706667128585e-01 -3.56042965910907915602e-05
9.97229488882696151733e+08 9.83160798586001360988e-01 -1.65590661467885841285e-01 -2.47165675028076928851e-04 -2.43053851627616840023e-03 -2.47165675028076928851e-04 -2.43053851627616840023e-03 9.99996372104032138495e-01 -3.56754265411739020686e-05
9.97235131471529841423e+08 9.83092609260200478438e-01 -1.65922123215160560727e-01 -2.48166557452779272270e-04 -2.43540370937511381835e-03 -2.48166557452779272270e-04 -2.43540370937511381835e-03 9.99996357413087233468e-01 -3.57468378098486236024e-05
9.97240774060363411903e+08 9.83024006737047040261e-01 -1.66254898401230366556e-01 -2.49173504785196167285e-04 -2.44028818111907425809e-03 -2.49173504785196167285e-04 -2.44028818111907425809e-03 9.99996342633121648724e-01 -3.58185320503336828996e-05
9.97246416649196982384e+08 9.82954987684018788308e-01 -1.66588994759189534811e-01 -2.50186565940063265594e-04 -2.44519204501435129945e-03 -2.50186565940063265594e-04 -2.44519204501435129945e-03 9.99996327763417403034e-01 -3.58905109286737422159e-05
9.97252059238030672073e+08 9.82885548735053737879e-01 -1.66924420082205982041e-01 -2.51205790324416863585e-04 -2.45011541544900559794e-03 -2.51205790324416863585e-04 -2.45011541544900559794e-03 9.99996312803249409740e-01 -3.59627761238559239530e-05
9.97257701826864242554e+08 9.82815686490151385613e-01 -1.67261182224067828095e-01 -2.52231227843438890468e-04 -2.45505840770088214903e-03 -2.52231227843438890468e-04 -2.45505840770088214903e-03 9.99996297751885032667e-01 -3.60353293279275821198e-05
9.97263344415697813034e+08 9.82745397514951268825e-01 -1.67599289099822301718e-01 -2.53262928906645154795e-04 -2.46002113794698603483e-03 -2.53262928906645154795e-04 -2.46002113794698603483e-03 9.99996282608584308171e-01 -3.61081722461339553508e-05
9.97268987004531502724e+08 9.82674678340322849124e-01 -1.67938748686339317517e-01 -2.54300944433909713836e-04 -2.46500372327175575407e-03 -2.54300944433909713836e-04 -2.46500372327175575407e-03 9.99996267372600056156e-01 -3.61813065970395704440e-05
9.97274629593365073204e+08 9.82603525461946181174e-01 -1.68279569022894315289e-01 -2.55345325861613058841e-04 -2.47000628167561714355e-03 -2.55345325861613058841e-04 -2.47000628167561714355e-03 9.99996252043177102919e-01 -3.62547341126538133016e-05
9.97280272182198643684e+08 9.82531935339881479230e-01 -1.68621758211787847737e-01 -2.56396125148969085232e-04 -2.47502893208407809961e-03 -2.56396125148969085232e-04 -2.47502893208407809961e-03 9.99996236619552836267e-01 -3.63284565385644213223e-05
9.97285914771032333374e+08 9.82459904398132466419e-01 -1.68965324418966167386e-01 -2.57453394784423186467e-04 -2.48007179435683847851e-03 -2.57453394784423186467e-04 -2.48007179435683847851e-03 9.99996221100956872441e-01 -3.64024756340711858581e-05
9.97291557359865903854e+08 9.82387429024216163320e-01 -1.69310275874594101664e-01 -2.58517187791972285343e-04 -2.48513498929619700006e-03 -2.58517187791972285343e-04 -2.48513498929619700006e-03 9.99996205486610945101e-01 -3.64767931723093615263e-05
9.97297199948699474335e+08 9.82314505568704365857e-01 -1.69656620873739893973e-01 -2.59587557737899572632e-04 -2.49021863865710440383e-03 -2.59587557737899572632e-04 -2.49021863865710440383e-03 9.99996189775728683280e-01 -3.65514109403972396782e-05
9.97302842537533164024e+08 9.82241130344776114391e-01 -1.70004367776979914417e-01 -2.60664558737333659170e-04 -2.49532286515604002919e-03 -2.60664558737333659170e-04 -2.49532286515604002919e-03 9.99996173967515944447e-01 -3.66263307395663881847e-05
9.97308485126366734505e+08 9.82167299627768275450e-01 -1.70353525010995876521e-01 -2.61748245460855920742e-04 -2.50044779247977563830e-03 -2.61748245460855920742e-04 -2.50044779247977563830e-03 9.99996158061170148379e-01 -3.67015543852903462340e-05
9.97314127715200424194e+08 9.82093009654691928567e-01 -1.70704101069302865978e-01 -2.62838673141586789267e-04 -2.50559354529606391482e-03 -2.62838673141586789267e-04 -2.50559354529606391482e-03 9.99996142055880610222e-01 -3.67770837074414609527e-05
9.97319770304033994675e+08 9.82018256623780616543e-01 -1.71056104512809975526e-01 -2.63935897581827737940e-04 -2.51076024926186625735e-03 -2.63935897581827737940e-04 -2.51076024926186625735e-03 9.99996125950828318452e-01 -3.68529205504117081849e-05
9.97325412892867565155e+08 9.81943036693989967922e-01 -1.71409543970581196293e-01 -2.65039975160400570996e-04 -2.51594803103451919446e-03 -2.65039975160400570996e-04 -2.51594803103451919446e-03 9.99996109745185712825e-01 -3.69290667732765425456e-05
9.97331055481701254845e+08 9.81867345984530182079e-01 -1.71764428140417590996e-01 -2.66150962839509339260e-04 -2.52115701828028440298e-03 -2.66150962839509339260e-04 -2.52115701828028440298e-03 9.99996093438116684382e-01 -3.70055242499204141513e-05
9.97336698070534825325e+08 9.81791180574363764322e-01 -1.72120765789578716864e-01 -2.67268918172113185971e-04 -2.52638733968493355703e-03 -2.67268918172113185971e-04 -2.52638733968493355703e-03 9.99996077028776464424e-01 -3.70822948691921280145e-05
9.97342340659368395805e+08 9.81714536501708034955e-01 -1.72478565755456336728e-01 -2.68393899309230399980e-04 -2.53163912496363711913e-03 -2.68393899309230399980e-04 -2.53163912496363711913e-03 9.99996060516311624511e-01 -3.71593805350500254914e-05
9.97347983248202085495e+08 9.81637409763527757356e-01 -1.72837836946266393268e-01 -2.69525965007381843128e-04 -2.53691250487112418197e-03 -2.69525965007381843128e-04 -2.53691250487112418197e-03 9.99996043899859521353e-01 -3.72367831667110485276e-05
9.97353625837035655975e+08 9.81559796315022325963e-01 -1.73198588341742509833e-01 -2.70665174636120734342e-04 -2.54220761121185922365e-03 -2.70665174636120734342e-04 -2.54220761121185922365e-03 9.99996027178548962944e-01 -3.73145046988001698228e-05
9.97359268425869226456e+08 9.81481692069100186693e-01 -1.73560828993861798741e-01 -2.71811588185747398608e-04 -2.54752457685069547827e-03 -2.71811588185747398608e-04 -2.54752457685069547827e-03 9.99996010351499320379e-01 -3.73925470815067212318e-05
9.97364911014702916145e+08 9.81403092895849815669e-01 -1.73924568027558235084e-01 -2.72965266275072317159e-04 -2.55286353572334746148e-03 -2.72965266275072317159e-04 -2.55286353572334746148e-03 9.99995993417820749904e-01 -3.74709122807381539606e-05
9.97370553603536486626e+08 9.81323994622011364086e-01 -1.74289814641408441487e-01 -2.74126270159176250313e-04 -2.55822462284645496880e-03 -2.74126270159176250313e-04 -2.55822462284645496880e-03 9.99995976376614192915e-01 -3.75496022782677069032e-05
9.97376196192370057106e+08 9.81244393030416883761e-01 -1.74656578108429438867e-01 -2.75294661737614503733e-04 -2.56360797432929462744e-03 -2.75294661737614503733e-04 -2.56360797432929462744e-03 9.99995959226971264933e-01 -3.76286190719063475527e-05
9.97381838781203746796e+08 9.81164283859446095803e-01 -1.75024867776785442164e-01 -2.76470503562422460428e-04 -2.56901372738415180799e-03 -2.76470503562422460428e-04 -2.56901372738415180799e-03 9.99995941967973478448e-01 -3.77079646756550007636e-05
9.97387481370037317276e+08 9.81083662802468947639e-01 -1.75394693070516971556e-01 -2.77653858846282333619e-04 -2.57444202033702386825e-03 -2.77653858846282333619e-04 -2.57444202033702386825e-03 9.99995924598693353147e-01 -3.77876411198616360930e-05
9.97393123958870887756e+08 9.81002525507266631699e-01 -1.75766063490347429488e-01 -2.78844791471030359082e-04 -2.57989299263946050833e-03 -2.78844791471030359082e-04 -2.57989299263946050833e-03 9.99995907118192972618e-01 -3.78676504513950857385e-05
9.97398766547704577446e+08 9.80920867575454935583e-01 -1.76138988614445157754e-01 -2.80043365996116553653e-04 -2.58536678487974579815e-03 -2.80043365996116553653e-04 -2.58536678487974579815e-03 9.99995889525524872532e-01 -3.79479947338091453128e-05
9.97404409136538147926e+08 9.80838684561911922088e-01 -1.76513478099139198285e-01 -2.81249647667010697297e-04 -2.59086353879340626494e-03 -2.81249647667010697297e-04 -2.59086353879340626494e-03 9.99995871819731374508e-01 -3.80286760474968422606e-05
9.97410051725371837616e+08 9.80755971974160867255e-01 -1.76889541679804918051e-01 -2.82463702424253144431e-04 -2.59638339727621134459e-03 -2.82463702424253144431e-04 -2.59638339727621134459e-03 9.99995853999844475091e-01 -3.81096964898812283354e-05
9.97415694314205408096e+08 9.80672725271785727941e-01 -1.77267189171572886464e-01 -2.83685596912034440967e-04 -2.60192650439457434999e-03 -2.83685596912034440967e-04 -2.60192650439457434999e-03 9.99995836064886178818e-01 -3.81910581755680691475e-05
9.97421336903038978577e+08 9.80588939865805975238e-01 -1.77646430470193350537e-01 -2.84915398487379275660e-04 -2.60749300539824631004e-03 -2.84915398487379275660e-04 -2.60749300539824631004e-03 9.99995818013867610041e-01 -3.82727632365321372016e-05
9.97426979491872668266e+08 9.80504611118062308073e-01 -1.78027275552815056336e-01 -2.86153175229155170168e-04 -2.61308304673174215949e-03 -2.86153175229155170168e-04 -2.61308304673174215949e-03 9.99995799845789679061e-01 -3.83548138222849650781e-05
9.97432622080706238747e+08 9.80419734340579274168e-01 -1.78409734478840203975e-01 -2.87398995947433263769e-04 -2.61869677604689449907e-03 -2.87398995947433263769e-04 -2.61869677604689449907e-03 9.99995781559642304970e-01 -3.84372121000590513825e-05
9.97438264669539809227e+08 9.80334304794931665761e-01 -1.78793817390726084149e-01 -2.88652930192781606491e-04 -2.62433434221461675540e-03 -2.88652930192781606491e-04 -2.62433434221461675540e-03 9.99995763154404637696e-01 -3.85199602549805944799e-05
9.97443907258373498917e+08 9.80248317691585713263e-01 -1.79179534514871396933e-01 -2.89915048265942585076e-04 -2.62999589533791490806e-03 -2.89915048265942585076e-04 -2.62999589533791490806e-03 9.99995744629044835960e-01 -3.86030604902604001691e-05
9.97449549847207069397e+08 9.80161768189249826833e-01 -1.79566896162422717786e-01 -2.91185421227359699046e-04 -2.63568158676372177318e-03 -2.91185421227359699046e-04 -2.63568158676372177318e-03 9.99995725982519845232e-01 -3.86865150273676386330e-05
9.97455192436040639877e+08 9.80074651394191032061e-01 -1.79955912730200506822e-01 -2.92464120907208165526e-04 -2.64139156909649289867e-03 -2.92464120907208165526e-04 -2.64139156909649289867e-03 9.99995707213775286704e-01 -3.87703261062294054010e-05
9.97460835024874329567e+08 9.79986962359570723535e-01 -1.80346594701507018099e-01 -2.93751219915150624598e-04 -2.64712599621006123077e-03 -2.93751219915150624598e-04 -2.64712599621006123077e-03 9.99995688321745457294e-01 -3.88544959854046815877e-05
9.97466477613707900047e+08 9.79898696084743781043e-01 -1.80738952647058193079e-01 -2.95046791650617435884e-04 -2.65288502326131844442e-03 -2.95046791650617435884e-04 -2.65288502326131844442e-03 9.99995669305352996581e-01 -3.89390269422851891218e-05
9.97472120202541470528e+08 9.79809847514557463732e-01 -1.81132997225885161718e-01 -2.96350910313104430778e-04 -2.65866880670344524554e-03 -2.96350910313104430778e-04 -2.65866880670344524554e-03 9.99995650163508886799e-01 -3.90239212732895713546e-05
9.97477762791375160217e+08 9.79720411538646862581e-01 -1.81528739186211568457e-01 -2.97663650912511484892e-04 -2.66447750429878952444e-03 -2.97663650912511484892e-04 -2.66447750429878952444e-03 9.99995630895111897729e-01 -3.91091812940524169331e-05
9.97483405380208730698e+08 9.79630382990710035784e-01 -1.81926189366384161161e-01 -2.98985089279778161898e-04 -2.67031127513252556846e-03 -2.98985089279778161898e-04 -2.67031127513252556846e-03 9.99995611499049252835e-01 -3.91948093396247423340e-05
9.97489047969042420387e+08 9.79539756647772041909e-01 -1.82325358695818673382e-01 -3.00315302077695377592e-04 -2.67617027962653705395e-03 -3.00315302077695377592e-04 -2.67617027962653705395e-03 9.99995591974195519036e-01 -3.92808077646777947670e-05
9.97494690557875990868e+08 9.79448527229444310116e-01 -1.82726258195922031113e-01 -3.01654366811764768855e-04 -2.68205467955295482826e-03 -3.01654366811764768855e-04 -2.68205467955295482826e-03 9.99995572319413161821e-01 -3.93671789437017051179e-05
9.97500333146709561348e+08 9.79356689397166357836e-01 -1.83128898981061022377e-01 -3.03002361841341689899e-04 -2.68796463804837253500e-03 -3.03002361841341689899e-04 -2.68796463804837253500e-03 9.99995552533551990138e-01 -3.94539252712142104193e-05
9.97505975735543251038e+08 9.79264237753439403811e-01 -1.83533292259519392742e-01 -3.04359366390869986226e-04 -2.69390031962789744044e-03 -3.04359366390869986226e-04 -2.69390031962789744044e-03 9.99995532615449156388e-01 -3.95410491619668555516e-05
9.97511618324376821518e+08 9.79171166841052875718e-01 -1.83939449334454357965e-01 -3.05725460561248770213e-04 -2.69986189019918781593e-03 -3.05725460561248770213e-04 -2.69986189019918781593e-03 9.99995512563928934391e-01 -3.96285530511510323127e-05
9.97517260913210391998e+08 9.79077471142283828343e-01 -1.84347381604924503984e-01 -3.07100725341573680110e-04 -2.70584951707754286371e-03 -3.07100725341573680110e-04 -2.70584951707754286371e-03 9.99995492377802608353e-01 -3.97164393946194683701e-05
9.97522903502044081688e+08 9.78983145078096805847e-01 -1.84757100566879134407e-01 -3.08485242620888330551e-04 -2.71186336900042148507e-03 -3.08485242620888330551e-04 -2.71186336900042148507e-03 9.99995472055868139805e-01 -3.98047106690993610784e-05
9.97528546090877652168e+08 9.78888183007336154517e-01 -1.85168617814134600641e-01 -3.09879095200030739172e-04 -2.71790361614177586672e-03 -3.09879095200030739172e-04 -2.71790361614177586672e-03 9.99995451596910167602e-01 -3.98933693724027194777e-05
9.97534188679711222649e+08 9.78792579225887582339e-01 -1.85581945039447915313e-01 -3.11282366803952085903e-04 -2.72397043012780754045e-03 -3.11282366803952085903e-04 -2.72397043012780754045e-03 9.99995430999699785879e-01 -3.99824180236576856031e-05
9.97539831268544912338e+08 9.78696327965838164253e-01 -1.85997094035547011481e-01 -3.12695142094035526473e-04 -2.73006398405209026875e-03 -3.12695142094035526473e-04 -2.73006398405209026875e-03 9.99995410262994433026e-01 -4.00718591635304638931e-05
9.97545473857378482819e+08 9.78599423394637568663e-01 -1.86414076696116176590e-01 -3.14117506680409476483e-04 -2.73618445249003547012e-03 -3.14117506680409476483e-04 -2.73618445249003547012e-03 9.99995389385537447602e-01 -4.01616953544376621850e-05
9.97551116446212053299e+08 9.78501859614203772786e-01 -1.86832905016978162438e-01 -3.15549547135082015994e-04 -2.74233201151624162231e-03 -3.15549547135082015994e-04 -2.74233201151624162231e-03 9.99995368366058179355e-01 -4.02519291808009504769e-05
9.97556759035045742989e+08 9.78403630660063972080e-01 -1.87253591097073263105e-01 -3.16991351004537692468e-04 -2.74850683871886514523e-03 -3.16991351004537692468e-04 -2.74850683871886514523e-03 9.99995347203271545133e-01 -4.03425632492579924596e-05
9.97562401623879313469e+08 9.78304730500456187769e-01 -1.87676147139569649003e-01 -3.18443006822937628008e-04 -2.75470911321592029641e-03 -3.18443006822937628008e-04 -2.75470911321592029641e-03 9.99995325895878028888e-01 -4.04336001889016747267e-05
9.97568044212712883949e+08 9.78205153035410113205e-01 -1.88100585453008950498e-01 -3.19904604125600977062e-04 -2.76093901567208950890e-03 -3.19904604125600977062e-04 -2.76093901567208950890e-03 9.99995304442563570646e-01 -4.05250426515268982936e-05
9.97573686801546573639e+08 9.78104892095835065646e-01 -1.88526918452377983959e-01 -3.21376233462395419563e-04 -2.76719672831445950151e-03 -3.21376233462395419563e-04 -2.76719672831445950151e-03 9.99995282841998900381e-01 -4.06168933118615001080e-05
9.97579329390380144119e+08 9.78003941442576296694e-01 -1.88955158660265742920e-01 -3.22857986411586000541e-04 -2.77348243494949901755e-03 -3.22857986411586000541e-04 -2.77348243494949901755e-03 9.99995261092839982098e-01 -4.07091548678154772477e-05
9.97584971979213833809e+08 9.77902294765469304316e-01 -1.89385318707983363318e-01 -3.24349955593724464682e-04 -2.77979632097950140127e-03 -3.24349955593724464682e-04 -2.77979632097950140127e-03 9.99995239193727236682e-01 -4.08018300407223438774e-05
9.97590614568047404289e+08 9.77799945682362725563e-01 -1.89817411336762525975e-01 -3.25852234685981433267e-04 -2.78613857342017079075e-03 -3.25852234685981433267e-04 -2.78613857342017079075e-03 9.99995217143285763939e-01 -4.08949215755972323512e-05
9.97596257156880974770e+08 9.77696887738145892222e-01 -1.90251449398887356734e-01 -3.27364918436422907329e-04 -2.79250938091723990148e-03 -3.27364918436422907329e-04 -2.79250938091723990148e-03 9.99995194940124787486e-01 -4.09884322413808251497e-05
9.97601899745714664459e+08 9.77593114403735308215e-01 -1.90687445858947979271e-01 -3.28888102678888286177e-04 -2.79890893376486763616e-03 -3.28888102678888286177e-04 -2.79890893376486763616e-03 9.99995172582837543729e-01 -4.10823648312093957593e-05
9.97607542334548234940e+08 9.77488619075087994403e-01 -1.91125413794929199796e-01 -3.30421884347472868959e-04 -2.80533742392161979107e-03 -3.30421884347472868959e-04 -2.80533742392161979107e-03 9.99995150070001503906e-01 -4.11767221626493554838e-05
9.97613184923381805420e+08 9.77383395072136229587e-01 -1.91565366399575470746e-01 -3.31966361492161128426e-04 -2.81179504503050207639e-03 -3.31966361492161128426e-04 -2.81179504503050207639e-03 9.99995127400177263866e-01 -4.12715070779913365071e-05
9.97618827512215495110e+08 9.77277435637767366572e-01 -1.92007316981514547516e-01 -3.33521633293804150786e-04 -2.81828199243545516814e-03 -3.33521633293804150786e-04 -2.81828199243545516814e-03 9.99995104571909099178e-01 -4.13667224444922671336e-05
