! File generated for n1 = 6, n2 = 1
! b1 = 2.154435
! b2 = 2.154435
! Q0 = 10000.000000
! f0 = 1000000000.000000
! n = 1001
! rel_span = 10.000000
# Hz S RI R 50
9.97345565309968113899e+08 9.91985134648143529468e-01 -8.02553113178586796650e-02 -8.01486535185648614477e-03 -8.02553113178586796650e-02 -8.01486535185648614477e-03 -8.02553113178586796650e-02 9.91985134648143529468e-01 -8.02553113178586796650e-02
9.97350874179348230362e+08 9.91953255086235996529e-01 -8.04131678083058604178e-02 -8.04674491376396183728e-03 -8.04131678083058604178e-02 -8.04674491376396183728e-03 -8.04131678083058604178e-02 9.91953255086235996529e-01 -8.04131678083058604178e-02
9.97356183048728227615e+08 9.91921185752927869750e-01 -8.05716392142446502511e-02 -8.07881424707216494463e-03 -8.05716392142446502511e-02 -8.07881424707216494463e-03 -8.05716392142446502511e-02 9.91921185752927869750e-01 -8.05716392142446502511e-02
9.97361491918108344078e+08 9.91888925144493116548e-01 -8.07307290962157309000e-02 -8.11107485550685396170e-03 -8.07307290962157309000e-02 -8.11107485550685396170e-03 -8.07307290962157309000e-02 9.91888925144493116548e-01 -8.07307290962157309000e-02
9.97366800787488341331e+08 9.91856471742339707021e-01 -8.08904410419552244438e-02 -8.14352825766025655019e-03 -8.08904410419552244438e-02 -8.14352825766025655019e-03 -8.08904410419552244438e-02 9.91856471742339707021e-01 -8.08904410419552244438e-02
9.97372109656868457794e+08 9.91823824012824317720e-01 -8.10507786666931628883e-02 -8.17617598717563023869e-03 -8.10507786666931628883e-02 -8.17617598717563023869e-03 -8.10507786666931628883e-02 9.91823824012824317720e-01 -8.10507786666931628883e-02
9.97377418526248455048e+08 9.91790980407082911618e-01 -8.12117456133704118670e-02 -8.20901959291710919819e-03 -8.12117456133704118670e-02 -8.20901959291710919819e-03 -8.12117456133704118670e-02 9.91790980407082911618e-01 -8.12117456133704118670e-02
9.97382727395628571510e+08 9.91757939360841112020e-01 -8.13733455529414007046e-02 -8.24206063915892093996e-03 -8.13733455529414007046e-02 -8.24206063915892093996e-03 -8.13733455529414007046e-02 9.91757939360841112020e-01 -8.13733455529414007046e-02
9.97388036265008568764e+08 9.91724699294237899139e-01 -8.15355821846066447511e-02 -8.27530070576214596412e-03 -8.15355821846066447511e-02 -8.27530070576214596412e-03 -8.15355821846066447511e-02 9.91724699294237899139e-01 -8.15355821846066447511e-02
9.97393345134388685226e+08 9.91691258611633319475e-01 -8.16984592361101047420e-02 -8.30874138836670481090e-03 -8.16984592361101047420e-02 -8.30874138836670481090e-03 -8.16984592361101047420e-02 9.91691258611633319475e-01 -8.16984592361101047420e-02
9.97398654003768801689e+08 9.91657615701425076971e-01 -8.18619804639857118200e-02 -8.34238429857488833497e-03 -8.18619804639857118200e-02 -8.34238429857488833497e-03 -8.18619804639857118200e-02 9.91657615701425076971e-01 -8.18619804639857118200e-02
9.97403962873148798943e+08 9.91623768935853466822e-01 -8.20261496538509521370e-02 -8.37623106414652797425e-03 -8.20261496538509521370e-02 -8.37623106414652797425e-03 -8.20261496538509521370e-02 9.91623768935853466822e-01 -8.20261496538509521370e-02
9.97409271742528915405e+08 9.91589716670807974630e-01 -8.21909706206798984507e-02 -8.41028332919199934914e-03 -8.21909706206798984507e-02 -8.41028332919199934914e-03 -8.21909706206798984507e-02 9.91589716670807974630e-01 -8.21909706206798984507e-02
9.97414580611908912659e+08 9.91555457245632876351e-01 -8.23564472090757421219e-02 -8.44454275436717916037e-03 -8.23564472090757421219e-02 -8.44454275436717916037e-03 -8.23564472090757421219e-02 9.91555457245632876351e-01 -8.23564472090757421219e-02
9.97419889481289029121e+08 9.91520988982924178501e-01 -8.25225832935689296299e-02 -8.47901101707578160049e-03 -8.25225832935689296299e-02 -8.47901101707578160049e-03 -8.25225832935689296299e-02 9.91520988982924178501e-01 -8.25225832935689296299e-02
9.97425198350669026375e+08 9.91486310188331221305e-01 -8.26893827788909990817e-02 -8.51368981166879083833e-03 -8.26893827788909990817e-02 -8.51368981166879083833e-03 -8.26893827788909990817e-02 9.91486310188331221305e-01 -8.26893827788909990817e-02
9.97430507220049142838e+08 9.91451419150346735520e-01 -8.28568496002827781233e-02 -8.54858084965321764204e-03 -8.28568496002827781233e-02 -8.54858084965321764204e-03 -8.28568496002827781233e-02 9.91451419150346735520e-01 -8.28568496002827781233e-02
9.97435816089429140091e+08 9.91416314140105670027e-01 -8.30249877237606848102e-02 -8.58368585989431956418e-03 -8.30249877237606848102e-02 -8.58368585989431956418e-03 -8.30249877237606848102e-02 9.91416314140105670027e-01 -8.30249877237606848102e-02
9.97441124958809256554e+08 9.91380993411165367668e-01 -8.31938011464527782390e-02 -8.61900658883458896387e-03 -8.31938011464527782390e-02 -8.61900658883458896387e-03 -8.31938011464527782390e-02 9.91380993411165367668e-01 -8.31938011464527782390e-02
9.97446433828189373016e+08 9.91345455199298841720e-01 -8.33632938968681402869e-02 -8.65454480070115481083e-03 -8.33632938968681402869e-02 -8.65454480070115481083e-03 -8.33632938968681402869e-02 9.91345455199298841720e-01 -8.33632938968681402869e-02
9.97451742697569370270e+08 9.91309697722277727294e-01 -8.35334700351994391410e-02 -8.69030227772232648220e-03 -8.35334700351994391410e-02 -8.69030227772232648220e-03 -8.35334700351994391410e-02 9.91309697722277727294e-01 -8.35334700351994391410e-02
9.97457051566949486732e+08 9.91273719179643797439e-01 -8.37043336536714560614e-02 -8.72628082035624592916e-03 -8.37043336536714560614e-02 -8.72628082035624592916e-03 -8.37043336536714560614e-02 9.91273719179643797439e-01 -8.37043336536714560614e-02
9.97462360436329483986e+08 9.91237517752497465651e-01 -8.38758888767976856782e-02 -8.76248224750254822712e-03 -8.38758888767976856782e-02 -8.76248224750254822712e-03 -8.38758888767976856782e-02 9.91237517752497465651e-01 -8.38758888767976856782e-02
9.97467669305709600449e+08 9.91201091603261974505e-01 -8.40481398617396874284e-02 -8.79890839673807927113e-03 -8.40481398617396874284e-02 -8.79890839673807927113e-03 -8.40481398617396874284e-02 9.91201091603261974505e-01 -8.40481398617396874284e-02
9.97472978175089597702e+08 9.91164438875459463674e-01 -8.42210907985971590772e-02 -8.83556112454051897909e-03 -8.42210907985971590772e-02 -8.83556112454051897909e-03 -8.42210907985971590772e-02 9.91164438875459463674e-01 -8.42210907985971590772e-02
9.97478287044469714165e+08 9.91127557693474936507e-01 -8.43947459107482755858e-02 -8.87244230652507737123e-03 -8.43947459107482755858e-02 -8.87244230652507737123e-03 -8.43947459107482755858e-02 9.91127557693474936507e-01 -8.43947459107482755858e-02
9.97483595913849830627e+08 9.91090446162321891954e-01 -8.45691094551631050713e-02 -8.90955383767808029027e-03 -8.45691094551631050713e-02 -8.90955383767808029027e-03 -8.45691094551631050713e-02 9.91090446162321891954e-01 -8.45691094551631050713e-02
9.97488904783229827881e+08 9.91053102367403071504e-01 -8.47441857227350242576e-02 -8.94689763259695104713e-03 -8.47441857227350242576e-02 -8.94689763259695104713e-03 -8.47441857227350242576e-02 9.91053102367403071504e-01 -8.47441857227350242576e-02
9.97494213652609944344e+08 9.91015524374261547180e-01 -8.49199790386383629448e-02 -8.98447562573843547251e-03 -8.49199790386383629448e-02 -8.98447562573843547251e-03 -8.49199790386383629448e-02 9.91015524374261547180e-01 -8.49199790386383629448e-02
9.97499522521989941597e+08 9.90977710228345354260e-01 -8.50964937626164236173e-02 -9.02228977165463880139e-03 -8.50964937626164236173e-02 -9.02228977165463880139e-03 -8.50964937626164236173e-02 9.90977710228345354260e-01 -8.50964937626164236173e-02
9.97504831391370058060e+08 9.90939657954745034552e-01 -8.52737342893779143305e-02 -9.06034204525493942761e-03 -8.52737342893779143305e-02 -9.06034204525493942761e-03 -8.52737342893779143305e-02 9.90939657954745034552e-01 -8.52737342893779143305e-02
9.97510140260750055313e+08 9.90901365557949609375e-01 -8.54517050488982771173e-02 -9.09863444205037501245e-03 -8.54517050488982771173e-02 -9.09863444205037501245e-03 -8.54517050488982771173e-02 9.90901365557949609375e-01 -8.54517050488982771173e-02
9.97515449130130171776e+08 9.90862831021581791369e-01 -8.56304105068024790093e-02 -9.13716897841824679527e-03 -8.56304105068024790093e-02 -9.13716897841824679527e-03 -8.56304105068024790093e-02 9.90862831021581791369e-01 -8.56304105068024790093e-02
9.97520757999510169029e+08 9.90824052308143077283e-01 -8.58098551646887530708e-02 -9.17594769185695914582e-03 -8.58098551646887530708e-02 -9.17594769185695914582e-03 -8.58098551646887530708e-02 9.90824052308143077283e-01 -8.58098551646887530708e-02
9.97526066868890285492e+08 9.90785027358741299253e-01 -8.59900435605218671498e-02 -9.21497264125871289042e-03 -8.59900435605218671498e-02 -9.21497264125871289042e-03 -8.59900435605218671498e-02 9.90785027358741299253e-01 -8.59900435605218671498e-02
9.97531375738270401955e+08 9.90745754092831720783e-01 -8.61709802689481496607e-02 -9.25424590716830003378e-03 -8.61709802689481496607e-02 -9.25424590716830003378e-03 -8.61709802689481496607e-02 9.90745754092831720783e-01 -8.61709802689481496607e-02
9.97536684607650399208e+08 9.90706230407935595217e-01 -8.63526699017009985448e-02 -9.29376959206443774286e-03 -8.63526699017009985448e-02 -9.29376959206443774286e-03 -8.63526699017009985448e-02 9.90706230407935595217e-01 -8.63526699017009985448e-02
9.97541993477030515671e+08 9.90666454179363720201e-01 -8.65351171079696140920e-02 -9.33354582063629020783e-03 -8.65351171079696140920e-02 -9.33354582063629020783e-03 -8.65351171079696140920e-02 9.90666454179363720201e-01 -8.65351171079696140920e-02
9.97547302346410512924e+08 9.90626423259942212596e-01 -8.67183265747436954340e-02 -9.37357674005779607784e-03 -8.67183265747436954340e-02 -9.37357674005779607784e-03 -8.67183265747436954340e-02 9.90626423259942212596e-01 -8.67183265747436954340e-02
9.97552611215790629387e+08 9.90586135479720741870e-01 -8.69023030272227797743e-02 -9.41386452027928762043e-03 -8.69023030272227797743e-02 -9.41386452027928762043e-03 -8.69023030272227797743e-02 9.90586135479720741870e-01 -8.69023030272227797743e-02
9.97557920085170626640e+08 9.90545588645687313800e-01 -8.70870512291812282069e-02 -9.45441135431263242339e-03 -8.70870512291812282069e-02 -9.45441135431263242339e-03 -8.70870512291812282069e-02 9.90545588645687313800e-01 -8.70870512291812282069e-02
9.97563228954550743103e+08 9.90504780541471063771e-01 -8.72725759833755249106e-02 -9.49521945852895357665e-03 -8.72725759833755249106e-02 -9.49521945852895357665e-03 -8.72725759833755249106e-02 9.90504780541471063771e-01 -8.72725759833755249106e-02
9.97568537823930740356e+08 9.90463708927050268116e-01 -8.74588821319064457782e-02 -9.53629107294973882292e-03 -8.74588821319064457782e-02 -9.53629107294973882292e-03 -8.74588821319064457782e-02 9.90463708927050268116e-01 -8.74588821319064457782e-02
9.97573846693310856819e+08 9.90422371538440593497e-01 -8.76459745566631337477e-02 -9.57762846155939782944e-03 -8.76459745566631337477e-02 -9.57762846155939782944e-03 -8.76459745566631337477e-02 9.90422371538440593497e-01 -8.76459745566631337477e-02
9.97579155562690973282e+08 9.90380766087399555531e-01 -8.78338581796730133444e-02 -9.61923391260048610274e-03 -8.78338581796730133444e-02 -9.61923391260048610274e-03 -8.78338581796730133444e-02 9.90380766087399555531e-01 -8.78338581796730133444e-02
9.97584464432070970535e+08 9.90338890261107662738e-01 -8.80225379635418969659e-02 -9.66110973889238409951e-03 -8.80225379635418969659e-02 -9.66110973889238409951e-03 -8.80225379635418969659e-02 9.90338890261107662738e-01 -8.80225379635418969659e-02
9.97589773301451086998e+08 9.90296741721852225027e-01 -8.82120189118681813367e-02 -9.70325827814779925951e-03 -8.82120189118681813367e-02 -9.70325827814779925951e-03 -8.82120189118681813367e-02 9.90296741721852225027e-01 -8.82120189118681813367e-02
9.97595082170831084251e+08 9.90254318106711273195e-01 -8.84023060696381146606e-02 -9.74568189328873200894e-03 -8.84023060696381146606e-02 -9.74568189328873200894e-03 -8.84023060696381146606e-02 9.90254318106711273195e-01 -8.84023060696381146606e-02
9.97600391040211200714e+08 9.90211617027223156562e-01 -8.85934045236694556191e-02 -9.78838297277686945896e-03 -8.85934045236694556191e-02 -9.78838297277686945896e-03 -8.85934045236694556191e-02 9.90211617027223156562e-01 -8.85934045236694556191e-02
9.97605699909591197968e+08 9.90168636069062135796e-01 -8.87853194030106540602e-02 -9.83136393093783991781e-03 -8.87853194030106540602e-02 -9.83136393093783991781e-03 -8.87853194030106540602e-02 9.90168636069062135796e-01 -8.87853194030106540602e-02
9.97611008778971314430e+08 9.90125372791693547647e-01 -8.89780558794168729975e-02 -9.87462720830646102643e-03 -8.89780558794168729975e-02 -9.87462720830646102643e-03 -8.89780558794168729975e-02 9.90125372791693547647e-01 -8.89780558794168729975e-02
9.97616317648351311684e+08 9.90081824728043513595e-01 -8.91716191677394964810e-02 -9.91817527195654018157e-03 -8.91716191677394964810e-02 -9.91817527195654018157e-03 -8.91716191677394964810e-02 9.90081824728043513595e-01 -8.91716191677394964810e-02
9.97621626517731428146e+08 9.90037989384145888927e-01 -8.93660145264027205858e-02 -9.96201061585413188970e-03 -8.93660145264027205858e-02 -9.96201061585413188970e-03 -8.93660145264027205858e-02 9.90037989384145888927e-01 -8.93660145264027205858e-02
9.97626935387111544609e+08 9.89993864238794651911e-01 -8.95612472578376506149e-02 -1.00061357612053151295e-02 -8.95612472578376506149e-02 -1.00061357612053151295e-02 -8.95612472578376506149e-02 9.89993864238794651911e-01 -8.95612472578376506149e-02
9.97632244256491541862e+08 9.89949446743189964693e-01 -8.97573227089253772304e-02 -1.00505532568100682672e-02 -8.97573227089253772304e-02 -1.00505532568100682672e-02 -8.97573227089253772304e-02 9.89949446743189964693e-01 -8.97573227089253772304e-02
9.97637553125871658325e+08 9.89904734320567247785e-01 -8.99542462714948004576e-02 -1.00952656794327157858e-02 -8.99542462714948004576e-02 -1.00952656794327157858e-02 -8.99542462714948004576e-02 9.89904734320567247785e-01 -8.99542462714948004576e-02
9.97642861995251655579e+08 9.89859724365844351190e-01 -9.01520233827278472116e-02 -1.01402756341556470748e-02 -9.01520233827278472116e-02 -1.01402756341556470748e-02 -9.01520233827278472116e-02 9.89859724365844351190e-01 -9.01520233827278472116e-02
9.97648170864631772041e+08 9.89814414245232976342e-01 -9.03506595256952371731e-02 -1.01855857547669924335e-02 -9.03506595256952371731e-02 -1.01855857547669924335e-02 -9.03506595256952371731e-02 9.89814414245232976342e-01 -9.03506595256952371731e-02
9.97653479734011769295e+08 9.89768801295875855217e-01 -9.05501602297664881513e-02 -1.02311987041240927410e-02 -9.05501602297664881513e-02 -1.02311987041240927410e-02 -9.05501602297664881513e-02 9.89768801295875855217e-01 -9.05501602297664881513e-02
9.97658788603391885757e+08 9.89722882825447070054e-01 -9.07505310711580470695e-02 -1.02771171745529403541e-02 -9.07505310711580470695e-02 -1.02771171745529403541e-02 -9.07505310711580470695e-02 9.89722882825447070054e-01 -9.07505310711580470695e-02
9.97664097472771883011e+08 9.89676656111774910585e-01 -9.09517776733624883079e-02 -1.03233438882250425778e-02 -9.09517776733624883079e-02 -1.03233438882250425778e-02 -9.09517776733624883079e-02 9.89676656111774910585e-01 -9.09517776733624883079e-02
9.97669406342151999474e+08 9.89630118402437752856e-01 -9.11539057076799774659e-02 -1.03698815975622748997e-02 -9.11539057076799774659e-02 -1.03698815975622748997e-02 -9.11539057076799774659e-02 9.89630118402437752856e-01 -9.11539057076799774659e-02
9.97674715211532115936e+08 9.89583266914365600186e-01 -9.13569208936966525858e-02 -1.04167330856343512413e-02 -9.13569208936966525858e-02 -1.04167330856343512413e-02 -9.13569208936966525858e-02 9.89583266914365600186e-01 -9.13569208936966525858e-02
9.97680024080912113190e+08 9.89536098833429189625e-01 -9.15608289998054436509e-02 -1.04639011665708311916e-02 -9.15608289998054436509e-02 -1.04639011665708311916e-02 -9.15608289998054436509e-02 9.89536098833429189625e-01 -9.15608289998054436509e-02
9.97685332950292229652e+08 9.89488611314025434673e-01 -9.17656358437117236626e-02 -1.05113886859745531838e-02 -9.17656358437117236626e-02 -1.05113886859745531838e-02 -9.17656358437117236626e-02 9.89488611314025434673e-01 -9.17656358437117236626e-02
9.97690641819672226906e+08 9.89440801478658538137e-01 -9.19713472929453157434e-02 -1.05591985213414930878e-02 -9.19713472929453157434e-02 -1.05591985213414930878e-02 -9.19713472929453157434e-02 9.89440801478658538137e-01 -9.19713472929453157434e-02
9.97695950689052343369e+08 9.89392666417507782306e-01 -9.21779692654002141827e-02 -1.06073335824921673870e-02 -9.21779692654002141827e-02 -1.06073335824921673870e-02 -9.21779692654002141827e-02 9.89392666417507782306e-01 -9.21779692654002141827e-02
9.97701259558432340622e+08 9.89344203187996762416e-01 -9.23855077298530308338e-02 -1.06557968120032167669e-02 -9.23855077298530308338e-02 -1.06557968120032167669e-02 -9.23855077298530308338e-02 9.89344203187996762416e-01 -9.23855077298530308338e-02
9.97706568427812457085e+08 9.89295408814350185622e-01 -9.25939687065052696724e-02 -1.07045911856498508069e-02 -9.25939687065052696724e-02 -1.07045911856498508069e-02 -9.25939687065052696724e-02 9.89295408814350185622e-01 -9.25939687065052696724e-02
9.97711877297192454338e+08 9.89246280287145896004e-01 -9.28033582675277940455e-02 -1.07537197128541196084e-02 -9.28033582675277940455e-02 -1.07537197128541196084e-02 -9.28033582675277940455e-02 9.89246280287145896004e-01 -9.28033582675277940455e-02
9.97717186166572570801e+08 9.89196814562858683928e-01 -9.30136825376165626844e-02 -1.08031854371413021942e-02 -9.30136825376165626844e-02 -1.08031854371413021942e-02 -9.30136825376165626844e-02 9.89196814562858683928e-01 -9.30136825376165626844e-02
9.97722495035952687263e+08 9.89147008563401097803e-01 -9.32249476945356397861e-02 -1.08529914365988744418e-02 -9.32249476945356397861e-02 -1.08529914365988744418e-02 -9.32249476945356397861e-02 9.89147008563401097803e-01 -9.32249476945356397861e-02
9.97727803905332684517e+08 9.89096859175649045781e-01 -9.34371599697019633579e-02 -1.09031408243509264633e-02 -9.34371599697019633579e-02 -1.09031408243509264633e-02 -9.34371599697019633579e-02 9.89096859175649045781e-01 -9.34371599697019633579e-02
9.97733112774712800980e+08 9.89046363250966065195e-01 -9.36503256487511565043e-02 -1.09536367490339122538e-02 -9.36503256487511565043e-02 -1.09536367490339122538e-02 -9.36503256487511565043e-02 9.89046363250966065195e-01 -9.36503256487511565043e-02
9.97738421644092798233e+08 9.88995517604721152694e-01 -9.38644510721059477376e-02 -1.10044823952788594495e-02 -9.38644510721059477376e-02 -1.10044823952788594495e-02 -9.38644510721059477376e-02 9.88995517604721152694e-01 -9.38644510721059477376e-02
9.97743730513472914696e+08 9.88944319015791939442e-01 -9.40795426355805486374e-02 -1.10556809842080848438e-02 -9.40795426355805486374e-02 -1.10556809842080848438e-02 -9.40795426355805486374e-02 9.88944319015791939442e-01 -9.40795426355805486374e-02
9.97749039382852911949e+08 9.88892764226068643474e-01 -9.42956067909570122554e-02 -1.11072357739313114233e-02 -9.42956067909570122554e-02 -1.11072357739313114233e-02 -9.42956067909570122554e-02 9.88892764226068643474e-01 -9.42956067909570122554e-02
9.97754348252233028412e+08 9.88840849939940036428e-01 -9.45126500466114405352e-02 -1.11591500600599496940e-02 -9.45126500466114405352e-02 -1.11591500600599496940e-02 -9.45126500466114405352e-02 9.88840849939940036428e-01 -9.45126500466114405352e-02
9.97759657121613144875e+08 9.88788572823785627541e-01 -9.47306789680848332358e-02 -1.12114271762143377642e-02 -9.47306789680848332358e-02 -1.12114271762143377642e-02 -9.47306789680848332358e-02 9.88788572823785627541e-01 -9.47306789680848332358e-02
