! File generated for n1 = 9, n2 = 2
! b1 = 0.215443
! b2 = 0.100000
! Q0 = 10000.000000
! f0 = 1000000000.000000
! n = 1001
! rel_span = 10.000000
# Hz S RI R 50
9.99342278265498399734e+08 9.96758941955908972510e-01 -3.24212460274895877821e-02 -2.20810714079576302094e-03 -2.20883377875055880724e-02 -2.20810714079576302094e-03 -2.20883377875055880724e-02 9.98495634117345542968e-01 -1.50486093533008322837e-02
9.99343593708967447281e+08 9.96746063657086400767e-01 -3.24849498653445936669e-02 -2.21688102364649879464e-03 -2.21317387070047548459e-02 -2.21688102364649879464e-03 -2.21317387070047548459e-02 9.98489656540544556762e-01 -1.50781780555454391485e-02
9.99344909152436375618e+08 9.96733108723752536662e-01 -3.25489018484642969598e-02 -2.22570711698206373866e-03 -2.21753086859047369994e-02 -2.22570711698206373866e-03 -2.21753086859047369994e-02 9.98483643393154207679e-01 -1.51078619366190186613e-02
9.99346224595905423164e+08 9.96720076548774813752e-01 -3.26131034136431866011e-02 -2.23458583443692914566e-03 -2.22190487030822260428e-02 -2.23458583443692914566e-03 -2.22190487030822260428e-02 9.98477594393368805825e-01 -1.51376616634225011349e-02
9.99347540039374470711e+08 9.96706966519020465256e-01 -3.26775560086441374530e-02 -2.24351759373369544909e-03 -2.22629597448865783338e-02 -2.24351759373369544909e-03 -2.22629597448865783338e-02 9.98471509256597222759e-01 -1.51675779079478781353e-02
9.99348855482843399048e+08 9.96693778015284359562e-01 -3.27422610923046031317e-02 -2.25250281673186267262e-03 -2.23070428052121808027e-02 -2.25250281673186267262e-03 -2.23070428052121808027e-02 9.98465387695429917869e-01 -1.51976113473275172006e-02
9.99350170926312446594e+08 9.96680510412207620874e-01 -3.28072201346880018558e-02 -2.26154192948341400612e-03 -2.23512988856015906713e-02 -2.26154192948341400612e-03 -2.23512988856015906713e-02 9.98459229419600857725e-01 -1.52277626639044129375e-02
9.99351486369781374931e+08 9.96667163078221007844e-01 -3.28724346171105491488e-02 -2.27063536227160248787e-03 -2.23957289952637986219e-02 -2.27063536227160248787e-03 -2.23957289952637986219e-02 9.98453034135961758899e-01 -1.52580325452446492751e-02
9.99352801813250422478e+08 9.96653735375452209944e-01 -3.29379060323362476970e-02 -2.27978354967364391093e-03 -2.24403341512070635122e-02 -2.27978354967364391093e-03 -2.24403341512070635122e-02 9.98446801548438567231e-01 -1.52884216842278895798e-02
9.99354117256719470024e+08 9.96640226659667116671e-01 -3.30036358846083691110e-02 -2.28898693060118922291e-03 -2.24851153782604090692e-02 -2.28898693060118922291e-03 -2.24851153782604090692e-02 9.98440531358004035312e-01 -1.53189307790620194566e-02
9.99355432700188398361e+08 9.96626636280184774463e-01 -3.30696256898004442570e-02 -2.29824594835796635131e-03 -2.25300737091764513575e-02 -2.29824594835796635131e-03 -2.25300737091764513575e-02 9.98434223262639086727e-01 -1.53495605333532018216e-02
9.99356748143657445908e+08 9.96612963579799893132e-01 -3.31358769755300611171e-02 -2.30756105069282804743e-03 -2.25752101847089305109e-02 -2.30756105069282804743e-03 -2.25752101847089305109e-02 9.98427876957295956650e-01 -1.53803116561587079059e-02
9.99358063587126493454e+08 9.96599207894708571942e-01 -3.32023912812488414259e-02 -2.31693268984999381499e-03 -2.26205258536740332065e-02 -2.31693268984999381499e-03 -2.26205258536740332065e-02 9.98421492133864107998e-01 -1.54111848620286893963e-02
9.99359379030595421791e+08 9.96585368554427142307e-01 -3.32691701583669868780e-02 -2.32636132262470287507e-03 -2.26660217730352241128e-02 -2.32636132262470287507e-03 -2.26660217730352241128e-02 9.98415068481132594869e-01 -1.54421808710639690138e-02
9.99360694474064469337e+08 9.96571444881710899466e-01 -3.33362151703707962347e-02 -2.33584741041847421608e-03 -2.27116990079833137861e-02 -2.33584741041847421608e-03 -2.27116990079833137861e-02 9.98408605684752314957e-01 -1.54733004089705993012e-02
9.99362009917533397675e+08 9.96557436192471501890e-01 -3.34035278929416604154e-02 -2.34539141929516418289e-03 -2.27575586320175431154e-02 -2.34539141929516418289e-03 -2.27575586320175431154e-02 9.98402103427197595842e-01 -1.55045442071150996882e-02
9.99363325361002445221e+08 9.96543341795697035224e-01 -3.34711099140621096137e-02 -2.35499382003577679978e-03 -2.28036017270178137384e-02 -2.35499382003577679978e-03 -2.28036017270178137384e-02 9.98395561387729113534e-01 -1.55359130025736653924e-02
9.99364640804471492767e+08 9.96529160993365858978e-01 -3.35389628341430032221e-02 -2.36465508819688405295e-03 -2.28498293833313513568e-02 -2.36465508819688405295e-03 -2.28498293833313513568e-02 9.98388979242353924448e-01 -1.55674075381912156713e-02
9.99365956247940421104e+08 9.96514893080365893319e-01 -3.36070882661235192934e-02 -2.37437570416577405086e-03 -2.28962426998408213885e-02 -2.37437570416577405086e-03 -2.28962426998408213885e-02 9.98382356663787939866e-01 -1.55990285626277942060e-02
9.99367271691409468651e+08 9.96500537344397807615e-01 -3.36754878356413378526e-02 -2.38415615322625472350e-03 -2.29428427840802917625e-02 -2.38415615322625472350e-03 -2.29428427840802917625e-02 9.98375693321411183945e-01 -1.56307768304375788171e-02
9.99368587134878516197e+08 9.96486093065899969368e-01 -3.37441631810981024220e-02 -2.39399692561013868047e-03 -2.29896307522797979650e-02 -2.39399692561013868047e-03 -2.29896307522797979650e-02 9.98368988881232710675e-01 -1.56626531020992408594e-02
9.99369902578347444534e+08 9.96471559517950855600e-01 -3.38131159538209713489e-02 -2.40389851656309851829e-03 -2.30366077294754459381e-02 -2.40389851656309851829e-03 -2.30366077294754459381e-02 9.98362243005845417798e-01 -1.56946581440909511962e-02
9.99371218021816492081e+08 9.96456935966183010578e-01 -3.38823478181739176640e-02 -2.41386142640399826639e-03 -2.30837748495852056185e-02 -2.41386142640399826639e-03 -2.30837748495852056185e-02 9.98355455354385967759e-01 -1.57267927289420350601e-02
9.99372533465285420418e+08 9.96442221668691563430e-01 -3.39518604516818173211e-02 -2.42388616058670982450e-03 -2.31311332554934717676e-02 -2.42388616058670982450e-03 -2.31311332554934717676e-02 9.98348625582492932296e-01 -1.57590576352905631374e-02
9.99373848908754467964e+08 9.96427415875935529321e-01 -3.40216555451883992389e-02 -2.43397322976750740339e-03 -2.31786840991586653993e-02 -2.43397322976750740339e-03 -2.31786840991586653993e-02 9.98341753342260052051e-01 -1.57914536479566748606e-02
9.99375164352223515511e+08 9.96412517830655763973e-01 -3.40917348029305192214e-02 -2.44412314986107003650e-03 -2.32264285416638426029e-02 -2.44412314986107003650e-03 -2.32264285416638426029e-02 9.98334838282198711035e-01 -1.58239815579770438936e-02
9.99376479795692443848e+08 9.96397526767768937361e-01 -3.41620999427195912168e-02 -2.45433644211264737761e-03 -2.32743677533402866520e-02 -2.45433644211264737761e-03 -2.32743677533402866520e-02 9.98327880047188753743e-01 -1.58566421626890989571e-02
9.99377795239161491394e+08 9.96382441914273608852e-01 -3.42327526960601175032e-02 -2.46461363316187887645e-03 -2.33225029138482975455e-02 -2.46461363316187887645e-03 -2.33225029138482975455e-02 9.98320878278434631348e-01 -1.58894362657860388488e-02
9.99379110682630538940e+08 9.96367262489155192107e-01 -3.43036948082723822107e-02 -2.47495525510790575704e-03 -2.33708352122607328216e-02 -2.47495525510790575704e-03 -2.33708352122607328216e-02 9.98313832613421658913e-01 -1.59223646773737730065e-02
9.99380426126099467278e+08 9.96351987703285368880e-01 -3.43749280386314651214e-02 -2.48536184557759899302e-03 -2.34193658471577581537e-02 -2.48536184557759899302e-03 -2.34193658471577581537e-02 9.98306742685868719889e-01 -1.59554282140354636299e-02
9.99381741569568514824e+08 9.96336616759314064318e-01 -3.44464541605381605049e-02 -2.49583394779919875289e-03 -2.34680960267432577038e-02 -2.49583394779919875289e-03 -2.34680960267432577038e-02 9.98299608125678750170e-01 -1.59886276989108372382e-02
9.99383057013037443161e+08 9.96321148851580629113e-01 -3.45182749615951522948e-02 -2.50637211066288053546e-03 -2.35170269688967752131e-02 -2.50637211066288053546e-03 -2.35170269688967752131e-02 9.98292428558897326774e-01 -1.60219639617315626201e-02
9.99384372456506490707e+08 9.96305583165994490535e-01 -3.45903922438204475265e-02 -2.51697688880216314047e-03 -2.35661599013188872986e-02 -2.51697688880216314047e-03 -2.35661599013188872986e-02 9.98285203607656934643e-01 -1.60554378389203070143e-02
9.99385687899975538254e+08 9.96289918879943114938e-01 -3.46628078237265213613e-02 -2.52764884265643677633e-03 -2.36154960615851290673e-02 -2.52764884265643677633e-03 -2.36154960615851290673e-02 9.98277932890134667154e-01 -1.60890501736274671440e-02
9.99387003343444466591e+08 9.96274155162177876832e-01 -3.47355235324978695033e-02 -2.53838853854872681035e-03 -2.36650366972669772003e-02 -2.53838853854872681035e-03 -2.36650366972669772003e-02 9.98270616020499157450e-01 -1.61228018158135998072e-02
9.99388318786913514137e+08 9.96258291172703813743e-01 -3.48085412161464463621e-02 -2.54919654876104365138e-03 -2.37147830660377340051e-02 -2.54919654876104365138e-03 -2.37147830660377340051e-02 9.98263252608859175119e-01 -1.61566936223215516788e-02
9.99389634230382561684e+08 9.96242326062677041598e-01 -3.48818627356225069436e-02 -2.56007345160396684522e-03 -2.37647364357480503361e-02 -2.56007345160396684522e-03 -2.37647364357480503361e-02 9.98255842261216330691e-01 -1.61907264569279112087e-02
9.99390949673851490021e+08 9.96226258974287071091e-01 -3.49554899669917013005e-02 -2.57101983149685608607e-03 -2.38148980845465790823e-02 -2.57101983149685608607e-03 -2.38148980845465790823e-02 9.98248384579410452666e-01 -1.62249011904252171679e-02
9.99392265117320537567e+08 9.96210089040641899594e-01 -3.50294248015957584985e-02 -2.58203627904652092614e-03 -2.38652693009894396881e-02 -2.58203627904652092614e-03 -2.38652693009894396881e-02 9.98240879161065630676e-01 -1.62592187006965413487e-02
9.99393580560789465904e+08 9.96193815385660985662e-01 -3.51036691461651395585e-02 -2.59312339111959951066e-03 -2.39158513841169623193e-02 -2.59312339111959951066e-03 -2.39158513841169623193e-02 9.98233325599541476691e-01 -1.62936798727677523146e-02
9.99394896004258513451e+08 9.96177437123948128495e-01 -3.51782249230236862547e-02 -2.60428177092953631183e-03 -2.39666456435931457536e-02 -2.60428177092953631183e-03 -2.39666456435931457536e-02 9.98225723483873506048e-01 -1.63282855989025504906e-02
9.99396211447727560997e+08 9.96160953360680889723e-01 -3.52530940702079492732e-02 -2.61551202811173165094e-03 -2.40176533997869152970e-02 -2.61551202811173165094e-03 -2.40176533997869152970e-02 9.98218072398721734118e-01 -1.63630367786578058420e-02
9.99397526891196489334e+08 9.96144363191489912168e-01 -3.53282785416285730062e-02 -2.62681477880587384288e-03 -2.40688759838821007830e-02 -2.62681477880587384288e-03 -2.40688759838821007830e-02 9.98210371924315276182e-01 -1.63979343189585118068e-02
9.99398842334665536880e+08 9.96127665702331910325e-01 -3.54037803072529064230e-02 -2.63819064574240431942e-03 -2.41203147380018335932e-02 -2.63819064574240431942e-03 -2.41203147380018335932e-02 9.98202621636392839477e-01 -1.64329791341825091899e-02
9.99400157778134584427e+08 9.96110859969367212763e-01 -3.54796013532612045105e-02 -2.64964025832598428292e-03 -2.41719710153149650034e-02 -2.64964025832598428292e-03 -2.41719710153149650034e-02 9.98194821106145768752e-01 -1.64681721462330010741e-02
9.99401473221603512764e+08 9.96093945058842411555e-01 -3.55557436821723887865e-02 -2.66116425271530412933e-03 -2.42238461801217615232e-02 -2.66116425271530412933e-03 -2.42238461801217615232e-02 9.98186969900164533520e-01 -1.65035142845969470815e-02
9.99402788665072560310e+08 9.96076920026944145903e-01 -3.56322093130969491659e-02 -2.67276327192309285860e-03 -2.42759416080261768156e-02 -2.67276327192309285860e-03 -2.42759416080261768156e-02 9.98179067580369339119e-01 -1.65390064864624070085e-02
9.99404104108541607857e+08 9.96059783919692964815e-01 -3.57090002817958968029e-02 -2.68443796588779641510e-03 -2.43282586859760487086e-02 -2.68443796588779641510e-03 -2.43282586859760487086e-02 9.98171113703962609165e-01 -1.65746496967459390481e-02
9.99405419552010536194e+08 9.96042535772795112337e-01 -3.57861186409313969392e-02 -2.69618899157527758606e-03 -2.43807988124338237412e-02 -2.69618899157527758606e-03 -2.43807988124338237412e-02 9.98163107823358375370e-01 -1.66104448682089268774e-02
9.99406734995479583740e+08 9.96025174611511632250e-01 -3.58635664602232548392e-02 -2.70801701306732593016e-03 -2.44335633974832044935e-02 -2.70801701306732593016e-03 -2.44335633974832044935e-02 9.98155049486123213676e-01 -1.66463929615302021203e-02
9.99408050438948512077e+08 9.96007699450533356966e-01 -3.59413458265807408964e-02 -2.71992270164739561797e-03 -2.44865538629189145869e-02 -2.71992270164739561797e-03 -2.44865538629189145869e-02 9.98146938234916958343e-01 -1.66824949453672419231e-02
9.99409365882417559624e+08 9.95990109293825032211e-01 -3.60194588443576227399e-02 -2.73190673590626396938e-03 -2.45397716424204867525e-02 -2.73190673590626396938e-03 -2.45397716424204867525e-02 9.98138773607421092571e-01 -1.67187517964745360755e-02
9.99410681325886607170e+08 9.95972403134507855427e-01 -3.60979076354355846168e-02 -2.74396980182251351565e-03 -2.45932181816090854320e-02 -2.74396980182251351565e-03 -2.45932181816090854320e-02 9.98130555136283792450e-01 -1.67551644997423268557e-02
9.99411996769355535507e+08 9.95954579954699048550e-01 -3.61766943394872184103e-02 -2.75611259287162832510e-03 -2.46468949382266828974e-02 -2.75611259287162832510e-03 -2.46468949382266828974e-02 9.98122282349045764072e-01 -1.67917340483186502964e-02
9.99413312212824583054e+08 9.95936638725377743064e-01 -3.62558211141161962354e-02 -2.76833581011739745040e-03 -2.47008033822315384298e-02 -2.76833581011739745040e-03 -2.47008033822315384298e-02 9.98113954768077848989e-01 -1.68284614436744126009e-02
9.99414627656293630600e+08 9.95918578406234322742e-01 -3.63352901350623772037e-02 -2.78064016231444749438e-03 -2.47549449959379719299e-02 -2.78064016231444749438e-03 -2.47549449959379719299e-02 9.98105571910511080169e-01 -1.68653476956986056456e-02
9.99415943099762558937e+08 9.95900397945532422916e-01 -3.64151035963456437550e-02 -2.79302636600245067153e-03 -2.48093212741143272215e-02 -2.79302636600245067153e-03 -2.48093212741143272215e-02 9.98097133288172733145e-01 -1.69023938227650452615e-02
9.99417258543231606483e+08 9.95882096279940842720e-01 -3.64952637105327853950e-02 -2.80549514562060224587e-03 -2.48639337241648092358e-02 -2.80549514562060224587e-03 -2.48639337241648092358e-02 9.98088638407508055295e-01 -1.69396008518562651846e-02
9.99418573986700534821e+08 9.95863672334396432539e-01 -3.65757727088590334219e-02 -2.81804723360077431435e-03 -2.49187838662122823630e-02 -2.81804723360077431435e-03 -2.49187838662122823630e-02 9.98080086769517094147e-01 -1.69769698186199094470e-02
9.99419889430169582367e+08 9.95845125021940225096e-01 -3.66566328414628800347e-02 -2.83068337047948223248e-03 -2.49738732332582570594e-02 -2.83068337047948223248e-03 -2.49738732332582570594e-02 9.98071477869678091999e-01 -1.70145017674777562777e-02
9.99421204873638629913e+08 9.95826453243565334894e-01 -3.67378463775590441420e-02 -2.84340430500148446877e-03 -2.50292033713007261442e-02 -2.84340430500148446877e-03 -2.50292033713007261442e-02 9.98062811197877208791e-01 -1.70521977517059733498e-02
9.99422520317107558250e+08 9.95807655888056086901e-01 -3.68194156056409413469e-02 -2.85621079422924018659e-03 -2.50847758394721030706e-02 -2.85621079422924018659e-03 -2.50847758394721030706e-02 9.98054086238333915126e-01 -1.70900588335291085673e-02
9.99423835760576605797e+08 9.95788731831816709139e-01 -3.69013428337201868090e-02 -2.86910360365951301945e-03 -2.51405922102023969555e-02 -2.86910360365951301945e-03 -2.51405922102023969555e-02 9.98045302469521167232e-01 -1.71280860842312546155e-02
9.99425151204045653343e+08 9.95769679938722895862e-01 -3.69836303894618689814e-02 -2.88208350732491441065e-03 -2.51966540693113680294e-02 -2.88208350732491441065e-03 -2.51966540693113680294e-02 9.98036459364096795177e-01 -1.71662805842188424810e-02
9.99426466647514581680e+08 9.95750499059938398716e-01 -3.70662806204566167012e-02 -2.89515128791829673069e-03 -2.52529630161938967170e-02 -2.89515128791829673069e-03 -2.52529630161938967170e-02 9.98027556388818348765e-01 -1.72046434231469154430e-02
9.99427782090983629227e+08 9.95731188033754710531e-01 -3.71492958943918510917e-02 -2.90830773690266058615e-03 -2.53095206639366472612e-02 -2.90830773690266058615e-03 -2.53095206639366472612e-02 9.98018593004468268504e-01 -1.72431756999986245116e-02
9.99429097534452557564e+08 9.95711745685416538265e-01 -3.72326785992668149450e-02 -2.92155365462933198917e-03 -2.53663286394645616506e-02 -2.92155365462933198917e-03 -2.53663286394645616506e-02 9.98009568665773727503e-01 -1.72818785231850340078e-02
9.99430412977921605110e+08 9.95692170826942168915e-01 -3.73164311436279885759e-02 -2.93488985046082328026e-03 -2.54233885837012556219e-02 -2.93488985046082328026e-03 -2.54233885837012556219e-02 9.98000482821322365545e-01 -1.73207530106543813875e-02
9.99431728421390652657e+08 9.95672462256949275528e-01 -3.74005559567687079214e-02 -2.94831714288945959113e-03 -2.54807021517050105719e-02 -2.94831714288945959113e-03 -2.54807021517050105719e-02 9.97991334913481797919e-01 -1.73598002899847531078e-02
9.99433043864859580994e+08 9.95652618760476171289e-01 -3.74850554889380876977e-02 -2.96183635965892788286e-03 -2.55382710128111145576e-02 -2.96183635965892788286e-03 -2.55382710128111145576e-02 9.97982124378316903801e-01 -1.73990214984810417920e-02
9.99434359308328628540e+08 9.95632639108789296856e-01 -3.75699322116025830054e-02 -2.97544833789575554131e-03 -2.55960968508100704388e-02 -2.97544833789575554131e-03 -2.55960968508100704388e-02 9.97972850645499898192e-01 -1.74384177832963595256e-02
9.99435674751797676086e+08 9.95612522059206916936e-01 -3.76551886176250613647e-02 -2.98915392422911688555e-03 -2.56541813640695677556e-02 -2.98915392422911688555e-03 -2.56541813640695677556e-02 9.97963513138229174615e-01 -1.74779903015151484580e-02
9.99436990195266604424e+08 9.95592266354904609216e-01 -3.77408272215139298233e-02 -3.00295397492340377169e-03 -2.57125262657042531755e-02 -3.00295397492340377169e-03 -2.57125262657042531755e-02 9.97954111273138599891e-01 -1.75177402202688244082e-02
9.99438305638735651970e+08 9.95571870724717977730e-01 -3.78268505596759882503e-02 -3.01684935601301360691e-03 -2.57711332837479503710e-02 -3.01684935601301360691e-03 -2.57711332837479503710e-02 9.97944644460205698699e-01 -1.75576687168531343775e-02
9.99439621082204580307e+08 9.95551333882957245613e-01 -3.79132611906031896654e-02 -3.03084094342809858696e-03 -2.58300041612809505587e-02 -3.03084094342809858696e-03 -2.58300041612809505587e-02 9.97935112102666277423e-01 -1.75977769788148476204e-02
9.99440936525673627853e+08 9.95530654529197867042e-01 -3.80000616951564756940e-02 -3.04492962313760882551e-03 -2.58891406566233335529e-02 -3.04492962313760882551e-03 -2.58891406566233335529e-02 9.97925513596916724524e-01 -1.76380662040834974846e-02
9.99442251969142675400e+08 9.95509831348087015357e-01 -3.80872546767691694258e-02 -3.05911629128102118338e-03 -2.59485445434735756409e-02 -3.05911629128102118338e-03 -2.59485445434735756409e-02 9.97915848332424193501e-01 -1.76785376010657850621e-02
9.99443567412611603737e+08 9.95488863009134750115e-01 -3.81748427617041655169e-02 -3.07340185431046689774e-03 -2.60082176110837670624e-02 -3.07340185431046689774e-03 -2.60082176110837670624e-02 9.97906115691630235531e-01 -1.77191923887649663283e-02
9.99444882856080651283e+08 9.95467748166503518803e-01 -3.82628285993108704921e-02 -3.08778722913458526095e-03 -2.60681616644346351996e-02 -3.08778722913458526095e-03 -2.60681616644346351996e-02 9.97896315049852100643e-01 -1.77600317969001005036e-02
