! File generated for n1 = 12, n2 = 5
! b1 = 0.021544
! b2 = 0.001000
! Q0 = 10000.000000
! f0 = 1000000000.000000
! n = 1001
! rel_span = 10.000000
# Hz S RI R 50
9.99488727826549887657e+08 9.99582996333035378456e-01 -4.17110322680206129647e-03 -8.98407165979018201103e-05 -8.98636948752628834762e-04 -8.98407165979018201103e-05 -8.98636948752628834762e-04 9.99980644404358409716e-01 -1.93605461613706745973e-04
9.99489750370896816254e+08 9.99581339498827881052e-01 -4.17929831649946782052e-03 -9.01976707071346106050e-05 -9.00402527305830526969e-04 -9.01976707071346106050e-05 -9.00402527305830526969e-04 9.99980567500926897928e-01 -1.93985843982006142669e-04
9.99490772915243744850e+08 9.99579672805599672714e-01 -4.18752532842220012710e-03 -9.05567488779834205105e-05 -9.02174983293994457896e-04 -9.05567488779834205105e-05 -9.02174983293994457896e-04 9.99980490139880107137e-01 -1.94367708048751659973e-04
9.99491795459590554237e+08 9.99577996175245009347e-01 -4.19578444740063491447e-03 -9.09179679378351051798e-05 -9.03954356537618546573e-04 -9.09179679378351051798e-05 -9.03954356537618546573e-04 9.99980412317592715077e-01 -1.94751062393009493397e-04
9.99492818003937482834e+08 9.99576309528884543454e-01 -4.20407585968326710790e-03 -9.12813448806996371792e-05 -9.05740687162724439005e-04 -9.12813448806996371792e-05 -9.05740687162724439005e-04 9.99980334030403650303e-01 -1.95135915659668917862e-04
9.99493840548284411430e+08 9.99574612786859217906e-01 -4.21239975293793370709e-03 -9.16468968686510787386e-05 -9.07534015601122161926e-04 -9.16468968686510787386e-05 -9.07534015601122161926e-04 9.99980255274615204009e-01 -1.95522276559499398043e-04
9.99494863092631340027e+08 9.99572905868717831446e-01 -4.22075631627699763421e-03 -9.20146412343374149123e-05 -9.09334382595834928367e-04 -9.20146412343374149123e-05 -9.09334382595834928367e-04 9.99980176046493363096e-01 -1.95910153870319168586e-04
9.99495885636978149414e+08 9.99571188693210044285e-01 -4.22914574026196209838e-03 -9.23845954826103127333e-05 -9.11141829202094109992e-04 -9.23845954826103127333e-05 -9.11141829202094109992e-04 9.99980096342266810971e-01 -1.96299556437209689287e-04
9.99496908181325078011e+08 9.99569461178274831781e-01 -4.23756821692726753231e-03 -9.27567772930194231777e-05 -9.12956396792465995488e-04 -9.27567772930194231777e-05 -9.12956396792465995488e-04 9.99980016158126483461e-01 -1.96690493173620148957e-04
9.99497930725672006607e+08 9.99567723241032601855e-01 -4.24602393978287025872e-03 -9.31312045213932292479e-05 -9.14778127057406468398e-04 -9.31312045213932292479e-05 -9.14778127057406468398e-04 9.99979935490225457784e-01 -1.97082973061487052918e-04
9.99498953270018935204e+08 9.99565974797774758898e-01 -4.25451310383424471939e-03 -9.35078952022098031007e-05 -9.16607062009571794958e-04 -9.35078952022098031007e-05 -9.16607062009571794958e-04 9.99979854334678397443e-01 -1.97477005152162706642e-04
9.99499975814365744591e+08 9.99564215763953156646e-01 -4.26303590559898217677e-03 -9.38868675508413484893e-05 -9.18443243987393455503e-04 -9.38868675508413484893e-05 -9.18443243987393455503e-04 9.99979772687560997113e-01 -1.97872598567185758230e-04
9.99500998358712673187e+08 9.99562446054170439247e-01 -4.27159254311709063456e-03 -9.42681399655418821590e-05 -9.20286715657297506310e-04 -9.42681399655418821590e-05 -9.20286715657297506310e-04 9.99979690544909316507e-01 -1.98269762498758979211e-04
9.99502020903059601784e+08 9.99560665582170049248e-01 -4.28018321596836288923e-03 -9.46517310297718852778e-05 -9.22137520017447137079e-04 -9.46517310297718852778e-05 -9.22137520017447137079e-04 9.99979607902719780377e-01 -1.98668506210555829636e-04
9.99503043447406530380e+08 9.99558874260826235592e-01 -4.28880812528154280877e-03 -9.50376595141799675095e-05 -9.23995700399716460988e-04 -9.50376595141799675095e-05 -9.23995700399716460988e-04 9.99979524756948290332e-01 -1.99068839038145627965e-04
9.99504065991753339767e+08 9.99557072002132396271e-01 -4.29746747375764088367e-03 -9.54259443792409070822e-05 -9.25861300474714490720e-04 -9.54259443792409070822e-05 -9.25861300474714490720e-04 9.99979441103510002797e-01 -1.99470770390075801673e-04
9.99505088536100268364e+08 9.99555258717190642237e-01 -4.30616146568086471946e-03 -9.58166047773651422979e-05 -9.27734364254139591902e-04 -9.58166047773651422979e-05 -9.27734364254139591902e-04 9.99979356938278662881e-01 -1.99874309748379375183e-04
9.99506111080447196960e+08 9.99553434316202915610e-01 -4.31489030692961978569e-03 -9.62096600550337282404e-05 -9.29614936093149440630e-04 -9.62096600550337282404e-05 -9.29614936093149440630e-04 9.99979272257086160280e-01 -2.00279466669085358041e-04
9.99507133624794125557e+08 9.99551598708456667808e-01 -4.32365420500187194047e-03 -9.66051297556048483087e-05 -9.31503060695825727683e-04 -9.66051297556048483087e-05 -9.31503060695825727683e-04 9.99979187055721974176e-01 -2.00686250783396215574e-04
9.99508156169140934944e+08 9.99549751802317421046e-01 -4.33245336901892652559e-03 -9.70030336211740340947e-05 -9.33398783115988177513e-04 -9.70030336211740340947e-05 -9.33398783115988177513e-04 9.99979101329932840159e-01 -2.01094671797863103072e-04
9.99509178713487863541e+08 9.99547893505213780330e-01 -4.34128800975455003686e-03 -9.74033915956032365175e-05 -9.35302148763467850433e-04 -9.74033915956032365175e-05 -9.35302148763467850433e-04 9.99979015075421973080e-01 -2.01504739495737621949e-04
9.99510201257834792137e+08 9.99546023723629439850e-01 -4.35015833963856273642e-03 -9.78062238264231805082e-05 -9.37213203404882130333e-04 -9.78062238264231805082e-05 -9.37213203404882130333e-04 9.99978928287848733980e-01 -2.01916463737138570040e-04
9.99511223802181720734e+08 9.99544142363089527237e-01 -4.35906457277870224010e-03 -9.82115506675877399708e-05 -9.39131993168344932597e-04 -9.82115506675877399708e-05 -9.39131993168344932597e-04 9.99978840962827963956e-01 -2.02329854460066809038e-04
9.99512246346528649330e+08 9.99542249328149057241e-01 -4.36800692497892745214e-03 -9.86193926820961213947e-05 -9.41058564547409730563e-04 -9.86193926820961213947e-05 -9.41058564547409730563e-04 9.99978753095929540073e-01 -2.02744921681254791114e-04
9.99513268890875458717e+08 9.99540344522382162573e-01 -4.37698561375015997299e-03 -9.90297706442976201748e-05 -9.42992964403384001902e-04 -9.90297706442976201748e-05 -9.42992964403384001902e-04 9.99978664682677820252e-01 -2.03161675496665156387e-04
9.99514291435222387314e+08 9.99538427848368105089e-01 -4.38600085833428573329e-03 -9.94427055428293477134e-05 -9.44935239970500330878e-04 -9.94427055428293477134e-05 -9.44935239970500330878e-04 9.99978575718550755091e-01 -2.03580126082604831970e-04
9.99515313979569315910e+08 9.99536499207680839696e-01 -4.39505287971476889947e-03 -9.98582185829711456437e-05 -9.46885438858202665470e-04 -9.98582185829711456437e-05 -9.46885438858202665470e-04 9.99978486198979998889e-01 -2.04000283696217585023e-04
9.99516336523916244507e+08 9.99534558500875358611e-01 -4.40414190063668185837e-03 -1.00276331189459781646e-04 -9.48843609055462092541e-04 -1.00276331189459781646e-04 -9.48843609055462092541e-04 9.99978396119349577376e-01 -2.04422158676413807422e-04
9.99517359068263053894e+08 9.99532605627476145038e-01 -4.41326814562204884640e-03 -1.00697065009117692484e-04 -9.50809798934082570261e-04 -1.00697065009117692484e-04 -9.50809798934082570261e-04 9.99978305474995998736e-01 -2.04845761444582755281e-04
9.99518381612609982491e+08 9.99530640485962518227e-01 -4.42243184099332282966e-03 -1.01120441913886676549e-04 -9.52784057253758189139e-04 -1.01120441913886676549e-04 -9.52784057253758189139e-04 9.99978214261206921343e-01 -2.05271102505682090811e-04
9.99519404156956911087e+08 9.99528662973757975330e-01 -4.43163321488268448917e-03 -1.01546484003238847785e-04 -9.54766433164077536581e-04 -1.01546484003238847785e-04 -9.54766433164077536581e-04 9.99978122473221264777e-01 -2.05698192448669638739e-04
9.99520426701303839684e+08 9.99526672987215647481e-01 -4.44087249725341488144e-03 -1.01975213607173722857e-04 -9.56756976209127761417e-04 -1.01975213607173722857e-04 -9.56756976209127761417e-04 9.99978030106228099605e-01 -2.06127041947495431287e-04
9.99521449245650649071e+08 9.99524670421605088144e-01 -4.45014991992054645409e-03 -1.02406653289215755559e-04 -9.58755736331943380669e-04 -1.02406653289215755559e-04 -9.58755736331943380669e-04 9.99977937155366314315e-01 -2.06557661762060088689e-04
9.99522471789997577667e+08 9.99522655171098506344e-01 -4.45946571656773409903e-03 -1.02840825849268770078e-04 -9.60762763878141934706e-04 -1.02840825849268770078e-04 -9.60762763878141934706e-04 9.99977843615723838155e-01 -2.06990062738998019734e-04
9.99523494334344506264e+08 9.99520627128757332969e-01 -4.46882012276482096236e-03 -1.03277754326534484172e-04 -9.62778109599707093876e-04 -1.03277754326534484172e-04 -9.62778109599707093876e-04 9.99977749482337086029e-01 -2.07424255812492768902e-04
9.99524516878691434860e+08 9.99518586186518787073e-01 -4.47821337598507378946e-03 -1.03717462002448515090e-04 -9.64801824658703677251e-04 -1.03717462002448515090e-04 -9.64801824658703677251e-04 9.99977654750189959287e-01 -2.07860252005076994938e-04
9.99525539423038244247e+08 9.99516532235180665822e-01 -4.48764571562774560592e-03 -1.04159972403898508472e-04 -9.66833960632137372031e-04 -1.04159972403898508472e-04 -9.66833960632137372031e-04 9.99977559414214067779e-01 -2.08298062428679701735e-04
9.99526561967385172844e+08 9.99514465164387244656e-01 -4.49711738303681680257e-03 -1.04605309306299491356e-04 -9.68874569515991977166e-04 -1.04605309306299491356e-04 -9.68874569515991977166e-04 9.99977463469286953490e-01 -2.08737698285496066624e-04
9.99527584511732101440e+08 9.99512384862615066439e-01 -4.50662862151892090051e-03 -1.05053496736664929044e-04 -9.70923703729093066223e-04 -1.05053496736664929044e-04 -9.70923703729093066223e-04 9.99977366910232090547e-01 -2.09179170868819701073e-04
9.99528607056079030037e+08 9.99510291217158286514e-01 -4.51617967636198849174e-03 -1.05504558976746262884e-04 -9.72981416117123330128e-04 -1.05504558976746262884e-04 -9.72981416117123330128e-04 9.99977269731818441123e-01 -2.09622491563907762703e-04
9.99529629600425958633e+08 9.99508184114112907537e-01 -4.52577079485773706158e-03 -1.05958520566390033881e-04 -9.75047759957468093521e-04 -1.05958520566390033881e-04 -9.75047759957468093521e-04 9.99977171928758679087e-01 -2.10067671849025014875e-04
9.99530652144772768021e+08 9.99506063438362235551e-01 -4.53540222632028023481e-03 -1.06415406306749018477e-04 -9.77122788963224802802e-04 -1.06415406306749018477e-04 -9.77122788963224802802e-04 9.99977073495709856132e-01 -2.10514723296307502140e-04
9.99531674689119696617e+08 9.99503929073560337670e-01 -4.54507422211019012498e-03 -1.06875241263789107584e-04 -9.79206557288387138827e-04 -1.06875241263789107584e-04 -9.79206557288387138827e-04 9.99976974427271625423e-01 -2.10963657572879414006e-04
9.99532697233466625214e+08 9.99501780902118386329e-01 -4.55478703564622840194e-03 -1.07338050771248351813e-04 -9.81299119530372509004e-04 -1.07338050771248351813e-04 -9.81299119530372509004e-04 9.99976874717985797503e-01 -2.11414486441397842312e-04
9.99533719777813553810e+08 9.99499618805186229586e-01 -4.56454092243830777259e-03 -1.07803860434643413758e-04 -9.83400530737122378910e-04 -1.07803860434643413758e-04 -9.83400530737122378910e-04 9.99976774362336007229e-01 -2.11867221761582183925e-04
9.99534742322160363197e+08 9.99497442662638957422e-01 -4.57433614009436842474e-03 -1.08272696134073992446e-04 -9.85510846408585352435e-04 -1.08272696134073992446e-04 -9.85510846408585352435e-04 9.99976673354746492528e-01 -2.12321875490533980377e-04
9.99535764866507291794e+08 9.99495252353056917727e-01 -4.58417294835979614864e-03 -1.08744584028619601952e-04 -9.87630122505208426359e-04 -1.08744584028619601952e-04 -9.87630122505208426359e-04 9.99976571689581539282e-01 -2.12778459684565966932e-04
9.99536787410854220390e+08 9.99493047753712615666e-01 -4.59405160912207660012e-03 -1.09219550559116362247e-04 -9.89758415448939877362e-04 -1.09219550559116362247e-04 -9.89758415448939877362e-04 9.99976469361144593151e-01 -2.13236986499418479336e-04
9.99537809955201148987e+08 9.99490828740552172960e-01 -4.60397238644011646408e-03 -1.09697622452153151565e-04 -9.91895782129546474404e-04 -1.09697622452153151565e-04 -9.91895782129546474404e-04 9.99976366363677482418e-01 -2.13697468191620181758e-04
9.99538832499547958374e+08 9.99488595188178563511e-01 -4.61393554656585984375e-03 -1.10178826723743080872e-04 -9.94042279909270777571e-04 -1.10178826723743080872e-04 -9.94042279909270777571e-04 9.99976262691359973900e-01 -2.14159917119491685633e-04
9.99539855043894886971e+08 9.99486346969832406550e-01 -4.62394135797163791102e-03 -1.10663190683313967730e-04 -9.96197966628723343210e-04 -1.10663190683313967730e-04 -9.96197966628723343210e-04 9.99976158338308218632e-01 -2.14624345744414608307e-04
9.99540877588241815567e+08 9.99484083957377644758e-01 -4.63399009136148277294e-03 -1.11150741936967841048e-04 -9.98362900609319793566e-04 -1.11150741936967841048e-04 -9.98362900609319793566e-04 9.99976053298574862893e-01 -2.15090766631357167143e-04
9.99541900132588744164e+08 9.99481806021281005137e-01 -4.64408201970330399011e-03 -1.11641508391792121943e-04 -1.00053714066021320547e-03 -1.11641508391792121943e-04 -1.00053714066021320547e-03 9.99975947566147271850e-01 -2.15559192450367342756e-04
9.99542922676935553551e+08 9.99479513030594457490e-01 -4.65421741824999495724e-03 -1.12135518259681897187e-04 -1.00272074608284212163e-03 -1.12135518259681897187e-04 -1.00272074608284212163e-03 9.99975841134947640576e-01 -2.16029635977552699616e-04
9.99543945221282482147e+08 9.99477204852936673696e-01 -4.66439656456353168162e-03 -1.12632800061353215517e-04 -1.00491377667612149377e-03 -1.12632800061353215517e-04 -1.00491377667612149377e-03 9.99975733998831217697e-01 -2.16502110096198930331e-04
9.99544967765629410744e+08 9.99474881354475042095e-01 -4.67461973853381881905e-03 -1.13133382630145615049e-04 -1.00711629274050345345e-03 -1.13133382630145615049e-04 -1.00711629274050345345e-03 9.99975626151586083346e-01 -2.16976627797644589955e-04
9.99545990309976339340e+08 9.99472542399905350408e-01 -4.68488722240997888108e-03 -1.13637295116480267743e-04 -1.00932835508471758015e-03 -1.13637295116480267743e-04 -1.00932835508471758015e-03 9.99975517586931927916e-01 -2.17453202182733411904e-04
9.99547012854323148727e+08 9.99470187852433578080e-01 -4.69519930081865096566e-03 -1.14144566991731706020e-04 -1.01155002502971479508e-03 -1.14144566991731706020e-04 -1.01155002502971479508e-03 9.99975408298519385930e-01 -2.17931846462663726151e-04
9.99548035398670077324e+08 9.99467817573754579996e-01 -4.70555626079653243482e-03 -1.14655228052847201641e-04 -1.01378136441567651138e-03 -1.14655228052847201641e-04 -1.01378136441567651138e-03 9.99975298279928925815e-01 -2.18412573960498807056e-04
9.99549057943017005920e+08 9.99465431424034544960e-01 -4.71595839180416909892e-03 -1.15169308426094269861e-04 -1.01602243560498751648e-03 -1.15169308426094269861e-04 -1.01602243560498751648e-03 9.99975187524669961725e-01 -2.18895398111807067652e-04
9.99550080487363934517e+08 9.99463029261888569188e-01 -4.72640598576136525960e-03 -1.15686838571923275511e-04 -1.01827330148986268388e-03 -1.15686838571923275511e-04 -1.01827330148986268388e-03 9.99975076026180076383e-01 -2.19380332466305520396e-04
9.99551103031710863113e+08 9.99460610944361227403e-01 -4.73689933706832305010e-03 -1.16207849289179544891e-04 -1.02053402549690279064e-03 -1.16207849289179544891e-04 -1.02053402549690279064e-03 9.99974963777823688815e-01 -2.19867390688841007245e-04
9.99552125576057672501e+08 9.99458176326905700648e-01 -4.74743874262927544050e-03 -1.16732371719489586969e-04 -1.02280467159218593082e-03 -1.16732371719489586969e-04 -1.02280467159218593082e-03 9.99974850772891832307e-01 -2.20356586560487330935e-04
9.99553148120404601097e+08 9.99455725263361460797e-01 -4.75802450188616242455e-03 -1.17260437352200637168e-04 -1.02508530428852234588e-03 -1.17260437352200637168e-04 -1.02508530428852234588e-03 9.99974737004600044976e-01 -2.20847933980108132417e-04
9.99554170664751529694e+08 9.99453257605933842456e-01 -4.76865691683894983577e-03 -1.17792078028711909516e-04 -1.02737598864983221622e-03 -1.17792078028711909516e-04 -1.02737598864983221622e-03 9.99974622466088369777e-01 -2.21341446965300092534e-04
9.99555193209098458290e+08 9.99450773205172504632e-01 -4.77933629207134055145e-03 -1.18327325947127179220e-04 -1.02967679029668506691e-03 -1.18327325947127179220e-04 -1.02967679029668506691e-03 9.99974507150420133250e-01 -2.21837139653586367565e-04
9.99556215753445267677e+08 9.99448271909947894009e-01 -4.79006293478377934147e-03 -1.18866213667330610664e-04 -1.03198777541341061605e-03 -1.18866213667330610664e-04 -1.03198777541341061605e-03 9.99974391050580280194e-01 -2.22335026303948431366e-04
9.99557238297792196274e+08 9.99445753567429040487e-01 -4.80083715481875207554e-03 -1.19408774115735400291e-04 -1.03430901075354884228e-03 -1.19408774115735400291e-04 -1.03430901075354884228e-03 9.99974274159475040591e-01 -2.22835121298000618691e-04
9.99558260842139124870e+08 9.99443218023061019650e-01 -4.81165926468813277134e-03 -1.19955040590193450618e-04 -1.03664056364574197304e-03 -1.19955040590193450618e-04 -1.03664056364574197304e-03 9.99974156469930819391e-01 -2.23337439141259102519e-04
9.99559283386486053467e+08 9.99440665120542748312e-01 -4.82252957959612444522e-03 -1.20505046764741045114e-04 -1.03898250199867671177e-03 -1.20505046764741045114e-04 -1.03898250199867671177e-03 9.99974037974692642194e-01 -2.23841994464206960058e-04
9.99560305930832862854e+08 9.99438094701800783248e-01 -4.83344841748023501538e-03 -1.21058826695317445460e-04 -1.04133489430991289619e-03 -1.21058826695317445460e-04 -1.04133489430991289619e-03 9.99973918666423267076e-01 -2.24348802024196134408e-04
9.99561328475179791451e+08 9.99435506606966894694e-01 -4.84441609903026731976e-03 -1.21616414824435349899e-04 -1.04369780966997397625e-03 -1.21616414824435349899e-04 -1.04369780966997397625e-03 9.99973798537702518452e-01 -2.24857876706328619872e-04
9.99562351019526720047e+08 9.99432900674353641435e-01 -4.85543294772118345232e-03 -1.22177845986615510841e-04 -1.04607131776942837223e-03 -1.22177845986615510841e-04 -1.04607131776942837223e-03 9.99973677581025288674e-01 -2.25369233524982205468e-04
9.99563373563873648643e+08 9.99430276740429723858e-01 -4.86649928984102253526e-03 -1.22743155413634625738e-04 -1.04845548890490245994e-03 -1.22743155413634625738e-04 -1.04845548890490245994e-03 9.99973555788801315991e-01 -2.25882887625106042314e-04
9.99564396108220458031e+08 9.99427634639794559845e-01 -4.87761545452033984382e-03 -1.23312378739916180025e-04 -1.05085039398542532188e-03 -1.23312378739916180025e-04 -1.05085039398542532188e-03 9.99973433153353186142e-01 -2.26398854283587226254e-04
9.99565418652567386627e+08 9.99424974205151639417e-01 -4.88878177377051904157e-03 -1.23885552008442981035e-04 -1.05325610454068104363e-03 -1.23885552008442981035e-04 -1.05325610454068104363e-03 9.99973309666915888272e-01 -2.26917148911029133368e-04
9.99566441196914315224e+08 9.99422295267284543918e-01 -4.89999858250315424579e-03 -1.24462711675768489521e-04 -1.05567269272518527747e-03 -1.24462711675768489521e-04 -1.05567269272518527747e-03 9.99973185321635038569e-01 -2.27437787052650846990e-04
9.99567463741261243820e+08 9.99419597655029301464e-01 -4.91126621856850190811e-03 -1.25043894618073959035e-04 -1.05810023132656919748e-03 -1.25043894618073959035e-04 -1.05810023132656919748e-03 9.99973060109565770048e-01 -2.27960784390072133954e-04
9.99568486285608053207e+08 9.99416881195247741587e-01 -4.92258502278468401681e-03 -1.25629138136822089472e-04 -1.06053879377187155846e-03 -1.25629138136822089472e-04 -1.06053879377187155846e-03 9.99972934022671955390e-01 -2.28486156742668941252e-04
