! File generated for n1 = 5, n2 = 10
! b1 = 4.641589
! b2 = 0.004642
! Q0 = 10000.000000
! f0 = 1000000000.000000
! n = 1001
! rel_span = 10.000000
# Hz S RI R 50
9.97176884788776755333e+08 9.83766948227800197557e-01 -1.62560305315768233170e-01 -5.13334169755839974693e-04 -5.14060821930204837893e-03 -5.13334169755839974693e-04 -5.14060821930204837893e-03 9.99983766948227770222e-01 -1.62560305315768153156e-04
9.97182531019199252129e+08 9.83702374786406319451e-01 -1.62880078112369736099e-01 -5.15376161267442766019e-04 -5.15072032301227330370e-03 -5.15376161267442766019e-04 -5.15072032301227330370e-03 9.99983702374786398437e-01 -1.62880078112369666710e-04
9.97188177249621629715e+08 9.83637416943360154420e-01 -1.63201096557522545849e-01 -5.17430308626618982656e-04 -5.16087181758836076317e-03 -5.17430308626618982656e-04 -5.16087181758836076317e-03 9.99983637416943405007e-01 -1.63201096557522473858e-04
9.97193823480044126511e+08 9.83572071652660695484e-01 -1.63523367863922047816e-01 -5.19496708156379606927e-04 -5.17106293111576405946e-03 -5.19496708156379606927e-04 -5.17106293111576405946e-03 9.99983572071652671021e-01 -1.63523367863921967802e-04
9.97199469710466504097e+08 9.83506335838193357368e-01 -1.63846899299350284851e-01 -5.21575457132009037524e-04 -5.18129389342193366619e-03 -5.21575457132009037524e-04 -5.18129389342193366619e-03 9.99983506335838212564e-01 -1.63846899299350200717e-04
9.97205115940889000893e+08 9.83440206393357829739e-01 -1.64171698187272896430e-01 -5.23666653792836923019e-04 -5.19156493609518668308e-03 -5.23666653792836923019e-04 -5.19156493609518668308e-03 9.99983440206393403571e-01 -1.64171698187272845472e-04
9.97210762171311378479e+08 9.83373680180717690824e-01 -1.64497771907308520944e-01 -5.25770397353311877593e-04 -5.20187629249955259952e-03 -5.25770397353311877593e-04 -5.20187629249955259952e-03 9.99983373680180753773e-01 -1.64497771907308438328e-04
9.97216408401733875275e+08 9.83306754031622154422e-01 -1.64825127895818601687e-01 -5.27886788014970964600e-04 -5.21222819779343024549e-03 -5.27886788014970964600e-04 -5.21222819779343024549e-03 9.99983306754031575636e-01 -1.64825127895818537285e-04
9.97222054632156372070e+08 9.83239424745848356046e-01 -1.65153773646375873208e-01 -5.30015926977746190500e-04 -5.22262088894439539116e-03 -5.30015926977746190500e-04 -5.22262088894439539116e-03 9.99983239424745873336e-01 -1.65153773646375799265e-04
9.97227700862578749657e+08 9.83171689091213996115e-01 -1.65483716710359801683e-01 -5.32157916452216856774e-04 -5.23305460474803463972e-03 -5.32157916452216856774e-04 -5.23305460474803463972e-03 9.99983171689091232537e-01 -1.65483716710359749207e-04
9.97233347093001246452e+08 9.83103543803190982331e-01 -1.65814964697527267301e-01 -5.34312859671828084725e-04 -5.24352958584598828617e-03 -5.34312859671828084725e-04 -5.24352958584598828617e-03 9.99983103543803153457e-01 -1.65814964697527178830e-04
9.97238993323423624039e+08 9.83034985584534837244e-01 -1.66147525276484991918e-01 -5.36480860904601174720e-04 -5.25404607474089496016e-03 -5.36480860904601174720e-04 -5.25404607474089496016e-03 9.99983034985584495757e-01 -1.66147525276484912989e-04
9.97244639553846120834e+08 9.82966011104870585058e-01 -1.66481406175357005139e-01 -5.38662025466238249434e-04 -5.26460431581749453700e-03 -5.38662025466238249434e-04 -5.26460431581749453700e-03 9.99982966011104923432e-01 -1.66481406175356919271e-04
9.97250285784268617630e+08 9.82896617000315941937e-01 -1.66816615182249633476e-01 -5.40856459732044032515e-04 -5.27520455535733252123e-03 -5.40856459732044032515e-04 -5.27520455535733252123e-03 9.99982896617000349693e-01 -1.66816615182249566255e-04
9.97255932014690995216e+08 9.82826799873059098189e-01 -1.67153160145912776935e-01 -5.43064271150260342684e-04 -5.28584704155967387285e-03 -5.43064271150260342684e-04 -5.28584704155967387285e-03 9.99982826799873047996e-01 -1.67153160145912715786e-04
9.97261578245113492012e+08 9.82756556290955929356e-01 -1.67491048976289635952e-01 -5.45285568254810673432e-04 -5.29653202455888493655e-03 -5.45285568254810673432e-04 -5.29653202455888493655e-03 9.99982756556290985905e-01 -1.67491048976289548999e-04
9.97267224475535869598e+08 9.82685882787118769599e-01 -1.67830289645086283556e-01 -5.47520460678311811711e-04 -5.30725975644244767765e-03 -5.47520460678311811711e-04 -5.30725975644244767765e-03 9.99982685882787158960e-01 -1.67830289645086233249e-04
9.97272870705958366394e+08 9.82614775859483646769e-01 -1.68170890186420590728e-01 -5.49769059165747362057e-04 -5.31803049127147452191e-03 -5.49769059165747362057e-04 -5.31803049127147452191e-03 9.99982614775859479650e-01 -1.68170890186420518954e-04
9.97278516936380743980e+08 9.82543231970400054998e-01 -1.68512858697345058179e-01 -5.52031475587456488610e-04 -5.32884448509724981125e-03 -5.52031475587456488610e-04 -5.32884448509724981125e-03 9.99982543231970444353e-01 -1.68512858697345002668e-04
9.97284163166803240776e+08 9.82471247546175763254e-01 -1.68856203338556720706e-01 -5.54307822953500027585e-04 -5.33970199598367105398e-03 -5.54307822953500027585e-04 -5.33970199598367105398e-03 9.99982471247546134130e-01 -1.68856203338556656087e-04
9.97289809397225737572e+08 9.82398818976657928204e-01 -1.69200932334920034483e-01 -5.56598215426942180724e-04 -5.35060328402379124790e-03 -5.56598215426942180724e-04 -5.35060328402379124790e-03 9.99982398818976658816e-01 -1.69200932334919953602e-04
9.97295455627648115158e+08 9.82325942614778124806e-01 -1.69547053976130623898e-01 -5.58902768338210447809e-04 -5.36154861136080122808e-03 -5.58902768338210447809e-04 -5.36154861136080122808e-03 9.99982325942614824754e-01 -1.69547053976130539547e-04
9.97301101858070611954e+08 9.82252614776093380122e-01 -1.69894576617380138606e-01 -5.61221598199621767369e-04 -5.37253824220906232162e-03 -5.61221598199621767369e-04 -5.37253824220906232162e-03 9.99982252614776134791e-01 -1.69894576617380060977e-04
9.97306748088492989540e+08 9.82178831738343305346e-01 -1.70243508679919719473e-01 -5.63554822719386180364e-04 -5.38357244287191588628e-03 -5.63554822719386180364e-04 -5.38357244287191588628e-03 9.99982178831738344194e-01 -1.70243508679919627533e-04
9.97312394318915486336e+08 9.82104589740966149591e-01 -1.70593858651794189063e-01 -5.65902560816908825961e-04 -5.39465148176490865567e-03 -5.65902560816908825961e-04 -5.39465148176490865567e-03 9.99982104589741016554e-01 -1.70593858651794114470e-04
9.97318040549337863922e+08 9.82029884984648604451e-01 -1.70945635088392361434e-01 -5.68264932637021612932e-04 -5.40577562943318854632e-03 -5.68264932637021612932e-04 -5.40577562943318854632e-03 9.99982029884984635615e-01 -1.70945635088392286841e-04
9.97323686779760360718e+08 9.81954713630827202842e-01 -1.71298846613203326061e-01 -5.70642059565760963354e-04 -5.41694515857542562703e-03 -5.70642059565760963354e-04 -5.41694515857542562703e-03 9.99981954713630827314e-01 -1.71298846613203247348e-04
9.97329333010182857513e+08 9.81879071801214364790e-01 -1.71653501918429818307e-01 -5.73034064245350402422e-04 -5.42816034406320545996e-03 -5.73034064245350402422e-04 -5.42816034406320545996e-03 9.99981879071801249559e-01 -1.71653501918429742413e-04
9.97334979240605235100e+08 9.81802955577307456814e-01 -1.72009609765656878988e-01 -5.75441070589723297803e-04 -5.43942146296217364509e-03 -5.75441070589723297803e-04 -5.43942146296217364509e-03 9.99981802955577259162e-01 -1.72009609765656816755e-04
9.97340625471027731895e+08 9.81726360999872760260e-01 -1.72367178986612357150e-01 -5.77863203800839343380e-04 -5.45072879455608602650e-03 -5.77863203800839343380e-04 -5.45072879455608602650e-03 9.99981726360999911840e-01 -1.72367178986612272799e-04
9.97346271701450109482e+08 9.81649284068467520292e-01 -1.72726218483725796338e-01 -5.80300590383812106912e-04 -5.46208262036448639193e-03 -5.80300590383812106912e-04 -5.46208262036448639193e-03 9.99981649284068518924e-01 -1.72726218483725739525e-04
9.97351917931872606277e+08 9.81571720740890607537e-01 -1.73086737230989495817e-01 -5.82753358164258650036e-04 -5.47348322416992515149e-03 -5.82753358164258650036e-04 -5.47348322416992515149e-03 9.99981571720740869402e-01 -1.73086737230989420573e-04
9.97357564162294983864e+08 9.81493666932697905736e-01 -1.73448744274497496098e-01 -5.85221636303647385798e-04 -5.48493089203501427153e-03 -5.85221636303647385798e-04 -5.48493089203501427153e-03 9.99981493666932674813e-01 -1.73448744274497430613e-04
9.97363210392717480659e+08 9.81415118516637652313e-01 -1.73812248733324320460e-01 -5.87705555317136457000e-04 -5.49642591233021060582e-03 -5.87705555317136457000e-04 -5.49642591233021060582e-03 9.99981415118516681062e-01 -1.73812248733324243048e-04
9.97368856623139977455e+08 9.81336071322141290096e-01 -1.74177259800122163913e-01 -5.90205247089684438382e-04 -5.50796857575270096263e-03 -5.90205247089684438382e-04 -5.50796857575270096263e-03 9.99981336071322113312e-01 -1.74177259800122085417e-04
9.97374502853562355042e+08 9.81256521134768133763e-01 -1.74543786741903295123e-01 -5.92720844893610400266e-04 -5.51955917535114446576e-03 -5.92720844893610400266e-04 -5.51955917535114446576e-03 9.99981256521134787008e-01 -1.74543786741903218362e-04
9.97380149083984851837e+08 9.81176463695644374141e-01 -1.74911838900818156217e-01 -5.95252483406322457221e-04 -5.53119800655027613751e-03 -5.95252483406322457221e-04 -5.53119800655027613751e-03 9.99981176463695664580e-01 -1.74911838900818067529e-04
9.97385795314407229424e+08 9.81095894700920179154e-01 -1.75281425694826492601e-01 -5.97800298727506926148e-04 -5.54288536717213470989e-03 -5.97800298727506926148e-04 -5.54288536717213470989e-03 9.99981095894700966475e-01 -1.75281425694826398926e-04
9.97391441544829726219e+08 9.81014809801181275617e-01 -1.75652556618543453926e-01 -6.00364428397719899870e-04 -5.55462155746281292801e-03 -6.00364428397719899870e-04 -5.55462155746281292801e-03 9.99981014809801171950e-01 -1.75652556618543376080e-04
9.97397087775252223015e+08 9.80933204600889063762e-01 -1.76025241243928237678e-01 -6.02945011416098448562e-04 -5.56640688011423873799e-03 -6.02945011416098448562e-04 -5.56640688011423873799e-03 9.99980933204600908049e-01 -1.76025241243928163952e-04
9.97402734005674600601e+08 9.80851074657784982591e-01 -1.76399489221104766035e-01 -6.05542188259187031535e-04 -5.57824164029012328075e-03 -6.05542188259187031535e-04 -5.57824164029012328075e-03 9.99980851074657839384e-01 -1.76399489221104697079e-04
9.97408380236097097397e+08 9.80768415482291433527e-01 -1.76775310279170844163e-01 -6.08156100899899217452e-04 -5.59012614565155586954e-03 -6.08156100899899217452e-04 -5.59012614565155586954e-03 9.99980768415482335065e-01 -1.76775310279170765450e-04
9.97414026466519474983e+08 9.80685222536925804704e-01 -1.77152714226912783024e-01 -6.10786892826033363767e-04 -5.60206070637959269165e-03 -6.10786892826033363767e-04 -5.60206070637959269165e-03 9.99980685222536913592e-01 -1.77152714226912720574e-04
9.97419672696941971779e+08 9.80601491235665312374e-01 -1.77531710953714588763e-01 -6.13434709060359413535e-04 -5.61404563520401505422e-03 -6.13434709060359413535e-04 -5.61404563520401505422e-03 9.99980601491235687739e-01 -1.77531710953714524795e-04
9.97425318927364349365e+08 9.80517216943345593094e-01 -1.77912310430283743257e-01 -6.16099696179651088769e-04 -5.62608124742627977583e-03 -6.16099696179651088769e-04 -5.62608124742627977583e-03 9.99980517216943365355e-01 -1.77912310430283678855e-04
9.97430965157786846161e+08 9.80432394975012888594e-01 -1.78294522709550762318e-01 -6.18782002335153242210e-04 -5.63816786094795997786e-03 -6.18782002335153242210e-04 -5.63816786094795997786e-03 9.99980432394975027321e-01 -1.78294522709550676016e-04
9.97436611388209342957e+08 9.80347020595302209856e-01 -1.78678357927421399554e-01 -6.21481777272250911041e-04 -5.65030579629454202117e-03 -6.21481777272250911041e-04 -5.65030579629454202117e-03 9.99980347020595350394e-01 -1.78678357927421302843e-04
9.97442257618631720543e+08 9.80261089017774756016e-01 -1.79063826303681061791e-01 -6.24199172351432474311e-04 -5.66249537664401548370e-03 -6.24199172351432474311e-04 -5.66249537664401548370e-03 9.99980261089017830045e-01 -1.79063826303680999341e-04
9.97447903849054217339e+08 9.80174595404254445086e-01 -1.79450938142865001890e-01 -6.26934340569256279806e-04 -5.67473692785439628311e-03 -6.26934340569256279806e-04 -5.67473692785439628311e-03 9.99980174595404225357e-01 -1.79450938142864931200e-04
9.97453550079476594925e+08 9.80087534864175768945e-01 -1.79839703835047631797e-01 -6.29687436578986047160e-04 -5.68703077848868674554e-03 -6.29687436578986047160e-04 -5.68703077848868674554e-03 9.99980087534864225951e-01 -1.79839703835047560023e-04
9.97459196309899091721e+08 9.79999902453883686704e-01 -1.80230133856809249249e-01 -6.32458616712721819440e-04 -5.69937725984544490271e-03 -6.32458616712721819440e-04 -5.69937725984544490271e-03 9.99979999902453897676e-01 -1.80230133856809182462e-04
9.97464842540321469307e+08 9.79911693175964271241e-01 -1.80622238772030180298e-01 -6.35248039002563155871e-04 -5.71177670598389808365e-03 -6.35248039002563155871e-04 -5.71177670598389808365e-03 9.99979911693176015675e-01 -1.80622238772030108307e-04
9.97470488770743966103e+08 9.79822901978524174460e-01 -1.81016029232879765987e-01 -6.38055863203404699351e-04 -5.72422945375521911165e-03 -6.38055863203404699351e-04 -5.72422945375521911165e-03 9.99979822901978510075e-01 -1.81016029232879696815e-04
9.97476135001166462898e+08 9.79733523754498958347e-01 -1.81411515980639231893e-01 -6.40882250814812123689e-04 -5.73673584282854281957e-03 -6.40882250814812123689e-04 -5.73673584282854281957e-03 9.99979733523754465985e-01 -1.81411515980639157734e-04
9.97481781231588840485e+08 9.79643553340922124129e-01 -1.81808709846658422826e-01 -6.43727365104112278851e-04 -5.74929621572122743350e-03 -6.43727365104112278851e-04 -5.74929621572122743350e-03 9.99979643553340902251e-01 -1.81808709846658359726e-04
9.97487427462011337280e+08 9.79552985518184593516e-01 -1.82207621753324777725e-01 -6.46591371129840363982e-04 -5.76191091782948805466e-03 -6.46591371129840363982e-04 -5.76191091782948805466e-03 9.99979552985518216346e-01 -1.82207621753324673424e-04
9.97493073692433714867e+08 9.79461815009308178759e-01 -1.82608262714926472547e-01 -6.49474435764703004158e-04 -5.77458029745570294161e-03 -6.49474435764703004158e-04 -5.77458029745570294161e-03 9.99979461815009296188e-01 -1.82608262714926402942e-04
9.97498719922856211662e+08 9.79370036479172423327e-01 -1.83010643838683095819e-01 -6.52376727720017685237e-04 -5.78730470584099248449e-03 -6.52376727720017685237e-04 -5.78730470584099248449e-03 9.99979370036479187078e-01 -1.83010643838682994771e-04
9.97504366153278589249e+08 9.79277644533770752489e-01 -1.83414776325611206254e-01 -6.55298417569248180942e-04 -5.80008449719260354982e-03 -6.55298417569248180942e-04 -5.80008449719260354982e-03 9.99979277644533759428e-01 -1.83414776325611125589e-04
9.97510012383701086044e+08 9.79184633719404118324e-01 -1.83820671471622815174e-01 -6.58239677773505638472e-04 -5.81292002871863690977e-03 -6.58239677773505638472e-04 -5.81292002871863690977e-03 9.99979184633719375697e-01 -1.83820671471622755109e-04
9.97515658614123582840e+08 9.79090998521913613573e-01 -1.84228340668410428549e-01 -6.61200682705801639008e-04 -5.82581166065603960752e-03 -6.61200682705801639008e-04 -5.82581166065603960752e-03 9.99979090998521891187e-01 -1.84228340668410350053e-04
9.97521304844545960426e+08 9.78996733365869342691e-01 -1.84637795404485993700e-01 -6.64181608676711154708e-04 -5.83875975630345801781e-03 -6.64181608676711154708e-04 -5.83875975630345801781e-03 9.99978996733365876892e-01 -1.84637795404485929298e-04
9.97526951074968457222e+08 9.78901832613746858414e-01 -1.85049047266229976794e-01 -6.67182633960412916491e-04 -5.85176468205441530079e-03 -6.67182633960412916491e-04 -5.85176468205441530079e-03 9.99978901832613731315e-01 -1.85049047266229893961e-04
9.97532597305390834808e+08 9.78806290565120695746e-01 -1.85462107938823089759e-01 -6.70203938820184644959e-04 -5.86482680742676787400e-03 -6.70203938820184644959e-04 -5.86482680742676787400e-03 9.99978806290565125359e-01 -1.85462107938823007576e-04
9.97538243535813331604e+08 9.78710101455796288583e-01 -1.85876989207405030058e-01 -6.73245705535866650372e-04 -5.87794650509935838467e-03 -6.73245705535866650372e-04 -5.87794650509935838467e-03 9.99978710101455781079e-01 -1.85876989207404947442e-04
9.97543889766235828400e+08 9.78613259456980411066e-01 -1.86293702958019224969e-01 -6.76308118430083479028e-04 -5.89112415094188070913e-03 -6.76308118430083479028e-04 -5.89112415094188070913e-03 9.99978613259457027596e-01 -1.86293702958019159700e-04
9.97549535996658205986e+08 9.78515758674408986373e-01 -1.86712261178699961972e-01 -6.79391363895827968093e-04 -5.90436012404926564151e-03 -6.79391363895827968093e-04 -5.90436012404926564151e-03 9.99978515758674357805e-01 -1.86712261178699880440e-04
9.97555182227080702782e+08 9.78417593147451691848e-01 -1.87132675960614225374e-01 -6.82495630424785160000e-04 -5.91765480677778656082e-03 -6.82495630424785160000e-04 -5.91765480677778656082e-03 9.99978417593147428377e-01 -1.87132675960614152950e-04
9.97560828457503080368e+08 9.78318756848240322910e-01 -1.87554959499053014449e-01 -6.85621108634881229124e-04 -5.93100858477640414945e-03 -6.85621108634881229124e-04 -5.93100858477640414945e-03 9.99978318756848283400e-01 -1.87554959499052924026e-04
9.97566474687925577164e+08 9.78219243680736094682e-01 -1.87979124094641542042e-01 -6.88767991299793730202e-04 -5.94442184702504393401e-03 -6.88767991299793730202e-04 -5.94442184702504393401e-03 9.99978219243680688244e-01 -1.87979124094641447283e-04
9.97572120918347954750e+08 9.78119047479835801440e-01 -1.88405182154332051514e-01 -6.91936473377201136450e-04 -5.95789498586598350455e-03 -6.91936473377201136450e-04 -5.95789498586598350455e-03 9.99978119047479796500e-01 -1.88405182154331978656e-04
9.97577767148770451546e+08 9.78018162010406033602e-01 -1.88833146192659229179e-01 -6.95126752039335439950e-04 -5.97142839704355773284e-03 -6.95126752039335439950e-04 -5.97142839704355773284e-03 9.99978018162010373615e-01 -1.88833146192659146996e-04
9.97583413379192948341e+08 9.77916580966354698212e-01 -1.89263028832785173972e-01 -6.98339026702336166524e-04 -5.98502247973720265251e-03 -6.98339026702336166524e-04 -5.98502247973720265251e-03 9.99977916580966352811e-01 -1.89263028832785070756e-04
9.97589059609615325928e+08 9.77814297969652801434e-01 -1.89694842807708374810e-01 -7.01573499057190361552e-04 -5.99867763659968442763e-03 -7.01573499057190361552e-04 -5.99867763659968442763e-03 9.99977814297969613833e-01 -1.89694842807708270510e-04
9.97594705840037822723e+08 9.77711306569346016992e-01 -1.90128600961463778418e-01 -7.04830373100988403882e-04 -6.01239427379505076560e-03 -7.04830373100988403882e-04 -6.01239427379505076560e-03 9.99977711306569316818e-01 -1.90128600961463691031e-04
9.97600352070460200310e+08 9.77607600240576912753e-01 -1.90564316250225990190e-01 -7.08109855167832658203e-04 -6.02617280103351620618e-03 -7.08109855167832658203e-04 -6.02617280103351620618e-03 9.99977607600240570029e-01 -1.90564316250225904105e-04
9.97605998300882697105e+08 9.77503172383549778779e-01 -1.91002001743606542039e-01 -7.11412153961594041600e-04 -6.04001363161248659706e-03 -7.11412153961594041600e-04 -6.04001363161248659706e-03 9.99977503172383541674e-01 -1.91002001743606437739e-04
9.97611644531305074692e+08 9.77398016322518548016e-01 -1.91441670625795673510e-01 -7.14737480587897722369e-04 -6.05391718245266562820e-03 -7.14737480587897722369e-04 -6.05391718245266562820e-03 9.99977398016322571728e-01 -1.91441670625795576583e-04
9.97617290761727571487e+08 9.77292125304724534907e-01 -1.91883336196864928702e-01 -7.18086048587723304280e-04 -6.06788387413924410613e-03 -7.18086048587723304280e-04 -6.06788387413924410613e-03 9.99977292125304728643e-01 -1.91883336196864841099e-04
