! File generated for n1 = 3, n2 = 6
! b1 = 21.544347
! b2 = 0.464159
! Q0 = 10000.000000
! f0 = 1000000000.000000
! n = 1001
! rel_span = 10.000000
# Hz S RI R 50
9.88495747108159899712e+08 9.81669959649913881350e-01 -1.84367041472354192821e-01 -2.69048198013393125710e-03 -2.70613808446769181504e-02 -2.69048198013393125710e-03 -2.70613808446769181504e-02 9.99605091252000921287e-01 -3.97206749846586680552e-03
9.88518755613943576813e+08 9.81596715014824039436e-01 -1.84731380137204803660e-01 -2.70123282230815215180e-03 -2.71148584472203288409e-02 -2.70123282230815215180e-03 -2.71148584472203288409e-02 9.99603513244173957908e-01 -3.97991693705060725628e-03
9.88541764119727253914e+08 9.81523033689839508042e-01 -1.85097138196515936803e-01 -2.71204776179312075438e-03 -2.71685443883787069996e-02 -2.71204776179312075438e-03 -2.71685443883787069996e-02 9.99601925828148440978e-01 -3.98779695556199416384e-03
9.88564772625510931015e+08 9.81448912211858814914e-01 -1.85464323870134922823e-01 -2.72292730690263697080e-03 -2.72224398746606331689e-02 -2.72292730690263697080e-03 -2.72224398746606331689e-02 9.99600328929314052573e-01 -3.99570773109126850531e-03
9.88587781131294608116e+08 9.81374347083514453338e-01 -1.85832945440753016797e-01 -2.73387197098003955839e-03 -2.72765461217989238496e-02 -2.73387197098003955839e-03 -2.72765461217989238496e-02 9.99598722472322287480e-01 -4.00364944208360471617e-03
9.88610789637078285217e+08 9.81299334772768760971e-01 -1.86203011254490236048e-01 -2.74488227245755058228e-03 -2.73308643548364690878e-02 -2.74488227245755058228e-03 -2.73308643548364690878e-02 9.99597106381077793458e-01 -4.01162226835070825220e-03
9.88633798142861962318e+08 9.81223871712500805842e-01 -1.86574529721503262758e-01 -2.75595873491692568494e-03 -2.73853958082154493037e-02 -2.75595873491692568494e-03 -2.73853958082154493037e-02 9.99595480578729267407e-01 -4.01962639108391188436e-03
9.88656806648645639420e+08 9.81147954300091162949e-01 -1.86947509316581439442e-01 -2.76710188715038971768e-03 -2.74401417258648208652e-02 -2.76710188715038971768e-03 -2.74401417258648208652e-02 9.99593844987660462564e-01 -4.02766199286701612192e-03
9.88679815154429316521e+08 9.81071578896995810659e-01 -1.87321958579774322518e-01 -2.77831226322316354738e-03 -2.74951033612924333749e-02 -2.77831226322316354738e-03 -2.74951033612924333749e-02 9.99592199529481528764e-01 -4.03572925768981224937e-03
9.88702823660212993622e+08 9.80994741828318139731e-01 -1.87697886117007939344e-01 -2.78959040253630094486e-03 -2.75502819776754850900e-02 -2.78959040253630094486e-03 -2.75502819776754850900e-02 9.99590544125019131450e-01 -4.04382837096135643040e-03
9.88725832165996670723e+08 9.80917439382375855317e-01 -1.88075300600703043674e-01 -2.80093684989025275625e-03 -2.76056788479512454915e-02 -2.80093684989025275625e-03 -2.76056788479512454915e-02 9.99588878694307569894e-01 -4.05195951952328804746e-03
9.88748840671780347824e+08 9.80839667810257220815e-01 -1.88454210770422986299e-01 -2.81235215555000750420e-03 -2.76612952549121944579e-02 -2.81235215555000750420e-03 -2.76612952549121944579e-02 9.99587203156578785190e-01 -4.06012289166379335831e-03
9.88771849177564024925e+08 9.80761423325374859239e-01 -1.88834625433510927550e-01 -2.82383687531058587272e-03 -2.77171324912995134526e-02 -2.82383687531058587272e-03 -2.77171324912995134526e-02 9.99585517430253478466e-01 -4.06831867713132802611e-03
9.88794857683347702026e+08 9.80682702103012560180e-01 -1.89216553465737125084e-01 -2.83539157056354480108e-03 -2.77731918598981067370e-02 -2.83539157056354480108e-03 -2.77731918598981067370e-02 9.99583821432930452744e-01 -4.07654706714856516353e-03
9.88817866189131379128e+08 9.80603500279865647471e-01 -1.89600003811955686306e-01 -2.84701680836448121209e-03 -2.78294746736330138315e-02 -2.84701680836448121209e-03 -2.78294746736330138315e-02 9.99582115081377509114e-01 -4.08480825442654547214e-03
9.88840874694915056229e+08 9.80523813953572465074e-01 -1.89984985486778001906e-01 -2.85871316150175264897e-03 -2.78859822556682193651e-02 -2.85871316150175264897e-03 -2.78859822556682193651e-02 9.99580398291520566545e-01 -4.09310243317918300010e-03
9.88863883200698733330e+08 9.80443639182244530694e-01 -1.90371507575229609310e-01 -2.87048120856544727864e-03 -2.79427159395031245170e-02 -2.87048120856544727864e-03 -2.79427159395031245170e-02 9.99578670978434447036e-01 -4.10142979913742048576e-03
9.88886891706482410431e+08 9.80362971983985809210e-01 -1.90759579233436338264e-01 -2.88232153401796154998e-03 -2.79996770690731956732e-02 -2.88232153401796154998e-03 -2.79996770690731956732e-02 9.99576933056331662364e-01 -4.10979054956400746690e-03
9.88909900212266087532e+08 9.80281808336404547610e-01 -1.91149209689321197825e-01 -2.89423472826569848360e-03 -2.80568669988522992331e-02 -2.89423472826569848360e-03 -2.80568669988522992331e-02 9.99575184438552533095e-01 -4.11818488326852038400e-03
9.88932908718049764633e+08 9.80200144176123333573e-01 -1.91540408243280446676e-01 -2.90622138773086787639e-03 -2.81142870939519243234e-02 -2.90622138773086787639e-03 -2.81142870939519243234e-02 9.99573425037554086359e-01 -4.12661300062192211435e-03
9.88955917223833560944e+08 9.80117975398276164434e-01 -1.91933184268902906622e-01 -2.91828211492541501199e-03 -2.81719387302267372519e-02 -2.91828211492541501199e-03 -2.81719387302267372519e-02 9.99571654764899841794e-01 -4.13507510357206085894e-03
9.88978925729617238045e+08 9.80035297856003517758e-01 -1.92327547213668015313e-01 -2.93041751852508424586e-03 -2.82298232943770897874e-02 -2.93041751852508424586e-03 -2.82298232943770897874e-02 9.99569873531248154208e-01 -4.14357139565871192971e-03
9.89001934235400915146e+08 9.79952107359934876385e-01 -1.92723506599678240381e-01 -2.94262821344534828555e-03 -2.82879421840564748702e-02 -2.94262821344534828555e-03 -2.82879421840564748702e-02 9.99568081246342110546e-01 -4.15210208202935245753e-03
9.89024942741184592247e+08 9.79868399677669366099e-01 -1.93121072024377060661e-01 -2.95491482091771737531e-03 -2.83462968079769526974e-02 -2.95491482091771737531e-03 -2.83462968079769526974e-02 9.99566277818997095395e-01 -4.16066736945463686026e-03
9.89047951246968269348e+08 9.79784170533245291068e-01 -1.93520253161287680843e-01 -2.96727796856752429680e-03 -2.84048885860175501228e-02 -2.96727796856752429680e-03 -2.84048885860175501228e-02 9.99564463157090576928e-01 -4.16926746634430338972e-03
9.89070959752751946449e+08 9.79699415606603896123e-01 -1.93921059760755659651e-01 -2.97971829049267604439e-03 -2.84637189493332706802e-02 -2.97971829049267604439e-03 -2.84637189493332706802e-02 9.99562637167549450368e-01 -4.17790258276317869046e-03
9.89093968258535623550e+08 9.79614130533043803162e-01 -1.94323501650706359500e-01 -2.99223642734373690075e-03 -2.85227893404662764809e-02 -2.99223642734373690075e-03 -2.85227893404662764809e-02 9.99560799756339268818e-01 -4.18657293044749634348e-03
9.89116976764319300652e+08 9.79528310902668453153e-01 -1.94727588737405948871e-01 -3.00483302640499379960e-03 -2.85821012134575974661e-02 -3.00483302640499379960e-03 -2.85821012134575974661e-02 9.99558950828451586723e-01 -4.19527872282129173781e-03
9.89139985270102977753e+08 9.79441952259828108041e-01 -1.95133331006221183435e-01 -3.01750874167637950923e-03 -2.86416560339586290240e-02 -3.01750874167637950923e-03 -2.86416560339586290240e-02 9.99557090287892413549e-01 -4.20402017501276918654e-03
9.89162993775886654854e+08 9.79355050102547197710e-01 -1.95540738522419377254e-01 -3.03026423395755771517e-03 -2.87014552793485727689e-02 -3.03026423395755771517e-03 -2.87014552793485727689e-02 9.99555218037669557241e-01 -4.21279750387154074132e-03
9.89186002281670331955e+08 9.79267599881952111041e-01 -1.95949821431933512983e-01 -3.04310017093183853357e-03 -2.87615004388467286611e-02 -3.04310017093183853357e-03 -2.87615004388467286611e-02 9.99553333979780522789e-01 -4.22161092798510433066e-03
9.89209010787454009056e+08 9.79179597001682555657e-01 -1.96360589962179560297e-01 -3.05601722725267399214e-03 -2.88217930136324650137e-02 -3.05601722725267399214e-03 -2.88217930136324650137e-02 9.99551438015199855691e-01 -4.23046066769645987687e-03
9.89232019293237686157e+08 9.79091036817299364969e-01 -1.96773054422853754808e-01 -3.06901608463047400124e-03 -2.88823345169622325290e-02 -3.06901608463047400124e-03 -2.88823345169622325290e-02 9.99549530043865930296e-01 -4.23934694512127698690e-03
9.89255027799021363258e+08 9.79001914635682646271e-01 -1.97187225206751332029e-01 -3.08209743192107161330e-03 -2.89431264742897632891e-02 -3.08209743192107161330e-03 -2.89431264742897632891e-02 9.99547609964668626326e-01 -4.24826998416554316162e-03
9.89278036304805040359e+08 9.78912225714420825007e-01 -1.97603112790588342218e-01 -3.09526196521526814759e-03 -2.90041704233866722007e-02 -3.09526196521526814759e-03 -2.90041704233866722007e-02 9.99545677675435895182e-01 -4.25723001054326317949e-03
9.89301044810588717461e+08 9.78821965261188808860e-01 -1.98020727735848472983e-01 -3.10851038793017939166e-03 -2.90654679144667568713e-02 -3.10851038793017939166e-03 -2.90654679144667568713e-02 9.99543733072920104199e-01 -4.26622725179470491802e-03
9.89324053316372394562e+08 9.78731128433121488897e-01 -1.98440080689617909249e-01 -3.12184341090121757895e-03 -2.91270205103085523535e-02 -3.12184341090121757895e-03 -2.91270205103085523535e-02 9.99541776052784824991e-01 -4.27526193730438756890e-03
9.89347061822156071663e+08 9.78639710336174695193e-01 -1.98861182385441814802e-01 -3.13526175247579638045e-03 -2.91888297863810257382e-02 -3.13526175247579638045e-03 -2.91888297863810257382e-02 9.99539806509591288730e-01 -4.28433429831953042216e-03
9.89370070327939748764e+08 9.78547706024476493525e-01 -1.99284043644198965994e-01 -3.14876613860868041425e-03 -2.92508973309719734479e-02 -3.14876613860868041425e-03 -2.92508973309719734479e-02 9.99537824336783731205e-01 -4.29344456796889976935e-03
9.89393078833723425865e+08 9.78455110499671043556e-01 -1.99708675374967808969e-01 -3.16235730295812101850e-03 -2.93132247453151348338e-02 -3.16235730295812101850e-03 -2.93132247453151348338e-02 9.99535829426675848097e-01 -4.30259298128146672191e-03
9.89416087339507102966e+08 9.78361918710252131959e-01 -2.00135088575916664233e-01 -3.17603598698386595939e-03 -2.93758136437208446090e-02 -3.17603598698386595939e-03 -2.93758136437208446090e-02 9.99533821670436362083e-01 -4.31177977520558457919e-03
9.89439095845290780067e+08 9.78268125550884715125e-01 -2.00563294335204644891e-01 -3.18980294004661893426e-03 -2.94386656537082916363e-02 -3.18980294004661893426e-03 -2.94386656537082916363e-02 9.99531800958074034824e-01 -4.32100518862839864942e-03
9.89462104351074457169e+08 9.78173725861720466668e-01 -2.00993303831878911136e-01 -3.20365891950851475536e-03 -2.95017824161371913783e-02 -3.20365891950851475536e-03 -2.95017824161371913783e-02 9.99529767178423456109e-01 -4.33026946239518061021e-03
9.89485112856858134270e+08 9.78078714427699114076e-01 -2.01425128336803316298e-01 -3.21760469083574732543e-03 -2.95651655853441247546e-02 -3.21760469083574732543e-03 -2.95651655853441247546e-02 9.99527720219129389712e-01 -4.33957283932933073761e-03
9.89508121362641811371e+08 9.77983085977842003800e-01 -2.01858779213580197265e-01 -3.23164102770215214480e-03 -2.96288168292778014701e-02 -3.23164102770215214480e-03 -2.96288168292778014701e-02 9.99525659966632118447e-01 -4.34891556425223875515e-03
9.89531129868425488472e+08 9.77886835184532787757e-01 -2.02294267919500198039e-01 -3.24576871209488609926e-03 -2.96927378296385074963e-02 -3.24576871209488609926e-03 -2.96927378296385074963e-02 9.99523586306151679004e-01 -4.35829788400375096880e-03
9.89554138374209165573e+08 9.77789956662791892583e-01 -2.02731606006478048965e-01 -3.25998853442085317900e-03 -2.97569302820154396594e-02 -3.25998853442085317900e-03 -2.97569302820154396594e-02 9.99521499121672096777e-01 -4.36772004746232341693e-03
9.89577146879992842674e+08 9.77692444969533558385e-01 -2.03170805122031422618e-01 -3.27430129361576957928e-03 -2.98213958960303893164e-02 -3.27430129361576957928e-03 -2.98213958960303893164e-02 9.99519398295925731723e-01 -4.37718230556611870991e-03
9.89600155385776519775e+08 9.77594294602816882289e-01 -2.03611877010248937259e-01 -3.28870779725412131639e-03 -2.98861363954798231468e-02 -3.28870779725412131639e-03 -2.98861363954798231468e-02 9.99517283710376736039e-01 -4.38668491133385480413e-03
9.89623163891560196877e+08 9.77495500001084760555e-01 -2.04054833512772204607e-01 -3.30320886166086177121e-03 -2.99511535184790352038e-02 -3.30320886166086177121e-03 -2.99511535184790352038e-02 9.99515155245205177970e-01 -4.39622811988596862848e-03
9.89646172397343873978e+08 9.77396055542388508819e-01 -2.04499686569802607838e-01 -3.31780531202520174300e-03 -3.00164490176098967822e-02 -3.31780531202520174300e-03 -3.00164490176098967822e-02 9.99513012779289722332e-01 -4.40581218846629839303e-03
9.89669180903127551079e+08 9.77295955543604266680e-01 -2.04946448221105803622e-01 -3.33249798251566281548e-03 -3.00820246600683426086e-02 -3.33249798251566281548e-03 -3.00820246600683426086e-02 9.99510856190191199211e-01 -4.41543737646373380540e-03
9.89692189408911228180e+08 9.77195194259636301659e-01 -2.05395130607031101144e-01 -3.34728771639694003964e-03 -3.01478822278139525770e-02 -3.34728771639694003964e-03 -3.01478822278139525770e-02 9.99508685354135173462e-01 -4.42510394543417073104e-03
9.89715197914694905281e+08 9.77093765882606102302e-01 -2.05845745969557958333e-01 -3.36217536614904447673e-03 -3.02140235177235684516e-02 -3.36217536614904447673e-03 -3.02140235177235684516e-02 9.99506500145994958295e-01 -4.43481215912306259846e-03
9.89738206420478582382e+08 9.76991664541033588698e-01 -2.06298306653329127647e-01 -3.37716179358737598679e-03 -3.02804503417429572709e-02 -3.37716179358737598679e-03 -3.02804503417429572709e-02 9.99504300439273074552e-01 -4.44456228348767429931e-03
9.89761214926262259483e+08 9.76888884299001780676e-01 -2.06752825106719329007e-01 -3.39224786998540374025e-03 -3.03471645270436407582e-02 -3.39224786998540374025e-03 -3.03471645270436407582e-02 9.99502086106084264294e-01 -4.45435458672010890779e-03
9.89784223432045936584e+08 9.76785419155310585815e-01 -2.07209313882906032145e-01 -3.40743447619884032643e-03 -3.04141679161800959630e-02 -3.40743447619884032643e-03 -3.04141679161800959630e-02 9.99499857017136505988e-01 -4.46418933927037776821e-03
9.89807231937829613686e+08 9.76681263042617375802e-01 -2.07667785640955226967e-01 -3.42272250279179127835e-03 -3.04814623672490965511e-02 -3.42272250279179127835e-03 -3.04814623672490965511e-02 9.99497613041712917870e-01 -4.47406681386978890419e-03
9.89830240443613290787e+08 9.76576409826563796024e-01 -2.08128253146923014594e-01 -3.43811285016491687688e-03 -3.05490497540514237274e-02 -3.43811285016491687688e-03 -3.05490497540514237274e-02 9.99495354047652551088e-01 -4.48398728555468324003e-03
9.89853248949396967888e+08 9.76470853304891917013e-01 -2.08590729274959391093e-01 -3.45360642868518209411e-03 -3.06169319662538720606e-02 -3.45360642868518209411e-03 -3.06169319662538720606e-02 9.99493079901332071024e-01 -4.49395103169021505746e-03
9.89876257455180764198e+08 9.76364587206540845976e-01 -2.09055227008450777992e-01 -3.46920415881845798853e-03 -3.06851109095569486718e-02 -3.46920415881845798853e-03 -3.06851109095569486718e-02 9.99490790467645440209e-01 -4.50395833199496511967e-03
9.89899265960964441299e+08 9.76257605190738564360e-01 -2.09521759441136184998e-01 -3.48490697126279877494e-03 -3.07535885058587109275e-02 -3.48490697126279877494e-03 -3.07535885058587109275e-02 9.99488485609984933511e-01 -4.51400946856499001025e-03
9.89922274466748118401e+08 9.76149900846067453131e-01 -2.09990339778290874273e-01 -3.50071580708559903714e-03 -3.08223666934284851182e-02 -3.50071580708559903714e-03 -3.08223666934284851182e-02 9.99486165190220710031e-01 -4.52410472589931823145e-03
9.89945282972531795502e+08 9.76041467689528263740e-01 -2.10460981337869390551e-01 -3.51663161786100464390e-03 -3.08914474270746697293e-02 -3.51663161786100464390e-03 -3.08914474270746697293e-02 9.99483829068680718066e-01 -4.53424439092458501227e-03
9.89968291478315472603e+08 9.75932299165581218503e-01 -2.10933697551698939865e-01 -3.53265536581068902849e-03 -3.09608326783198800625e-02 -3.53265536581068902849e-03 -3.09608326783198800625e-02 9.99481477104130155986e-01 -4.54442875302073397148e-03
9.89991299984099149704e+08 9.75822388645172678068e-01 -2.11408501966682760287e-01 -3.54878802394665172210e-03 -3.10305244355775777798e-02 -3.54878802394665172210e-03 -3.10305244355775777798e-02 9.99479109153750489014e-01 -4.55465810404694863150e-03
9.90014308489882826805e+08 9.75711729424753038131e-01 -2.11885408245993972498e-01 -3.56503057621541377328e-03 -3.11005247043273126695e-02 -3.56503057621541377328e-03 -3.11005247043273126695e-02 9.99476725073118021925e-01 -4.56493273836736969395e-03
9.90037316995666503906e+08 9.75600314725269313065e-01 -2.12364430170325219072e-01 -3.58138401764586302573e-03 -3.11708355072981418976e-02 -3.58138401764586302573e-03 -3.11708355072981418976e-02 9.99474324716182582762e-01 -4.57525295287801968269e-03
9.90060325501450181007e+08 9.75488137691152945585e-01 -2.12845581639108549776e-01 -3.59784935449786657732e-03 -3.12414588846476916351e-02 -3.59784935449786657732e-03 -3.12414588846476916351e-02 9.99471907935245318377e-01 -4.58561904703308660658e-03
9.90083334007233858109e+08 9.75375191389280304932e-01 -2.13328876671796952014e-01 -3.61442760441480371442e-03 -3.13123968941502323071e-02 -3.61442760441480371442e-03 -3.13123968941502323071e-02 9.99469474580936712016e-01 -4.59603132287252601207e-03
9.90106342513017535210e+08 9.75261468807928300073e-01 -2.13814329409113768055e-01 -3.63111979657685214964e-03 -3.13836516113801047845e-02 -3.63111979657685214964e-03 -3.13836516113801047845e-02 9.99467024502193601698e-01 -4.60649008504898909572e-03
9.90129351018801212311e+08 9.75146962855704457773e-01 -2.14301954114359399783e-01 -3.64792697185811407024e-03 -3.14552251299035079413e-02 -3.64792697185811407024e-03 -3.14552251299035079413e-02 9.99464557546236753716e-01 -4.61699564085596685786e-03
9.90152359524584889412e+08 9.75031666360464122079e-01 -2.14791765174710824748e-01 -3.66485018298541662812e-03 -3.15271195614692037457e-02 -3.66485018298541662812e-03 -3.15271195614692037457e-02 9.99462073558546992835e-01 -4.62754830025579027425e-03
9.90175368030368566513e+08 9.74915572068212110679e-01 -2.15283777102538764758e-01 -3.68189049469967678505e-03 -3.15993370362019215802e-02 -3.68189049469967678505e-03 -3.15993370362019215802e-02 9.99459572382841554550e-01 -4.63814837590801037209e-03
9.90198376536152243614e+08 9.74798672641980723519e-01 -2.15778004536760270593e-01 -3.69904898392046628877e-03 -3.16718797028008244854e-02 -3.69904898392046628877e-03 -3.16718797028008244854e-02 9.99457053861050326304e-01 -4.64879618319853291086e-03
9.90221385041935920715e+08 9.74680960660699535758e-01 -2.16274462244172405168e-01 -3.71632673991196139235e-03 -3.17447497287353108675e-02 -3.71632673991196139235e-03 -3.17447497287353108675e-02 9.99454517833291311568e-01 -4.65949204026835667874e-03
9.90244393547719597816e+08 9.74562428618036991068e-01 -2.16773165120843491760e-01 -3.73372486445294141794e-03 -3.18179493004491983910e-02 -3.73372486445294141794e-03 -3.18179493004491983910e-02 9.99451964137845316749e-01 -4.67023626804354604486e-03
9.90267402053503274918e+08 9.74443068921230337587e-01 -2.17274128193495480454e-01 -3.75124447200858492785e-03 -3.18914806235636241749e-02 -3.75124447200858492785e-03 -3.18914806235636241749e-02 9.99449392611131415265e-01 -4.68102919026501008981e-03
9.90290410559286952019e+08 9.74322873889895135768e-01 -2.17777366620907381067e-01 -3.76888668990513816398e-03 -3.19653459230830744309e-02 -3.76888668990513816398e-03 -3.19653459230830744309e-02 9.99446803087680635258e-01 -4.69187113351874317269e-03
