! File generated for n1 = 15, n2 = 2
! b1 = 0.002154
! b2 = 0.001000
! Q0 = 10000.000000
! f0 = 1000000000.000000
! n = 1001
! rel_span = 10.000000
# Hz S RI R 50
9.99498422782655000687e+08 9.99957493201072411537e-01 -4.25174644982061200604e-04 -2.89595449904430857148e-05 -2.89668113590812569946e-04 -2.89595449904430857148e-05 -2.89668113590812569946e-04 9.99980270091674450228e-01 -1.97348588448401248124e-04
9.99499425937089681625e+08 9.99957324314381112984e-01 -4.26009993947224689746e-04 -2.90746061537936250155e-05 -2.90237230215674262002e-04 -2.90746061537936250155e-05 -2.90237230215674262002e-04 9.99980191701416387673e-01 -1.97736323091288564895e-04
9.99500429091524362564e+08 9.99957154422728256016e-01 -4.26848596835761981590e-04 -2.91903519894240885192e-05 -2.90808563712723782725e-04 -2.91903519894240885192e-05 -2.90808563712723782725e-04 9.99980112844696567009e-01 -1.98125568071615549811e-04
9.99501432245959043503e+08 9.99956983518152431323e-01 -4.27690472488093727677e-04 -2.93067879215063165348e-05 -2.91382126917790374061e-04 -2.93067879215063165348e-05 -2.91382126917790374061e-04 9.99980033517819499878e-01 -1.98516332134330897091e-04
9.99502435400393724442e+08 9.99956811592613181716e-01 -4.28535639888737282435e-04 -2.94239194278584593133e-05 -2.91957932764875182589e-04 -2.94239194278584593133e-05 -2.91957932764875182589e-04 9.99979953717053171580e-01 -1.98908624091266974035e-04
9.99503438554828405380e+08 9.99956638637990558038e-01 -4.29384118167528056921e-04 -2.95417520405611664118e-05 -2.92535994286983276266e-04 -2.95417520405611664118e-05 -2.92535994286983276266e-04 9.99979873438628708016e-01 -1.99302452821706804547e-04
9.99504441709263086319e+08 9.99956464646084008940e-01 -4.30235926601041178928e-04 -2.96602913466080876680e-05 -2.93116324617092433285e-04 -2.96602913466080876680e-05 -2.93116324617092433285e-04 9.99979792678739598522e-01 -1.99697827273043968790e-04
9.99505444863697886467e+08 9.99956289608611270658e-01 -4.31091084614029904001e-04 -2.97795429885655322958e-05 -2.93698936989133043991e-04 -2.97795429885655322958e-05 -2.93698936989133043991e-04 9.99979711433541695875e-01 -2.00094756461450254880e-04
9.99506448018132567406e+08 9.99956113517207700880e-01 -4.31949611780642903427e-04 -2.98995126652081196774e-05 -2.94283844738817308706e-04 -2.98995126652081196774e-05 -2.94283844738817308706e-04 9.99979629699152550160e-01 -2.00493249472440690853e-04
9.99507451172567248344e+08 9.99955936363425279545e-01 -4.32811527826035171828e-04 -3.00202061322162737269e-05 -2.94871061304736829800e-04 -3.00202061322162737269e-05 -2.94871061304736829800e-04 9.99979547471650631607e-01 -2.00893315461621102059e-04
9.99508454327001929283e+08 9.99955758138731054530e-01 -4.33676852627998938271e-04 -3.01416292028839392458e-05 -2.95460600229473918914e-04 -3.01416292028839392458e-05 -2.95460600229473918914e-04 9.99979464747075552644e-01 -2.01294963655445453485e-04
9.99509457481436610222e+08 9.99955578834506919605e-01 -4.34545606217797526164e-04 -3.02637877487216287243e-05 -2.96052475160169339431e-04 -3.02637877487216287243e-05 -2.96052475160169339431e-04 9.99979381521427179713e-01 -2.01698203351602449148e-04
9.99510460635871291161e+08 9.99955398442048060126e-01 -4.35417808782401737078e-04 -3.03866877002635363194e-05 -2.96646699850046152627e-04 -3.03866877002635363194e-05 -2.96646699850046152627e-04 9.99979297790664856116e-01 -2.02103043920053980931e-04
9.99511463790305972099e+08 9.99955216952562175869e-01 -4.36293480665209706774e-04 -3.05103350476690430562e-05 -2.97243288158900319153e-04 -3.05103350476690430562e-05 -2.97243288158900319153e-04 9.99979213550707735081e-01 -2.02509494803368981543e-04
9.99512466944740653038e+08 9.99955034357168037751e-01 -4.37172642368273910683e-04 -3.06347358415439389870e-05 -2.97842254054617443671e-04 -3.06347358415439389870e-05 -2.97842254054617443671e-04 9.99979128797433447495e-01 -2.02917565517757292597e-04
9.99513470099175333977e+08 9.99954850646894932709e-01 -4.38055314553389486040e-04 -3.07598961936089354747e-05 -2.98443611613914748602e-04 -3.07598961936089354747e-05 -2.98443611613914748602e-04 9.99979043526678212928e-01 -2.03327265653574604676e-04
9.99514473253610014915e+08 9.99954665812681331438e-01 -4.38941518043484666962e-04 -3.08858222774181998536e-05 -2.99047375023288070518e-04 -3.08858222774181998536e-05 -2.99047375023288070518e-04 9.99978957734236062471e-01 -2.03738604875968018406e-04
9.99515476408044695854e+08 9.99954479845373667146e-01 -4.39831273824812607563e-04 -3.10125203291998323418e-05 -2.99653558580505294424e-04 -3.10125203291998323418e-05 -2.99653558580505294424e-04 9.99978871415858172611e-01 -2.04151592925893459775e-04
9.99516479562479376793e+08 9.99954292735725558394e-01 -4.40724603047841240883e-04 -3.11399966485194045472e-05 -3.00262176695212368565e-04 -3.11399966485194045472e-05 -3.00262176695212368565e-04 9.99978784567252865223e-01 -2.04566239620528408797e-04
9.99517482716914057732e+08 9.99954104474396254787e-01 -4.41621527029236772555e-04 -3.12682575991072260533e-05 -3.00873243890285087688e-04 -3.12682575991072260533e-05 -3.00873243890285087688e-04 9.99978697184084497351e-01 -2.04982554854192929256e-04
9.99518485871348857880e+08 9.99953915051949637771e-01 -4.42522067253426829286e-04 -3.13973096096341385084e-05 -3.01486774802893400110e-04 -3.13973096096341385084e-05 -3.01486774802893400110e-04 9.99978609261973239164e-01 -2.05400548599074891541e-04
9.99519489025783538818e+08 9.99953724458853443480e-01 -4.43426245374129834442e-04 -3.15271591744909553427e-05 -3.02102784185544084947e-04 -3.15271591744909553427e-05 -3.02102784185544084947e-04 9.99978520796494518841e-01 -2.05820230905940097961e-04
9.99520492180218219757e+08 9.99953532685477486375e-01 -4.44334083216002073777e-04 -3.16578128545932718178e-05 -3.02721286907202359259e-04 -3.16578128545932718178e-05 -3.02721286907202359259e-04 9.99978431783178467462e-01 -2.06241611904896645279e-04
9.99521495334652900696e+08 9.99953339722092771069e-01 -4.45245602776505450520e-04 -3.17892772782267632502e-05 -3.03342297954564514562e-04 -3.17892772782267632502e-05 -3.03342297954564514562e-04 9.99978342217509252876e-01 -2.06664701806261825665e-04
9.99522498489087581635e+08 9.99953145558870271081e-01 -4.46160826227139626927e-04 -3.19215591418099212400e-05 -3.03965832432897468778e-04 -3.19215591418099212400e-05 -3.03965832432897468778e-04 9.99978252094924746629e-01 -2.07089510901134260176e-04
9.99523501643522262573e+08 9.99952950185879707590e-01 -4.47079775915803741878e-04 -3.20546652108286766005e-05 -3.04591905567647559631e-04 -3.20546652108286766005e-05 -3.04591905567647559631e-04 9.99978161410815524768e-01 -2.07516049562489783217e-04
9.99524504797956943512e+08 9.99952753593087995121e-01 -4.48002474368068342656e-04 -3.21886023206231032317e-05 -3.05220532705307526916e-04 -3.21886023206231032317e-05 -3.05220532705307526916e-04 9.99978070160524867838e-01 -2.07944328245772115877e-04
9.99525507952391624451e+08 9.99952555770358575415e-01 -4.48928944288867228223e-04 -3.23233773772437345479e-05 -3.05851729314568531511e-04 -3.23233773772437345479e-05 -3.05851729314568531511e-04 9.99977978339347761683e-01 -2.08374357489677909617e-04
9.99526511106826305389e+08 9.99952356707449641071e-01 -4.49859208564620100240e-04 -3.24589973583802300725e-05 -3.06485510987766914762e-04 -3.24589973583802300725e-05 -3.06485510987766914762e-04 9.99977885942530120289e-01 -2.08806147917142258946e-04
9.99527514261260986328e+08 9.99952156394012803275e-01 -4.50793290264712661654e-04 -3.25954693142062332050e-05 -3.07121893441892181240e-04 -3.25954693142062332050e-05 -3.07121893441892181240e-04 9.99977792965269007830e-01 -2.09239710236025435071e-04
9.99528517415695667267e+08 9.99951954819592203627e-01 -4.51731212643300729121e-04 -3.27328003682811021673e-05 -3.07760892519816212955e-04 -3.27328003682811021673e-05 -3.07760892519816212955e-04 9.99977699402711084353e-01 -2.09675055239950432076e-04
9.99529520570130348206e+08 9.99951751973622737779e-01 -4.52672999141344575749e-04 -3.28709977184953885086e-05 -3.08402524191679367621e-04 -3.28709977184953885086e-05 -3.08402524191679367621e-04 9.99977605249952383737e-01 -2.10112193809247171494e-04
9.99530523724565029144e+08 9.99951547845428945216e-01 -4.53618673388460477355e-04 -3.30100686379998831707e-05 -3.09046804556151785259e-04 -3.30100686379998831707e-05 -3.09046804556151785259e-04 9.99977510502037869600e-01 -2.10551136911812030676e-04
9.99531526878999829292e+08 9.99951342424223454941e-01 -4.54568259204635378209e-04 -3.31500204761248776285e-05 -3.09693749841601670240e-04 -3.31500204761248776285e-05 -3.09693749841601670240e-04 9.99977415153960547123e-01 -2.10991895603903457457e-04
9.99532530033434510231e+08 9.99951135699105764232e-01 -4.55521780601907187551e-04 -3.32908606593045004523e-05 -3.10343376407239991948e-04 -3.32908606593045004523e-05 -3.10343376407239991948e-04 9.99977319200660685894e-01 -2.11434481030922216249e-04
9.99533533187869191170e+08 9.99950927659060573305e-01 -4.56479261786910865770e-04 -3.34325966921395945791e-05 -3.10995700744855208247e-04 -3.34325966921395945791e-05 -3.10995700744855208247e-04 9.99977222637025597862e-01 -2.11878904428592978668e-04
9.99534536342303872108e+08 9.99950718292956564071e-01 -4.57440727162237417616e-04 -3.35752361582963447300e-05 -3.11650739479739065721e-04 -3.35752361582963447300e-05 -3.11650739479739065721e-04 9.99977125457888638138e-01 -2.12325177123595085259e-04
9.99535539496738553047e+08 9.99950507589544956843e-01 -4.58406201328710770967e-04 -3.37187867215515228443e-05 -3.12308509372237713513e-04 -3.37187867215515228443e-05 -3.12308509372237713513e-04 9.99977027658028316814e-01 -2.12773310534619507087e-04
9.99536542651173233986e+08 9.99950295537457845008e-01 -4.59375709087104339926e-04 -3.38632561267659186704e-05 -3.12969027318921394834e-04 -3.38632561267659186704e-05 -3.12969027318921394834e-04 9.99976929232168409989e-01 -2.13223316173165571702e-04
9.99537545805607914925e+08 9.99950082125206529682e-01 -4.60349275440630515636e-04 -3.40086522009841951079e-05 -3.13632310354280464428e-04 -3.40086522009841951079e-05 -3.13632310354280464428e-04 9.99976830174976072385e-01 -2.13675205644696370290e-04
9.99538548960042595863e+08 9.99949867341180742564e-01 -4.61326925596218615378e-04 -3.41549828543658790599e-05 -3.14298375651595894489e-04 -3.41549828543658790599e-05 -3.14298375651595894489e-04 9.99976730481062503486e-01 -2.14128990649232141524e-04
9.99539552114477276802e+08 9.99949651173645981395e-01 -4.62308684967323074624e-04 -3.43022560813563201086e-05 -3.14967240524852674661e-04 -3.43022560813563201086e-05 -3.14967240524852674661e-04 9.99976630144980949133e-01 -2.14584682982653455465e-04
9.99540555268911957741e+08 9.99949433610743065870e-01 -4.63294579175462038333e-04 -3.44504799616802127285e-05 -3.15638922429787964485e-04 -3.44504799616802127285e-05 -3.15638922429787964485e-04 9.99976529161226812548e-01 -2.15042294537415594382e-04
9.99541558423346638680e+08 9.99949214640485473105e-01 -4.64284634052865633185e-04 -3.45996626615135171906e-05 -3.16313438965695205816e-04 -3.45996626615135171906e-05 -3.16313438965695205816e-04 9.99976427524236655131e-01 -2.15501837303777631430e-04
9.99542561577781319618e+08 9.99948994250758671498e-01 -4.65278875643950807790e-04 -3.47498124344916117291e-05 -3.16990807876429069815e-04 -3.47498124344916117291e-05 -3.16990807876429069815e-04 9.99976325228387086241e-01 -2.15963323370487050119e-04
9.99543564732216000557e+08 9.99948772429317789268e-01 -4.66277330207743874024e-04 -3.49009376228723297640e-05 -3.17671047052055992126e-04 -3.49009376228723297640e-05 -3.17671047052055992126e-04 9.99976222267994874215e-01 -2.16426764925904224594e-04
9.99544567886650800705e+08 9.99948549163786282179e-01 -4.67280024220728001406e-04 -3.50530466587768496168e-05 -3.18354174530794027404e-04 -3.50530466587768496168e-05 -3.18354174530794027404e-04 9.99976118637315058990e-01 -2.16892174259323980770e-04
9.99545571041085481644e+08 9.99948324441654268213e-01 -4.68286984377553694783e-04 -3.52061480651199196451e-05 -3.19040208499496674537e-04 -3.52061480651199196451e-05 -3.19040208499496674537e-04 9.99976014330541174147e-01 -2.17359563761305464840e-04
9.99546574195520162582e+08 9.99948098250276307120e-01 -4.69298237594767094546e-04 -3.53602504570105796874e-05 -3.19729167296193541800e-04 -3.53602504570105796874e-05 -3.19729167296193541800e-04 9.99975909341803692598e-01 -2.17828945925402746786e-04
9.99547577349954843521e+08 9.99947870576870290193e-01 -4.70313811012293002574e-04 -3.55153625428262462735e-05 -3.20421069411100010137e-04 -3.55153625428262462735e-05 -3.20421069411100010137e-04 9.99975803665169804546e-01 -2.18300333348852963495e-04
9.99548580504389524460e+08 9.99947641408515441874e-01 -4.71333731995889028063e-04 -3.56714931254478154112e-05 -3.21115933488289777634e-04 -3.56714931254478154112e-05 -3.21115933488289777634e-04 9.99975697294642196233e-01 -2.18773738733715625510e-04
9.99549583658824205399e+08 9.99947410732150432366e-01 -4.72358028139457919708e-04 -3.58286511034873114820e-05 -3.21813778327269934230e-04 -3.58286511034873114820e-05 -3.21813778327269934230e-04 9.99975590224158161767e-01 -2.19249174887945841653e-04
9.99550586813258886337e+08 9.99947178534571379238e-01 -4.73386727267505452027e-04 -3.59868454725522634858e-05 -3.22514622884655566184e-04 -3.59868454725522634858e-05 -3.22514622884655566184e-04 9.99975482447589159030e-01 -2.19726654726535089446e-04
9.99551589967693567276e+08 9.99946944802430404131e-01 -4.74419857437053662727e-04 -3.61460853264407330049e-05 -3.23218486275473292340e-04 -3.61460853264407330049e-05 -3.23218486275473292340e-04 9.99975373958739588431e-01 -2.20206191272399447742e-04
9.99552593122128248215e+08 9.99946709522233634360e-01 -4.75457446940839032271e-04 -3.63063798585489609888e-05 -3.23925387775340022610e-04 -3.63063798585489609888e-05 -3.23925387775340022610e-04 9.99975264751346126779e-01 -2.20687797657863842395e-04
9.99553596276562929153e+08 9.99946472680338871442e-01 -4.76499524308940847119e-04 -3.64677383630523214183e-05 -3.24635346821572584684e-04 -3.64677383630523214183e-05 -3.24635346821572584684e-04 9.99975154819076728074e-01 -2.21171487125418060431e-04
9.99554599430997610092e+08 9.99946234262954258831e-01 -4.77546118311638885610e-04 -3.66301702362908910247e-05 -3.25348383015134409030e-04 -3.66301702362908910247e-05 -3.25348383015134409030e-04 9.99975044155529735335e-01 -2.21657273029042973253e-04
9.99555602585432291031e+08 9.99945994256135950451e-01 -4.78597257962075513758e-04 -3.67936849781411005628e-05 -3.26064516122449236501e-04 -3.67936849781411005628e-05 -3.26064516122449236501e-04 9.99974932754232992416e-01 -2.22145168835446418700e-04
9.99556605739866971970e+08 9.99945752645786112289e-01 -4.79652972518254249335e-04 -3.69582921932998164304e-05 -3.26783766076762822051e-04 -3.69582921932998164304e-05 -3.26783766076762822051e-04 9.99974820608642733788e-01 -2.22635188124990573370e-04
9.99557608894301772118e+08 9.99945509417650924000e-01 -4.80713291486167847762e-04 -3.71240015927603870583e-05 -3.27506152980274096737e-04 -3.71240015927603870583e-05 -3.27506152980274096737e-04 9.99974707712143140448e-01 -2.23127344593144160117e-04
9.99558612048736453056e+08 9.99945264557318802545e-01 -4.81778244621678037631e-04 -3.72908229951104396873e-05 -3.28231697105415610484e-04 -3.72908229951104396873e-05 -3.28231697105415610484e-04 9.99974594058044785605e-01 -2.23621652051354634491e-04
9.99559615203171133995e+08 9.99945018050217626637e-01 -4.82847861933828842538e-04 -3.74587663280702683828e-05 -3.28960418897111057848e-04 -3.74587663280702683828e-05 -3.28960418897111057848e-04 9.99974479639583968549e-01 -2.24118124428586450777e-04
9.99560618357605814934e+08 9.99944769881613404472e-01 -4.83922173687258930924e-04 -3.76278416299078262907e-05 -3.29692338974418711669e-04 -3.76278416299078262907e-05 -3.29692338974418711669e-04 9.99974364449921826470e-01 -2.24616775772440446530e-04
9.99561621512040495872e+08 9.99944520036607609192e-01 -4.85001210404579813536e-04 -3.77980590508651223438e-05 -3.30427478132151763220e-04 -3.77980590508651223438e-05 -3.30427478132151763220e-04 9.99974248482142891170e-01 -2.25117620250257939856e-04
9.99562624666475176811e+08 9.99944268500135069466e-01 -4.86085002869440828757e-04 -3.79694288547102566721e-05 -3.31165857342966332959e-04 -3.79694288547102566721e-05 -3.31165857342966332959e-04 9.99974131729254644974e-01 -2.25620672150543202664e-04
9.99563627820909857750e+08 9.99944015256961638016e-01 -4.87173582129274396722e-04 -3.81419614202575669158e-05 -3.31907497759231936117e-04 -3.81419614202575669158e-05 -3.31907497759231936117e-04 9.99974014184186077436e-01 -2.26125945884237777687e-04
9.99564630975344538689e+08 9.99943760291682415264e-01 -4.88266979497832456086e-04 -3.83156672428727718919e-05 -3.32652420714759375700e-04 -3.83156672428727718919e-05 -3.32652420714759375700e-04 9.99973895839786797168e-01 -2.26633455985897840730e-04
9.99565634129779219627e+08 9.99943503588718973774e-01 -4.89365226557934266012e-04 -3.84905569360298926897e-05 -3.33400647726672997011e-04 -3.84905569360298926897e-05 -3.33400647726672997011e-04 9.99973776688825810588e-01 -2.27143217114969520574e-04
9.99566637284213900566e+08 9.99943245132316804735e-01 -4.90468355164858549507e-04 -3.86666412329899296710e-05 -3.34152200497721447742e-04 -3.86666412329899296710e-05 -3.34152200497721447742e-04 9.99973656723990855788e-01 -2.27655244057363377380e-04
9.99567640438648581505e+08 9.99942984906543763657e-01 -4.91576397448680816465e-04 -3.88439309883311257449e-05 -3.34907100917870479383e-04 -3.88439309883311257449e-05 -3.34907100917870479383e-04 9.99973535937886626179e-01 -2.28169551726539418003e-04
9.99568643593083262444e+08 9.99942722895286961737e-01 -4.92689385817246896550e-04 -3.90224371795997793718e-05 -3.35665371066328236879e-04 -3.90224371795997793718e-05 -3.35665371066328236879e-04 9.99973414323034215379e-01 -2.28686155164887095631e-04
9.99569646747517943382e+08 9.99942459082250545421e-01 -4.93807352959495910426e-04 -3.92021709090374667161e-05 -3.36427033213809940134e-04 -3.92021709090374667161e-05 -3.36427033213809940134e-04 9.99973291871869784941e-01 -2.29205069545268048156e-04
9.99570649901952624321e+08 9.99942193450953142886e-01 -4.94930331848083496921e-04 -3.93831434052164318740e-05 -3.37192109824324161294e-04 -3.93831434052164318740e-05 -3.37192109824324161294e-04 9.99973168576743454139e-01 -2.29726310172233142218e-04
9.99571653056387424469e+08 9.99941925984725643595e-01 -4.96058355742468753448e-04 -3.95653660247701022897e-05 -3.37960623557276719064e-04 -3.95653660247701022897e-05 -3.37960623557276719064e-04 9.99973044429917967690e-01 -2.30249892483455815585e-04
9.99572656210822105408e+08 9.99941656666708089674e-01 -4.97191458192229726251e-04 -3.97488502541817038559e-05 -3.38732597269729017626e-04 -3.97488502541817038559e-05 -3.38732597269729017626e-04 9.99972919423567696562e-01 -2.30775832051270831085e-04
9.99573659365256786346e+08 9.99941385479847566486e-01 -4.98329673039541354469e-04 -3.99336077114590009044e-05 -3.39508054018086474681e-04 -3.99336077114590009044e-05 -3.39508054018086474681e-04 9.99972793549777305699e-01 -2.31304144583824208533e-04
9.99574662519691467285e+08 9.99941112406895316056e-01 -4.99473034423449720361e-04 -4.01196501481219979304e-05 -3.40287017061010309011e-04 -4.01196501481219979304e-05 -3.40287017061010309011e-04 9.99972666800540754828e-01 -2.31834845927057504444e-04
9.99575665674126148224e+08 9.99940837430404072528e-01 -5.00621576781732865492e-04 -4.03069894508216466597e-05 -3.41069509860685785973e-04 -4.03069894508216466597e-05 -3.41069509860685785973e-04 9.99972539167759522094e-01 -2.32367952065571324854e-04
9.99576668828560829163e+08 9.99940560532725175591e-01 -5.01775334855197917630e-04 -4.04956376433767976561e-05 -3.41855556085749129683e-04 -4.04956376433767976561e-05 -3.41855556085749129683e-04 9.99972410643242159978e-01 -2.32903479124619959160e-04
