! File generated for n1 = 3, n2 = 7
! b1 = 21.544347
! b2 = 0.215443
! Q0 = 10000.000000
! f0 = 1000000000.000000
! n = 1001
! rel_span = 10.000000
# Hz S RI R 50
9.88620104815338969231e+08 9.81467330174801477760e-01 -1.86393335674568061400e-01 -1.85326698251985053263e-03 -1.86393335674568012827e-02 -1.85326698251985053263e-03 -1.86393335674568012827e-02 9.99814673301748002565e-01 -1.86393335674567978133e-03
9.88642864605708241463e+08 9.81393280691422287276e-01 -1.86761654130172372046e-01 -1.86067193085776559115e-03 -1.86761654130172295718e-02 -1.86067193085776559115e-03 -1.86761654130172295718e-02 9.99813932806914218432e-01 -1.86761654130172274034e-03
9.88665624396077632904e+08 9.81318789729315521519e-01 -1.87131407483081380061e-01 -1.86812102706845222823e-03 -1.87131407483081338428e-02 -1.86812102706845222823e-03 -1.87131407483081338428e-02 9.99813187897293120798e-01 -1.87131407483081299396e-03
9.88688384186446905136e+08 9.81243853787442388281e-01 -1.87502604042904558179e-01 -1.87561462125575804938e-03 -1.87502604042904530424e-02 -1.87561462125575804938e-03 -1.87502604042904530424e-02 9.99812438537874381694e-01 -1.87502604042904478382e-03
9.88711143976816296577e+08 9.81168469330123027561e-01 -1.87875252182785168475e-01 -1.88315306698770210114e-03 -1.87875252182785126842e-02 -1.88315306698770210114e-03 -1.87875252182785126842e-02 9.99811684693301283566e-01 -1.87875252182785092148e-03
9.88733903767185568810e+08 9.81092632786629281760e-01 -1.88249360339978050183e-01 -1.89073672133707520668e-03 -1.88249360339977980794e-02 -1.89073672133707520668e-03 -1.88249360339977980794e-02 9.99810926327866278385e-01 -1.88249360339977941763e-03
9.88756663557554960251e+08 9.81016340550764365247e-01 -1.88624937016481530883e-01 -1.89836594492356815905e-03 -1.88624937016481503127e-02 -1.89836594492356815905e-03 -1.88624937016481503127e-02 9.99810163405507656975e-01 -1.88624937016481459759e-03
9.88779423347924232483e+08 9.80939588980444643340e-01 -1.89001990779629897022e-01 -1.90604110195553432157e-03 -1.89001990779629862327e-02 -1.90604110195553432157e-03 -1.89001990779629862327e-02 9.99809395889804441993e-01 -1.89001990779629814622e-03
9.88802183138293504715e+08 9.80862374397268088622e-01 -1.89380530262734575464e-01 -1.91376256027319378329e-03 -1.89380530262734519953e-02 -1.91376256027319378329e-03 -1.89380530262734519953e-02 9.99808623743972724185e-01 -1.89380530262734476585e-03
9.88824942928662896156e+08 9.80784693086083958491e-01 -1.89760564165691897331e-01 -1.92153069139160050799e-03 -1.89760564165691834881e-02 -1.92153069139160050799e-03 -1.89760564165691834881e-02 9.99807846930860888435e-01 -1.89760564165691804524e-03
9.88847702719032168388e+08 9.80706541294550815380e-01 -1.90142101255632189893e-01 -1.92934587054491898245e-03 -1.90142101255632127443e-02 -1.92934587054491898245e-03 -1.90142101255632127443e-02 9.99807065412945505933e-01 -1.90142101255632092749e-03
9.88870462509401559830e+08 9.80627915232691882430e-01 -1.90525150367551909802e-01 -1.93720847673081513970e-03 -1.90525150367551847352e-02 -1.93720847673081513970e-03 -1.90525150367551847352e-02 9.99806279152326893289e-01 -1.90525150367551812658e-03
9.88893222299770832062e+08 9.80548811072442294545e-01 -1.90909720404967842011e-01 -1.94511889275577535934e-03 -1.90909720404967807317e-02 -1.94511889275577535934e-03 -1.90909720404967807317e-02 9.99805488110724449591e-01 -1.90909720404967755275e-03
9.88915982090140104294e+08 9.80469224947189799124e-01 -1.91295820340576627760e-01 -1.95307750528101874317e-03 -1.91295820340576551433e-02 -1.95307750528101874317e-03 -1.91295820340576551433e-02 9.99804692249471882448e-01 -1.91295820340576529749e-03
9.88938741880509495735e+08 9.80389152951311348971e-01 -1.91683459216913015810e-01 -1.96108470486886865905e-03 -1.91683459216912960299e-02 -1.96108470486886865905e-03 -1.91683459216912960299e-02 9.99803891529513100167e-01 -1.91683459216912912594e-03
9.88961501670878767967e+08 9.80308591139701368533e-01 -1.92072646147019410190e-01 -1.96914088602985915682e-03 -1.92072646147019333862e-02 -1.96914088602985915682e-03 -1.92072646147019333862e-02 9.99803085911396993701e-01 -1.92072646147019320852e-03
9.88984261461248159409e+08 9.80227535527292470618e-01 -1.92463390315135179920e-01 -1.97724644727074972891e-03 -1.92463390315135117470e-02 -1.97724644727074972891e-03 -1.92463390315135117470e-02 9.99802275355272884738e-01 -1.92463390315135104459e-03
9.89007021251617431641e+08 9.80145982088572620405e-01 -1.92855700977370564386e-01 -1.98540179114273891356e-03 -1.92855700977370529692e-02 -1.98540179114273891356e-03 -1.92855700977370529692e-02 9.99801459820885751739e-01 -1.92855700977370486324e-03
9.89029781041986823082e+08 9.80063926757091419262e-01 -1.93249587462412303340e-01 -1.99360732429085859424e-03 -1.93249587462412247829e-02 -1.99360732429085859424e-03 -1.93249587462412247829e-02 9.99800639267570900870e-01 -1.93249587462412204461e-03
9.89052540832356095314e+08 9.79981365424963835054e-01 -1.93645059172215999732e-01 -2.00186345750362135187e-03 -1.93645059172215944221e-02 -2.00186345750362135187e-03 -1.93645059172215944221e-02 9.99799813654249636130e-01 -1.93645059172215905190e-03
9.89075300622725367546e+08 9.79898293942361386932e-01 -1.94042125582730123901e-01 -2.01017060576386434254e-03 -1.94042125582730082267e-02 -2.01017060576386434254e-03 -1.94042125582730082267e-02 9.99798982939423597216e-01 -1.94042125582730043236e-03
9.89098060413094758987e+08 9.79814708117002219900e-01 -1.94440796244602365217e-01 -2.01852918829977965795e-03 -1.94440796244602330523e-02 -2.01852918829977965795e-03 -1.94440796244602330523e-02 9.99798147081169985562e-01 -1.94440796244602282818e-03
9.89120820203464031219e+08 9.79730603713629744078e-01 -1.94841080783911352325e-01 -2.02693962863702715343e-03 -1.94841080783911303753e-02 -2.02693962863702715343e-03 -1.94841080783911303753e-02 9.99797306037136346291e-01 -1.94841080783911247375e-03
9.89143579993833422661e+08 9.79645976453484834678e-01 -1.95242988902903202852e-01 -2.03540235465151818015e-03 -1.95242988902903161219e-02 -2.03540235465151818015e-03 -1.95242988902903161219e-02 9.99796459764534795056e-01 -1.95242988902903104841e-03
9.89166339784202694893e+08 9.79560822013770926553e-01 -1.95646530380734318122e-01 -2.04391779862290188033e-03 -1.95646530380734276489e-02 -2.04391779862290188033e-03 -1.95646530380734276489e-02 9.99795608220137688171e-01 -1.95646530380734224447e-03
9.89189099574571967125e+08 9.79475136027111892290e-01 -1.96051715074222115964e-01 -2.05248639728881042410e-03 -1.96051715074222060453e-02 -2.05248639728881042410e-03 -1.96051715074222060453e-02 9.99794751360271072294e-01 -1.96051715074222008411e-03
9.89211859364941358566e+08 9.79388914080999484213e-01 -1.96458552918612833205e-01 -2.06110859190005617572e-03 -1.96458552918612784632e-02 -2.06110859190005617572e-03 -1.96458552918612784632e-02 9.99793889140810021487e-01 -1.96458552918612723917e-03
9.89234619155310630798e+08 9.79302151717238222872e-01 -1.96867053928337032431e-01 -2.06978482827617667195e-03 -1.96867053928336983859e-02 -2.06978482827617667195e-03 -1.96867053928336983859e-02 9.99793021517172419976e-01 -1.96867053928336931817e-03
9.89257378945680022240e+08 9.79214844431373965250e-01 -1.97277228197812959376e-01 -2.07851555686260156680e-03 -1.97277228197812910804e-02 -2.07851555686260156680e-03 -1.97277228197812910804e-02 9.99792148444313744093e-01 -1.97277228197812858762e-03
9.89280138736049294472e+08 9.79126987672125137507e-01 -1.97689085902204159106e-01 -2.08730123278748520843e-03 -1.97689085902204124412e-02 -2.08730123278748520843e-03 -1.97689085902204124412e-02 9.99791269876721289123e-01 -1.97689085902204081044e-03
9.89302898526418685913e+08 9.79038576840793872691e-01 -1.98102637298245259911e-01 -2.09614231592061524626e-03 -1.98102637298245218278e-02 -2.09614231592061524626e-03 -1.98102637298245218278e-02 9.99790385768407952050e-01 -1.98102637298245166236e-03
9.89325658316787958145e+08 9.78949607290679812976e-01 -1.98517892725022543354e-01 -2.10503927093201245735e-03 -1.98517892725022480904e-02 -2.10503927093201245735e-03 -1.98517892725022480904e-02 9.99789496072906791468e-01 -1.98517892725022472231e-03
9.89348418107157230377e+08 9.78860074326475260165e-01 -1.98934862604814938214e-01 -2.11399256735247172839e-03 -1.98934862604814889642e-02 -2.11399256735247172839e-03 -1.98934862604814889642e-02 9.99788600743264699311e-01 -1.98934862604814837600e-03
9.89371177897526621819e+08 9.78769973203658771865e-01 -1.99353557443904316759e-01 -2.12300267963412081854e-03 -1.99353557443904261248e-02 -2.12300267963412081854e-03 -1.99353557443904261248e-02 9.99787699732036627687e-01 -1.99353557443904217880e-03
9.89393937687895894051e+08 9.78679299127878876696e-01 -1.99773987833406718728e-01 -2.13207008721210755989e-03 -1.99773987833406670156e-02 -2.13207008721210755989e-03 -1.99773987833406670156e-02 9.99786792991278816523e-01 -1.99773987833406618114e-03
9.89416697478265285492e+08 9.78588047254323467605e-01 -2.00196164450135438706e-01 -2.14119527456765575482e-03 -2.00196164450135404012e-02 -2.14119527456765575482e-03 -2.00196164450135404012e-02 9.99785880472543242448e-01 -2.00196164450135334623e-03
9.89439457268634557724e+08 9.78496212687088640081e-01 -2.00620098057431445193e-01 -2.15037873129113365003e-03 -2.00620098057431375804e-02 -2.15037873129113365003e-03 -2.00620098057431375804e-02 9.99784962126870846433e-01 -2.00620098057431367131e-03
9.89462217059003829956e+08 9.78403790478529655772e-01 -2.01045799506049838179e-01 -2.15962095214703711163e-03 -2.01045799506049775729e-02 -2.15962095214703711163e-03 -2.01045799506049775729e-02 9.99784037904785316542e-01 -2.01045799506049732361e-03
9.89484976849373221397e+08 9.78310775628606132948e-01 -2.01473279735031762794e-01 -2.16892243713939130226e-03 -2.01473279735031700344e-02 -2.16892243713939130226e-03 -2.01473279735031700344e-02 9.99783107756286093526e-01 -2.01473279735031682997e-03
9.89507736639742493629e+08 9.78217163084221685843e-01 -2.01902549772573741693e-01 -2.17828369157783540561e-03 -2.01902549772573700060e-02 -2.17828369157783540561e-03 -2.01902549772573700060e-02 9.99782171630842264598e-01 -2.01902549772573630671e-03
9.89530496430111885071e+08 9.78122947738546133500e-01 -2.02333620736939945317e-01 -2.18770522614538959899e-03 -2.02333620736939896745e-02 -2.18770522614538959899e-03 -2.02333620736939896745e-02 9.99781229477385458004e-01 -2.02333620736939870724e-03
9.89553256220481157303e+08 9.78028124430332601591e-01 -2.02766503837362638274e-01 -2.19718755696673723882e-03 -2.02766503837362582763e-02 -2.19718755696673723882e-03 -2.02766503837362582763e-02 9.99780281244303292709e-01 -2.02766503837362513374e-03
9.89576016010850548744e+08 9.77932687943222633820e-01 -2.03201210374963636696e-01 -2.20673120567773739867e-03 -2.03201210374963602001e-02 -2.20673120567773739867e-03 -2.03201210374963602001e-02 9.99779326879432272968e-01 -2.03201210374963532612e-03
9.89598775801219820976e+08 9.77836633005043420752e-01 -2.03637751743672379412e-01 -2.21633669949565861867e-03 -2.03637751743672296145e-02 -2.21633669949565861867e-03 -2.03637751743672296145e-02 9.99778366330050460853e-01 -2.03637751743672261451e-03
9.89621535591589093208e+08 9.77739954287089929608e-01 -2.04076139431179665040e-01 -2.22600457129100252895e-03 -2.04076139431179602590e-02 -2.22600457129100252895e-03 -2.04076139431179602590e-02 9.99777399542870925941e-01 -2.04076139431179576569e-03
9.89644295381958484650e+08 9.77642646403400594757e-01 -2.04516385019882229734e-01 -2.23573535965994069780e-03 -2.04516385019882160345e-02 -2.23573535965994069780e-03 -2.04516385019882160345e-02 9.99776426464033973751e-01 -2.04516385019882151672e-03
9.89667055172327756882e+08 9.77544703910022905191e-01 -2.04958500187832765027e-01 -2.24552960899771208297e-03 -2.04958500187832695638e-02 -2.24552960899771208297e-03 -2.04958500187832695638e-02 9.99775447039100262359e-01 -2.04958500187832652270e-03
9.89689814962697148323e+08 9.77446121304261228424e-01 -2.05402496709735926661e-01 -2.25538786957387576981e-03 -2.05402496709735857272e-02 -2.25538786957387576981e-03 -2.05402496709735857272e-02 9.99774461213042586749e-01 -2.05402496709735813904e-03
9.89712574753066420555e+08 9.77346893023922747012e-01 -2.05848386457911897152e-01 -2.26531069760771983437e-03 -2.05848386457911820824e-02 -2.26531069760771983437e-03 -2.05848386457911820824e-02 9.99773468930239217478e-01 -2.05848386457911777456e-03
9.89735334543435692787e+08 9.77247013446543411064e-01 -2.06296181403310852076e-01 -2.27529865534566340390e-03 -2.06296181403310789626e-02 -2.27529865534566340390e-03 -2.06296181403310789626e-02 9.99772470134465462976e-01 -2.06296181403310772279e-03
9.89758094333805084229e+08 9.77146476888607451450e-01 -2.06745893616513076729e-01 -2.28535231113924895696e-03 -2.06745893616512993463e-02 -2.28535231113924895696e-03 -2.06745893616512993463e-02 9.99771464768886120034e-01 -2.06745893616512967442e-03
9.89780854124174356461e+08 9.77045277604756678969e-01 -2.07197535268742655257e-01 -2.29547223952433375113e-03 -2.07197535268742599746e-02 -2.29547223952433375113e-03 -2.07197535268742599746e-02 9.99770452776047591215e-01 -2.07197535268742547704e-03
9.89803613914543747902e+08 9.76943409786978911313e-01 -2.07651118632921544149e-01 -2.30565902130211268506e-03 -2.07651118632921453944e-02 -2.30565902130211268506e-03 -2.07651118632921453944e-02 9.99769434097869780231e-01 -2.07651118632921427923e-03
9.89826373704913020134e+08 9.76840867563795733908e-01 -2.08106656084693919517e-01 -2.31591324362042131832e-03 -2.08106656084693850128e-02 -2.31591324362042131832e-03 -2.08106656084693850128e-02 9.99768408675637987315e-01 -2.08106656084693824108e-03
9.89849133495282411575e+08 9.76737644999428278325e-01 -2.08564160103503370980e-01 -2.32623550005717390221e-03 -2.08564160103503308530e-02 -2.32623550005717390221e-03 -2.08564160103503308530e-02 9.99767376449994249477e-01 -2.08564160103503256488e-03
9.89871893285651683807e+08 9.76633736092957671637e-01 -2.09023643273645726159e-01 -2.33662639070423509141e-03 -2.09023643273645656770e-02 -2.33662639070423509141e-03 -2.09023643273645656770e-02 9.99766337360929568945e-01 -2.09023643273645613402e-03
9.89894653076020956039e+08 9.76529134777465723793e-01 -2.09485118285372529101e-01 -2.34708652225342493183e-03 -2.09485118285372452773e-02 -2.34708652225342493183e-03 -2.09485118285372452773e-02 9.99765291347774698316e-01 -2.09485118285372435426e-03
9.89917412866390347481e+08 9.76423834919168731616e-01 -2.09948597935976560835e-01 -2.35761650808312579752e-03 -2.09948597935976505324e-02 -2.35761650808312579752e-03 -2.09948597935976505324e-02 9.99764238349191702859e-01 -2.09948597935976461956e-03
9.89940172656759619713e+08 9.76317830316534851498e-01 -2.10414095130904088560e-01 -2.36821696834651953395e-03 -2.10414095130904005293e-02 -2.36821696834651953395e-03 -2.10414095130904005293e-02 9.99763178303165300775e-01 -2.10414095130903979272e-03
9.89962932447129011154e+08 9.76211114699387372262e-01 -2.10881622884884212255e-01 -2.37888853006126615650e-03 -2.10881622884884142866e-02 -2.37888853006126615650e-03 -2.10881622884884142866e-02 9.99762111146993870392e-01 -2.10881622884884125518e-03
9.89985692237498283386e+08 9.76103681727996219664e-01 -2.11351194323063928948e-01 -2.38963182720037300294e-03 -2.11351194323063859559e-02 -2.38963182720037300294e-03 -2.11351194323063859559e-02 9.99761036817280013267e-01 -2.11351194323063833538e-03
9.90008452027867555618e+08 9.75995524992154250832e-01 -2.11822822682161959751e-01 -2.40044750078457092696e-03 -2.11822822682161890362e-02 -2.40044750078457092696e-03 -2.11822822682161890362e-02 9.99759955249921561382e-01 -2.11822822682161855667e-03
9.90031211818236947060e+08 9.75886638010238227636e-01 -2.12296521311638591856e-01 -2.41133619897617324651e-03 -2.12296521311638522467e-02 -2.41133619897617324651e-03 -2.12296521311638522467e-02 9.99758866380102362292e-01 -2.12296521311638487772e-03
9.90053971608606219292e+08 9.75777014228259909068e-01 -2.12772303674864327050e-01 -2.42229857717401065448e-03 -2.12772303674864243783e-02 -2.42229857717401065448e-03 -2.12772303674864243783e-02 9.99757770142282620185e-01 -2.12772303674864209089e-03
9.90076731398975610733e+08 9.75666647018893828935e-01 -2.13250183350336020016e-01 -2.43333529811062040243e-03 -2.13250183350335957566e-02 -2.43333529811062040243e-03 -2.13250183350335957566e-02 9.99756666470188903872e-01 -2.13250183350335940219e-03
9.90099491189344882965e+08 9.75555529680499411427e-01 -2.13730174032870035017e-01 -2.44444703195005564808e-03 -2.13730174032869986445e-02 -2.44444703195005564808e-03 -2.13730174032869986445e-02 9.99755555296805042964e-01 -2.13730174032869925729e-03
9.90122250979714274406e+08 9.75443655436123213676e-01 -2.14212289534829847248e-01 -2.45563445638768106105e-03 -2.14212289534829770921e-02 -2.45563445638768106105e-03 -2.14212289534829770921e-02 9.99754436554361247680e-01 -2.14212289534829744900e-03
9.90145010770083546638e+08 9.75331017432483737828e-01 -2.14696543787373322898e-01 -2.46689825675162855909e-03 -2.14696543787373274326e-02 -2.46689825675162855909e-03 -2.14696543787373274326e-02 9.99753310174324782977e-01 -2.14696543787373230958e-03
9.90167770560452818871e+08 9.75217608738943364521e-01 -2.15182950841707854028e-01 -2.47823912610566033862e-03 -2.15182950841707777700e-02 -2.47823912610566033862e-03 -2.15182950841707777700e-02 9.99752176087389421433e-01 -2.15182950841707760353e-03
9.90190530350822210312e+08 9.75103422346463855064e-01 -2.15671524870359204717e-01 -2.48965776535361093744e-03 -2.15671524870359142267e-02 -2.48965776535361093744e-03 -2.15671524870359142267e-02 9.99751034223464674078e-01 -2.15671524870359116247e-03
9.90213290141191482544e+08 9.74988451166546976623e-01 -2.16162280168449655315e-01 -2.50115488334530467959e-03 -2.16162280168449606743e-02 -2.50115488334530467959e-03 -2.16162280168449606743e-02 9.99749884511665465325e-01 -2.16162280168449546028e-03
9.90236049931560873985e+08 9.74872688030150480465e-01 -2.16655231155025940204e-01 -2.51273119698494813712e-03 -2.16655231155025891632e-02 -2.51273119698494813712e-03 -2.16655231155025891632e-02 9.99748726880301474829e-01 -2.16655231155025865611e-03
9.90258809721930146217e+08 9.74756125686601859748e-01 -2.17150392374343637059e-01 -2.52438743133980882105e-03 -2.17150392374343588486e-02 -2.52438743133980882105e-03 -2.17150392374343588486e-02 9.99747561256866035251e-01 -2.17150392374343545118e-03
9.90281569512299418449e+08 9.74638756802475580976e-01 -2.17647778497244842599e-01 -2.53612431975244008095e-03 -2.17647778497244773210e-02 -2.53612431975244008095e-03 -2.17647778497244773210e-02 9.99746387568024807990e-01 -2.17647778497244729842e-03
9.90304329302668809891e+08 9.74520573960470870567e-01 -2.18147404322477866945e-01 -2.54794260395290730545e-03 -2.18147404322477783678e-02 -2.54794260395290730545e-03 -2.18147404322477783678e-02 9.99745205739604680950e-01 -2.18147404322477757657e-03
9.90327089093038082123e+08 9.74401569658261856866e-01 -2.18649284778076491431e-01 -2.55984303417380832865e-03 -2.18649284778076428981e-02 -2.55984303417380832865e-03 -2.18649284778076428981e-02 9.99744015696582666308e-01 -2.18649284778076394287e-03
9.90349848883407473564e+08 9.74281736307327728142e-01 -2.19153434922760764758e-01 -2.57182636926723108897e-03 -2.19153434922760709247e-02 -2.57182636926723108897e-03 -2.19153434922760709247e-02 9.99742817363073243975e-01 -2.19153434922760665879e-03
9.90372608673776745796e+08 9.74161066231773897783e-01 -2.19659869947314706495e-01 -2.58389337682260683896e-03 -2.19659869947314637106e-02 -2.58389337682260683896e-03 -2.19659869947314637106e-02 9.99741610662317703451e-01 -2.19659869947314619759e-03
9.90395368464146137238e+08 9.74039551667120862000e-01 -2.20168605176042864180e-01 -2.59604483328791093774e-03 -2.20168605176042815608e-02 -2.59604483328791093774e-03 -2.20168605176042815608e-02 9.99740395516671154219e-01 -2.20168605176042754892e-03
