! File generated for n1 = 6, n2 = 11
! b1 = 2.154435
! b2 = 0.001000
! Q0 = 10000.000000
! f0 = 1000000000.000000
! n = 1001
! rel_span = 10.000000
# Hz S RI R 50
9.98422282654984116554e+08 9.86500939598894954763e-01 -1.35097260793979351279e-01 -2.90828440109765066525e-04 -2.91058225182833389330e-03 -2.90828440109765066525e-04 -2.91058225182833389330e-03 9.99993734291197755581e-01 -6.27065937153007784939e-05
9.98425438089674115181e+08 9.86447276008072138076e-01 -1.35362837989341733280e-01 -2.91984587126367016539e-04 -2.91630393905403491675e-03 -2.91984587126367016539e-04 -2.91630393905403491675e-03 9.99993709382765438853e-01 -6.28298637297464076254e-05
9.98428593524364233017e+08 9.86393293031248230562e-01 -1.35629449700437942905e-01 -2.93147615105775020961e-04 -2.92204791424557951476e-03 -2.93147615105775020961e-04 -2.92204791424557951476e-03 9.99993684326087151071e-01 -6.29536139238598608549e-05
9.98431748959054231644e+08 9.86338988137906325093e-01 -1.35897101917270751725e-01 -2.94317578566316866064e-04 -2.92781430645366489915e-03 -2.94317578566316866064e-04 -2.92781430645366489915e-03 9.99993659119988498318e-01 -6.30778470779541459990e-05
9.98434904393744230270e+08 9.86284358772495539647e-01 -1.36165800675683956733e-01 -2.95494532565671453976e-04 -2.93360324571660365314e-03 -2.95494532565671453976e-04 -2.93360324571660365314e-03 9.99993633763283207294e-01 -6.32025659936197656144e-05
9.98438059828434228897e+08 9.86229402354154793819e-01 -1.36435552057691228400e-01 -2.96678532706802641165e-04 -2.93941486306740834208e-03 -2.96678532706802641165e-04 -2.93941486306740834208e-03 9.99993608254773458377e-01 -6.33277734938774268742e-05
9.98441215263124346733e+08 9.86174116276395507086e-01 -1.36706362191998748168e-01 -2.97869635144807330413e-04 -2.94524929054505203718e-03 -2.97869635144807330413e-04 -2.94524929054505203718e-03 9.99993582593249330515e-01 -6.34534724234205233830e-05
9.98444370697814345360e+08 9.86118497906815827392e-01 -1.36978237254352264163e-01 -2.99067896593061650305e-04 -2.95110666120194150425e-03 -2.99067896593061650305e-04 -2.95110666120194150425e-03 9.99993556777489023268e-01 -6.35796656487763018305e-05
9.98447526132504343987e+08 9.86062544586767786292e-01 -1.37251183468103388208e-01 -3.00273374330400270957e-04 -2.95698710911612445279e-03 -3.00273374330400270957e-04 -2.95698710911612445279e-03 9.99993530806258523747e-01 -6.37063560585687268080e-05
9.98450681567194461823e+08 9.86006253631060536335e-01 -1.37525207104581076445e-01 -3.01486126207508805825e-04 -2.96289076939928661125e-03 -3.01486126207508805825e-04 -2.96289076939928661125e-03 9.99993504678311384559e-01 -6.38335465636908011913e-05
9.98453837001884460449e+08 9.85949622327642605235e-01 -1.37800314483548569378e-01 -3.02706210653762796368e-04 -2.96881777820659975217e-03 -3.02706210653762796368e-04 -2.96881777820659975217e-03 9.99993478392388834841e-01 -6.39612400975167987157e-05
9.98456992436574459076e+08 9.85892647937274269054e-01 -1.38076511973694859847e-01 -3.03933686684292644464e-04 -2.97476827274730914324e-03 -3.03933686684292644464e-04 -2.97476827274730914324e-03 9.99993451947219336162e-01 -6.40894396161302987982e-05
9.98460147871264457703e+08 9.85835327693203034016e-01 -1.38353805993092604520e-01 -3.05168613906973680647e-04 -2.98074239129459805236e-03 -3.05168613906973680647e-04 -2.98074239129459805236e-03 9.99993425341518915594e-01 -6.42181480985367172682e-05
9.98463303305954575539e+08 9.85777658800824463370e-01 -1.38632203009710602837e-01 -3.06411052529734499912e-04 -2.98674027319662969623e-03 -3.06411052529734499912e-04 -2.98674027319662969623e-03 9.99993398573990166511e-01 -6.43473685469012345343e-05
9.98466458740644574165e+08 9.85719638437371648010e-01 -1.38911709541769817777e-01 -3.07661063367243182293e-04 -2.99276205888421862125e-03 -3.07661063367243182293e-04 -2.99276205888421862125e-03 9.99993371643323136766e-01 -6.44771039867140144429e-05
9.98469614175334572792e+08 9.85661263751542726652e-01 -1.39192332158383696994e-01 -3.08918707848938845720e-04 -2.99880788988462305619e-03 -3.08918707848938845720e-04 -2.99880788988462305619e-03 9.99993344548194107446e-01 -6.46073574670874383038e-05
9.98472769610024571419e+08 9.85602531863176589688e-01 -1.39474077479944807978e-01 -3.10184048026009788045e-04 -3.00487790882987765642e-03 -3.10184048026009788045e-04 -3.00487790882987765642e-03 9.99993317287266370030e-01 -6.47381320609355132446e-05
9.98475925044714689255e+08 9.85543439862894943282e-01 -1.39756952178659021868e-01 -3.11457146579110946520e-04 -3.01097225946829949103e-03 -3.11457146579110946520e-04 -3.01097225946829949103e-03 9.99993289859189560254e-01 -6.48694308652218563525e-05
9.98479080479404687881e+08 9.85483984811753588318e-01 -1.40040962979016164747e-01 -3.12738066825877473066e-04 -3.01709108667463097100e-03 -3.12738066825877473066e-04 -3.01709108667463097100e-03 9.99993262262599325041e-01 -6.50012570011781614125e-05
9.98482235914094686508e+08 9.85424163740873826356e-01 -1.40326116658336247367e-01 -3.14026872728860389442e-04 -3.02323453646180517751e-03 -3.14026872728860389442e-04 -3.02323453646180517751e-03 9.99993234496117877619e-01 -6.51336136145577395849e-05
9.98485391348784804344e+08 9.85363973651083746574e-01 -1.40612420047251523991e-01 -3.15323628903257870311e-04 -3.02940275599133295240e-03 -3.15323628903257870311e-04 -3.02940275599133295240e-03 9.99993206558352998314e-01 -6.52665038758592038664e-05
9.98488546783474802971e+08 9.85303411512542970385e-01 -1.40899880030249613494e-01 -3.16628400625006860888e-04 -3.03559589358500360803e-03 -3.16628400625006860888e-04 -3.03559589358500360803e-03 9.99993178447898478645e-01 -6.53999309805786545151e-05
9.98491702218164801598e+08 9.85242474264375833748e-01 -1.41188503546152060997e-01 -3.17941253838669292495e-04 -3.04181409873519525630e-03 -3.17941253838669292495e-04 -3.04181409873519525630e-03 9.99993150163333344160e-01 -6.55338981494317236558e-05
9.98494857652854800224e+08 9.85181158814278701286e-01 -1.41478297588704643450e-01 -3.19262255165912711957e-04 -3.04805752211759380110e-03 -3.19262255165912711957e-04 -3.04805752211759380110e-03 9.99993121703222520580e-01 -6.56684086286276886939e-05
9.98498013087544918060e+08 9.85119462038138826721e-01 -1.41769269207083575823e-01 -3.20591471913699477443e-04 -3.05432631560209741015e-03 -3.20591471913699477443e-04 -3.05432631560209741015e-03 9.99993093066115834588e-01 -6.58034656901042834011e-05
9.98501168522234916687e+08 9.85057380779652436154e-01 -1.42061425506396388219e-01 -3.21928972082540626985e-04 -3.06062063226360562759e-03 -3.21928972082540626985e-04 -3.06062063226360562759e-03 9.99993064250548235883e-01 -6.59390726317602863865e-05
9.98504323956924915314e+08 9.84994911849907395229e-01 -1.42354773648317473045e-01 -3.23274824375458489940e-04 -3.06694062639571718432e-03 -3.23274824375458489940e-04 -3.06694062639571718432e-03 9.99993035255039464104e-01 -6.60752327777504782974e-05
9.98507479391615033150e+08 9.84932052026990856319e-01 -1.42649320851597094517e-01 -3.24629098206465039559e-04 -3.07328645352169214922e-03 -3.24629098206465039559e-04 -3.07328645352169214922e-03 9.99993006078094270883e-01 -6.62119494787219301304e-05
9.98510634826305031776e+08 9.84868798055589467211e-01 -1.42945074392575977029e-01 -3.25991863709159833060e-04 -3.07965827040553898064e-03 -3.25991863709159833060e-04 -3.07965827040553898064e-03 9.99992976718201531661e-01 -6.63492261120528394177e-05
9.98513790260995030403e+08 9.84805146646555829015e-01 -1.43242041605841002871e-01 -3.27363191746073178053e-04 -3.08605623506614211438e-03 -3.27363191746073178053e-04 -3.08605623506614211438e-03 9.99992947173834578756e-01 -6.64870660821568386714e-05
9.98516945695685029030e+08 9.84741094476501155341e-01 -1.43540229884737413624e-01 -3.28743153917449579607e-04 -3.09248050678829523863e-03 -3.28743153917449579607e-04 -3.09248050678829523863e-03 9.99992917443450868298e-01 -6.66254728207208151303e-05
9.98520101130375146866e+08 9.84676638187356512155e-01 -1.43839646682002220146e-01 -3.30131822570690056963e-04 -3.09893124613635053202e-03 -3.30131822570690056963e-04 -3.09893124613635053202e-03 9.99992887525491647160e-01 -6.67644497869988515215e-05
9.98523256565065145493e+08 9.84611774385955484945e-01 -1.44140299510278763195e-01 -3.31529270809346467922e-04 -3.10540861496530181188e-03 -3.31529270809346467922e-04 -3.10540861496530181188e-03 9.99992857418382063983e-01 -6.69040004680511029038e-05
9.98526411999755144119e+08 9.84546499643580319550e-01 -1.44442195942779572082e-01 -3.32935572502907029761e-04 -3.11191277643506824732e-03 -3.32935572502907029761e-04 -3.11191277643506824732e-03 9.99992827120530503038e-01 -6.70441283790514254816e-05
9.98529567434445142746e+08 9.84480810495524383263e-01 -1.44745343613846166875e-01 -3.34350802296209037232e-04 -3.11844389502255068744e-03 -3.34350802296209037232e-04 -3.11844389502255068744e-03 9.99992796630328917296e-01 -6.71848370635472734187e-05
9.98532722869135260582e+08 9.84414703440627758546e-01 -1.45049750219616246927e-01 -3.35775035619460522716e-04 -3.12500213653601035049e-03 -3.35775035619460522716e-04 -3.12500213653601035049e-03 9.99992765946152162293e-01 -6.73261300937693198728e-05
9.98535878303825259209e+08 9.84348174940842923775e-01 -1.45355423518522541837e-01 -3.37208348697582988972e-04 -3.13158766812581196640e-03 -3.37208348697582988972e-04 -3.13158766812581196640e-03 9.99992735066357996132e-01 -6.74680110708630154754e-05
9.98539033738515257835e+08 9.84281221420743923645e-01 -1.45662371332032886118e-01 -3.38650818560794035494e-04 -3.13820065830037325805e-03 -3.38650818560794035494e-04 -3.13820065830037325805e-03 9.99992703989286857436e-01 -6.76104836252321719997e-05
9.98542189173205375671e+08 9.84213839267054302340e-01 -1.45970601545276662536e-01 -3.40102523054772838077e-04 -3.14484127693965631947e-03 -3.40102523054772838077e-04 -3.14484127693965631947e-03 9.99992672713261643302e-01 -6.77535514168296098582e-05
9.98545344607895374298e+08 9.84146024828193910494e-01 -1.46280122107563664846e-01 -3.41563540850432930361e-04 -3.15150969530634964336e-03 -3.41563540850432930361e-04 -3.15150969530634964336e-03 9.99992641236587376241e-01 -6.78972181353981084828e-05
9.98548500042585372925e+08 9.84077774413760875127e-01 -1.46590941033170163443e-01 -3.43033951455069211628e-04 -3.15820608606280032321e-03 -3.43033951455069211628e-04 -3.15820608606280032321e-03 9.99992609557551315191e-01 -6.80414875008351590410e-05
9.98551655477275371552e+08 9.84009084294053426589e-01 -1.46903066401921994499e-01 -3.44513835222669034721e-04 -3.16493062328357952287e-03 -3.44513835222669034721e-04 -3.16493062328357952287e-03 9.99992577674421956324e-01 -6.81863632634637439282e-05
9.98554810911965489388e+08 9.83939950699568965931e-01 -1.47216506359855503483e-01 -3.46003273364709938113e-04 -3.17168348246972021942e-03 -3.46003273364709938113e-04 -3.17168348246972021942e-03 9.99992545585450032242e-01 -6.83318492043389626948e-05
9.98557966346655488014e+08 9.83870369820494583557e-01 -1.47531269119885954932e-01 -3.47502347961116050956e-04 -3.17846484056311844382e-03 -3.47502347961116050956e-04 -3.17846484056311844382e-03 9.99992513288866846644e-01 -6.84779491355584120230e-05
9.98561121781345486641e+08 9.83800337806184588274e-01 -1.47847362962517742124e-01 -3.49011141971538999852e-04 -3.18527487596183224092e-03 -3.49011141971538999852e-04 -3.18527487596183224092e-03 9.99992480782885273527e-01 -6.86246669005917560823e-05
9.98564277216035604477e+08 9.83729850764638036331e-01 -1.48164796236518458983e-01 -3.50529739246594634373e-04 -3.19211376853460781014e-03 -3.50529739246594634373e-04 -3.19211376853460781014e-03 9.99992448065698757986e-01 -6.87720063745936543813e-05
9.98567432650725603104e+08 9.83658904761981145448e-01 -1.48483577359550644736e-01 -3.52058224539025647372e-04 -3.19898169963448624278e-03 -3.52058224539025647372e-04 -3.19898169963448624278e-03 9.99992415135481427235e-01 -6.89199714646969164829e-05
9.98570588085415601730e+08 9.83587495821903856630e-01 -1.48803714818978943812e-01 -3.53596683515836074114e-04 -3.20587885211619629325e-03 -3.53596683515836074114e-04 -3.20587885211619629325e-03 9.99992381990387535495e-01 -6.90685661103872700376e-05
9.98573743520105600357e+08 9.83515619925131701073e-01 -1.49125217172490970308e-01 -3.55145202769666904104e-04 -3.21280541034952822968e-03 -3.55145202769666904104e-04 -3.21280541034952822968e-03 9.99992348628551575018e-01 -6.92177942837914333008e-05
9.98576898954795718193e+08 9.83443273008857588025e-01 -1.49448093048871549771e-01 -3.56703869831044258817e-04 -3.21976156023601580228e-03 -3.56703869831044258817e-04 -3.21976156023601580228e-03 9.99992315048087720974e-01 -6.93676599900365417053e-05
9.98580054389485716820e+08 9.83370450966189912911e-01 -1.49772351148673127375e-01 -3.58272773180267017998e-04 -3.22674748922337998464e-03 -3.58272773180267017998e-04 -3.22674748922337998464e-03 9.99992281247089720431e-01 -6.95181672675613003326e-05
9.98583209824175715446e+08 9.83297149645565471410e-01 -1.50098000245013962761e-01 -3.59852002260050948031e-04 -3.23376338632272138443e-03 -3.59852002260050948031e-04 -3.23376338632272138443e-03 9.99992247223630559283e-01 -6.96693201884864557949e-05
9.98586365258865833282e+08 9.83223364850171810403e-01 -1.50425049184306047767e-01 -3.61441647487980330204e-04 -3.24080944212421211831e-03 -3.61441647487980330204e-04 -3.24080944212421211831e-03 9.99992212975762351235e-01 -6.98211228589527691576e-05
9.98589520693555831909e+08 9.83149092337371022232e-01 -1.50753506886945498611e-01 -3.63041800268918931401e-04 -3.24788584881195805526e-03 -3.63041800268918931401e-04 -3.24788584881195805526e-03 9.99992178501515671663e-01 -6.99735794194413028135e-05
9.98592676128245830536e+08 9.83074327818075577312e-01 -1.51083382348184580568e-01 -3.64652553008455520504e-04 -3.25499280018279541285e-03 -3.64652553008455520504e-04 -3.25499280018279541285e-03 9.99992143798899890683e-01 -7.01266940451783293365e-05
9.98595831562935829163e+08 9.82999066956160794106e-01 -1.51414684638811636308e-01 -3.66273999125565072939e-04 -3.26213049166093485912e-03 -3.66273999125565072939e-04 -3.26213049166093485912e-03 9.99992108865902284975e-01 -7.02804709464508072089e-05
9.98598986997625946999e+08 9.82923305367833788360e-01 -1.51747422905990414499e-01 -3.67906233066201359110e-04 -3.26929912031604557113e-03 -3.67906233066201359110e-04 -3.26929912031604557113e-03 9.99992073700488037780e-01 -7.04349143689960837398e-05
9.98602142432315945625e+08 9.82847038621019630789e-01 -1.52081606373992761494e-01 -3.69549350316524752996e-04 -3.27649888487903991757e-03 -3.69549350316524752996e-04 -3.27649888487903991757e-03 9.99992038300600016854e-01 -7.05900285943418602085e-05
9.98605297867005944252e+08 9.82770262234709757188e-01 -1.52417244345063401800e-01 -3.71203447416936307707e-04 -3.28372998576070438889e-03 -3.71203447416936307707e-04 -3.28372998576070438889e-03 9.99992002664158219361e-01 -7.07458179402076312720e-05
9.98608453301695942879e+08 9.82692971678323590190e-01 -1.52754346200195401106e-01 -3.72868621975839154188e-04 -3.29099262506840932116e-03 -3.72868621975839154188e-04 -3.29099262506840932116e-03 9.99991966789059882892e-01 -7.09022867608647214006e-05
9.98611608736386060715e+08 9.82615162371044736922e-01 -1.53092921399980153030e-01 -3.74544972683928665321e-04 -3.29828700662441716765e-03 -3.74544972683928665321e-04 -3.29828700662441716765e-03 9.99991930673178708311e-01 -7.10594394475306363138e-05
9.98614764171076059341e+08 9.82536829681176504536e-01 -1.53432979485342679826e-01 -3.76232599328085422566e-04 -3.30561333598172529466e-03 -3.76232599328085422566e-04 -3.30561333598172529466e-03 9.99991894314364859753e-01 -7.12172804287104782442e-05
9.98617919605766057968e+08 9.82457968925432023610e-01 -1.53774530078524651611e-01 -3.77931602806665448147e-04 -3.31297182044524738884e-03 -3.77931602806665448147e-04 -3.31297182044524738884e-03 9.99991857710444520535e-01 -7.13758141706532053166e-05
9.98621075040456175804e+08 9.82378575368270112733e-01 -1.54117582883834536300e-01 -3.79642085143811727939e-04 -3.32036266908797110531e-03 -3.79642085143811727939e-04 -3.32036266908797110531e-03 9.99991820859219671114e-01 -7.15350451776997959706e-05
9.98624230475146174431e+08 9.82298644221188843595e-01 -1.54462147688544437774e-01 -3.81364149504670446860e-04 -3.32778609277028201985e-03 -3.81364149504670446860e-04 -3.32778609277028201985e-03 9.99991783758467756016e-01 -7.16949779926995419375e-05
9.98627385909836173058e+08 9.82218170642019439143e-01 -1.54808234363750546470e-01 -3.83097900210607007418e-04 -3.33524230415850001658e-03 -3.83097900210607007418e-04 -3.33524230415850001658e-03 9.99991746405941128728e-01 -7.18556171974094276631e-05
9.98630541344526171684e+08 9.82137149734201853057e-01 -1.55155852865273641283e-01 -3.84843442754807698973e-04 -3.34273151774428260372e-03 -3.84843442754807698973e-04 -3.34273151774428260372e-03 9.99991708799366940674e-01 -7.20169674129121037973e-05
9.98633696779216289520e+08 9.82055576546059350029e-01 -1.55505013234529032573e-01 -3.86600883817913730436e-04 -3.35025394986336426395e-03 -3.86600883817913730436e-04 -3.35025394986336426395e-03 9.99991670936447030194e-01 -7.21790333000196982936e-05
9.98636852213906288147e+08 9.81973446070053102019e-01 -1.55855725599443217799e-01 -3.88370331284081191786e-04 -3.35780981871530714855e-03 -3.88370331284081191786e-04 -3.35780981871530714855e-03 9.99991632814857034361e-01 -7.23418195596992573415e-05
9.98640007648596286774e+08 9.81890753242027458647e-01 -1.56208000175370176343e-01 -3.90151894257233732531e-04 -3.36539934438324006213e-03 -3.90151894257233732531e-04 -3.36539934438324006213e-03 9.99991594432246277968e-01 -7.25053309334980914313e-05
9.98643163083286404610e+08 9.81807492940438342188e-01 -1.56561847266043607796e-01 -3.91945683077695795123e-04 -3.37302274885437677193e-03 -3.91945683077695795123e-04 -3.37302274885437677193e-03 9.99991555786237662495e-01 -7.26695722039856961596e-05
9.98646318517976403236e+08 9.81723659985587637777e-01 -1.56917277264460447439e-01 -3.93751809338677041632e-04 -3.38068025603904896009e-03 -3.93751809338677041632e-04 -3.38068025603904896009e-03 9.99991516874426999983e-01 -7.28345481951639601211e-05
9.98649473952666401863e+08 9.81639249138826053276e-01 -1.57274300653862192378e-01 -3.95570385903458855530e-04 -3.38837209179184816604e-03 -3.95570385903458855530e-04 -3.38837209179184816604e-03 9.99991477694382568941e-01 -7.30002637729225433739e-05
9.98652629387356400490e+08 9.81554255101746431222e-01 -1.57632928008710537782e-01 -3.97401526922760712623e-04 -3.39609848393264412980e-03 -3.97401526922760712623e-04 -3.39609848393264412980e-03 9.99991438243645225370e-01 -7.31667238454917486868e-05
9.98655784822046518326e+08 9.81468672515365403441e-01 -1.57993169995674725969e-01 -3.99245347852380529866e-04 -3.40385966226786074174e-03 -3.99245347852380529866e-04 -3.40385966226786074174e-03 9.99991398519727514582e-01 -7.33339333639008951124e-05
9.98658940256736516953e+08 9.81382495959315370726e-01 -1.58355037374530271954e-01 -4.01101965470597248645e-04 -3.41165585860983382183e-03 -4.01101965470597248645e-04 -3.41165585860983382183e-03 9.99991358520113449160e-01 -7.35018973223953563535e-05
9.98662095691426515579e+08 9.81295719950974199008e-01 -1.58718540999278484582e-01 -4.02971497896923358181e-04 -3.41948730680093244960e-03 -4.02971497896923358181e-04 -3.41948730680093244960e-03 9.99991318242258397930e-01 -7.36706207589562595212e-05
9.98665251126116514206e+08 9.81208338944631219825e-01 -1.59083691819069533713e-01 -4.04854064610077281263e-04 -3.42735424273344670143e-03 -4.04854064610077281263e-04 -3.42735424273344670143e-03 9.99991277683588086767e-01 -7.38401087557289347290e-05
9.98668406560806632042e+08 9.81120347330597608604e-01 -1.59450500879310785862e-01 -4.06749786467136076676e-04 -3.43525690437346438444e-03 -4.06749786467136076676e-04 -3.43525690437346438444e-03 9.99991236841498709609e-01 -7.40103664395373148132e-05
