! File generated for n1 = 6, n2 = 10
! b1 = 2.154435
! b2 = 0.002154
! Q0 = 10000.000000
! f0 = 1000000000.000000
! n = 1001
! rel_span = 10.000000
# Hz S RI R 50
9.98421705437638998032e+08 9.86505884235169494545e-01 -1.35047814431805385249e-01 -4.26721408268494555548e-04 -4.27058686632262977934e-03 -4.26721408268494555548e-04 -4.27058686632262977934e-03 9.99986505884235210573e-01 -1.35047814431805344700e-04
9.98424862026763677597e+08 9.86452240285177306411e-01 -1.35313294504405601248e-01 -4.28417778915129337288e-04 -4.27898208335066466274e-03 -4.28417778915129337288e-04 -4.27898208335066466274e-03 9.99986452240285150772e-01 -1.35313294504405532727e-04
9.98428018615888476372e+08 9.86398277066047213246e-01 -1.35579808714417521243e-01 -4.30124245738386986205e-04 -4.28741000267504612786e-03 -4.30124245738386986205e-04 -4.28741000267504612786e-03 9.99986398277066035334e-01 -1.35579808714417492403e-04
9.98431175205013155937e+08 9.86343992048185569388e-01 -1.35847363049667713142e-01 -4.31840888731044715652e-04 -4.29587081364747429280e-03 -4.31840888731044715652e-04 -4.29587081364747429280e-03 9.99986343992048221097e-01 -1.35847363049667642235e-04
9.98434331794137835503e+08 9.86289382676980075360e-01 -1.36115963543773699218e-01 -4.33567788677036213083e-04 -4.30436470706768974787e-03 -4.33567788677036213083e-04 -4.30436470706768974787e-03 9.99986289382676973858e-01 -1.36115963543773625275e-04
9.98437488383262634277e+08 9.86234446372510897838e-01 -1.36385616276539362035e-01 -4.35305027160585121786e-04 -4.31289187519597223830e-03 -4.35305027160585121786e-04 -4.31289187519597223830e-03 9.99986234446372468376e-01 -1.36385616276539311078e-04
9.98440644972387313843e+08 9.86179180529247911835e-01 -1.36656327374405889286e-01 -4.37052686575793237003e-04 -4.32145251176740182592e-03 -4.37052686575793237003e-04 -4.32145251176740182592e-03 9.99986179180529233257e-01 -1.36656327374405823800e-04
9.98443801561511993408e+08 9.86123582515744723231e-01 -1.36928103010898638559e-01 -4.38810850136303945684e-04 -4.33004681200599254864e-03 -4.38810850136303945684e-04 -4.33004681200599254864e-03 9.99986123582515706865e-01 -1.36928103010898585866e-04
9.98446958150636792183e+08 9.86067649674329693710e-01 -1.37200949407074446196e-01 -4.40579601885068340185e-04 -4.33867497263883475367e-03 -4.40579601885068340185e-04 -4.33867497263883475367e-03 9.99986067649674348345e-01 -1.37200949407074388733e-04
9.98450114739761471748e+08 9.86011379320798297954e-01 -1.37474872831949673779e-01 -4.42359026704090569498e-04 -4.34733719190963201207e-03 -4.42359026704090569498e-04 -4.34733719190963201207e-03 9.99986011379320749448e-01 -1.37474872831949598536e-04
9.98453271328886270523e+08 9.85954768744083276388e-01 -1.37749879603015046303e-01 -4.44149210324839974814e-04 -4.35603366959498323335e-03 -4.44149210324839974814e-04 -4.35603366959498323335e-03 9.99985954768744078613e-01 -1.37749879603014989491e-04
9.98456427918010950089e+08 9.85897815205954208828e-01 -1.38025976086596696701e-01 -4.45950239337770980904e-04 -4.36476460701579627860e-03 -4.45950239337770980904e-04 -4.36476460701579627860e-03 9.99985897815205970751e-01 -1.38025976086596647695e-04
9.98459584507135629654e+08 9.85840515940664685601e-01 -1.38303168698449552299e-01 -4.47762201203461918195e-04 -4.37353020705605593371e-03 -4.47762201203461918195e-04 -4.37353020705605593371e-03 9.99985840515940638262e-01 -1.38303168698449517604e-04
9.98462741096260428429e+08 9.85782868154638669544e-01 -1.38581463904147828003e-01 -4.49585184262544092053e-04 -4.38233067417517167114e-03 -4.49585184262544092053e-04 -4.38233067417517167114e-03 9.99985782868154648995e-01 -1.38581463904147769023e-04
9.98465897685385107994e+08 9.85724869026138983408e-01 -1.38860868219543492907e-01 -4.51419277746182114660e-04 -4.39116621442247560131e-03 -4.51419277746182114660e-04 -4.39116621442247560131e-03 9.99985724869026149086e-01 -1.38860868219543441733e-04
9.98469054274509787560e+08 9.85666515704905821238e-01 -1.39141388211352717841e-01 -4.53264571787507630080e-04 -4.40003703545576493189e-03 -4.53264571787507630080e-04 -4.40003703545576493189e-03 9.99985666515704862967e-01 -1.39141388211352673605e-04
9.98472210863634586334e+08 9.85607805311831564055e-01 -1.39423030497547117967e-01 -4.55121157431889690383e-04 -4.40894334655367748504e-03 -4.55121157431889690383e-04 -4.40894334655367748504e-03 9.99985607805311871310e-01 -1.39423030497547043374e-04
9.98475367452759265900e+08 9.85548734938608728129e-01 -1.39705801747862790041e-01 -4.56989126648092768099e-04 -4.41788535863178906393e-03 -4.56989126648092768099e-04 -4.41788535863178906393e-03 9.99985548734938611837e-01 -1.39705801747862739083e-04
9.98478524041883945465e+08 9.85489301647361037872e-01 -1.39989708684365277147e-01 -4.58868572339924177522e-04 -4.42686328426047590034e-03 -4.58868572339924177522e-04 -4.42686328426047590034e-03 9.99985489301647323401e-01 -1.39989708684365237682e-04
9.98481680631008744240e+08 9.85429502470295703986e-01 -1.40274758081896294692e-01 -4.60759588357223602139e-04 -4.43587733767904311005e-03 -4.60759588357223602139e-04 -4.43587733767904311005e-03 9.99985429502470268837e-01 -1.40274758081896240266e-04
9.98484837220133423805e+08 9.85369334409342600978e-01 -1.40560956768570222142e-01 -4.62662269507302349129e-04 -4.44492773481142827707e-03 -4.62662269507302349129e-04 -4.44492773481142827707e-03 9.99985369334409290865e-01 -1.40560956768570155355e-04
9.98487993809258103371e+08 9.85308794435767243414e-01 -1.40848311626367100891e-01 -4.64576711567147454269e-04 -4.45401469328494861027e-03 -4.64576711567147454269e-04 -4.45401469328494861027e-03 9.99985308794435812096e-01 -1.40848311626367049066e-04
9.98491150398382902145e+08 9.85247879489812961040e-01 -1.41136829591576168363e-01 -4.66503011294761515092e-04 -4.46313843244432618268e-03 -4.66503011294761515092e-04 -4.46313843244432618268e-03 9.99985247879489835832e-01 -1.41136829591576110901e-04
9.98494306987507581711e+08 9.85186586480309434144e-01 -1.41426517655375505456e-01 -4.68441266441537720270e-04 -4.47229917337002742805e-03 -4.68441266441537720270e-04 -4.47229917337002742805e-03 9.99985186586480279125e-01 -1.41426517655375457968e-04
9.98497463576632380486e+08 9.85124912284287002073e-01 -1.41717382864363500294e-01 -4.70391575764442866799e-04 -4.48149713889505699888e-03 -4.70391575764442866799e-04 -4.48149713889505699888e-03 9.99985124912284306653e-01 -1.41717382864363448253e-04
9.98500620165757060051e+08 9.85062853746593081183e-01 -1.42009432321064832383e-01 -4.72354039038166387439e-04 -4.49073255362096579457e-03 -4.72354039038166387439e-04 -4.49073255362096579457e-03 9.99985062853746553557e-01 -1.42009432321064786196e-04
9.98503776754881739616e+08 9.85000407679485601165e-01 -1.42302673184519556937e-01 -4.74328757067958605483e-04 -4.50000564393647928957e-03 -4.74328757067958605483e-04 -4.50000564393647928957e-03 9.99985000407679458512e-01 -1.42302673184519488415e-04
9.98506933344006538391e+08 9.84937570862230327151e-01 -1.42597112670838160886e-01 -4.76315831702381928085e-04 -4.50931663803504773069e-03 -4.76315831702381928085e-04 -4.50931663803504773069e-03 9.99984937570862264522e-01 -1.42597112670838103640e-04
9.98510089933131217957e+08 9.84874340040706064414e-01 -1.42892758053695223541e-01 -4.78315365845786381188e-04 -4.51866576593045604637e-03 -4.78315365845786381188e-04 -4.51866576593045604637e-03 9.99984874340040685858e-01 -1.42892758053695187329e-04
9.98513246522255897522e+08 9.84810711926964232887e-01 -1.43189616665016256070e-01 -4.80327463472231090680e-04 -4.52805325947854692137e-03 -4.80327463472231090680e-04 -4.52805325947854692137e-03 9.99984810711927019078e-01 -1.43189616665016197956e-04
9.98516403111380696297e+08 9.84746683198830519146e-01 -1.43487695895448241767e-01 -4.82352229638092252616e-04 -4.53747935239209865266e-03 -4.82352229638092252616e-04 -4.53747935239209865266e-03 9.99984746683198810757e-01 -1.43487695895448176282e-04
9.98519559700505375862e+08 9.84682250499474776007e-01 -1.43787003194955603780e-01 -4.84389770495662606332e-04 -4.54694428025967465473e-03 -4.84389770495662606332e-04 -4.54694428025967465473e-03 9.99984682250499523626e-01 -1.43787003194955568652e-04
9.98522716289630055428e+08 9.84617410436960716069e-01 -1.44087546073486921783e-01 -4.86440193307384352670e-04 -4.55644828056669688038e-03 -4.86440193307384352670e-04 -4.55644828056669688038e-03 9.99984617410436982254e-01 -1.44087546073486875813e-04
9.98525872878754854202e+08 9.84552159583829245015e-01 -1.44389332101464429314e-01 -4.88503606459030070841e-04 -4.56599159271093950341e-03 -4.88503606459030070841e-04 -4.56599159271093950341e-03 9.99984552159583817144e-01 -1.44389332101464387030e-04
9.98529029467879533768e+08 9.84486494476641493812e-01 -1.44692368910437768603e-01 -4.90580119474154862334e-04 -4.57557445802318947525e-03 -4.90580119474154862334e-04 -4.57557445802318947525e-03 9.99984486494476687568e-01 -1.44692368910437710056e-04
9.98532186057004213333e+08 9.84420411615526180782e-01 -1.44996664193692892386e-01 -4.92669843028401910692e-04 -4.58519711978651323125e-03 -4.92669843028401910692e-04 -4.58519711978651323125e-03 9.99984420411615504420e-01 -1.44996664193692848801e-04
9.98535342646129012108e+08 9.84353907463714206116e-01 -1.45302225706900073332e-01 -4.94772888964237493765e-04 -4.59485982325673596866e-03 -4.94772888964237493765e-04 -4.59485982325673596866e-03 9.99984353907463763278e-01 -1.45302225706900014135e-04
9.98538499235253691673e+08 9.84286978447095561862e-01 -1.45609061268629796926e-01 -4.96889370304940498554e-04 -4.60456281567876712923e-03 -4.96889370304940498554e-04 -4.60456281567876712923e-03 9.99984286978447101113e-01 -1.45609061268629731223e-04
9.98541655824378371239e+08 9.84219620953722840184e-01 -1.45917178761095334139e-01 -4.99019401270315763296e-04 -4.61430634631007641211e-03 -4.99019401270315763296e-04 -4.61430634631007641211e-03 9.99984219620953740382e-01 -1.45917178761095301179e-04
9.98544812413503170013e+08 9.84151831333337390184e-01 -1.46226586130764529825e-01 -5.01163097291677534645e-04 -4.62409066644003940993e-03 -5.01163097291677534645e-04 -4.62409066644003940993e-03 9.99984151831333378802e-01 -1.46226586130764453714e-04
9.98547969002627849579e+08 9.84083605896897029019e-01 -1.46537291388939533432e-01 -5.03320575026782292619e-04 -4.63391602940827623813e-03 -5.03320575026782292619e-04 -4.63391602940827623813e-03 9.99984083605896856284e-01 -1.46537291388939476620e-04
9.98551125591752648354e+08 9.84014940916063340914e-01 -1.46849302612497012444e-01 -5.05491952376043536185e-04 -4.64378269062805208722e-03 -5.05491952376043536185e-04 -4.64378269062805208722e-03 9.99984014940916043912e-01 -1.46849302612496966907e-04
9.98554282180877327919e+08 9.83945832622715066407e-01 -1.47162627944483231923e-01 -5.07677348497922575205e-04 -4.65369090760510157462e-03 -5.07677348497922575205e-04 -4.65369090760510157462e-03 9.99983945832622733718e-01 -1.47162627944483193326e-04
9.98557438770002007484e+08 9.83876277208424521170e-01 -1.47477275594848772355e-01 -5.09876883825466950366e-04 -4.66364093996085495725e-03 -5.09876883825466950366e-04 -4.66364093996085495725e-03 9.99983876277208416639e-01 -1.47477275594848697545e-04
9.98560595359126806259e+08 9.83806270823957218497e-01 -1.47793253841059041287e-01 -5.12090680082170901510e-04 -4.67363304945175427746e-03 -5.12090680082170901510e-04 -4.67363304945175427746e-03 9.99983806270823949447e-01 -1.47793253841058998136e-04
9.98563751948251485825e+08 9.83735809578744513360e-01 -1.48110571028789744785e-01 -5.14318860298608763679e-04 -4.68366749999123664627e-03 -5.14318860298608763679e-04 -4.68366749999123664627e-03 9.99983735809578777598e-01 -1.48110571028789699682e-04
9.98566908537376165390e+08 9.83664889540343145846e-01 -1.48429235572664047771e-01 -5.16561548829557555182e-04 -4.69374455767305066162e-03 -5.16561548829557555182e-04 -4.69374455767305066162e-03 9.99983664889540380116e-01 -1.48429235572663967106e-04
9.98570065126500964165e+08 9.83593506733900113659e-01 -1.48749255956931891731e-01 -5.18818871370905761002e-04 -4.70386449079273835649e-03 -5.18818871370905761002e-04 -4.70386449079273835649e-03 9.99983593506733936529e-01 -1.48749255956931832534e-04
9.98573221715625643730e+08 9.83521657141612770658e-01 -1.49070640736145759719e-01 -5.21090954976730384371e-04 -4.71402756986900005332e-03 -5.21090954976730384371e-04 -4.71402756986900005332e-03 9.99983521657141660732e-01 -1.49070640736145707461e-04
9.98576378304750323296e+08 9.83449336702161613921e-01 -1.49393398535929339266e-01 -5.23377928077231819107e-04 -4.72423406766800651341e-03 -5.23377928077231819107e-04 -4.72423406766800651341e-03 9.99983449336702134858e-01 -1.49393398535929271828e-04
9.98579534893875122070e+08 9.83376541310149621111e-01 -1.49717538053687510002e-01 -5.25679920496459362513e-04 -4.73448425922585146297e-03 -5.25679920496459362513e-04 -4.73448425922585146297e-03 9.99983376541310198249e-01 -1.49717538053687436710e-04
9.98582691482999801636e+08 9.83303266815537480028e-01 -1.50043068059307699302e-01 -5.27997063470178216657e-04 -4.74477842187072309382e-03 -5.27997063470178216657e-04 -4.74477842187072309382e-03 9.99983303266815504173e-01 -1.50043068059307633383e-04
9.98585848072124481201e+08 9.83229509023053394046e-01 -1.50369997395943894025e-01 -5.30329489664536739280e-04 -4.75511683524770713966e-03 -5.30329489664536739280e-04 -4.75511683524770713966e-03 9.99983229509023074932e-01 -1.50369997395943854127e-04
9.98589004661249279976e+08 9.83155263691599667908e-01 -1.50698334980782000514e-01 -5.32677333194815877219e-04 -4.76549978134297846227e-03 -5.32677333194815877219e-04 -4.76549978134297846227e-03 9.99983155263691636527e-01 -1.50698334980781936329e-04
9.98592161250373959541e+08 9.83080526533670950862e-01 -1.51028089805727072648e-01 -5.35040729643839786667e-04 -4.77592754450554320828e-03 -5.35040729643839786667e-04 -4.77592754450554320828e-03 9.99983080526533618659e-01 -1.51028089805727000873e-04
9.98595317839498758316e+08 9.83005293214717079664e-01 -1.51359270938302536980e-01 -5.37419816082122911612e-04 -4.78640041147567005947e-03 -5.37419816082122911612e-04 -4.78640041147567005947e-03 9.99983005293214710640e-01 -1.51359270938302472578e-04
9.98598474428623437881e+08 9.82929559352560655583e-01 -1.51691887522274887479e-01 -5.39814731086277134649e-04 -4.79691867140464266173e-03 -5.39814731086277134649e-04 -4.79691867140464266173e-03 9.99982929559352529125e-01 -1.51691887522274824595e-04
9.98601631017748117447e+08 9.82853320516739015211e-01 -1.52025948778583469556e-01 -5.42225614759838541769e-04 -4.80748261588416665735e-03 -5.42225614759838541769e-04 -4.80748261588416665735e-03 9.99982853320516729134e-01 -1.52025948778583417298e-04
9.98604787606872916222e+08 9.82776572227881395349e-01 -1.52361464006077446109e-01 -5.44652608752944607587e-04 -4.81809253896967222552e-03 -5.44652608752944607587e-04 -4.81809253896967222552e-03 9.99982776572227893830e-01 -1.52361464006077403392e-04
9.98607944195997595787e+08 9.82699309957071220900e-01 -1.52698442582289983793e-01 -5.47095856282512390395e-04 -4.82874873720479536737e-03 -5.47095856282512390395e-04 -4.82874873720479536737e-03 9.99982699309957090428e-01 -1.52698442582289929583e-04
9.98611100785122275352e+08 9.82621529125172199493e-01 -1.53036893964334952400e-01 -5.49555502153548742703e-04 -4.83945150964973369589e-03 -5.49555502153548742703e-04 -4.83945150964973369589e-03 9.99982621529125204063e-01 -1.53036893964334880193e-04
9.98614257374247074127e+08 9.82543225102165518337e-01 -1.53376827689719719139e-01 -5.52031692780101217177e-04 -4.85020115790695417052e-03 -5.52031692780101217177e-04 -4.85020115790695417052e-03 9.99982543225102160633e-01 -1.53376827689719649316e-04
9.98617413963371753693e+08 9.82464393206492814237e-01 -1.53718253377101793378e-01 -5.54524576206047968563e-04 -4.86099798614511406647e-03 -5.54524576206047968563e-04 -4.86099798614511406647e-03 9.99982464393206482711e-01 -1.53718253377101751311e-04
9.98620570552496433258e+08 9.82385028704339635652e-01 -1.54061180727264712687e-01 -5.57034302127741532892e-04 -4.87184230112992344014e-03 -5.57034302127741532892e-04 -4.87184230112992344014e-03 9.99982385028704290342e-01 -1.54061180727264629853e-04
9.98623727141621232033e+08 9.82305126808951545314e-01 -1.54405619523919818148e-01 -5.59561021915647334446e-04 -4.88273441224950071476e-03 -5.59561021915647334446e-04 -4.88273441224950071476e-03 9.99982305126808967977e-01 -1.54405619523919777816e-04
9.98626883730745911598e+08 9.82224682679938343455e-01 -1.54751579634523322992e-01 -5.62104888636351038289e-04 -4.89367463154020965188e-03 -5.62104888636351038289e-04 -4.89367463154020965188e-03 9.99982224682679943228e-01 -1.54751579634523277022e-04
9.98630040319870591164e+08 9.82143691422532549851e-01 -1.55099071011249145524e-01 -5.64666057075982412948e-04 -4.90466327371742120272e-03 -5.64666057075982412948e-04 -4.90466327371742120272e-03 9.99982143691422575849e-01 -1.55099071011249086544e-04
9.98633196908995389938e+08 9.82062148086859099116e-01 -1.55448103691883332544e-01 -5.67244683763340495387e-04 -4.91570065620380337867e-03 -5.67244683763340495387e-04 -4.91570065620380337867e-03 9.99982062148086825459e-01 -1.55448103691883265541e-04
9.98636353498120069504e+08 9.81980047667217914587e-01 -1.55798687800618340660e-01 -5.69840926992557753224e-04 -4.92678709915443137357e-03 -5.69840926992557753224e-04 -4.92678709915443137357e-03 9.99981980047667251554e-01 -1.55798687800618286883e-04
9.98639510087244868279e+08 9.81897385101303199484e-01 -1.56150833549084822049e-01 -5.72454946847800487039e-04 -4.93792292548941944702e-03 -5.72454946847800487039e-04 -4.93792292548941944702e-03 9.99981897385101348164e-01 -1.56150833549084763936e-04
9.98642666676369547844e+08 9.81814155269447264018e-01 -1.56504551237236250172e-01 -5.75086905227176138806e-04 -4.94910846092189594253e-03 -5.75086905227176138806e-04 -4.94910846092189594253e-03 9.99981814155269432831e-01 -1.56504551237236186638e-04
9.98645823265494227409e+08 9.81730352993851473897e-01 -1.56859851254250143304e-01 -5.77736965867054982383e-04 -4.96034403398650045741e-03 -5.77736965867054982383e-04 -4.96034403398650045741e-03 9.99981730352993869460e-01 -1.56859851254250083239e-04
9.98648979854619026184e+08 9.81645973037768015956e-01 -1.57216744079597015027e-01 -5.80405294367943198897e-04 -4.97162997607318839915e-03 -5.80405294367943198897e-04 -4.97162997607318839915e-03 9.99981645973037736042e-01 -1.57216744079596962335e-04
9.98652136443743705750e+08 9.81561010104741393789e-01 -1.57575240283815282138e-01 -5.83092058218468789824e-04 -4.98296662145173482189e-03 -5.83092058218468789824e-04 -4.98296662145173482189e-03 9.99981561010104713638e-01 -1.57575240283815246360e-04
9.98655293032868385315e+08 9.81475458837747116725e-01 -1.57935350529679857656e-01 -5.85797426822619337651e-04 -4.99435430730868750587e-03 -5.85797426822619337651e-04 -4.99435430730868750587e-03 9.99981475458837754111e-01 -1.57935350529679824697e-04
9.98658449621993184090e+08 9.81389313818390007782e-01 -1.58297085573075924092e-01 -5.88521571525095965258e-04 -5.00579337377500110245e-03 -5.88521571525095965258e-04 -5.00579337377500110245e-03 9.99981389313818413989e-01 -1.58297085573075866412e-04
9.98661606211117863655e+08 9.81302569566067317552e-01 -1.58660456263978427716e-01 -5.91264665637777843583e-04 -5.01728416395701062175e-03 -5.91264665637777843583e-04 -5.01728416395701062175e-03 9.99981302569566077310e-01 -1.58660456263978369819e-04
9.98664762800242543221e+08 9.81215220537087651209e-01 -1.59025473547572071542e-01 -5.94026884467575670701e-04 -5.02882702397184581239e-03 -5.94026884467575670701e-04 -5.02882702397184581239e-03 9.99981215220537067445e-01 -1.59025473547572007791e-04
9.98667919389367341995e+08 9.81127261123823868338e-01 -1.59392148465186372919e-01 -5.96808405343230764274e-04 -5.04042230297700385999e-03 -5.96808405343230764274e-04 -5.04042230297700385999e-03 9.99981127261123869943e-01 -1.59392148465186306349e-04
