! File generated for n1 = 1, n2 = 12
! b1 = 100.000000
! b2 = 0.021544
! Q0 = 10000.000000
! f0 = 1000000000.000000
! n = 1001
! rel_span = 10.000000
# Hz S RI R 50
9.49489227826549887657e+08 9.81391429841572016102e-01 -1.91035379896574319947e-01 -2.73136456500345115722e-04 -2.80401590702095528454e-03 -2.73136456500345115722e-04 -2.80401590702095528454e-03 9.99995990905091836076e-01 -4.11573249472598948857e-05
9.49590249370896816254e+08 9.81315456240826500256e-01 -1.91421246912863662892e-01 -2.74251596455674171837e-04 -2.80967966026004524471e-03 -2.74251596455674171837e-04 -2.80967966026004524471e-03 9.99995974537075782429e-01 -4.12404574758231857079e-05
9.49691270915243744850e+08 9.81239026487453314118e-01 -1.91808617083574994844e-01 -2.75373431815930270073e-04 -2.81536547678873242187e-03 -2.75373431815930270073e-04 -2.81536547678873242187e-03 9.99995958070784562999e-01 -4.13239138491895826796e-05
9.49792292459590554237e+08 9.81162136950787577838e-01 -1.92197499119200504447e-01 -2.76502015871988107449e-04 -2.82107348445955743652e-03 -2.76502015871988107449e-04 -2.82107348445955743652e-03 9.99995941505436025665e-01 -4.14076959439777650472e-05
9.49893314003937482834e+08 9.81084783964158213543e-01 -1.92587901796866939330e-01 -2.77637402443218139422e-04 -2.82680381210312229104e-03 -2.77637402443218139422e-04 -2.82680381210312229104e-03 9.99995924840240246745e-01 -4.14918056511623601279e-05
9.49994335548284411430e+08 9.81006963824461175605e-01 -1.92979833960962549044e-01 -2.78779645883752780558e-04 -2.83255658953729307775e-03 -2.78779645883752780558e-04 -2.83255658953729307775e-03 9.99995908074399419974e-01 -4.15762448762090484531e-05
9.50095357092631340027e+08 9.80928672791726019575e-01 -1.93373304523776601282e-01 -2.79928801088853435996e-04 -2.83833194757658613394e-03 -2.79928801088853435996e-04 -2.83833194757658613394e-03 9.99995891207107745480e-01 -4.16610155392123387595e-05
9.50196378636978149414e+08 9.80849907088676253863e-01 -1.93768322466142450811e-01 -2.81084923501356462837e-04 -2.84413001804160797334e-03 -2.81084923501356462837e-04 -2.84413001804160797334e-03 9.99995874237551429786e-01 -4.17461195750341425791e-05
9.50297400181325078011e+08 9.80770662900283585195e-01 -1.94164896838090739184e-01 -2.82248069118215950783e-04 -2.84995093376864180174e-03 -2.82248069118215950783e-04 -2.84995093376864180174e-03 9.99995857164908574788e-01 -4.18315589334444426950e-05
9.50398421725672006607e+08 9.80690936373317279084e-01 -1.94563036759506452489e-01 -2.83418294497127763731e-04 -2.85579482861929301318e-03 -2.83418294497127763731e-04 -2.85579482861929301318e-03 9.99995839988349066729e-01 -4.19173355792629034975e-05
9.50499443270018935204e+08 9.80610723615885415683e-01 -1.94962751420795471491e-01 -2.84595656763252352183e-04 -2.86166183749027086200e-03 -2.84595656763252352183e-04 -2.86166183749027086200e-03 9.99995822707034354160e-01 -4.20034514925024396806e-05
9.50600464814365744591e+08 9.80530020696970927574e-01 -1.95364050083558171700e-01 -2.85780213616029126530e-04 -2.86755209632327898867e-03 -2.85780213616029126530e-04 -2.86755209632327898867e-03 9.99995805320117558956e-01 -4.20899086685143773603e-05
9.50701486358712673187e+08 9.80448823645960310103e-01 -1.95766942081273043197e-01 -2.86972023336093450072e-04 -2.87346574211504559096e-03 -2.86972023336093450072e-04 -2.87346574211504559096e-03 9.99995787826743143256e-01 -4.21767091181356887299e-05
9.50802507903059601784e+08 9.80367128452166891606e-01 -1.96171436819982725197e-01 -2.88171144792275435095e-04 -2.87940291292739609583e-03 -2.88171144792275435095e-04 -2.87940291292739609583e-03 9.99995770226047242524e-01 -4.22638548678368433545e-05
9.50903529447406530380e+08 9.80284931064346443108e-01 -1.96577543778992336332e-01 -2.89377637448709164932e-04 -2.88536374789750147199e-03 -2.89377637448709164932e-04 -2.88536374789750147199e-03 9.99995752517156888395e-01 -4.23513479598722073416e-05
9.51004550991753339767e+08 9.80202227390206126678e-01 -1.96985272511573550336e-01 -2.90591561372036350040e-04 -2.89134838724821327874e-03 -2.90591561372036350040e-04 -2.89134838724821327874e-03 9.99995734699190452766e-01 -4.24391904524317774348e-05
9.51105572536100268364e+08 9.80119013295906671424e-01 -1.97394632645680662142e-01 -2.91812977238722957938e-04 -2.89735697229857435547e-03 -2.91812977238722957938e-04 -2.89735697229857435547e-03 9.99995716771257314726e-01 -4.25273844197954291020e-05
9.51206594080447196960e+08 9.80035284605557777127e-01 -1.97805633884666043354e-01 -2.93041946342452550456e-04 -2.90338964547431910290e-03 -2.93041946342452550456e-04 -2.90338964547431910290e-03 9.99995698732457749536e-01 -4.26159319524870426501e-05
9.51307615624794125557e+08 9.79951037100705968363e-01 -1.98218286008014860089e-01 -2.94278530601658453066e-04 -2.90944655031866042730e-03 -2.94278530601658453066e-04 -2.90944655031866042730e-03 9.99995680581883039650e-01 -4.27048351574328509525e-05
9.51408637169140934944e+08 9.79866266519815232172e-01 -1.98632598872078264263e-01 -2.95522792567131222050e-04 -2.91552783150304676077e-03 -2.95522792567131222050e-04 -2.91552783150304676077e-03 9.99995662318615030628e-01 -4.27940961581193128377e-05
9.51509658713487863541e+08 9.79780968557740328251e-01 -1.99048582410823848843e-01 -2.96774795429762666948e-04 -2.92163363483818319319e-03 -2.96774795429762666948e-04 -2.92163363483818319319e-03 9.99995643941726242154e-01 -4.28837170947548828302e-05
9.51610680257834792137e+08 9.79695138865193215771e-01 -1.99466246636585825547e-01 -2.98034603028371513408e-04 -2.92776410728503655792e-03 -2.98034603028371513408e-04 -2.92776410728503655792e-03 9.99995625450279534974e-01 -4.29737001244315708261e-05
9.51711701802181720734e+08 9.79608773048200709432e-01 -1.99885601640830828929e-01 -2.99302279857663236073e-04 -2.93391939696608121044e-03 -2.99302279857663236073e-04 -2.93391939696608121044e-03 9.99995606843328221913e-01 -4.30640474212899644407e-05
9.51812723346528649330e+08 9.79521866667555252128e-01 -2.00306657594929826693e-01 -3.00577891076294083286e-04 -2.94009965317662547157e-03 -3.00577891076294083286e-04 -2.94009965317662547157e-03 9.99995588119916178904e-01 -4.31547611766854981872e-05
9.51913744890875458717e+08 9.79434415238257694014e-01 -2.00729424750938439947e-01 -3.01861502515049973019e-04 -2.94630502639626687400e-03 -3.01861502515049973019e-04 -2.94630502639626687400e-03 9.99995569279076845781e-01 -4.32458435993566132341e-05
9.52014766435222387314e+08 9.79346414228951189784e-01 -2.01153913442388726507e-01 -3.03153180685149638372e-04 -2.95253566830051264111e-03 -3.03153180685149638372e-04 -2.95253566830051264111e-03 9.99995550319834114461e-01 -4.33372969155952820781e-05
9.52115787979569315910e+08 9.79257859061349544838e-01 -2.01580134085084128337e-01 -3.04452992786648983341e-04 -2.95879173177244960552e-03 -3.04452992786648983341e-04 -2.95879173177244960552e-03 9.99995531241201662809e-01 -4.34291233694183463686e-05
9.52216809523916244507e+08 9.79168745109653126946e-01 -2.02008097177913847897e-01 -3.05761006716997497945e-04 -2.96507337091469732118e-03 -3.05761006716997497945e-04 -2.96507337091469732118e-03 9.99995512042182732593e-01 -4.35213252227429204903e-05
9.52317831068263053894e+08 9.79079067699961003157e-01 -2.02437813303664809750e-01 -3.07077291079681572155e-04 -2.97138074106132344526e-03 -3.07077291079681572155e-04 -2.97138074106132344526e-03 9.99995492721770462552e-01 -4.36139047555613140316e-05
9.52418852612609982491e+08 9.78988822109670420168e-01 -2.02869293129854078028e-01 -3.08401915193027024911e-04 -2.97771399879006659975e-03 -3.08401915193027024911e-04 -2.97771399879006659975e-03 9.99995473278947444307e-01 -4.37068642661204198097e-05
9.52519874156956911087e+08 9.78898003566871066639e-01 -2.03302547409562106573e-01 -3.09734949099101542370e-04 -2.98407330193456226883e-03 -3.09734949099101542370e-04 -2.98407330193456226883e-03 9.99995453712685500314e-01 -4.38002060711011967646e-05
9.52620895701303839684e+08 9.78806607249728011233e-01 -2.03737586982280671766e-01 -3.11076463572761477677e-04 -2.99045880959679160824e-03 -3.11076463572761477677e-04 -2.99045880959679160824e-03 9.99995434021945905911e-01 -4.38939325058013512485e-05
9.52721917245650649071e+08 9.78714628285856758083e-01 -2.04174422774770353284e-01 -3.12426530130829134459e-04 -2.99687068215966643039e-03 -3.12426530130829134459e-04 -2.99687068215966643039e-03 9.99995414205678834207e-01 -4.39880459243200850760e-05
9.52822938789997577667e+08 9.78622061751689531484e-01 -2.04613065801926702347e-01 -3.13785221041399991961e-04 -3.00330908129974212539e-03 -3.13785221041399991961e-04 -3.00330908129974212539e-03 9.99995394262823689147e-01 -4.40825486997447070470e-05
9.52923960334344506264e+08 9.78528902671831124493e-01 -2.05053527167656568508e-01 -3.15152609333285238600e-04 -3.00977417000008367134e-03 -3.15152609333285238600e-04 -3.00977417000008367134e-03 9.99995374192308328354e-01 -4.41774432243394332026e-05
9.53024981878691434860e+08 9.78435146018406642909e-01 -2.05495818065766000515e-01 -3.16528768805596390223e-04 -3.01626611256329254032e-03 -3.16528768805596390223e-04 -3.01626611256329254032e-03 9.99995353993049618246e-01 -4.42727319097366604165e-05
9.53126003423038244247e+08 9.78340786710399146209e-01 -2.05939949780855974248e-01 -3.17913774037462831552e-04 -3.02278507462466067279e-03 -3.17913774037462831552e-04 -3.02278507462466067279e-03 9.99995333663952989944e-01 -4.43684171871299814875e-05
9.53227024967385172844e+08 9.78245819612976630353e-01 -2.06385933689235495647e-01 -3.19307700397912692675e-04 -3.02933122316556774703e-03 -3.19307700397912692675e-04 -3.02933122316556774703e-03 9.99995313203912106204e-01 -4.44645015074708661895e-05
9.53328046511732101440e+08 9.78150239536811128005e-01 -2.06833781259833565658e-01 -3.20710624055862525243e-04 -3.03590472652686934121e-03 -3.20710624055862525243e-04 -3.03590472652686934121e-03 9.99995292611808972438e-01 -4.45609873416651593625e-05
9.53429068056079030037e+08 9.78054041237385707319e-01 -2.07283504055134543131e-01 -3.22122621990293190371e-04 -3.04250575442262640238e-03 -3.22122621990293190371e-04 -3.04250575442262640238e-03 9.99995271886513603654e-01 -4.46578771807746205446e-05
9.53530089600425958633e+08 9.77957219414292810988e-01 -2.07735113732116283281e-01 -3.23543772000549996123e-04 -3.04913447795387504771e-03 -3.23543772000549996123e-04 -3.04913447795387504771e-03 9.99995251026884135470e-01 -4.47551735362189718223e-05
9.53631111144772768021e+08 9.77859768710521048973e-01 -2.08188622043201848610e-01 -3.24974152716803947431e-04 -3.05579106962259412425e-03 -3.24974152716803947431e-04 -3.05579106962259412425e-03 9.99995230031766491052e-01 -4.48528789399810221060e-05
9.53732132689119696617e+08 9.77761683711731777180e-01 -2.08644040837226485419e-01 -3.26413843610679908942e-04 -3.06247570334590088481e-03 -3.26413843610679908942e-04 -3.06247570334590088481e-03 9.99995208899994048046e-01 -4.49509959448149423668e-05
9.53833154233466625214e+08 9.77662958945525795151e-01 -2.09101382060406876251e-01 -3.27862925006013245822e-04 -3.06918855447027658784e-03 -3.27862925006013245822e-04 -3.06918855447027658784e-03 9.99995187630387971645e-01 -4.50495271244550829753e-05
9.53934175777813553810e+08 9.77563588880697609262e-01 -2.09560657757330986994e-01 -3.29321478089796362571e-04 -3.07592979978609480651e-03 -3.29321478089796362571e-04 -3.07592979978609480651e-03 9.99995166221756437430e-01 -4.51484750738292769262e-05
9.54035197322160363197e+08 9.77463567926479814929e-01 -2.10021880071955630020e-01 -3.30789584923274699105e-04 -3.08269961754226466330e-03 -3.30789584923274699105e-04 -3.08269961754226466330e-03 9.99995144672895075466e-01 -4.52478424092736880515e-05
9.54136218866507291794e+08 9.77362890431774933298e-01 -2.10485061248617183471e-01 -3.32267328453213488682e-04 -3.08949818746106661879e-03 -3.32267328453213488682e-04 -3.08949818746106661879e-03 9.99995122982586415183e-01 -4.53476317687506340131e-05
9.54237240410854220390e+08 9.77261550684377255926e-01 -2.10950213633052552353e-01 -3.33754792523326061955e-04 -3.09632569075313527837e-03 -3.33754792523326061955e-04 -3.09632569075313527837e-03 9.99995101149599663337e-01 -4.54478458120684896088e-05
9.54338261955201148987e+08 9.77159542910182143949e-01 -2.11417349673433369039e-01 -3.35252061885878767551e-04 -3.10318231013264342680e-03 -3.35252061885878767551e-04 -3.10318231013264342680e-03 9.99995079172690926050e-01 -4.55484872211045445280e-05
9.54439283499547958374e+08 9.77056861272383003758e-01 -2.11886481921415209539e-01 -3.36759222213477225471e-04 -3.11006822983270030114e-03 -3.36759222213477225471e-04 -3.11006822983270030114e-03 9.99995057050602653703e-01 -4.56495587000310188482e-05
9.54540305043894886971e+08 9.76953499870656716375e-01 -2.12357623033196191153e-01 -3.38276360111020306561e-04 -3.11698363562088777423e-03 -3.38276360111020306561e-04 -3.11698363562088777423e-03 9.99995034782063751955e-01 -4.57510629755431317374e-05
9.54641326588241815567e+08 9.76849452740337187429e-01 -2.12830785770587005423e-01 -3.39803563127831650091e-04 -3.12392871481497087782e-03 -3.39803563127831650091e-04 -3.12392871481497087782e-03 9.99995012365789026632e-01 -4.58530027970896570462e-05
9.54742348132588744164e+08 9.76744713851575352415e-01 -2.13305983002100352230e-01 -3.41340919769993764513e-04 -3.13090365629888371310e-03 -3.41340919769993764513e-04 -3.13090365629888371310e-03 9.99994989800479516795e-01 -4.59553809371075988686e-05
9.54843369676935553551e+08 9.76639277108487302570e-01 -2.13783227704045425410e-01 -3.42888519512844921165e-04 -3.13790865053879906160e-03 -3.42888519512844921165e-04 -3.13790865053879906160e-03 9.99994967084821828607e-01 -4.60582001912580393951e-05
9.54944391221282482147e+08 9.76533136348288532957e-01 -2.14262532961643908935e-01 -3.44446452813691045280e-04 -3.14494388959950374116e-03 -3.44446452813691045280e-04 -3.14494388959950374116e-03 9.99994944217488246352e-01 -4.61614633786665268635e-05
9.55045412765629410744e+08 9.76426285340416422187e-01 -2.14743911970150663793e-01 -3.46014811124684519908e-04 -3.15200956716085202436e-03 -3.46014811124684519908e-04 -3.15200956716085202436e-03 9.99994921197136399371e-01 -4.62651733421645341591e-05
9.55146434309976339340e+08 9.76318717785637391060e-01 -2.15227378035997618522e-01 -3.47593686905929100204e-04 -3.15910587853455515975e-03 -3.47593686905929100204e-04 -3.15910587853455515975e-03 9.99994898022409262062e-01 -4.63693329485359250733e-05
9.55247455854323148727e+08 9.76210427315142847959e-01 -2.15712944577941434510e-01 -3.49183173638752879057e-04 -3.16623302068102423570e-03 -3.49183173638752879057e-04 -3.16623302068102423570e-03 9.99994874691934709787e-01 -4.64739450887641862803e-05
9.55348477398670077324e+08 9.76101407489628036807e-01 -2.16200625128236706418e-01 -3.50783365839222704540e-04 -3.17339119222659338249e-03 -3.50783365839222704540e-04 -3.17339119222659338249e-03 9.99994851204325296834e-01 -4.65790126782851819686e-05
9.55449498943017005920e+08 9.75991651798360448922e-01 -2.16690433333810217320e-01 -3.52394359071822257674e-04 -3.18058059348075424996e-03 -3.52394359071822257674e-04 -3.18058059348075424996e-03 9.99994827558178367433e-01 -4.66845386572401659705e-05
9.55550520487363934517e+08 9.75881153658230360293e-01 -2.17182382957463310236e-01 -3.54016249963387031902e-04 -3.18780142645380378322e-03 -3.54016249963387031902e-04 -3.18780142645380378322e-03 9.99994803752075722691e-01 -4.67905259907347976611e-05
9.55651542031710863113e+08 9.75769906412789711503e-01 -2.17676487879077618093e-01 -3.55649136217214573846e-04 -3.19505389487454317249e-03 -3.55649136217214573846e-04 -3.19505389487454317249e-03 9.99994779784583287530e-01 -4.68969776690989303513e-05
9.55752563576057672501e+08 9.75657903331273890224e-01 -2.18172762096842054458e-01 -3.57293116627417205872e-04 -3.20233820420828688494e-03 -3.57293116627417205872e-04 -3.20233820420828688494e-03 9.99994755654250888632e-01 -4.70038967081509533302e-05
9.55853585120404601097e+08 9.75545137607609191832e-01 -2.18671219728495819234e-01 -3.58948291093497064315e-04 -3.20965456167510675145e-03 -3.58948291093497064315e-04 -3.20965456167510675145e-03 9.99994731359612143429e-01 -4.71112861494655491435e-05
9.55954606664751529694e+08 9.75431602359405514058e-01 -2.19171875012578287745e-01 -3.60614760635122799312e-04 -3.21700317626818057051e-03 -3.60614760635122799312e-04 -3.21700317626818057051e-03 9.99994706899184460092e-01 -4.72191490606430568479e-05
9.56055628209098458290e+08 9.75317290626932176245e-01 -2.19674742309706211296e-01 -3.62292627407172663102e-04 -3.22438425877253536170e-03 -3.62292627407172663102e-04 -3.22438425877253536170e-03 9.99994682271468260382e-01 -4.73274885355845544303e-05
9.56156649753445267677e+08 9.75202195372078750601e-01 -2.20179836103856135798e-01 -3.63981994714979151511e-04 -3.23179802178387215114e-03 -3.63981994714979151511e-04 -3.23179802178387215114e-03 9.99994657474947312714e-01 -4.74363076947681948370e-05
9.56257671297792196274e+08 9.75086309477298573967e-01 -2.20687171003671661618e-01 -3.65682967029840955489e-04 -3.23924467972775591632e-03 -3.65682967029840955489e-04 -3.23924467972775591632e-03 9.99994632508088066025e-01 -4.75456096855308342638e-05
9.56358692842139124870e+08 9.74969625744536938505e-01 -2.21196761743778502751e-01 -3.67395650004749422038e-04 -3.24672444887891395102e-03 -3.67395650004749422038e-04 -3.24672444887891395102e-03 9.99994607369339982839e-01 -4.76553976823513545128e-05
9.56459714386486053467e+08 9.74852136894141962919e-01 -2.21708623186122444348e-01 -3.69120150490384656226e-04 -3.25423754738087813929e-03 -3.69120150490384656226e-04 -3.25423754738087813929e-03 9.99994582057134429043e-01 -4.77656748871389116927e-05
9.56560735930832862854e+08 9.74733835563757811116e-01 -2.22222770321320095555e-01 -3.70856576551349768206e-04 -3.26178419526580894161e-03 -3.70856576551349768206e-04 -3.26178419526580894161e-03 9.99994556569885451047e-01 -4.78764445295239428574e-05
9.56661757475179791451e+08 9.74614714307200813437e-01 -2.22739218270030792102e-01 -3.72605037482675682890e-04 -3.26936461447463379976e-03 -3.72605037482675682890e-04 -3.26936461447463379976e-03 9.99994530905988665559e-01 -4.79877098671537534002e-05
9.56762779019526720047e+08 9.74494765593318379437e-01 -2.23257982284339268064e-01 -3.74365643826564799355e-04 -3.27697902887734036567e-03 -3.74365643826564799355e-04 -3.27697902887734036567e-03 9.99994505063821703672e-01 -4.80994741859903948244e-05
9.56863800563873648643e+08 9.74373981804828814823e-01 -2.23779077749161725563e-01 -3.76138507389421367522e-04 -3.28462766429361624140e-03 -3.76138507389421367522e-04 -3.28462766429361624140e-03 9.99994479041743322689e-01 -4.82117408006135705011e-05
9.56964822108220458031e+08 9.74252355237143929934e-01 -2.24302520183664477749e-01 -3.77923741259133833415e-04 -3.29231074851367086498e-03 -3.77923741259133833415e-04 -3.29231074851367086498e-03 9.99994452838093628166e-01 -4.83245130545263196957e-05
9.57065843652567386627e+08 9.74129878097171331142e-01 -2.24828325242707183218e-01 -3.79721459822656044747e-04 -3.30002851131941951981e-03 -3.79721459822656044747e-04 -3.30002851131941951981e-03 9.99994426451193740846e-01 -4.84377943204659057647e-05
9.57166865196914315224e+08 9.74006542502099281755e-01 -2.25356508718296127958e-01 -3.81531778783840154045e-04 -3.30778118450581479562e-03 -3.81531778783840154045e-04 -3.30778118450581479562e-03 9.99994399879345241544e-01 -4.85515880007169472955e-05
9.57267886741261243820e+08 9.73882340478161578901e-01 -2.25887086541060266853e-01 -3.83354815181570387876e-04 -3.31556900190251198357e-03 -3.83354815181570387876e-04 -3.31556900190251198357e-03 9.99994373120830393198e-01 -4.86658975274294146036e-05
9.57368908285608053207e+08 9.73757263959381558216e-01 -2.26420074781747276971e-01 -3.85190687408190905912e-04 -3.32339219939582763974e-03 -3.85190687408190905912e-04 -3.32339219939582763974e-03 9.99994346173911252684e-01 -4.87807263629409291572e-05
