! File generated for n1 = 5, n2 = 5
! b1 = 4.641589
! b2 = 0.215443
! Q0 = 10000.000000
! f0 = 1000000000.000000
! n = 1001
! rel_span = 10.000000
# Hz S RI R 50
9.97071483848692059517e+08 9.84352836056090585437e-01 -1.56701427238030016609e-01 -3.37107928013746045368e-03 -3.37602990819118944921e-02 -3.37107928013746045368e-03 -3.37602990819118944921e-02 9.99273722985602463886e-01 -7.27343594879225306682e-03
9.97077340880994677544e+08 9.84290589844879382220e-01 -1.57009692034585729425e-01 -3.38448981981310809825e-03 -3.38267127190534158676e-02 -3.38448981981310809825e-03 -3.38267127190534158676e-02 9.99270833772413435980e-01 -7.28774433316714195796e-03
9.97083197913297295570e+08 9.84227973078993012557e-01 -1.57319157652997448915e-01 -3.39798019307342756903e-03 -3.38933850654212567854e-02 -3.39798019307342756903e-03 -3.38933850654212567854e-02 9.99267927359600127701e-01 -7.30210845475521164866e-03
9.97089054945599913597e+08 9.84164982822128053819e-01 -1.57629831046398577454e-01 -3.41155103252580894913e-03 -3.39603176190225869435e-02 -3.41155103252580894913e-03 -3.39603176190225869435e-02 9.99265003610871227480e-01 -7.31652863629232447923e-03
9.97094911977902531624e+08 9.84101616108948640260e-01 -1.57941719221043330723e-01 -3.42520297703250830440e-03 -3.40275118893091227390e-02 -3.42520297703250830440e-03 -3.40275118893091227390e-02 9.99262062388588057082e-01 -7.33100520297999286995e-03
9.97100769010205149651e+08 9.84037869944734078231e-01 -1.58254829236849609009e-01 -3.43893667178655007555e-03 -3.40949693972940753861e-02 -3.43893667178655007555e-03 -3.40949693972940753861e-02 9.99259103553748029292e-01 -7.34553848251058051633e-03
9.97106626042507767677e+08 9.83973741305029792059e-01 -1.58569168207907201795e-01 -3.45275276838689047787e-03 -3.41626916756616189064e-02 -3.45275276838689047787e-03 -3.41626916756616189064e-02 9.99256126965968327625e-01 -7.36012880509088422004e-03
9.97112483074810385704e+08 9.83909227135303265932e-01 -1.58884743302946718213e-01 -3.46665192491264501778e-03 -3.42306802688679412405e-02 -3.46665192491264501778e-03 -3.42306802688679412405e-02 9.99253132483470252190e-01 -7.37477650346390119912e-03
9.97118340107113003731e+08 9.83844324350574006566e-01 -1.59201561745911907009e-01 -3.48063480600266676387e-03 -3.42989367332645483932e-02 -3.48063480600266676387e-03 -3.42989367332645483932e-02 9.99250119963061567141e-01 -7.38948191293539898006e-03
9.97124197139415621758e+08 9.83779029835059382059e-01 -1.59519630816443269694e-01 -3.49470208293202770286e-03 -3.43674626372024449861e-02 -3.49470208293202770286e-03 -3.43674626372024449861e-02 9.99247089260120402443e-01 -7.40424537139635751543e-03
9.97130054171718239784e+08 9.83713340441797257085e-01 -1.59838957850447577203e-01 -3.50885443369312269996e-03 -3.44362595611548347185e-02 -3.50885443369312269996e-03 -3.44362595611548347185e-02 9.99244040228577934393e-01 -7.41906721934940983909e-03
9.97135911204020857811e+08 9.83647252992281728723e-01 -1.60159550240593140380e-01 -3.52309254307432706543e-03 -3.45053290978238128006e-02 -3.52309254307432706543e-03 -3.45053290978238128006e-02 9.99240972720900844095e-01 -7.43394779993181761130e-03
9.97141768236323475838e+08 9.83580764276077434971e-01 -1.60481415436882463021e-01 -3.53741710274294495972e-03 -3.45746728522637741809e-02 -3.53741710274294495972e-03 -3.45746728522637741809e-02 9.99237886588073886962e-01 -7.44888745894206876635e-03
9.97147625268626093864e+08 9.83513871050437082921e-01 -1.60804560947195557263e-01 -3.55182881132771587768e-03 -3.46442924419984379925e-02 -3.55182881132771587768e-03 -3.46442924419984379925e-02 9.99234781679582129144e-01 -7.46388654486508217739e-03
9.97153482300928711891e+08 9.83446570039913536831e-01 -1.61128994337836173312e-01 -3.56632837450234028293e-03 -3.47141894971385173152e-02 -3.56632837450234028293e-03 -3.47141894971385173152e-02 9.99231657843392739871e-01 -7.47894540889756844620e-03
9.97159339333231329918e+08 9.83378857935962136239e-01 -1.61454723234105673724e-01 -3.58091650507112897739e-03 -3.47843656605053980213e-02 -3.58091650507112897739e-03 -3.47843656605053980213e-02 9.99228514925936672775e-01 -7.49406440497466484751e-03
9.97165196365533947945e+08 9.83310731396541792826e-01 -1.61781755320864889525e-01 -3.59559392305503801313e-03 -3.48548225877521530847e-02 -3.59559392305503801313e-03 -3.48548225877521530847e-02 9.99225352772090236186e-01 -7.50924388979601082489e-03
9.97171053397836565971e+08 9.83242187045710758220e-01 -1.62110098343096364903e-01 -3.61036135577863211490e-03 -3.49255619474846956685e-02 -3.61036135577863211490e-03 -3.49255619474846956685e-02 9.99222171225155997298e-01 -7.52448422285185297698e-03
9.97176910430139183998e+08 9.83173221473208291954e-01 -1.62439760106519281990e-01 -3.62521953796036706247e-03 -3.49965854213942426099e-02 -3.62521953796036706247e-03 -3.49965854213942426099e-02 9.99218970126843686330e-01 -7.53978576645158299341e-03
9.97182767462441802025e+08 9.83103831234044989174e-01 -1.62770748478134025250e-01 -3.64016921180065683092e-03 -3.50678947043746372381e-02 -3.64016921180065683092e-03 -3.50678947043746372381e-02 9.99215749317251100692e-01 -7.55514888574900910639e-03
9.97188624494744420052e+08 9.83034012848074900681e-01 -1.63103071386841158574e-01 -3.65521112707426973354e-03 -3.51394915046557287930e-02 -3.65521112707426973354e-03 -3.51394915046557287930e-02 9.99212508634844009947e-01 -7.57057394877109612191e-03
9.97194481527047038078e+08 9.82963762799560880623e-01 -1.63436736824061651374e-01 -3.67034604122377667440e-03 -3.52113775439369808273e-02 -3.67034604122377667440e-03 -3.52113775439369808273e-02 9.99209247916436615888e-01 -7.58606132644674881899e-03
9.97200338559349656105e+08 9.82893077536749149026e-01 -1.63771752844298179586e-01 -3.68557471945132365809e-03 -3.52835545575083744940e-02 -3.68557471945132365809e-03 -3.52835545575083744940e-02 9.99205966997170902388e-01 -7.60161139263286055739e-03
9.97206195591652274132e+08 9.82821953471419429427e-01 -1.64108127565787659252e-01 -3.70089793481558375007e-03 -3.53560242943910529867e-02 -3.70089793481558375007e-03 -3.53560242943910529867e-02 9.99202665710496540363e-01 -7.61722452414461282527e-03
9.97212052623954892159e+08 9.82750386978439749441e-01 -1.64445869171104930295e-01 -3.71631646832749863371e-03 -3.54287885174673078392e-02 -3.71631646832749863371e-03 -3.54287885174673078392e-02 9.99199343888149793536e-01 -7.63290110078348321698e-03
9.97217909656257510185e+08 9.82678374395309361944e-01 -1.64784985907807685068e-01 -3.73183110904899044760e-03 -3.55018490036195927262e-02 -3.73183110904899044760e-03 -3.55018490036195927262e-02 9.99196001360132424196e-01 -7.64864150536719109713e-03
9.97223766688560128212e+08 9.82605912021703331583e-01 -1.65125486089041623172e-01 -3.74744265419089776781e-03 -3.55752075438608497682e-02 -3.74744265419089776781e-03 -3.55752075438608497682e-02 9.99192637954690598967e-01 -7.66444612375777670210e-03
9.97229623720862746239e+08 9.82532996118992363321e-01 -1.65467378094242084652e-01 -3.76315190921643711805e-03 -3.56488659434856872132e-02 -3.76315190921643711805e-03 -3.56488659434856872132e-02 9.99189253498292462297e-01 -7.68031534489417577749e-03
9.97235480753165364265e+08 9.82459622909782392952e-01 -1.65810670369721191442e-01 -3.77895968794053063386e-03 -3.57228260221969101673e-02 -3.77895968794053063386e-03 -3.57228260221969101673e-02 9.99185847815606931199e-01 -7.69624956081947034919e-03
9.97241337785467863083e+08 9.82385788577425533852e-01 -1.66155371429359460800e-01 -3.79486681263502831710e-03 -3.57970896142544500740e-02 -3.79486681263502831710e-03 -3.57970896142544500740e-02 9.99182420729480824662e-01 -7.71224916671298370979e-03
9.97247194817770481110e+08 9.82311489265527582049e-01 -1.66501489855291923137e-01 -3.81087411413487051060e-03 -3.58716585686232602992e-02 -3.81087411413487051060e-03 -3.58716585686232602992e-02 9.99178972060916326114e-01 -7.72831456092214208464e-03
9.97253051850073099136e+08 9.82236721077462182627e-01 -1.66849034298537424181e-01 -3.82698243194275851062e-03 -3.59465347491088604848e-02 -3.82698243194275851062e-03 -3.59465347491088604848e-02 9.99175501629048001817e-01 -7.74444614499166742588e-03
9.97258908882375717163e+08 9.82161480075862458605e-01 -1.67198013479706864004e-01 -3.84319261433867459879e-03 -3.60217200345098881309e-02 -3.84319261433867459879e-03 -3.60217200345098881309e-02 9.99172009251119486173e-01 -7.76064432369646083065e-03
9.97264765914678335190e+08 9.82085762282110863453e-01 -1.67548436189693783493e-01 -3.85950551848979628994e-03 -3.60972163187669725648e-02 -3.85950551848979628994e-03 -3.60972163187669725648e-02 9.99168494742459611935e-01 -7.77690950507365676148e-03
9.97270622946980953217e+08 9.82009563675821484097e-01 -1.67900311290373055462e-01 -3.87592201056199568351e-03 -3.61730255111131632217e-02 -3.87592201056199568351e-03 -3.61730255111131632217e-02 9.99164957916458762455e-01 -7.79324210045505023220e-03
9.97276479979283571243e+08 9.81932880194317903033e-01 -1.68253647715294218923e-01 -3.89244296583235839873e-03 -3.62491495362233587252e-02 -3.89244296583235839873e-03 -3.62491495362233587252e-02 9.99161398584544002688e-01 -7.80964252449927679584e-03
9.97282337011586189270e+08 9.81855707732096294471e-01 -1.68608454470416502247e-01 -3.90906926880489613563e-03 -3.63255903343726663235e-02 -3.90906926880489613563e-03 -3.63255903343726663235e-02 9.99157816556154876331e-01 -7.82611119522593629005e-03
9.97288194043888807297e+08 9.81778042140286633099e-01 -1.68964740634822391252e-01 -3.92580181332656368010e-03 -3.64023498615901122677e-02 -3.92580181332656368010e-03 -3.64023498615901122677e-02 9.99154211638717870692e-01 -7.84264853404870697362e-03
9.97294051076191425323e+08 9.81699879226104132890e-01 -1.69322515361449849047e-01 -3.94264150270544604798e-03 -3.64794300898164045033e-02 -3.94264150270544604798e-03 -3.64794300898164045033e-02 9.99150583637621214628e-01 -7.85925496580933656554e-03
9.97299908108494043350e+08 9.81621214752297244210e-01 -1.69681787877812184639e-01 -3.95958924982970500439e-03 -3.65568330070590100100e-02 -3.95958924982970500439e-03 -3.65568330070590100100e-02 9.99146932356189010349e-01 -7.87593091881105128449e-03
9.97305765140796661377e+08 9.81542044436571003985e-01 -1.70042567486802131960e-01 -3.97664597729184554620e-03 -3.66345606175654120440e-02 -3.97664597729184554620e-03 -3.66345606175654120440e-02 9.99143257595654699088e-01 -7.89267682485587929175e-03
9.97311622173099279404e+08 9.81462363951024596709e-01 -1.70404863567399172952e-01 -3.99381261750981087638e-03 -3.67126149419755021253e-02 -3.99381261750981087638e-03 -3.67126149419755021253e-02 9.99139559155134970858e-01 -7.90949311927748727191e-03
9.97317479205401897430e+08 9.81382168921570263720e-01 -1.70768685575436479640e-01 -4.01109011285227887861e-03 -3.67909980174867673464e-02 -4.01109011285227887861e-03 -3.67909980174867673464e-02 9.99135836831602675012e-01 -7.92638024097677522384e-03
9.97323336237704515457e+08 9.81301454927331673339e-01 -1.71134043044425782076e-01 -4.02847941576813233650e-03 -3.68697118980320440174e-02 -4.02847941576813233650e-03 -3.68697118980320440174e-02 9.99132090419858953645e-01 -7.94333863246015139947e-03
9.97329193270007133484e+08 9.81220217500054725512e-01 -1.71500945586301689616e-01 -4.04598148891358814355e-03 -3.69487586544398824429e-02 -4.04598148891358814355e-03 -3.69487586544398824429e-02 9.99128319712505819084e-01 -7.96036873987410534270e-03
9.97335050302309751511e+08 9.81138452123500925950e-01 -1.71869402892206257771e-01 -4.06359730528267973360e-03 -3.70281403746035298052e-02 -4.06359730528267973360e-03 -3.70281403746035298052e-02 9.99124524499917843201e-01 -7.97747101304160238788e-03
9.97340907334612369537e+08 9.81056154232818888872e-01 -1.72239424733349216767e-01 -4.08132784834287255793e-03 -3.71078591636663096542e-02 -4.08132784834287255793e-03 -3.71078591636663096542e-02 9.99120704570213735707e-01 -7.99464590550202219843e-03
9.97346764366914987564e+08 9.80973319213930938787e-01 -1.72611020961759564774e-01 -4.09917411216702103072e-03 -3.71879171441835340572e-02 -4.09917411216702103072e-03 -3.71879171441835340572e-02 9.99116859709226701192e-01 -8.01189387454604232119e-03
9.97352621399217605591e+08 9.80889942402886627626e-01 -1.72984201511162061227e-01 -4.11713710157284550062e-03 -3.72683164563113247802e-02 -4.11713710157284550062e-03 -3.72683164563113247802e-02 9.99112989700475462307e-01 -8.02921538125632439087e-03
9.97358478431520223618e+08 9.80806019085230573751e-01 -1.73358976397747693854e-01 -4.13521783225892069352e-03 -3.73490592579726124467e-02 -4.13521783225892069352e-03 -3.73490592579726124467e-02 9.99109094325134283743e-01 -8.04661089054326678083e-03
9.97364335463822841644e+08 9.80721544495329222713e-01 -1.73735355721102463500e-01 -4.15341733094987900637e-03 -3.74301477250572403599e-02 -4.15341733094987900637e-03 -3.74301477250572403599e-02 9.99105173362002219051e-01 -8.06408087118813156347e-03
9.97370192496125459671e+08 9.80636513815723143139e-01 -1.74113349664983707576e-01 -4.17173663553591523440e-03 -3.75115840515892126628e-02 -4.17173663553591523440e-03 -3.75115840515892126628e-02 9.99101226587472468488e-01 -8.08162579587905563483e-03
9.97376049528428077698e+08 9.80550922176441464018e-01 -1.74492968498230482943e-01 -4.19017679522042628404e-03 -3.75933704499228360518e-02 -4.19017679522042628404e-03 -3.75933704499228360518e-02 9.99097253775501070727e-01 -8.09924614125332766046e-03
9.97381906560730695724e+08 9.80464764654320197756e-01 -1.74874222575624460596e-01 -4.20873887066696220072e-03 -3.76755091509282033502e-02 -4.20873887066696220072e-03 -3.76755091509282033502e-02 9.99093254697574928436e-01 -8.11694238793734049175e-03
9.97387763593033313751e+08 9.80378036272309461019e-01 -1.75257122338760951141e-01 -4.22742393414837769328e-03 -3.77580024041788281375e-02 -4.22742393414837769328e-03 -3.77580024041788281375e-02 9.99089229122679944872e-01 -8.13471502058701369242e-03
9.97393620625335931778e+08 9.80290731998758824162e-01 -1.75641678316984822805e-01 -4.24623306970092415091e-03 -3.78408524781532959458e-02 -4.24623306970092415091e-03 -3.78408524781532959458e-02 9.99085176817267606175e-01 -8.15256452793124315737e-03
9.97399477657638549805e+08 9.80202846746711431436e-01 -1.76027901128247066254e-01 -4.26516737327624004261e-03 -3.79240616604197972039e-02 -4.26516737327624004261e-03 -3.79240616604197972039e-02 9.99081097545222118761e-01 -8.17049140281165577060e-03
9.97405334689941167831e+08 9.80114375373167812100e-01 -1.76415801480059170059e-01 -4.28422795289995234774e-03 -3.80076322578417544196e-02 -4.28422795289995234774e-03 -3.80076322578417544196e-02 9.99076991067826769566e-01 -8.18849614222691250809e-03
9.97411191722243785858e+08 9.80025312678348692330e-01 -1.76805390170415410722e-01 -4.30341592883055814450e-03 -3.80915665967765104671e-02 -4.30341592883055814450e-03 -3.80915665967765104671e-02 9.99072857143729176066e-01 -8.20657924737550580063e-03
9.97417048754546403885e+08 9.79935653404945150591e-01 -1.77196678088729880907e-01 -4.32273243372091782455e-03 -3.81758670232772226449e-02 -4.32273243372091782455e-03 -3.81758670232772226449e-02 9.99068695528906536296e-01 -8.22474122369926639864e-03
9.97422905786849021912e+08 9.79845392237360224286e-01 -1.77589676216774211559e-01 -4.34217861278169726946e-03 -3.82605359032948469378e-02 -4.34217861278169726946e-03 -3.82605359032948469378e-02 9.99064505976630878870e-01 -8.24298258092687891052e-03
9.97428762819151639938e+08 9.79754523800926535593e-01 -1.77984395629678160411e-01 -4.36175562394986761350e-03 -3.83455756228937780228e-02 -4.36175562394986761350e-03 -3.83455756228937780228e-02 9.99060288237432092551e-01 -8.26130383312033075849e-03
9.97434619851454257965e+08 9.79663042661131022726e-01 -1.78380847496861144608e-01 -4.38146463805578340045e-03 -3.84309885884524735089e-02 -4.38146463805578340045e-03 -3.84309885884524735089e-02 9.99056042059062510141e-01 -8.27970549871814495702e-03
9.97440476883756875992e+08 9.79570943322805698372e-01 -1.78779043083068606146e-01 -4.40130683899747719018e-03 -3.85167772268867683594e-02 -4.40130683899747719018e-03 -3.85167772268867683594e-02 9.99051767186458938852e-01 -8.29818810058348919900e-03
9.97446333916059494019e+08 9.79478220229331841828e-01 -1.79178993749311760153e-01 -4.42128342391221330204e-03 -3.86029439858523240603e-02 -4.42128342391221330204e-03 -3.86029439858523240603e-02 9.99047463361706022944e-01 -8.31675216604779200813e-03
9.97452190948362112045e+08 9.79384867761800559371e-01 -1.79580710953947814135e-01 -4.44139560335714798922e-03 -3.86894913339773799388e-02 -4.44139560335714798922e-03 -3.86894913339773799388e-02 9.99043130323997274900e-01 -8.33539822696088145149e-03
9.97458047980664730072e+08 9.79290880238192329443e-01 -1.79984206253644501983e-01 -4.46164460148632761177e-03 -3.87764217610705105854e-02 -4.46164460148632761177e-03 -3.87764217610705105854e-02 9.99038767809596439662e-01 -8.35412681973575314831e-03
9.97463905012967348099e+08 9.79196251912515913673e-01 -1.80389491304466770272e-01 -4.48203165623600567613e-03 -3.88637377783547996457e-02 -4.48203165623600567613e-03 -3.88637377783547996457e-02 9.99034375551798414783e-01 -8.37293848539902123285e-03
9.97469762045269966125e+08 9.79100976973956038663e-01 -1.80796577862889273902e-01 -4.50255801950843158321e-03 -3.89514419186859084387e-02 -4.50255801950843158321e-03 -3.89514419186859084387e-02 9.99029953280888949330e-01 -8.39183376963789987024e-03
9.97475619077572584152e+08 9.79005049545995431615e-01 -1.81205477786867158452e-01 -4.52322495736081752610e-03 -3.90395367367828496907e-02 -4.52322495736081752610e-03 -3.90395367367828496907e-02 9.99025500724104342787e-01 -8.41081322284990828830e-03
9.97481476109875202179e+08 9.78908463685516316843e-01 -1.81616203036955636829e-01 -4.54403375019908975507e-03 -3.91280248094691071592e-02 -4.54403375019908975507e-03 -3.91280248094691071592e-02 9.99021017605589589650e-01 -8.42987740019484309284e-03
9.97487333142177820206e+08 9.78811213381917011311e-01 -1.82028765677314519067e-01 -4.56498569296814524221e-03 -3.92169087358891430006e-02 -4.56498569296814524221e-03 -3.92169087358891430006e-02 9.99016503646356968105e-01 -8.44902686164139896108e-03
9.97493190174480438232e+08 9.78713292556172231862e-01 -1.82443177876905560097e-01 -4.58608209535425141029e-03 -3.93061911377662817624e-02 -4.58608209535425141029e-03 -3.93061911377662817624e-02 9.99011958564243518488e-01 -8.46826217202274571239e-03
9.97499047206783056259e+08 9.78614695059914385666e-01 -1.82859451910555304011e-01 -4.60732428198305787870e-03 -3.93958746596317285760e-02 -4.60732428198305787870e-03 -3.93958746596317285760e-02 9.99007382073866967431e-01 -8.48758390108586210920e-03
9.97504904239085674286e+08 9.78515414674487660207e-01 -1.83277600160082904113e-01 -4.62871359262337703222e-03 -3.94859619690675692216e-02 -4.62871359262337703222e-03 -3.94859619690675692216e-02 9.99002773886582984275e-01 -8.50699262354388287266e-03
9.97510761271388292313e+08 9.78415445109978465510e-01 -1.83697635115476987089e-01 -4.65025138239596579764e-03 -3.95764557569602687392e-02 -4.65025138239596579764e-03 -3.95764557569602687392e-02 9.98998133710439772948e-01 -8.52648891913072512483e-03
9.97516618303690910339e+08 9.78314780004244544109e-01 -1.84119569376032521379e-01 -4.67193902198285819505e-03 -3.96673587377456490777e-02 -4.67193902198285819505e-03 -3.96673587377456490777e-02 9.98993461250132663842e-01 -8.54607337265385694214e-03
9.97522475335993528366e+08 9.78213412921916103393e-01 -1.84543415651549441714e-01 -4.69377789784243548699e-03 -3.97586736496670922758e-02 -4.69377789784243548699e-03 -3.97586736496670922758e-02 9.98988756206958372630e-01 -8.56574657404993340670e-03
9.97528332368296146393e+08 9.78111337353396059768e-01 -1.84969186763486087566e-01 -4.71576941242487016059e-03 -3.98504032550240708255e-02 -4.71576941242487016059e-03 -3.98504032550240708255e-02 9.98984018278768037824e-01 -8.58550911843833537695e-03
