! File generated for n1 = 9, n2 = 4
! b1 = 0.215443
! b2 = 0.021544
! Q0 = 10000.000000
! f0 = 1000000000.000000
! n = 1001
! rel_span = 10.000000
# Hz S RI R 50
9.99381506092048287392e+08 9.96553244636709800730e-01 -3.44782192154721028876e-02 -1.08995974853980993370e-03 -1.09029702387475561226e-02 -1.08995974853980993370e-03 -1.09029702387475561226e-02 9.99655324463671002277e-01 -3.44782192154720942140e-03
9.99382743079864144325e+08 9.96539549277116853965e-01 -3.45459633734221394086e-02 -1.09429060150868047094e-03 -1.09243928224767895829e-02 -1.09429060150868047094e-03 -1.09243928224767895829e-02 9.99653954927711696499e-01 -3.45459633734221350718e-03
9.99383980067680120468e+08 9.96525772421513189592e-01 -3.46139714147307986369e-02 -1.09864722577898981000e-03 -1.09458988534510085616e-02 -1.09864722577898981000e-03 -1.09458988534510085616e-02 9.99652577242151285652e-01 -3.46139714147307951675e-03
9.99385217055495977402e+08 9.96511913424259043737e-01 -3.46822448672905042644e-02 -1.10302982551989045557e-03 -1.09674888148322199899e-02 -1.10302982551989045557e-03 -1.09674888148322199899e-02 9.99651191342425859965e-01 -3.46822448672904964581e-03
9.99386454043311953545e+08 9.96497971633324097773e-01 -3.47507852707056377750e-02 -1.10743860692151183112e-03 -1.09891631934860792980e-02 -1.10743860692151183112e-03 -1.09891631934860792980e-02 9.99649797163332465288e-01 -3.47507852707056334382e-03
9.99387691031127810478e+08 9.96483946390224528677e-01 -3.48195941763385988232e-02 -1.11187377821475217275e-03 -1.10109224799964534186e-02 -1.11187377821475217275e-03 -1.10109224799964534186e-02 9.99648394639022441766e-01 -3.48195941763385910170e-03
9.99388928018943667412e+08 9.96469837029936744699e-01 -3.48886731474672834308e-02 -1.11633554969847248808e-03 -1.10327671687152212288e-02 -1.11633554969847248808e-03 -1.10327671687152212288e-02 9.99646983702993652265e-01 -3.48886731474672790940e-03
9.99390165006759643555e+08 9.96455642880820779972e-01 -3.49580237593951487218e-02 -1.12082413376391105443e-03 -1.10546977577970703677e-02 -1.12082413376391105443e-03 -1.10546977577970703677e-02 9.99645564288082044690e-01 -3.49580237593951443850e-03
9.99391401994575500488e+08 9.96441363264551349666e-01 -3.50276475995153976917e-02 -1.12533974491637483485e-03 -1.10767147492198091141e-02 -1.12533974491637483485e-03 -1.10767147492198091141e-02 9.99644136326455101660e-01 -3.50276475995153898854e-03
9.99392638982391476631e+08 9.96426997496023258982e-01 -3.50975462674978921918e-02 -1.12988259980513743724e-03 -1.10988186488434666804e-02 -1.12988259980513743724e-03 -1.10988186488434666804e-02 9.99642699749602292592e-01 -3.50975462674978869876e-03
9.99393875970207333565e+08 9.96412544883281903196e-01 -3.51677213753497155957e-02 -1.13445291724542283128e-03 -1.11210099664294393557e-02 -1.13445291724542283128e-03 -1.11210099664294393557e-02 9.99641254488328190320e-01 -3.51677213753497129936e-03
9.99395112958023190498e+08 9.96398004727433117544e-01 -3.52381745475738514251e-02 -1.13905091824702698472e-03 -1.11432892156906760556e-02 -1.13905091824702698472e-03 -1.11432892156906760556e-02 9.99639800472743367266e-01 -3.52381745475738436188e-03
9.99396349945839166641e+08 9.96383376322563130145e-01 -3.53089074212698181277e-02 -1.14367682603944706768e-03 -1.11656569143235035596e-02 -1.14367682603944706768e-03 -1.11656569143235035596e-02 9.99638337632256290810e-01 -3.53089074212698103214e-03
9.99397586933655023575e+08 9.96368658955661956611e-01 -3.53799216462191978838e-02 -1.14833086609628337409e-03 -1.11881135840346639110e-02 -1.14833086609628337409e-03 -1.11881135840346639110e-02 9.99636865895566217866e-01 -3.53799216462191961491e-03
9.99398823921470880508e+08 9.96353851906521370552e-01 -3.54512188850838946830e-02 -1.15301326616730611882e-03 -1.12106597506040159967e-02 -1.15301326616730611882e-03 -1.12106597506040159967e-02 9.99635385190652092646e-01 -3.54512188850838886114e-03
9.99400060909286856651e+08 9.96338954447657854097e-01 -3.55228008134852654698e-02 -1.15772425630303386727e-03 -1.12332959439095589338e-02 -1.15772425630303386727e-03 -1.12332959439095589338e-02 9.99633895444765774307e-01 -3.55228008134852611330e-03
9.99401297897102713585e+08 9.96323965844231662636e-01 -3.55946691200934445254e-02 -1.16246406888022789893e-03 -1.12560226979556768367e-02 -1.16246406888022789893e-03 -1.12560226979556768367e-02 9.99632396584423155161e-01 -3.55946691200934375865e-03
9.99402534884918689728e+08 9.96308885353940576479e-01 -3.56668255068337686220e-02 -1.16723293863541725639e-03 -1.12788405509384147274e-02 -1.16723293863541725639e-03 -1.12788405509384147274e-02 9.99630888535394057648e-01 -3.56668255068337590810e-03
9.99403771872734546661e+08 9.96293712226943073418e-01 -3.57392716889502609634e-02 -1.17203110268930890681e-03 -1.13017500452655631632e-02 -1.17203110268930890681e-03 -1.13017500452655631632e-02 9.99629371222694351751e-01 -3.57392716889502531571e-03
9.99405008860550403595e+08 9.96278445705759740925e-01 -3.58120093951669396515e-02 -1.17685880057795139858e-03 -1.13247517276076521686e-02 -1.17685880057795139858e-03 -1.13247517276076521686e-02 9.99627844570575962990e-01 -3.58120093951669327126e-03
9.99406245848366379738e+08 9.96263085025180683552e-01 -3.58850403678153961895e-02 -1.18171627428199769484e-03 -1.13478461489383113114e-02 -1.18171627428199769484e-03 -1.13478461489383113114e-02 9.99626308502518101662e-01 -3.58850403678153892506e-03
9.99407482836182236671e+08 9.96247629412178259400e-01 -3.59583663629307395682e-02 -1.18660376825417061657e-03 -1.13710338645645978733e-02 -1.18660376825417061657e-03 -1.13710338645645978733e-02 9.99624762941217825940e-01 -3.59583663629307360987e-03
9.99408719823998212814e+08 9.96232078085796834976e-01 -3.60319891504574732477e-02 -1.19152152945437060996e-03 -1.13943154341921079609e-02 -1.19152152945437060996e-03 -1.13943154341921079609e-02 9.99623207808579716804e-01 -3.60319891504574680435e-03
9.99409956811814069748e+08 9.96216430257072960153e-01 -3.61059105142991082493e-02 -1.19646980737470650519e-03 -1.14176914219406653445e-02 -1.19646980737470650519e-03 -1.14176914219406653445e-02 9.99621643025707329322e-01 -3.61059105142991004431e-03
9.99411193799629926682e+08 9.96200685128922791556e-01 -3.61801322525240817707e-02 -1.20144885407528156061e-03 -1.14411623964094360389e-02 -1.20144885407528156061e-03 -1.14411623964094360389e-02 9.99620068512892312462e-01 -3.61801322525240765665e-03
9.99412430787445902824e+08 9.96184841896046391341e-01 -3.62546561774811648693e-02 -1.20645892421428636149e-03 -1.14647289307134216813e-02 -1.20645892421428636149e-03 -1.14647289307134216813e-02 9.99618484189604639134e-01 -3.62546561774811570630e-03
9.99413667775261759758e+08 9.96168899744832136989e-01 -3.63294841159125109220e-02 -1.21150027507826475726e-03 -1.14883916025192121813e-02 -1.21150027507826475726e-03 -1.14883916025192121813e-02 9.99616889974483169290e-01 -3.63294841159125065852e-03
9.99414904763077735901e+08 9.96152857853245032871e-01 -3.64046179091386187809e-02 -1.21657316661755990003e-03 -1.15121509941034736585e-02 -1.21657316661755990003e-03 -1.15121509941034736585e-02 9.99615285785324547696e-01 -3.64046179091386109747e-03
9.99416141750893592834e+08 9.96136715390727345287e-01 -3.64800594131747465965e-02 -1.22167786147751996836e-03 -1.15360076923897696827e-02 -1.22167786147751996836e-03 -1.15360076923897696827e-02 9.99613671539072767835e-01 -3.64800594131747379228e-03
9.99417378738709449768e+08 9.96120471518092798213e-01 -3.65558104988790710799e-02 -1.22681462503219365287e-03 -1.15599622889953988075e-02 -1.22681462503219365287e-03 -1.15599622889953988075e-02 9.99612047151809290924e-01 -3.65558104988790650083e-03
9.99418615726525425911e+08 9.96104125387412886461e-01 -3.66318730521264304678e-02 -1.23198372542014048664e-03 -1.15840153802863471411e-02 -1.23198372542014048664e-03 -1.15840153802863471411e-02 9.99610412538741277544e-01 -3.66318730521264252636e-03
9.99419852714341282845e+08 9.96087676141923172857e-01 -3.67082489738849507277e-02 -1.23718543357402089092e-03 -1.16081675674015224325e-02 -1.23718543357402089092e-03 -1.16081675674015224325e-02 9.99608767614192261775e-01 -3.67082489738849472583e-03
9.99421089702157258987e+08 9.96071122915894835437e-01 -3.67849401804512393666e-02 -1.24242002326133485490e-03 -1.16324194563271129943e-02 -1.24242002326133485490e-03 -1.16324194563271129943e-02 9.99607112291589494646e-01 -3.67849401804512315603e-03
9.99422326689973115921e+08 9.96054464834531083639e-01 -3.68619486035612620167e-02 -1.24768777111711778698e-03 -1.16567716579316759534e-02 -1.24768777111711778698e-03 -1.16567716579316759534e-02 9.99605446483453063955e-01 -3.68619486035612516084e-03
9.99423563677788972855e+08 9.96037701013857912358e-01 -3.69392761905229516373e-02 -1.25298895667848016015e-03 -1.16812247880080447016e-02 -1.25298895667848016015e-03 -1.16812247880080447016e-02 9.99603770101385791236e-01 -3.69392761905229473005e-03
9.99424800665604948997e+08 9.96020830560593095626e-01 -3.70169249044443246510e-02 -1.25832386242610209763e-03 -1.17057794673454795137e-02 -1.25832386242610209763e-03 -1.17057794673454795137e-02 9.99602083056059353972e-01 -3.70169249044443194469e-03
9.99426037653420805931e+08 9.96003852572052150727e-01 -3.70948967242828650526e-02 -1.26369277381388478432e-03 -1.17304363217452904677e-02 -1.26369277381388478432e-03 -1.17304363217452904677e-02 9.99600385257205181766e-01 -3.70948967242828607158e-03
9.99427274641236662865e+08 9.95986766136009116224e-01 -3.71731936450983707632e-02 -1.26909597931296712348e-03 -1.17551959821007735024e-02 -1.26909597931296712348e-03 -1.17551959821007735024e-02 9.99598676613600911622e-01 -3.71731936450983655590e-03
9.99428511629052639008e+08 9.95969570330582976148e-01 -3.72518176781826554356e-02 -1.27453377044773382559e-03 -1.17800590844382505051e-02 -1.27453377044773382559e-03 -1.17800590844382505051e-02 9.99596957033058286513e-01 -3.72518176781826441599e-03
9.99429748616868495941e+08 9.95952264224120531466e-01 -3.73307708511975491761e-02 -1.28000644183279277399e-03 -1.18050262699606924033e-02 -1.28000644183279277399e-03 -1.18050262699606924033e-02 9.99595226422412053147e-01 -3.73307708511975413698e-03
9.99430985604684472084e+08 9.95934846875062285143e-01 -3.74100552083854592800e-02 -1.28551429121541720309e-03 -1.18300981851143065249e-02 -1.28551429121541720309e-03 -1.18300981851143065249e-02 9.99593484687506195208e-01 -3.74100552083854540758e-03
9.99432222592500329018e+08 9.95917317331829532456e-01 -3.74896728106756532695e-02 -1.29105761951120489098e-03 -1.18552754816221503353e-02 -1.29105761951120489098e-03 -1.18552754816221503353e-02 9.99591731733182942143e-01 -3.74896728106756480653e-03
9.99433459580316185951e+08 9.95899674632681808362e-01 -3.75696257359204310866e-02 -1.29663673084920785805e-03 -1.18805588165588182220e-02 -1.29663673084920785805e-03 -1.18805588165588182220e-02 9.99589967463268225245e-01 -3.75696257359204232804e-03
9.99434696568132162094e+08 9.95881917805593874782e-01 -3.76499160790338474603e-02 -1.30225193261076046571e-03 -1.19059488523942987731e-02 -1.30225193261076046571e-03 -1.19059488523942987731e-02 9.99588191780559354171e-01 -3.76499160790338396540e-03
9.99435933555948019028e+08 9.95864045868129266204e-01 -3.77305459521426883596e-02 -1.30790353546960812399e-03 -1.19314462570417299803e-02 -1.30790353546960812399e-03 -1.19314462570417299803e-02 9.99586404586812915518e-01 -3.77305459521426857575e-03
9.99437170543763995171e+08 9.95846057827297181930e-01 -3.78115174848007370989e-02 -1.31359185343693832780e-03 -1.19570517039251436597e-02 -1.31359185343693832780e-03 -1.19570517039251436597e-02 9.99584605782729673784e-01 -3.78115174848007301600e-03
9.99438407531579852104e+08 9.95827952679425698612e-01 -3.78928328241293424505e-02 -1.31931720390174463640e-03 -1.19827658720239298845e-02 -1.31931720390174463640e-03 -1.19827658720239298845e-02 9.99582795267942580963e-01 -3.78928328241293381137e-03
9.99439644519395709038e+08 9.95809729410016108986e-01 -3.79744941350290410309e-02 -1.32507990767666153711e-03 -1.20085894459397470035e-02 -1.32507990767666153711e-03 -1.20085894459397470035e-02 9.99580972941001566490e-01 -3.79744941350290340920e-03
9.99440881507211685181e+08 9.95791386993603477862e-01 -3.80565036003608636594e-02 -1.33088028904219035295e-03 -1.20345231159538646609e-02 -1.33088028904219035295e-03 -1.20345231159538646609e-02 9.99579138699360325582e-01 -3.80565036003608584553e-03
9.99442118495027542114e+08 9.95772924393628522388e-01 -3.81388634210669819069e-02 -1.33671867578712762377e-03 -1.20605675780653086304e-02 -1.33671867578712762377e-03 -1.20605675780653086304e-02 9.99577292439362885546e-01 -3.81388634210669741006e-03
9.99443355482843518257e+08 9.95754340562269968373e-01 -3.82215758164629257343e-02 -1.34259539926165675193e-03 -1.20867235340832695351e-02 -1.34259539926165675193e-03 -1.20867235340832695351e-02 9.99575434056226952428e-01 -3.82215758164629196628e-03
9.99444592470659375191e+08 9.95735634440324091088e-01 -3.83046430243107680069e-02 -1.34851079441545488972e-03 -1.21129916916502492624e-02 -1.34851079441545488972e-03 -1.21129916916502492624e-02 9.99573563444032364700e-01 -3.83046430243107628028e-03
9.99445829458475232124e+08 9.95716804957033407852e-01 -3.83880673011091078095e-02 -1.35446519985171808312e-03 -1.21393727643337584476e-02 -1.35446519985171808312e-03 -1.21393727643337584476e-02 9.99571680495703329683e-01 -3.83880673011091026053e-03
9.99447066446291208267e+08 9.95697851029950786739e-01 -3.84718509222222657118e-02 -1.36045895787031251821e-03 -1.21658674716671744154e-02 -1.36045895787031251821e-03 -1.21658674716671744154e-02 9.99569785102995100878e-01 -3.84718509222222631097e-03
9.99448303434107065201e+08 9.95678771564785347614e-01 -3.85559961820782226560e-02 -1.36649241451635935531e-03 -1.21924765392123282681e-02 -1.36649241451635935531e-03 -1.21924765392123282681e-02 9.99567877156478545864e-01 -3.85559961820782165845e-03
9.99449540421922922134e+08 9.95659565455238371179e-01 -3.86405053944069709626e-02 -1.37256591963229052783e-03 -1.22192006986348907643e-02 -1.37256591963229052783e-03 -1.22192006986348907643e-02 9.99565956545523826016e-01 -3.86405053944069648911e-03
9.99450777409738898277e+08 9.95640231582852641701e-01 -3.87253808924061040941e-02 -1.37867982690528106948e-03 -1.22460406877567245382e-02 -1.37867982690528106948e-03 -1.22460406877567245382e-02 9.99564023158285297477e-01 -3.87253808924060971552e-03
9.99452014397554755211e+08 9.95620768816853907168e-01 -3.88106250289385890095e-02 -1.38483449391755262560e-03 -1.22729972506184260850e-02 -1.38483449391755262560e-03 -1.22729972506184260850e-02 9.99562076881685412921e-01 -3.88106250289385829380e-03
9.99453251385370731354e+08 9.95601176013979571877e-01 -3.88962401767751625448e-02 -1.39103028220050983603e-03 -1.23000711375559849264e-02 -1.39103028220050983603e-03 -1.23000711375559849264e-02 9.99560117601397957188e-01 -3.88962401767751521364e-03
9.99454488373186588287e+08 9.95581452018331147791e-01 -3.89822287287243524068e-02 -1.39726755728135929382e-03 -1.23272631052419017611e-02 -1.39726755728135929382e-03 -1.23272631052419017611e-02 9.99558145201833059268e-01 -3.89822287287243472026e-03
9.99455725361002445221e+08 9.95561595661184628447e-01 -3.90685930979376774830e-02 -1.40354668874301496788e-03 -1.23545739167816859272e-02 -1.40354668874301496788e-03 -1.23545739167816859272e-02 9.99556159566118429538e-01 -3.90685930979376740135e-03
9.99456962348818421364e+08 9.95541605760832393202e-01 -3.91553357180717265251e-02 -1.40986805027429806456e-03 -1.23820043417651216855e-02 -1.40986805027429806456e-03 -1.23820043417651216855e-02 9.99554160576083261525e-01 -3.91553357180717161168e-03
9.99458199336634278297e+08 9.95521481122415341503e-01 -3.92424590434790471205e-02 -1.41623201972282571071e-03 -1.24095551563266365963e-02 -1.41623201972282571071e-03 -1.24095551563266365963e-02 9.99552148112241578559e-01 -3.92424590434790367122e-03
9.99459436324450254440e+08 9.95501220537734266003e-01 -3.93299655494835503911e-02 -1.42263897915472360516e-03 -1.24372271432323794338e-02 -1.42263897915472360516e-03 -1.24372271432323794338e-02 9.99550122053773471009e-01 -3.93299655494835399827e-03
9.99460673312266111374e+08 9.95480822785088093063e-01 -3.94178577325297943568e-02 -1.42908931490580101177e-03 -1.24650210919274358895e-02 -1.42908931490580101177e-03 -1.24650210919274358895e-02 9.99548082278508776000e-01 -3.94178577325297874179e-03
9.99461910300081968307e+08 9.95460286629072821363e-01 -3.95061381104918826757e-02 -1.43558341764507720051e-03 -1.24929377986335091166e-02 -1.43558341764507720051e-03 -1.24929377986335091166e-02 9.99546028662907315443e-01 -3.95061381104918740020e-03
9.99463147287897944450e+08 9.95439610820415432535e-01 -3.95948092228239276191e-02 -1.44212168242739322520e-03 -1.25209780663965014602e-02 -1.44212168242739322520e-03 -1.25209780663965014602e-02 9.99543961082041576560e-01 -3.95948092228239241497e-03
9.99464384275713801384e+08 9.95418794095782599740e-01 -3.96838736308074355175e-02 -1.44870450875381672970e-03 -1.25491427051647383428e-02 -1.44870450875381672970e-03 -1.25491427051647383428e-02 9.99541879409578282178e-01 -3.96838736308074285786e-03
9.99465621263529777527e+08 9.95397835177582956945e-01 -3.97733339178181627416e-02 -1.45533230063422643411e-03 -1.25774325318733642964e-02 -1.45533230063422643411e-03 -1.25774325318733642964e-02 9.99539783517758295694e-01 -3.97733339178181575374e-03
9.99466858251345634460e+08 9.95376732773788464037e-01 -3.98631926894996643784e-02 -1.46200546664372143905e-03 -1.26058483704992244090e-02 -1.46200546664372143905e-03 -1.26058483704992244090e-02 9.99537673277378857506e-01 -3.98631926894996591743e-03
9.99468095239161491394e+08 9.95355485577727239210e-01 -3.99534525740521187509e-02 -1.46872441998829503761e-03 -1.26343910521521836376e-02 -1.46872441998829503761e-03 -1.26343910521521836376e-02 9.99535548557772712819e-01 -3.99534525740521170162e-03
9.99469332226977467537e+08 9.95334092267885162109e-01 -4.00441162224680208270e-02 -1.47548957856735436615e-03 -1.26630614151496800196e-02 -1.47548957856735436615e-03 -1.26630614151496800196e-02 9.99533409226788571722e-01 -4.00441162224680121534e-03
9.99470569214793324471e+08 9.95312551507719245336e-01 -4.01351863087138008290e-02 -1.48230136503294755018e-03 -1.26918603050741457539e-02 -1.48230136503294755018e-03 -1.26918603050741457539e-02 9.99531255150771902329e-01 -4.01351863087137921554e-03
9.99471806202609300613e+08 9.95290861945429150559e-01 -4.02266655300729872313e-02 -1.48916020686183300792e-03 -1.27207885748815210936e-02 -1.48916020686183300792e-03 -1.27207885748815210936e-02 9.99529086194542948363e-01 -4.02266655300729820272e-03
9.99473043190425157547e+08 9.95269022213776555219e-01 -4.03185566072803910909e-02 -1.49606653641272792712e-03 -1.27498470849436995600e-02 -1.49606653641272792712e-03 -1.27498470849436995600e-02 9.99526902221377633317e-01 -4.03185566072803910909e-03
9.99474280178241014481e+08 9.95247030929849452185e-01 -4.04108622848761908641e-02 -1.50302079100082439621e-03 -1.27790367031604887305e-02 -1.50302079100082439621e-03 -1.27790367031604887305e-02 9.99524703092984911912e-01 -4.04108622848761873947e-03
9.99475517166056990623e+08 9.95224886694851984537e-01 -4.05035853314409596826e-02 -1.51002341296424514271e-03 -1.28083583050339396697e-02 -1.51002341296424514271e-03 -1.28083583050339396697e-02 9.99522488669485231760e-01 -4.05035853314409527437e-03
9.99476754153872847557e+08 9.95202588093907825062e-01 -4.05967285397621016618e-02 -1.51707484972611280662e-03 -1.28378127737209749709e-02 -1.51707484972611280662e-03 -1.28378127737209749709e-02 9.99520258809390771404e-01 -4.05967285397620947229e-03
9.99477991141688704491e+08 9.95180133695805269056e-01 -4.06902947272367102038e-02 -1.52417555387534100000e-03 -1.28674010001607833781e-02 -1.52417555387534100000e-03 -1.28674010001607833781e-02 9.99518013369580571315e-01 -4.06902947272367015302e-03
