! File generated for n1 = 10, n2 = 3
! b1 = 0.100000
! b2 = 0.021544
! Q0 = 10000.000000
! f0 = 1000000000.000000
! n = 1001
! rel_span = 10.000000
# Hz S RI R 50
9.99439227826549887657e+08 9.98235381044415004403e-01 -1.76511400779970559216e-02 -8.19063563982478531379e-04 -8.19293346865661298306e-03 -8.19063563982478531379e-04 -8.19293346865661298306e-03 9.99619824370739928909e-01 -3.80282285026489492302e-03
9.99440349370896816254e+08 9.98228369703153872727e-01 -1.76858206880882266876e-02 -8.22317940313132948217e-04 -8.20903078191081818360e-03 -8.22317940313132948217e-04 -8.20903078191081818360e-03 9.99618313823056325873e-01 -3.81029456121008327368e-03
9.99441470915243744850e+08 9.98221316640421241217e-01 -1.77206363892090414114e-02 -8.25591682035341700371e-04 -8.22519079886649580324e-03 -8.25591682035341700371e-04 -8.22519079886649580324e-03 9.99616794286754095644e-01 -3.81779537663532939074e-03
9.99442592459590554237e+08 9.98214221525687062098e-01 -1.77555879635407781736e-02 -8.28884942567703142738e-04 -8.24141388258003461387e-03 -8.28884942567703142738e-04 -8.24141388258003461387e-03 9.99615265690622756267e-01 -3.82532546505648211876e-03
9.99443714003937482834e+08 9.98207084025150459539e-01 -1.77906761992535876471e-02 -8.32197876846779661594e-04 -8.25770039888760847002e-03 -8.32197876846779661594e-04 -8.25770039888760847002e-03 9.99613727962747167233e-01 -3.83288499627965116925e-03
9.99444835548284411430e+08 9.98199903801704757633e-01 -1.78259018905474186933e-02 -8.35530641343608230544e-04 -8.27405071642418193933e-03 -8.35530641343608230544e-04 -8.27405071642418193933e-03 9.99612181030499868939e-01 -3.84047414141002949051e-03
9.99445957092631340027e+08 9.98192680514896513166e-01 -1.78612658377178198932e-02 -8.38883394082738241722e-04 -8.29046520665404317041e-03 -8.38883394082738241722e-04 -8.29046520665404317041e-03 9.99610624820532200907e-01 -3.84809307286606595844e-03
9.99447078636978149414e+08 9.98185413820886657810e-01 -1.78967688472067079641e-02 -8.42256294660041586464e-04 -8.30694424389437011125e-03 -8.42256294660041586464e-04 -8.30694424389437011125e-03 9.99609059258766641243e-01 -3.85574196439040541018e-03
9.99448200181325078011e+08 9.98178103372409419869e-01 -1.79324117316677668355e-02 -8.45649504262104044841e-04 -8.32348820534558990480e-03 -8.45649504262104044841e-04 -8.32348820534558990480e-03 9.99607484270386703606e-01 -3.86342099106397546607e-03
9.99449321725672006607e+08 9.98170748818731468077e-01 -1.79681953100220247188e-02 -8.49063185684882995585e-04 -8.34009747111717422707e-03 -8.49063185684882995585e-04 -8.34009747111717422707e-03 9.99605899779829387697e-01 -3.87113032931796479524e-03
9.99450443270018935204e+08 9.98163349805611166410e-01 -1.80041204075157869335e-02 -8.52497503352786338560e-04 -8.35677242425452403152e-03 -8.52497503352786338560e-04 -8.35677242425452403152e-03 9.99604305710775520311e-01 -3.87887015694629837953e-03
9.99451564814365744591e+08 9.98155905975258272989e-01 -1.80401878557720739271e-02 -8.55952623337332047827e-04 -8.37351345076285148716e-03 -8.55952623337332047827e-04 -8.37351345076285148716e-03 9.99602701986141539692e-01 -3.88664065311672586589e-03
9.99452686358712673187e+08 9.98148416966283869023e-01 -1.80763984928873633340e-02 -8.59428713380355519154e-04 -8.39032093965208503050e-03 -8.59428713380355519154e-04 -8.39032093965208503050e-03 9.99601088528068726369e-01 -3.89444199839165949850e-03
9.99453807903059601784e+08 9.98140882413666274964e-01 -1.81127531634506129532e-02 -8.62925942909986590061e-04 -8.40719528294569043436e-03 -8.62925942909986590061e-04 -8.40719528294569043436e-03 9.99599465257915431593e-01 -3.90227437473227413769e-03
9.99454929447406530380e+08 9.98133301948702200690e-01 -1.81492527186270895256e-02 -8.66444483063041784136e-04 -8.42413687571958759437e-03 -8.66444483063041784136e-04 -8.42413687571958759437e-03 9.99597832096246974309e-01 -3.91013796551656789974e-03
9.99456050991753339767e+08 9.98125675198964890100e-01 -1.81858980162125302704e-02 -8.69984506704791593461e-04 -8.44114611612728667212e-03 -8.69984506704791593461e-04 -8.44114611612728667212e-03 9.99596188962826315283e-01 -3.91803295555102903958e-03
9.99457172536100268364e+08 9.98118001788255049256e-01 -1.82226899207133391512e-02 -8.73546188451460167354e-04 -8.45822340543711699568e-03 -8.73546188451460167354e-04 -8.45822340543711699568e-03 9.99594535776603843047e-01 -3.92595953108791726610e-03
9.99458294080447196960e+08 9.98110281336559101995e-01 -1.82596293033931190986e-02 -8.77129704689699101275e-04 -8.47536914805381742799e-03 -8.77129704689699101275e-04 -8.47536914805381742799e-03 9.99592872455708270074e-01 -3.93391787983528480599e-03
9.99459415624794125557e+08 9.98102513460000673184e-01 -1.82967170423489304543e-02 -8.80735233599159658691e-04 -8.49258375155394207301e-03 -8.80735233599159658691e-04 -8.49258375155394207301e-03 9.99591198917435641569e-01 -3.94190819097340987287e-03
9.99460537169140934944e+08 9.98094697770794847536e-01 -1.83339540225700738107e-02 -8.84362955173608475748e-04 -8.50986762671313533291e-03 -8.84362955173608475748e-04 -8.50986762671313533291e-03 9.99589515078240564705e-01 -3.94993065516745667926e-03
9.99461658713487863541e+08 9.98086833877198986720e-01 -1.83713411360141541662e-02 -8.88013051243953955433e-04 -8.52722118754144046970e-03 -8.88013051243953955433e-04 -8.52722118754144046970e-03 9.99587820853724329240e-01 -3.95798546458386423658e-03
9.99462780257834792137e+08 9.98078921383466433070e-01 -1.84088792816617975723e-02 -8.91685705499437432711e-04 -8.54464485130870289586e-03 -8.91685705499437432711e-04 -8.54464485130870289586e-03 9.99586116158626136752e-01 -3.96607281290213987274e-03
9.99463901802181720734e+08 9.98070959889795106257e-01 -1.84465693655998692890e-02 -8.95381103511845469027e-04 -8.56213903858319205775e-03 -8.95381103511845469027e-04 -8.56213903858319205775e-03 9.99584400906811110232e-01 -3.97419289533277979298e-03
9.99465023346528649330e+08 9.98062948992280429827e-01 -1.84844123010739144752e-02 -8.99099432756961334384e-04 -8.57970417325593787128e-03 -8.99099432756961334384e-04 -8.57970417325593787128e-03 9.99582675011260746167e-01 -3.98234590862857167071e-03
9.99466144890875458717e+08 9.98054888282861374371e-01 -1.85224090085787072846e-02 -9.02840882640005486064e-04 -8.59734068258276654118e-03 -9.02840882640005486064e-04 -8.59734068258276654118e-03 9.99580938384060924129e-01 -3.99053205110410334766e-03
9.99467266435222387314e+08 9.98046777349273050994e-01 -1.85605604159084433546e-02 -9.06605644517367750650e-04 -8.61504899720759789727e-03 -9.06605644517367750650e-04 -8.61504899720759789727e-03 9.99579190936391803746e-01 -3.99875152264657536538e-03
9.99468387979569315910e+08 9.98038615774991533236e-01 -1.85988674582453078488e-02 -9.10393911722373280239e-04 -8.63282955120355140199e-03 -9.10393911722373280239e-04 -8.63282955120355140199e-03 9.99577432578516056338e-01 -4.00700452473488205607e-03
9.99469509523916244507e+08 9.98030403139183230898e-01 -1.86373310782205897640e-02 -9.14205879588611872687e-04 -8.65068278210131061390e-03 -9.14205879588611872687e-04 -8.65068278210131061390e-03 9.99575663219767873713e-01 -4.01529126045277722640e-03
9.99470631068263053894e+08 9.98022139016651821386e-01 -1.86759522259879358341e-02 -9.18041745474725977456e-04 -8.66860913092313244144e-03 -9.18041745474725977456e-04 -8.66860913092313244144e-03 9.99573882768541421839e-01 -4.02361193450465840643e-03
9.99471752612609982491e+08 9.98013822977781628332e-01 -1.87147318593089105609e-02 -9.21901708790701730940e-04 -8.68660904222255669804e-03 -9.21901708790701730940e-04 -8.68660904222255669804e-03 9.99572091132278850445e-01 -4.03196675323400088864e-03
9.99472874156956911087e+08 9.98005454588485219070e-01 -1.87536709436147003283e-02 -9.25785971022062060577e-04 -8.70468296411304118254e-03 -9.25785971022062060577e-04 -8.70468296411304118254e-03 9.99570288217458857716e-01 -4.04035592463664744445e-03
9.99473995701303839684e+08 9.97997033410145673038e-01 -1.87927704520915068997e-02 -9.29694735756707085414e-04 -8.72283134830761051892e-03 -9.29694735756707085414e-04 -8.72283134830761051892e-03 9.99568473929584255799e-01 -4.04877965837921027087e-03
9.99475117245650649071e+08 9.97988558999562846985e-01 -1.88320313657457556744e-02 -9.33628208710018817409e-04 -8.74105465014911146848e-03 -9.33628208710018817409e-04 -8.74105465014911146848e-03 9.99566648173170535507e-01 -4.05723816581311704649e-03
9.99476238789997577667e+08 9.97980030908889315100e-01 -1.88714546735089527818e-02 -9.37586597754232848809e-04 -8.75935332865888580112e-03 -9.37586597754232848809e-04 -8.75935332865888580112e-03 9.99564810851731877506e-01 -4.06573165999720050057e-03
9.99477360334344506264e+08 9.97971448685583073512e-01 -1.89110413722695554217e-02 -9.41570112940791239912e-04 -8.77772784655156575184e-03 -9.41570112940791239912e-04 -8.77772784655156575184e-03 9.99562961867771049285e-01 -4.07426035570456878537e-03
9.99478481878691434860e+08 9.97962811872337596242e-01 -1.89507924670011713986e-02 -9.45578966532656839568e-04 -8.79617867029458197492e-03 -9.45578966532656839568e-04 -8.79617867029458197492e-03 9.99561101122764306126e-01 -4.08282446945022227391e-03
9.99479603423038244247e+08 9.97954120007029432671e-01 -1.89907089708058543498e-02 -9.49613373028410871074e-04 -8.81470627012824817226e-03 -9.49613373028410871074e-04 -8.81470627012824817226e-03 9.99559228517150177851e-01 -4.09142421950038203543e-03
9.99480724967385172844e+08 9.97945372622650483940e-01 -1.90307919050309096165e-02 -9.53673549194067869152e-04 -8.83331112011999375344e-03 -9.53673549194067869152e-04 -8.83331112011999375344e-03 9.99557343950314924896e-01 -4.10005982589765460150e-03
9.99481846511732101440e+08 9.97936569247253491000e-01 -1.90710422993157248384e-02 -9.57759714088142325751e-04 -8.85199369818608430838e-03 -9.57759714088142325751e-04 -8.85199369818608430838e-03 9.99555447320580436887e-01 -4.10873151047112111778e-03
9.99482968056079030037e+08 9.97927709403886087358e-01 -1.91114611916907949085e-02 -9.61872089092306783303e-04 -8.87075448613759698357e-03 -9.61872089092306783303e-04 -8.87075448613759698357e-03 9.99553538525190576891e-01 -4.11743949685767357538e-03
9.99484089600425958633e+08 9.97918792610525517972e-01 -1.91520496286700751820e-02 -9.66010897941719029469e-04 -8.88959396972327856035e-03 -9.66010897941719029469e-04 -8.88959396972327856035e-03 9.99551617460296526474e-01 -4.12618401052190601763e-03
9.99485211144772768021e+08 9.97909818380019353334e-01 -1.91928086653121790506e-02 -9.70176366752507923254e-04 -8.90851263865795849062e-03 -9.70176366752507923254e-04 -8.90851263865795849062e-03 9.99549684020944684271e-01 -4.13496527876930971418e-03
9.99486332689119696617e+08 9.97900786220009328176e-01 -1.92337393653550479955e-02 -9.74368724057097569148e-04 -8.92751098668505271849e-03 -9.74368724057097569148e-04 -8.92751098668505271849e-03 9.99547738101059457527e-01 -4.14378353077527340070e-03
9.99487454233466625214e+08 9.97891695632878383826e-01 -1.92748428012428849043e-02 -9.78588200828870964990e-04 -8.94658951158906236290e-03 -9.78588200828870964990e-04 -8.94658951158906236290e-03 9.99545779593432714982e-01 -4.15263899759089980673e-03
9.99488575777813553810e+08 9.97882546115676172249e-01 -1.93161200542466097996e-02 -9.82835030516738704029e-04 -8.96574871525149252882e-03 -9.82835030516738704029e-04 -8.96574871525149252882e-03 9.99543808389707022499e-01 -4.16153191216894410842e-03
9.99489697322160363197e+08 9.97873337160050444261e-01 -1.93575722145534548368e-02 -9.87109449076918350069e-04 -8.98498910369243015961e-03 -9.87109449076918350069e-04 -8.98498910369243015961e-03 9.99541824380361099145e-01 -4.17046250938312747236e-03
9.99490818866507291794e+08 9.97864068252176661389e-01 -1.93992003813616038788e-02 -9.91411695005605568889e-04 -9.00431118711447937841e-03 -9.91411695005605568889e-04 -9.00431118711447937841e-03 9.99539827454694940201e-01 -4.17943102604851832171e-03
9.99491940410854220390e+08 9.97854738872692159646e-01 -1.94410056629512884019e-02 -9.95742009369573024061e-04 -9.02371547993574898983e-03 -9.95742009369573024061e-04 -9.02371547993574898983e-03 9.99537817500815051197e-01 -4.18843770093685514866e-03
9.99493061955201148987e+08 9.97845348496621098455e-01 -1.94829891767938460923e-02 -1.00010063584107041119e-03 -9.04320250084049599704e-03 -1.00010063584107041119e-03 -9.04320250084049599704e-03 9.99535794405619126834e-01 -4.19748277480003987444e-03
9.99494183499547958374e+08 9.97835896593303739444e-01 -1.95251520496351471667e-02 -1.00448782073045265496e-03 -9.06277277281781687424e-03 -1.00448782073045265496e-03 -9.06277277281781687424e-03 9.99533758054779730706e-01 -4.20656649038810958458e-03
9.99495305043894886971e+08 9.97826382626318286739e-01 -1.95674954176134931194e-02 -1.00890381302278842914e-03 -9.08242682321640237841e-03 -1.00890381302278842914e-03 -9.08242682321640237841e-03 9.99531708332728419109e-01 -4.21568909247464328888e-03
9.99496426588241815567e+08 9.97816806053411609057e-01 -1.96100204263265215365e-02 -1.01334886440955854181e-03 -9.10216518377556828290e-03 -1.01334886440955854181e-03 -9.10216518377556828290e-03 9.99529645122640197918e-01 -4.22485082787116879993e-03
9.99497548132588744164e+08 9.97807166326422412261e-01 -1.96527282309366668756e-02 -1.01782322932476181933e-03 -9.12198839067422662108e-03 -1.01782322932476181933e-03 -9.12198839067422662108e-03 9.99527568306417424360e-01 -4.23405194544988847799e-03
9.99498669676935553551e+08 9.97797462891199860024e-01 -1.96956199962864571262e-02 -1.02232716498247490529e-03 -9.14189698458437761952e-03 -1.02232716498247490529e-03 -9.14189698458437761952e-03 9.99525477764671821390e-01 -4.24329269616851786906e-03
9.99499791221282482147e+08 9.97787695187529188878e-01 -1.97386968969792027384e-02 -1.02686093141121171160e-03 -9.16189151070858839865e-03 -1.02686093141121171160e-03 -9.16189151070858839865e-03 9.99523373376708823557e-01 -4.25257333308766936886e-03
9.99500912765629410744e+08 9.97777862649052882382e-01 -1.97819601174817928657e-02 -1.03142479149101115588e-03 -9.18197251882768225584e-03 -1.03142479149101115588e-03 -9.18197251882768225584e-03 9.99521255020510368539e-01 -4.26189411139299683534e-03
9.99502034309976339340e+08 9.97767964703184850883e-01 -1.98254108522438986240e-02 -1.03601901099270024206e-03 -9.20214056335608848736e-03 -1.03601901099270024206e-03 -9.20214056335608848736e-03 9.99519122572716578468e-01 -4.27125528842088163922e-03
9.99503155854323148727e+08 9.97758000771037045773e-01 -1.98690503057668867160e-02 -1.04064385861228798913e-03 -9.22239620337381507675e-03 -1.04064385861228798913e-03 -9.22239620337381507675e-03 9.99516975908609772716e-01 -4.28065712367327842747e-03
9.99504277398670077324e+08 9.97747970267325534621e-01 -1.99128796927557256968e-02 -1.04529960601457854764e-03 -9.24274000269696346943e-03 -1.04529960601457854764e-03 -9.24274000269696346943e-03 9.99514814902094261839e-01 -4.29009987885043721223e-03
9.99505398943017005920e+08 9.97737872600296005210e-01 -1.99569002381795382317e-02 -1.04998652786757662100e-03 -9.26317252990583456240e-03 -1.04998652786757662100e-03 -9.26317252990583456240e-03 9.99512639425680582406e-01 -4.29958381786395543028e-03
9.99506520487363934517e+08 9.97727707171631728045e-01 -2.00011131774067499323e-02 -1.05470490188526075902e-03 -9.28369435840765803991e-03 -1.05470490188526075902e-03 -9.28369435840765803991e-03 9.99510449350465290941e-01 -4.30910920686589354184e-03
9.99507642031710863113e+08 9.97717473376369179405e-01 -2.00455197563027612273e-02 -1.05945500886685359428e-03 -9.30430606648192416730e-03 -1.05945500886685359428e-03 -9.30430606648192416730e-03 9.99508244546112867290e-01 -4.31867631426981375686e-03
9.99508763576057672501e+08 9.97707170602810000659e-01 -2.00901212313373926655e-02 -1.06423713273761082893e-03 -9.32500823733026576456e-03 -1.06423713273761082893e-03 -9.32500823733026576456e-03 9.99506024880836951851e-01 -4.32828541077393425668e-03
9.99509885120404601097e+08 9.97696798232428072595e-01 -2.01349188697092576494e-02 -1.06905156059191458473e-03 -9.34580145913417245640e-03 -1.06905156059191458473e-03 -9.34580145913417245640e-03 9.99503790221380028491e-01 -4.33793676938791852860e-03
9.99511006664751529694e+08 9.97686355639779809401e-01 -2.01799139494517193461e-02 -1.07389858273490199601e-03 -9.36668632510418396053e-03 -1.07389858273490199601e-03 -9.36668632510418396053e-03 9.99501540432994550756e-01 -4.34763066545570953103e-03
9.99512128209098458290e+08 9.97675842192416673093e-01 -2.02251077595266663678e-02 -1.07877849272327371206e-03 -9.38766343352341429973e-03 -1.07877849272327371206e-03 -9.38766343352341429973e-03 9.99499275379423401944e-01 -4.35736737667572794630e-03
9.99513249753445267677e+08 9.97665257250783255039e-01 -2.02705015999709060870e-02 -1.08369158741228690558e-03 -9.40873338781549224674e-03 -1.08369158741228690558e-03 -9.40873338781549224674e-03 9.99496994922878689849e-01 -4.36714718313241205550e-03
9.99514371297792196274e+08 9.97654600168124350290e-01 -2.03160967820040887222e-02 -1.08863816699915133199e-03 -9.42989679659466881190e-03 -1.08863816699915133199e-03 -9.42989679659466881190e-03 9.99494698924021207631e-01 -4.37697036731947257404e-03
9.99515492842139124870e+08 9.97643870290390699651e-01 -2.03618946281333632053e-02 -1.09361853506658520015e-03 -9.45115427371438429627e-03 -1.09361853506658520015e-03 -9.45115427371438429627e-03 9.99492387241940338782e-01 -4.38683721416243711799e-03
9.99516614386486053467e+08 9.97633066956138292447e-01 -2.04078964722842169655e-02 -1.09863299862975548858e-03 -9.47250643832800443001e-03 -1.09863299862975548858e-03 -9.47250643832800443001e-03 9.99490059734132185731e-01 -4.39674801104684206260e-03
9.99517735930832862854e+08 9.97622189496430666900e-01 -2.04541036599101486160e-02 -1.10368186818147551512e-03 -9.49395391493972236330e-03 -1.10368186818147551512e-03 -9.49395391493972236330e-03 9.99487716256478808674e-01 -4.40670304784185340452e-03
9.99518857475179791451e+08 9.97611237234729664181e-01 -2.05005175481473081445e-02 -1.10876545774288358219e-03 -9.51549733347633805436e-03 -1.10876545774288358219e-03 -9.51549733347633805436e-03 9.99485356663224466800e-01 -4.41670261693359340188e-03
9.99519979019526720047e+08 9.97600209486802169678e-01 -2.05471395058975728198e-02 -1.11388408490687698324e-03 -9.53713732932581596813e-03 -1.11388408490687698324e-03 -9.53713732932581596813e-03 9.99482980806955745301e-01 -4.42674701324303077749e-03
9.99521100563873648643e+08 9.97589105560610867052e-01 -2.05939709139723939324e-02 -1.11903807088876831345e-03 -9.55887454340406152176e-03 -1.11903807088876831345e-03 -9.55887454340406152176e-03 9.99480588538577463531e-01 -4.43683653425697415579e-03
9.99522222108220458031e+08 9.97577924756204659218e-01 -2.06410131652317516138e-02 -1.12422774057702504723e-03 -9.58070962221940596037e-03 -1.12422774057702504723e-03 -9.58070962221940596037e-03 9.99478179707290026457e-01 -4.44697148005800992066e-03
9.99523343652567386627e+08 9.97566666365616860901e-01 -2.06882676646875166004e-02 -1.12945342258069622750e-03 -9.60264321792059054317e-03 -1.12945342258069622750e-03 -9.60264321792059054317e-03 9.99475754160566332018e-01 -4.45715215334676912590e-03
9.99524465196914315224e+08 9.97555329672747292946e-01 -2.07357358296665836295e-02 -1.13471544928405170156e-03 -9.62467598837248375365e-03 -1.13471544928405170156e-03 -9.62467598837248375365e-03 9.99473311744127568268e-01 -4.46737885947707472761e-03
9.99525586741261243820e+08 9.97543913953260585892e-01 -2.07834190899009001174e-02 -1.14001415689377267118e-03 -9.64680859719786905349e-03 -1.14001415689377267118e-03 -9.64680859719786905349e-03 9.99470852301920120730e-01 -4.47765190647533752738e-03
9.99526708285608053207e+08 9.97532418474462723168e-01 -2.08313188877034538571e-02 -1.14534988549630165067e-03 -9.66904171385913301096e-03 -1.14534988549630165067e-03 -9.66904171385913301096e-03 9.99468375676090037274e-01 -4.48797160507847115590e-03
