! File generated for n1 = 4, n2 = 6
! b1 = 10.000000
! b2 = 0.215443
! Q0 = 10000.000000
! f0 = 1000000000.000000
! n = 1001
! rel_span = 10.000000
# Hz S RI R 50
9.94392278265498399734e+08 9.82442178547827449364e-01 -1.76073287638845887848e-01 -2.57713574685379314885e-03 -2.58440242644107920356e-02 -2.57713574685379314885e-03 -2.58440242644107920356e-02 9.99621728203820558711e-01 -3.79338398877091496908e-03
9.94403493708967447281e+08 9.82372234929414278604e-01 -1.76420148926185876848e-01 -2.58740206604196045989e-03 -2.58949365387632010616e-02 -2.58740206604196045989e-03 -2.58949365387632010616e-02 9.99620221314241996780e-01 -3.80085688867165885640e-03
9.94414709152436375618e+08 9.82301874736630331597e-01 -1.76768361432690090940e-01 -2.59772952998577055794e-03 -2.59460471449655741272e-02 -2.59772952998577055794e-03 -2.59460471449655741272e-02 9.99618705449840661004e-01 -3.80835889970681509484e-03
9.94425924595905423164e+08 9.82231094667695758815e-01 -1.77117932982660958308e-01 -2.60811862332020879748e-03 -2.59973572314684507611e-02 -2.60811862332020879748e-03 -2.59973572314684507611e-02 9.99617180539481897661e-01 -3.81589019044586974516e-03
9.94437140039374470711e+08 9.82159891388172501259e-01 -1.77468871460214977498e-01 -2.61856983547385357286e-03 -2.60488679555018684542e-02 -2.61856983547385357286e-03 -2.60488679555018684542e-02 9.99615646511327393675e-01 -3.82345093074696294744e-03
9.94448355482843399048e+08 9.82088261530581818626e-01 -1.77821184809825255657e-01 -2.62908366072500026059e-03 -2.61005804831550142220e-02 -2.62908366072500026059e-03 -2.61005804831550142220e-02 9.99614103292827071989e-01 -3.83104129176858052355e-03
9.94459570926312446594e+08 9.82016201694003054712e-01 -1.78174881036936127998e-01 -2.63966059826053383100e-03 -2.61524959894664163484e-02 -2.63966059826053383100e-03 -2.61524959894664163484e-02 9.99612550810710209781e-01 -3.83866144598279121838e-03
9.94470786369781374931e+08 9.81943708443686835707e-01 -1.78529968208487238579e-01 -2.65030115223270244448e-03 -2.62046156585008897799e-02 -2.65030115223270244448e-03 -2.62046156585008897799e-02 9.99610988990977444857e-01 -3.84631156718654105067e-03
9.94482001813250422478e+08 9.81870778310640734965e-01 -1.78886454453553445099e-01 -2.66100583181996808158e-03 -2.62569406834434367071e-02 -2.66100583181996808158e-03 -2.62569406834434367071e-02 9.99609417758891671824e-01 -3.85399183051543916048e-03
9.94493217256719470024e+08 9.81797407791229814755e-01 -1.79244347963888633890e-01 -2.67177515128560767038e-03 -2.63094722666791097643e-02 -2.67177515128560767038e-03 -2.63094722666791097643e-02 9.99607837038969160304e-01 -3.86170241245547369788e-03
9.94504432700188398361e+08 9.81723593346758294231e-01 -1.79603656994542226766e-01 -2.68260963003912143027e-03 -2.63622116198834396950e-02 -2.68260963003912143027e-03 -2.63622116198834396950e-02 9.99606246754971228263e-01 -3.86944349085629199850e-03
9.94515648143657445908e+08 9.81649331403047664679e-01 -1.79964389864472412706e-01 -2.69350979269819719442e-03 -2.64151599641125160722e-02 -2.69350979269819719442e-03 -2.64151599641125160722e-02 9.99604646829894472049e-01 -3.87721524494441570699e-03
9.94526863587126493454e+08 9.81574618350011363077e-01 -1.80326554957150275715e-01 -2.70447616915105116739e-03 -2.64683185298916004435e-02 -2.70447616915105116739e-03 -2.64683185298916004435e-02 9.99603037185961884603e-01 -3.88501785533625380517e-03
9.94538079030595421791e+08 9.81499450541227225209e-01 -1.80690160721157955237e-01 -2.71550929461925570629e-03 -2.65216885573029623191e-02 -2.71550929461925570629e-03 -2.65216885573029623191e-02 9.99601417744613640615e-01 -3.89285150405099030640e-03
9.94549294474064469337e+08 9.81423824293490842940e-01 -1.81055215670854696697e-01 -2.72660970972330059248e-03 -2.65752712960836343092e-02 -2.72660970972330059248e-03 -2.65752712960836343092e-02 9.99599788426497659621e-01 -3.90071637452493562292e-03
9.94560509917533397675e+08 9.81347735886379468617e-01 -1.81421728386968045266e-01 -2.73777796054656226074e-03 -2.66290680057121656454e-02 -2.73777796054656226074e-03 -2.66290680057121656454e-02 9.99598149151459836048e-01 -3.90861265162425943614e-03
9.94571725361002445221e+08 9.81271181561794825221e-01 -1.81789707517265142211e-01 -2.74901459870242545480e-03 -2.66830799555071961071e-02 -2.74901459870242545480e-03 -2.66830799555071961071e-02 9.99596499838534269244e-01 -3.91654052165945742309e-03
9.94582940804471492767e+08 9.81194157523511134578e-01 -1.82159161777176031860e-01 -2.76032018140063249712e-03 -2.67373084247189002349e-02 -2.76032018140063249712e-03 -2.67373084247189002349e-02 9.99594840405933826588e-01 -3.92450017239877844977e-03
9.94594156247940421104e+08 9.81116659936711377199e-01 -1.82530099950449276047e-01 -2.77169527151535383808e-03 -2.67917547026252540754e-02 -2.77169527151535383808e-03 -2.67917547026252540754e-02 9.99593170771039818412e-01 -3.93249179308234782237e-03
9.94605371691409468651e+08 9.81038684927511450695e-01 -1.82902530889840736483e-01 -2.78314043765500286967e-03 -2.68464200886331140483e-02 -2.78314043765500286967e-03 -2.68464200886331140483e-02 9.99591490850392117018e-01 -3.94051557443700958133e-03
9.94616587134878516197e+08 9.80960228582491433613e-01 -1.83276463517746124321e-01 -2.79465625423107322245e-03 -2.69013058923710662862e-02 -2.79465625423107322245e-03 -2.69013058923710662862e-02 9.99589800559678387515e-01 -3.94857170868995101948e-03
9.94627802578347444534e+08 9.80881286948207864462e-01 -1.83651906826897554081e-01 -2.80624330152970434885e-03 -2.69564134337916747053e-02 -2.80624330152970434885e-03 -2.69564134337916747053e-02 9.99588099813724539899e-01 -3.95666038958371324430e-03
9.94639018021816492081e+08 9.80801856030702357003e-01 -1.84028869881053824820e-01 -2.81790216578381349372e-03 -2.70117440432727888566e-02 -2.81790216578381349372e-03 -2.70117440432727888566e-02 9.99586388526483182737e-01 -3.96478181239105862549e-03
9.94650233465285420418e+08 9.80721931795010215538e-01 -1.84407361815664805338e-01 -2.82963343924522809855e-03 -2.70672990617150735493e-02 -2.82963343924522809855e-03 -2.70672990617150735493e-02 9.99584666611023742178e-01 -3.97293617392929093723e-03
9.94661448908754467964e+08 9.80641510164648289027e-01 -1.84787391838608872074e-01 -2.84143772025985657387e-03 -2.71230798406502417175e-02 -2.84143772025985657387e-03 -2.71230798406502417175e-02 9.99582933979520915635e-01 -3.98112367257613414956e-03
9.94672664352223515511e+08 9.80560587021108154282e-01 -1.85168969230877250576e-01 -2.85331561334203811370e-03 -2.71790877423415122571e-02 -2.85331561334203811370e-03 -2.71790877423415122571e-02 9.99581190543244235691e-01 -3.98934450828448278203e-03
9.94683879795692443848e+08 9.80479158203339418165e-01 -1.85552103347282754120e-01 -2.86526772925046156748e-03 -2.72353241398876136370e-02 -2.86526772925046156748e-03 -2.72353241398876136370e-02 9.99579436212546523777e-01 -3.99759888259767007246e-03
9.94695095239161491394e+08 9.80397219507215367251e-01 -1.85936803617220702822e-01 -2.87729468506655282345e-03 -2.72917904173345070296e-02 -2.87729468506655282345e-03 -2.72917904173345070296e-02 9.99577670896852676918e-01 -4.00588699866585937898e-03
9.94706310682630538940e+08 9.80314766685006722113e-01 -1.86323079545364311826e-01 -2.88939710427166566650e-03 -2.73484879697774296847e-02 -2.88939710427166566650e-03 -2.73484879697774296847e-02 9.99575894504648121419e-01 -4.01420906126102872147e-03
9.94717526126099467278e+08 9.80231795444837183950e-01 -1.86710940712423528742e-01 -2.90157561682711844994e-03 -2.74054182034722849937e-02 -2.90157561682711844994e-03 -2.74054182034722849937e-02 9.99574106943467155517e-01 -4.02256527679331447878e-03
9.94728741569568514824e+08 9.80148301450133208057e-01 -1.87100396775895572166e-01 -2.91383085925485483397e-03 -2.74625825359458078379e-02 -2.91383085925485483397e-03 -2.74625825359458078379e-02 9.99572308119881069999e-01 -4.03095585332718855248e-03
9.94739957013037443161e+08 9.80064280319067226976e-01 -1.87491457470822048270e-01 -2.92616347471920303785e-03 -2.75199823961066979139e-02 -2.92616347471920303785e-03 -2.75199823961066979139e-02 9.99570497939486490857e-01 -4.03938100059776476758e-03
9.94751172456506490707e+08 9.79979727623991103691e-01 -1.87884132610561138677e-01 -2.93857411311001636561e-03 -2.75776192243589388098e-02 -2.93857411311001636561e-03 -2.75776192243589388098e-02 9.99568676306892389682e-01 -4.04784093002743487061e-03
9.94762387899975538254e+08 9.79894638890865699032e-01 -1.88278432087550989804e-01 -2.95106343112646338570e-03 -2.76354944727138854277e-02 -2.95106343112646338570e-03 -2.76354944727138854277e-02 9.99566843125708648365e-01 -4.05633585474231804502e-03
9.94773603343444466591e+08 9.79809009598675006991e-01 -1.88674365874109323249e-01 -2.96363209236290238088e-03 -2.76936096049076006798e-02 -2.96363209236290238088e-03 -2.76936096049076006798e-02 9.99564998298532847443e-01 -4.06486598958948758264e-03
9.94784818786913514137e+08 9.79722835178835183001e-01 -1.89071944023234767007e-01 -2.97628076739576627463e-03 -2.77519660965184870871e-02 -2.97628076739576627463e-03 -2.77519660965184870871e-02 9.99563141726937831599e-01 -4.07343155115423311702e-03
9.94796034230382561684e+08 9.79636111014599575419e-01 -1.89471176669388313707e-01 -2.98901013387078799688e-03 -2.78105654350819866960e-02 -2.98901013387078799688e-03 -2.78105654350819866960e-02 9.99561273311458942104e-01 -4.08203275777689784942e-03
9.94807249673851490021e+08 9.79548832440446992642e-01 -1.89872074029324933164e-01 -3.00182087659280755210e-03 -2.78694091202126466300e-02 -3.00182087659280755210e-03 -2.78694091202126466300e-02 9.99559392951580472086e-01 -4.09066982957079390559e-03
9.94818465117320537567e+08 9.79460994741463752966e-01 -1.90274646402923575117e-01 -3.01471368761654055779e-03 -2.79284986637259417808e-02 -3.01471368761654055779e-03 -2.79284986637259417808e-02 9.99557500545722565910e-01 -4.09934298844008733476e-03
9.94829680560789465904e+08 9.79372593152723291965e-01 -1.90678904173990693138e-01 -3.02768926633752199010e-03 -2.79878355897562290655e-02 -3.02768926633752199010e-03 -2.79878355897562290655e-02 9.99555595991228229558e-01 -4.10805245809710804783e-03
9.94840896004258513451e+08 9.79283622858643010289e-01 -1.91084857811143926654e-01 -3.04074831958664080697e-03 -2.80474214348864318846e-02 -3.04074831958664080697e-03 -2.80474214348864318846e-02 9.99553679184348786713e-01 -4.11679846408138320341e-03
9.94852111447727560997e+08 9.79194078992344452139e-01 -1.91492517868639217093e-01 -3.05389156172394598751e-03 -2.81072577482694638262e-02 -3.05389156172394598751e-03 -2.81072577482694638262e-02 9.99551750020230445060e-01 -4.12558123377746496091e-03
9.94863326891196489334e+08 9.79103956635001604347e-01 -1.91901894987224430622e-01 -3.06711971473435773133e-03 -2.81673460917535277426e-02 -3.06711971473435773133e-03 -2.81673460917535277426e-02 9.99549808392900418497e-01 -4.13440099643331768209e-03
9.94874542334665536880e+08 9.79013250815166768959e-01 -1.92312999895059538735e-01 -3.08043350832662606031e-03 -2.82276880400171466257e-02 -3.08043350832662606031e-03 -2.82276880400171466257e-02 9.99547854195251939124e-01 -4.14325798318014148353e-03
9.94885757778134584427e+08 9.78921956508107760087e-01 -1.92725843408548536129e-01 -3.09383368003055990100e-03 -2.82882851806913158954e-02 -3.09383368003055990100e-03 -2.82882851806913158954e-02 9.99545887319030712526e-01 -4.15215242705029453224e-03
9.94896973221603512764e+08 9.78830068635120342790e-01 -1.93140436433252155046e-01 -3.10732097529798582253e-03 -2.83491391144934344604e-02 -3.10732097529798582253e-03 -2.83491391144934344604e-02 9.99543907654819041575e-01 -4.16108456299696220781e-03
9.94908188665072560310e+08 9.78737582062827238261e-01 -1.93556789964824227379e-01 -3.12089614760565009846e-03 -2.84102514553647676754e-02 -3.12089614760565009846e-03 -2.84102514553647676754e-02 9.99541915092021948652e-01 -4.17005462791432326281e-03
9.94919404108541607857e+08 9.78644491602485344650e-01 -1.93974915089874772045e-01 -3.13455995855689605392e-03 -2.84716238305971272582e-02 -3.13455995855689605392e-03 -2.84716238305971272582e-02 9.99539909518851299453e-01 -4.17906286065615212993e-03
9.94930619552010536194e+08 9.78550792009263648019e-01 -1.94394822986928200725e-01 -3.14831317798762878174e-03 -2.85332578809735018521e-02 -3.14831317798762878174e-03 -2.85332578809735018521e-02 9.99537890822310481909e-01 -4.18810950205645432520e-03
9.94941834995479583740e+08 9.78456477981513250697e-01 -1.94816524927380385623e-01 -3.16215658407347595046e-03 -2.85951552609085522805e-02 -3.16215658407347595046e-03 -2.85951552609085522805e-02 9.99535858888179085113e-01 -4.19719479495009317738e-03
9.94953050438948512077e+08 9.78361544160043283824e-01 -1.95240032276392527777e-01 -3.17609096343609946522e-03 -2.86573176385798121524e-02 -3.17609096343609946522e-03 -2.86573176385798121524e-02 9.99533813600996690063e-01 -4.20631898419204525857e-03
9.94964265882417559624e+08 9.78265985127359516405e-01 -1.95665356493910702618e-01 -3.19011711125489040922e-03 -2.87197466960773216405e-02 -3.19011711125489040922e-03 -2.87197466960773216405e-02 9.99531754844047104491e-01 -4.21548231667936371819e-03
9.94975481325886607170e+08 9.78169795406913400448e-01 -1.96092509135603249026e-01 -3.20423583137724281300e-03 -2.87824441295412361552e-02 -3.20423583137724281300e-03 -2.87824441295412361552e-02 9.99529682499341598501e-01 -4.22468504137137566834e-03
9.94986696769355535507e+08 9.78072969462328911661e-01 -1.96521501853855862230e-01 -3.21844793643203015698e-03 -2.88454116493078761840e-02 -3.21844793643203015698e-03 -2.88454116493078761840e-02 9.99527596447602584284e-01 -4.23392740931111989655e-03
9.94997912212824583054e+08 9.77975501696619620162e-01 -1.96952346398770322677e-01 -3.23275424794452733226e-03 -2.89086509800563183636e-02 -3.23275424794452733226e-03 -2.89086509800563183636e-02 9.99525496568246518692e-01 -4.24320967364686784523e-03
9.95009127656293630600e+08 9.77877386451393992850e-01 -1.97385054619173105905e-01 -3.24715559645300270650e-03 -2.89721638609564402511e-02 -3.24715559645300270650e-03 -2.89721638609564402511e-02 9.99523382739367138861e-01 -4.25253208965384495166e-03
9.95020343099762558937e+08 9.77778618006051258860e-01 -1.97819638463627989200e-01 -3.26165282162681896549e-03 -2.90359520458175687785e-02 -3.26165282162681896549e-03 -2.90359520458175687785e-02 9.99521254837717920694e-01 -4.26189491475605520404e-03
9.95031558543231606483e+08 9.77679190576960177594e-01 -1.98256109981479883286e-01 -3.27624677238696690451e-03 -2.91000173032416598051e-02 -3.27624677238696690451e-03 -2.91000173032416598051e-02 9.99519112738694093245e-01 -4.27129840854876489248e-03
9.95042773986700534821e+08 9.77579098316627703724e-01 -1.98694481323898886060e-01 -3.29093830702802386118e-03 -2.91643614167765713452e-02 -3.29093830702802386118e-03 -2.91643614167765713452e-02 9.99516956316315430264e-01 -4.28074283282099850301e-03
9.95053989430169582367e+08 9.77478335312856438932e-01 -1.99134764744934800174e-01 -3.30572829334191842926e-03 -2.92289861850708355961e-02 -3.30572829334191842926e-03 -2.92289861850708355961e-02 9.99514785443207487425e-01 -4.29022845157825492152e-03
9.95065204873638629913e+08 9.77376895587885874406e-01 -1.99576972602593050166e-01 -3.32061760874386791356e-03 -2.92938934220315846946e-02 -3.32061760874386791356e-03 -2.92938934220315846946e-02 9.99512599990583283649e-01 -4.29975553106569114564e-03
9.95076420317107558250e+08 9.77274773097527416077e-01 -2.00021117359899996968e-01 -3.33560714039946503914e-03 -2.93590849569809186903e-02 -3.33560714039946503914e-03 -2.93590849569809186903e-02 9.99510399828224649355e-01 -4.30932433979107007427e-03
9.95087635760576605797e+08 9.77171961730268212598e-01 -2.00467211586051324845e-01 -3.35069778535609149456e-03 -2.94245626348244547488e-02 -3.35069778535609149456e-03 -2.94245626348244547488e-02 9.99508184824463130624e-01 -4.31893514854950373583e-03
9.95098851204045653343e+08 9.77068455306387417814e-01 -2.00915267957467308380e-01 -3.36589045067273292741e-03 -2.94903283162062310185e-02 -3.36589045067273292741e-03 -2.94903283162062310185e-02 9.99505954846160671323e-01 -4.32858823044618770681e-03
9.95110066647514581680e+08 9.76964247577040034720e-01 -2.01365299258937036075e-01 -3.38118605355438705401e-03 -2.95563838776766625582e-02 -3.38118605355438705401e-03 -2.95563838776766625582e-02 9.99503709758689851128e-01 -4.33828386092105413446e-03
9.95121282090983629227e+08 9.76859332223323995059e-01 -2.01817318384792027119e-01 -3.39658552148907211948e-03 -2.96227312118647750916e-02 -3.39658552148907211948e-03 -2.96227312118647750916e-02 9.99501449425914234581e-01 -4.34802231777405272933e-03
9.95132497534452557564e+08 9.76753702855354455359e-01 -2.02271338339994471989e-01 -3.41208979238357941813e-03 -2.96893722276379661007e-02 -3.41208979238357941813e-03 -2.96893722276379661007e-02 9.99499173710167831963e-01 -4.35780388118860075725e-03
9.95143712977921605110e+08 9.76647353011294461211e-01 -2.02727372241372022499e-01 -3.42769981470587934563e-03 -2.97563088502832487348e-02 -3.42769981470587934563e-03 -2.97563088502832487348e-02 9.99496882472234671191e-01 -4.36762883375818502379e-03
9.95154928421390652657e+08 9.76540276156396713780e-01 -2.03185433318748914777e-01 -3.44341654762568690970e-03 -2.98235430216732440301e-02 -3.44341654762568690970e-03 -2.98235430216732440301e-02 9.99494575571327703578e-01 -4.37749746051072606556e-03
9.95166143864859580994e+08 9.76432465682014805175e-01 -2.03645534916162329608e-01 -3.45924096115967109541e-03 -2.98910767004447602835e-02 -3.45924096115967109541e-03 -2.98910767004447602835e-02 9.99492252865068153689e-01 -4.38741004893479155657e-03
9.95177359308328628540e+08 9.76323914904597245368e-01 -2.04107690493095156326e-01 -3.47517403631898919372e-03 -2.99589118621797073638e-02 -3.47517403631898919372e-03 -2.99589118621797073638e-02 9.99489914209463203854e-01 -4.39736688900614972053e-03
9.95188574751797676086e+08 9.76214617064683154446e-01 -2.04571913625657381131e-01 -3.49121676525684931924e-03 -3.00270504995785100788e-02 -3.49121676525684931924e-03 -3.00270504995785100788e-02 9.99487559458884566865e-01 -4.40736827321322292839e-03
9.95199790195266604424e+08 9.76104565325861428526e-01 -2.05038218007862232950e-01 -3.50737015142115740249e-03 -3.00954946226474374937e-02 -3.50737015142115740249e-03 -3.00954946226474374937e-02 9.99485188466046503564e-01 -4.41741449658458306543e-03
9.95211005638735651970e+08 9.75993752773722245131e-01 -2.05506617452886591879e-01 -3.52363520970848430672e-03 -3.01642462588835695569e-02 -3.52363520970848430672e-03 -3.01642462588835695569e-02 9.99482801081982286107e-01 -4.42750585671610429050e-03
9.95222221082204580307e+08 9.75882172414799020643e-01 -2.05977125894314383459e-01 -3.54001296661933702314e-03 -3.02333074534573420511e-02 -3.54001296661933702314e-03 -3.02333074534573420511e-02 9.99480397156022326577e-01 -4.43764265379775323800e-03
9.95233436525673627853e+08 9.75769817175478948457e-01 -2.06449757387458660007e-01 -3.55650446041808716499e-03 -3.03026802694065719446e-02 -3.55650446041808716499e-03 -3.03026802694065719446e-02 9.99477976535770418209e-01 -4.44782519064206884052e-03
9.95244651969142675400e+08 9.75656679900908763159e-01 -2.06924526110646433974e-01 -3.57311074129356516169e-03 -3.03723667878250565277e-02 -3.57311074129356516169e-03 -3.03723667878250565277e-02 9.99475539067079643551e-01 -4.45805377271184764820e-03
9.95255867412611603737e+08 9.75542753353876745948e-01 -2.07401446366547698164e-01 -3.58983287152320109520e-03 -3.04423691080576604151e-02 -3.58983287152320109520e-03 -3.04423691080576604151e-02 9.99473084594029281824e-01 -4.46832870814877370497e-03
9.95267082856080651283e+08 9.75428030213677188520e-01 -2.07880532583516713929e-01 -3.60667192563962537427e-03 -3.05126893478971546181e-02 -3.60667192563962537427e-03 -3.05126893478971546181e-02 9.99470612958899273792e-01 -4.47865030780231557217e-03
