! File generated for n1 = 8, n2 = 7
! b1 = 0.464159
! b2 = 0.004642
! Q0 = 10000.000000
! f0 = 1000000000.000000
! n = 1001
! rel_span = 10.000000
# Hz S RI R 50
9.99265599763902544975e+08 9.93746883473680897580e-01 -6.25541435897514763731e-02 -6.25311652631906772504e-04 -6.25541435897514729036e-03 -6.25311652631906772504e-04 -6.25541435897514729036e-03 9.99937468834736775669e-01 -6.25541435897514663984e-04
9.99267068564374685287e+08 9.93722035828450978023e-01 -6.26770598462286082642e-02 -6.27796417154902110930e-04 -6.26770598462285995905e-03 -6.27796417154902110930e-04 -6.26770598462285995905e-03 9.99937220358284473143e-01 -6.26770598462285930853e-04
9.99268537364846944809e+08 9.93697040321076974223e-01 -6.28004548984060079198e-02 -6.30295967892306350719e-04 -6.28004548984060096545e-03 -6.30295967892306350719e-04 -6.28004548984060096545e-03 9.99936970403210723113e-01 -6.28004548984059966441e-04
9.99270006165319085121e+08 9.93671895780133374032e-01 -6.29243315185201573803e-02 -6.32810421986666998655e-04 -6.29243315185201452372e-03 -6.32810421986666998655e-04 -6.29243315185201452372e-03 9.99936718957801340402e-01 -6.29243315185201430688e-04
9.99271474965791344643e+08 9.93646601022597386610e-01 -6.30486925000670328512e-02 -6.35339897740263919411e-04 -6.30486925000670224428e-03 -6.35339897740263919411e-04 -6.30486925000670224428e-03 9.99936466010226010503e-01 -6.30486925000670116008e-04
9.99272943766263484955e+08 9.93621154853734367407e-01 -6.31735406578902147778e-02 -6.37884514626557751552e-04 -6.31735406578902165126e-03 -6.37884514626557751552e-04 -6.31735406578902165126e-03 9.99936211548537290383e-01 -6.31735406578902078389e-04
9.99274412566735744476e+08 9.93595556066948604190e-01 -6.32988788284347125845e-02 -6.40444393305144524936e-04 -6.32988788284347039109e-03 -6.40444393305144524936e-04 -6.32988788284347039109e-03 9.99935955560669498254e-01 -6.32988788284346995741e-04
9.99275881367207884789e+08 9.93569803443643317920e-01 -6.34247098699422529045e-02 -6.43019655635669335619e-04 -6.34247098699422442308e-03 -6.43019655635669335619e-04 -6.34247098699422442308e-03 9.99935698034436382109e-01 -6.34247098699422333888e-04
9.99277350167680144310e+08 9.93543895753076777844e-01 -6.35510366626678424584e-02 -6.45610424692321695217e-04 -6.35510366626678389890e-03 -6.45610424692321695217e-04 -6.35510366626678389890e-03 9.99935438957530786652e-01 -6.35510366626678281469e-04
9.99278818968152284622e+08 9.93517831752222524422e-01 -6.36778621090604707300e-02 -6.48216824777746928980e-04 -6.36778621090604637911e-03 -6.48216824777746928980e-04 -6.36778621090604637911e-03 9.99935178317522210811e-01 -6.36778621090604572859e-04
9.99280287768624544144e+08 9.93491610185614715256e-01 -6.38051891340129656571e-02 -6.50838981438527823878e-04 -6.38051891340129552488e-03 -6.50838981438527823878e-04 -6.38051891340129552488e-03 9.99934916101856141601e-01 -6.38051891340129465752e-04
9.99281756569096684456e+08 9.93465229785207015745e-01 -6.39330206850376447925e-02 -6.53477021479301049302e-04 -6.39330206850376430577e-03 -6.53477021479301049302e-04 -6.39330206850376430577e-03 9.99934652297852055725e-01 -6.39330206850376365525e-04
9.99283225369568824768e+08 9.93438689270216390703e-01 -6.40613597325068034882e-02 -6.56131072978359585271e-04 -6.40613597325068000188e-03 -6.56131072978359585271e-04 -6.40613597325068000188e-03 9.99934386892702198324e-01 -6.40613597325067935136e-04
9.99284694170041084290e+08 9.93411987346963121226e-01 -6.41902092699058179903e-02 -6.58801265303688289403e-04 -6.41902092699058075820e-03 -6.58801265303688289403e-04 -6.41902092699058075820e-03 9.99934119873469584583e-01 -6.41902092699058032452e-04
9.99286162970513224602e+08 9.93385122708738133035e-01 -6.43195723139426411841e-02 -6.61487729126183465582e-04 -6.43195723139426342452e-03 -6.61487729126183465582e-04 -6.43195723139426342452e-03 9.99933851227087333591e-01 -6.43195723139426212348e-04
9.99287631770985484123e+08 9.93358094035614591633e-01 -6.44494519049227665430e-02 -6.64190596438539340544e-04 -6.44494519049227613389e-03 -6.64190596438539340544e-04 -6.44494519049227613389e-03 9.99933580940356114830e-01 -6.44494519049227548337e-04
9.99289100571457624435e+08 9.93330899994320226654e-01 -6.45798511068192832019e-02 -6.66910000567977356324e-04 -6.45798511068192745282e-03 -6.66910000567977356324e-04 -6.45798511068192745282e-03 9.99933308999943148976e-01 -6.45798511068192701914e-04
9.99290569371929883957e+08 9.93303539238044930215e-01 -6.47107730076489362503e-02 -6.69646076195508539730e-04 -6.47107730076489258420e-03 -6.69646076195508539730e-04 -6.47107730076489258420e-03 9.99933035392380431539e-01 -6.47107730076489236735e-04
9.99292038172402024269e+08 9.93276010406298870414e-01 -6.48422207195958333337e-02 -6.72398959370116601486e-04 -6.48422207195958281295e-03 -6.72398959370116601486e-04 -6.48422207195958281295e-03 9.99932760104062956508e-01 -6.48422207195958259611e-04
9.99293506972874283791e+08 9.93248312124732413153e-01 -6.49741973793098032131e-02 -6.75168787526759053320e-04 -6.49741973793098014783e-03 -6.75168787526759053320e-04 -6.49741973793098014783e-03 9.99932483121247273061e-01 -6.49741973793097928047e-04
9.99294975773346424103e+08 9.93220443004981912161e-01 -6.51067061480737202528e-02 -6.77955699501807439525e-04 -6.51067061480737133139e-03 -6.77955699501807439525e-04 -6.51067061480737133139e-03 9.99932204430049820232e-01 -6.51067061480737024719e-04
9.99296444573818683624e+08 9.93192401644475086897e-01 -6.52397502121530303842e-02 -6.80759835552493695540e-04 -6.52397502121530165065e-03 -6.80759835552493695540e-04 -6.52397502121530165065e-03 9.99931924016444706460e-01 -6.52397502121530100012e-04
9.99297913374290823936e+08 9.93164186626284362092e-01 -6.53733327829081334315e-02 -6.83581337371560646653e-04 -6.53733327829081334315e-03 -6.83581337371560646653e-04 -6.53733327829081334315e-03 9.99931641866262821416e-01 -6.53733327829081247579e-04
9.99299382174763083458e+08 9.93135796518924585108e-01 -6.55074570971652392348e-02 -6.86420348107538214923e-04 -6.55074570971652357654e-03 -6.86420348107538214923e-04 -6.55074570971652357654e-03 9.99931357965189282488e-01 -6.55074570971652292602e-04
9.99300850975235223770e+08 9.93107229876199260055e-01 -6.56421264173432661426e-02 -6.89277012380071869499e-04 -6.56421264173432522648e-03 -6.89277012380071869499e-04 -6.56421264173432522648e-03 9.99931072298761991490e-01 -6.56421264173432500964e-04
9.99302319775707364082e+08 9.93078485236994712437e-01 -6.57773440318212554434e-02 -6.92151476300526262604e-04 -6.57773440318212485045e-03 -6.92151476300526262604e-04 -6.57773440318212485045e-03 9.99930784852369969329e-01 -6.57773440318212398309e-04
9.99303788576179623604e+08 9.93049561125114332860e-01 -6.59131132551061260649e-02 -6.95043887488561813390e-04 -6.59131132551061225955e-03 -6.95043887488561813390e-04 -6.59131132551061225955e-03 9.99930495611251135557e-01 -6.59131132551061139219e-04
9.99305257376651763916e+08 9.93020456049084510042e-01 -6.60494374281248158853e-02 -6.97954395091550708861e-04 -6.60494374281248106812e-03 -6.97954395091550708861e-04 -6.60494374281248106812e-03 9.99930204560490865084e-01 -6.60494374281248106812e-04
9.99306726177124023438e+08 9.92991168501963783477e-01 -6.61863199184893613580e-02 -7.00883149803624276065e-04 -6.61863199184893613580e-03 -7.00883149803624276065e-04 -6.61863199184893613580e-03 9.99929911685019656709e-01 -6.61863199184893570212e-04
9.99308194977596163750e+08 9.92961696961162321173e-01 -6.63237641207079647865e-02 -7.03830303883772653156e-04 -6.63237641207079561129e-03 -7.03830303883772653156e-04 -6.63237641207079561129e-03 9.99929616969611578803e-01 -6.63237641207079517761e-04
9.99309663778068423271e+08 9.92932039888222317536e-01 -6.64617734565647183542e-02 -7.06796011177772019393e-04 -6.64617734565647096806e-03 -7.06796011177772019393e-04 -6.64617734565647096806e-03 9.99929320398882270915e-01 -6.64617734565647075122e-04
9.99311132578540563583e+08 9.92902195728651681961e-01 -6.66003513752433523587e-02 -7.09780427134836205787e-04 -6.66003513752433558281e-03 -7.09780427134836205787e-04 -6.66003513752433558281e-03 9.99929021957286501276e-01 -6.66003513752433471545e-04
9.99312601379012823105e+08 9.92872162911694222664e-01 -6.67395013537347009391e-02 -7.12783708830580097111e-04 -6.67395013537346905308e-03 -7.12783708830580097111e-04 -6.67395013537346905308e-03 9.99928721629116945557e-01 -6.67395013537346796888e-04
9.99314070179484963417e+08 9.92841939850153454294e-01 -6.68792268969862768735e-02 -7.15806014984659601252e-04 -6.68792268969862699346e-03 -7.15806014984659601252e-04 -6.68792268969862699346e-03 9.99928419398501522330e-01 -6.68792268969862634294e-04
9.99315538979957222939e+08 9.92811524940158673935e-01 -6.70195315383070033821e-02 -7.18847505984137832326e-04 -6.70195315383069999127e-03 -7.18847505984137832326e-04 -6.70195315383069999127e-03 9.99928115249401616715e-01 -6.70195315383069869022e-04
9.99317007780429363251e+08 9.92780916560983106578e-01 -6.71604188395222428953e-02 -7.21908343901688214633e-04 -6.71604188395222376912e-03 -7.21908343901688214633e-04 -6.71604188395222376912e-03 9.99927809165609859932e-01 -6.71604188395222290175e-04
9.99318476580901503563e+08 9.92750113074807427616e-01 -6.73018923913699940176e-02 -7.24988692519253075108e-04 -6.73018923913699853440e-03 -7.24988692519253075108e-04 -6.73018923913699853440e-03 9.99927501130748019875e-01 -6.73018923913699831756e-04
9.99319945381373763084e+08 9.92719112826510596825e-01 -6.74439558137581440800e-02 -7.28088717348935134978e-04 -6.74439558137581406105e-03 -7.28088717348935134978e-04 -6.74439558137581406105e-03 9.99927191128265113740e-01 -6.74439558137581276001e-04
9.99321414181845903397e+08 9.92687914143473570938e-01 -6.75866127559539564551e-02 -7.31208585652640867883e-04 -6.75866127559539547204e-03 -7.31208585652640867883e-04 -6.75866127559539547204e-03 9.99926879141434743481e-01 -6.75866127559539438784e-04
9.99322882982318162918e+08 9.92656515335318512250e-01 -6.77298668970565398428e-02 -7.34348466468147972712e-04 -6.77298668970565363734e-03 -7.34348466468147972712e-04 -6.77298668970565363734e-03 9.99926565153353208437e-01 -6.77298668970565255314e-04
9.99324351782790303230e+08 9.92624914693716497993e-01 -6.78737219461450630442e-02 -7.37508530628346384295e-04 -6.78737219461450491664e-03 -7.37508530628346384295e-04 -6.78737219461450491664e-03 9.99926249146937173862e-01 -6.78737219461450426612e-04
9.99325820583262562752e+08 9.92593110492134056422e-01 -6.80181816426946445064e-02 -7.40688950786589305440e-04 -6.80181816426946375675e-03 -7.40688950786589305440e-04 -6.80181816426946375675e-03 9.99925931104921339454e-01 -6.80181816426946310623e-04
9.99327289383734703064e+08 9.92561100985629773952e-01 -6.81632497567517120496e-02 -7.43889901437021455570e-04 -6.81632497567517033760e-03 -7.43889901437021455570e-04 -6.81632497567517033760e-03 9.99925611009856329936e-01 -6.81632497567516968708e-04
9.99328758184206962585e+08 9.92528884410582734610e-01 -6.83089300894072631865e-02 -7.47111558941731721505e-04 -6.83089300894072510434e-03 -7.47111558941731721505e-04 -6.83089300894072510434e-03 9.99925288844105808472e-01 -6.83089300894072467066e-04
9.99330226984679102898e+08 9.92496458984487239796e-01 -6.84552264729569315271e-02 -7.50354101551271358318e-04 -6.84552264729569245882e-03 -7.50354101551271358318e-04 -6.84552264729569245882e-03 9.99924964589844922358e-01 -6.84552264729569159146e-04
9.99331695785151362419e+08 9.92463822905689130316e-01 -6.86021427713167375462e-02 -7.53617709431084127798e-04 -6.86021427713167254031e-03 -7.53617709431084127798e-04 -6.86021427713167254031e-03 9.99924638229056861327e-01 -6.86021427713167167295e-04
9.99333164585623502731e+08 9.92430974353153527723e-01 -6.87496828802774684331e-02 -7.56902564684651087482e-04 -6.87496828802774614942e-03 -7.56902564684651087482e-04 -6.87496828802774614942e-03 9.99924309743531525285e-01 -6.87496828802774571573e-04
9.99334633386095762253e+08 9.92397911486195494213e-01 -6.88978507279183888246e-02 -7.60208851380452638700e-04 -6.88978507279183836204e-03 -7.60208851380452638700e-04 -6.88978507279183836204e-03 9.99923979114861971595e-01 -6.88978507279183749468e-04
9.99336102186567902565e+08 9.92364632444251548726e-01 -6.90466502748241783838e-02 -7.63536755574843457699e-04 -6.90466502748241731796e-03 -7.63536755574843457699e-04 -6.90466502748241731796e-03 9.99923646324442527700e-01 -6.90466502748241731796e-04
9.99337570987040042877e+08 9.92331135346603443459e-01 -6.91960855145011960454e-02 -7.66886465339655740842e-04 -6.91960855145011891065e-03 -7.66886465339655740842e-04 -6.91960855145011891065e-03 9.99923311353466015561e-01 -6.91960855145011804329e-04
9.99339039787512302399e+08 9.92297418292117816563e-01 -6.93461604737087289330e-02 -7.70258170788216695729e-04 -6.93461604737087219941e-03 -7.70258170788216695729e-04 -6.93461604737087219941e-03 9.99922974182921198150e-01 -6.93461604737087154889e-04
9.99340508587984442711e+08 9.92263479359003053304e-01 -6.94968792127030610128e-02 -7.73652064099697770426e-04 -6.94968792127030610128e-03 -7.73652064099697770426e-04 -6.94968792127030610128e-03 9.99922634793590003888e-01 -6.94968792127030545076e-04
9.99341977388456702232e+08 9.92229316604505195976e-01 -6.96482458257352138320e-02 -7.77068339549478494244e-04 -6.96482458257352034237e-03 -7.77068339549478494244e-04 -6.96482458257352034237e-03 9.99922293166045084156e-01 -6.96482458257351990868e-04
9.99343446188928842545e+08 9.92194928064662029499e-01 -6.98002644412806100283e-02 -7.80507193533798090956e-04 -6.98002644412806013546e-03 -7.80507193533798090956e-04 -6.98002644412806013546e-03 9.99921949280646593650e-01 -6.98002644412805861758e-04
9.99344914989401102066e+08 9.92160311754017421038e-01 -6.99529392224259027877e-02 -7.83968824598256118150e-04 -6.99529392224258923794e-03 -7.83968824598256118150e-04 -6.99529392224258923794e-03 9.99921603117540191974e-01 -6.99529392224258880426e-04
9.99346383789873242378e+08 9.92125465665334993481e-01 -7.01062743672494215197e-02 -7.87453433466503167210e-04 -7.01062743672494197850e-03 -7.87453433466503167210e-04 -7.01062743672494197850e-03 9.99921254656653379911e-01 -7.01062743672494154482e-04
9.99347852590345501900e+08 9.92090387769311465860e-01 -7.02602741091831600739e-02 -7.90961223068849814469e-04 -7.02602741091831566045e-03 -7.90961223068849814469e-04 -7.02602741091831566045e-03 9.99920903877693167949e-01 -7.02602741091831435941e-04
9.99349321390817642212e+08 9.92055076014304315635e-01 -7.04149427173031000615e-02 -7.94492398569573879223e-04 -7.04149427173030983268e-03 -7.94492398569573879223e-04 -7.04149427173030983268e-03 9.99920550760143078683e-01 -7.04149427173030939900e-04
9.99350790191289901733e+08 9.92019528326006816421e-01 -7.05702844968278675264e-02 -7.98047167399316818327e-04 -7.05702844968278571181e-03 -7.98047167399316818327e-04 -7.05702844968278571181e-03 9.99920195283260038188e-01 -7.05702844968278506128e-04
9.99352258991762042046e+08 9.91983742607181917528e-01 -7.07263037893535451150e-02 -8.01625739281813104453e-04 -7.07263037893535433803e-03 -8.01625739281813104453e-04 -7.07263037893535433803e-03 9.99919837426071822506e-01 -7.07263037893535390435e-04
9.99353727792234182358e+08 9.91947716737326290470e-01 -7.08830049733682188151e-02 -8.05228326267365618688e-04 -7.08830049733682153457e-03 -8.05228326267365618688e-04 -7.08830049733682153457e-03 9.99919477167373282889e-01 -7.08830049733682153457e-04
9.99355196592706441879e+08 9.91911448572385778810e-01 -7.10403924645364448498e-02 -8.08855142761419798787e-04 -7.10403924645364431151e-03 -8.08855142761419798787e-04 -7.10403924645364431151e-03 9.99919114485723903307e-01 -7.10403924645364366099e-04
9.99356665393178582191e+08 9.91874935944431657120e-01 -7.11984707161293500777e-02 -8.12506405556838277870e-04 -7.11984707161293379346e-03 -8.12506405556838277870e-04 -7.11984707161293379346e-03 9.99918749359444358760e-01 -7.11984707161293314294e-04
9.99358134193650841713e+08 9.91838176661344106400e-01 -7.13572442194124745285e-02 -8.16182333865587126588e-04 -7.13572442194124710590e-03 -8.16182333865587126588e-04 -7.13572442194124710590e-03 9.99918381766613406647e-01 -7.13572442194124623854e-04
9.99359602994122982025e+08 9.91801168506489472243e-01 -7.15167175040447022916e-02 -8.19883149351051583077e-04 -7.15167175040446953527e-03 -8.19883149351051583077e-04 -7.15167175040446953527e-03 9.99918011685064889171e-01 -7.15167175040446823422e-04
9.99361071794595241547e+08 9.91763909238388641221e-01 -7.16768951384936237048e-02 -8.23609076161131324276e-04 -7.16768951384936202353e-03 -8.23609076161131324276e-04 -7.16768951384936202353e-03 9.99917639092383847554e-01 -7.16768951384936115617e-04
9.99362540595067381859e+08 9.91726396590395520292e-01 -7.18377817303959276263e-02 -8.27360340960443655690e-04 -7.18377817303959224221e-03 -8.27360340960443655690e-04 -7.18377817303959224221e-03 9.99917263965903968526e-01 -7.18377817303959180853e-04
9.99364009395539641380e+08 9.91688628270338545789e-01 -7.19993819270557111611e-02 -8.31137172966142949090e-04 -7.19993819270557059570e-03 -8.31137172966142949090e-04 -7.19993819270557059570e-03 9.99916886282703365474e-01 -7.19993819270557037886e-04
9.99365478196011781693e+08 9.91650601960196720341e-01 -7.21617004157784069918e-02 -8.34939803980322349693e-04 -7.21617004157783931140e-03 -8.34939803980322349693e-04 -7.21617004157783931140e-03 9.99916506019601913913e-01 -7.21617004157783844404e-04
9.99366946996484041214e+08 9.91612315315732129051e-01 -7.23247419243740335970e-02 -8.38768468426782974959e-04 -7.23247419243740283928e-03 -8.38768468426782974959e-04 -7.23247419243740283928e-03 9.99916123153157365699e-01 -7.23247419243740197192e-04
9.99368415796956181526e+08 9.91573765966163866992e-01 -7.24885112214636168071e-02 -8.42623403383615165660e-04 -7.24885112214636046640e-03 -8.42623403383615165660e-04 -7.24885112214636046640e-03 9.99915737659661685299e-01 -7.24885112214636003272e-04
9.99369884597428441048e+08 9.91534951513767248699e-01 -7.26530131170861903644e-02 -8.46504848623273850779e-04 -7.26530131170861816908e-03 -8.46504848623273850779e-04 -7.26530131170861816908e-03 9.99915349515137719116e-01 -7.26530131170861795224e-04
9.99371353397900581360e+08 9.91495869533546070329e-01 -7.28182524629783362036e-02 -8.50413046645393335722e-04 -7.28182524629783240605e-03 -8.50413046645393335722e-04 -7.28182524629783240605e-03 9.99914958695335420735e-01 -7.28182524629783153869e-04
9.99372822198372721672e+08 9.91456517572837037200e-01 -7.29842341531187349668e-02 -8.54348242716290858997e-04 -7.29842341531187349668e-03 -8.54348242716290858997e-04 -7.29842341531187349668e-03 9.99914565175728409230e-01 -7.29842341531187306300e-04
9.99374290998844981194e+08 9.91416893150937061918e-01 -7.31509631241610003283e-02 -8.58310684906296865633e-04 -7.31509631241609916547e-03 -8.58310684906296865633e-04 -7.31509631241609916547e-03 9.99914168931509417249e-01 -7.31509631241609851494e-04
9.99375759799317121506e+08 9.91376993758729341266e-01 -7.33184443558464044033e-02 -8.62300624127069559668e-04 -7.33184443558463922602e-03 -8.62300624127069559668e-04 -7.33184443558463922602e-03 9.99913769937587293413e-01 -7.33184443558463835866e-04
9.99377228599789381027e+08 9.91336816858284008980e-01 -7.34866828715102782255e-02 -8.66318314171602723260e-04 -7.34866828715102695518e-03 -8.66318314171602723260e-04 -7.34866828715102695518e-03 9.99913368168582894491e-01 -7.34866828715102652150e-04
9.99378697400261521339e+08 9.91296359882464783730e-01 -7.36556837385378138094e-02 -8.70364011753519154976e-04 -7.36556837385377981969e-03 -8.70364011753519154976e-04 -7.36556837385377981969e-03 9.99912963598824644507e-01 -7.36556837385377916917e-04
9.99380166200733780861e+08 9.91255620234523959766e-01 -7.38254520688512300142e-02 -8.74437976547606603782e-04 -7.38254520688512178711e-03 -8.74437976547606603782e-04 -7.38254520688512178711e-03 9.99912556202345204071e-01 -7.38254520688512091975e-04
