! File generated for n1 = 4, n2 = 9
! b1 = 10.000000
! b2 = 0.021544
! Q0 = 10000.000000
! f0 = 1000000000.000000
! n = 1001
! rel_span = 10.000000
# Hz S RI R 50
9.94489227826549887657e+08 9.82131558833617579474e-01 -1.79179484438909075728e-01 -8.29379569919477593540e-04 -8.31677494184134870336e-03 -8.29379569919477593540e-04 -8.31677494184134870336e-03 9.99961503610494406580e-01 -3.86030497017213615300e-04
9.94500249370896816254e+08 9.82060381396367421125e-01 -1.79532446842499110451e-01 -8.32683333898930500699e-04 -8.33315800535323544795e-03 -8.32683333898930500699e-04 -8.33315800535323544795e-03 9.99961350263354420420e-01 -3.86790931463785038306e-04
9.94511270915243744850e+08 9.81988780043545506082e-01 -1.79886784230858465250e-01 -8.36006774296228077903e-04 -8.34960489000463775000e-03 -8.36006774296228077903e-04 -8.34960489000463775000e-03 9.99961196002915997383e-01 -3.87554328225241714184e-04
9.94522292459590554237e+08 9.81916751415215949272e-01 -1.80242504565891303869e-01 -8.39350047065778349931e-04 -8.36611596535441134903e-03 -8.39350047065778349931e-04 -8.36611596535441134903e-03 9.99961040821940483347e-01 -3.88320704454986201978e-04
9.94533314003937482834e+08 9.81844292118209005515e-01 -1.80599615870369656356e-01 -8.42713309704564870681e-04 -8.38269160378664855704e-03 -8.42713309704564870681e-04 -8.38269160378664855704e-03 9.99960884713117392764e-01 -3.89090077437556885586e-04
9.94544335548284411430e+08 9.81771398725730826129e-01 -1.80958126228492222065e-01 -8.46096721270272740349e-04 -8.39933218053661063973e-03 -8.46096721270272740349e-04 -8.39933218053661063973e-03 9.99960727669063964562e-01 -3.89862464589831926066e-04
9.94555357092631340027e+08 9.81698067776961447173e-01 -1.81318043786478144686e-01 -8.49500442399933955451e-04 -8.41603807371829604200e-03 -8.49500442399933955451e-04 -8.41603807371829604200e-03 9.99960569682324051932e-01 -3.90637883462308349147e-04
9.94566378636978149414e+08 9.81624295776651667467e-01 -1.81679376753148047463e-01 -8.52924635328647351949e-04 -8.43280966435140839910e-03 -8.52924635328647351949e-04 -8.43280966435140839910e-03 9.99960410745367456187e-01 -3.91416351740354081894e-04
9.94577400181325078011e+08 9.81550079194710378694e-01 -1.82042133400529160259e-01 -8.56369463908725940884e-04 -8.44964733638943824023e-03 -8.56369463908725940884e-04 -8.44964733638943824023e-03 9.99960250850588705518e-01 -3.92197887245511651617e-04
9.94588421725672006607e+08 9.81475414465790008123e-01 -1.82406322064449538667e-01 -8.59835093628939328529e-04 -8.46655147674725029605e-03 -8.59835093628939328529e-04 -8.46655147674725029605e-03 9.99960089990306610908e-01 -3.92982507936778086531e-04
9.94599443270018935204e+08 9.81400297988867298393e-01 -1.82771951145135003181e-01 -8.63321691633988155812e-04 -8.48352247532878876723e-03 -8.63321691633988155812e-04 -8.48352247532878876723e-03 9.99959928156762933860e-01 -3.93770231911891321636e-04
9.94610464814365744591e+08 9.81324726126810542581e-01 -1.83139029107845990874e-01 -8.66829426744564874273e-04 -8.50056072505663527783e-03 -8.66829426744564874273e-04 -8.50056072505663527783e-03 9.99959765342121720266e-01 -3.94561077408702148145e-04
9.94621486358712673187e+08 9.81248695205949594822e-01 -1.83507564483484597595e-01 -8.70358469477341229956e-04 -8.51766662190018945811e-03 -8.70358469477341229956e-04 -8.51766662190018945811e-03 9.99959601538468301207e-01 -3.95355062806481869723e-04
9.94632507903059601784e+08 9.81172201515635444835e-01 -1.83877565869223436046e-01 -8.73908992065379561925e-04 -8.53484056490485566704e-03 -8.73908992065379561925e-04 -8.53484056490485566704e-03 9.99959436737808404771e-01 -3.96152206627277446785e-04
9.94643529447406530380e+08 9.81095241307791909868e-01 -1.84249041929156615049e-01 -8.77481168478970951184e-04 -8.55208295622225840582e-03 -8.77481168478970951184e-04 -8.55208295622225840582e-03 9.99959270932066823789e-01 -3.96952527537313857794e-04
9.94654550991753339767e+08 9.81017810796469214019e-01 -1.84622001394912943484e-01 -8.81075174446336001170e-04 -8.56939420113870566065e-03 -8.81075174446336001170e-04 -8.56939420113870566065e-03 9.99959104113087193788e-01 -3.97756044348315091191e-04
9.94665572536100268364e+08 9.80939906157376695361e-01 -1.84996453066349542116e-01 -8.84691187475320699012e-04 -8.58677470810738363571e-03 -8.84691187475320699012e-04 -8.58677470810738363571e-03 9.99958936272630216635e-01 -3.98562776018998501243e-04
9.94676594080447196960e+08 9.80861523527427614511e-01 -1.85372405812162938110e-01 -8.88329386874526648506e-04 -8.60422488877671774732e-03 -8.88329386874526648506e-04 -8.60422488877671774732e-03 9.99958767402373105426e-01 -3.99372741656391571589e-04
9.94687615624794125557e+08 9.80782659004260759517e-01 -1.85749868570588116956e-01 -8.91989953775524421070e-04 -8.62174515802282930010e-03 -8.91989953775524421070e-04 -8.62174515802282930010e-03 9.99958597493908585285e-01 -4.00185960517337926262e-04
9.94698637169140934944e+08 9.80703308645764826323e-01 -1.86128850350056773699e-01 -8.95673071154904276367e-04 -8.63933593398007182440e-03 -8.95673071154904276367e-04 -8.63933593398007182440e-03 9.99958426538743561096e-01 -4.01002452009915195084e-04
9.94709658713487863541e+08 9.80623468469592363128e-01 -1.86509360229885429172e-01 -8.99378923856861611438e-04 -8.65699763807299335627e-03 -8.99378923856861611438e-04 -8.65699763807299335627e-03 9.99958254528298340347e-01 -4.01822235694917985396e-04
9.94720680257834792137e+08 9.80543134452667719536e-01 -1.86891407360964295625e-01 -9.03107698616029065837e-04 -8.67473069504828657450e-03 -9.03107698616029065837e-04 -8.67473069504828657450e-03 9.99958081453905522906e-01 -4.02645331287341395887e-04
9.94731701802181720734e+08 9.80462302530691998115e-01 -1.87275000966434207461e-01 -9.06859584080445561491e-04 -8.69253553300623239830e-03 -9.06859584080445561491e-04 -8.69253553300623239830e-03 9.99957907306808779779e-01 -4.03471758657840190096e-04
9.94742723346528649330e+08 9.80380968597631463624e-01 -1.87660150342420173342e-01 -9.10634770835322122744e-04 -8.71041258343472658832e-03 -9.10634770835322122744e-04 -8.71041258343472658832e-03 9.99957732078161964928e-01 -4.04301537834308478969e-04
9.94753744890875458717e+08 9.80299128505209060869e-01 -1.88046864858718798530e-01 -9.14433451426620779942e-04 -8.72836228124120212801e-03 -9.14433451426620779942e-04 -8.72836228124120212801e-03 9.99957555759027783004e-01 -4.05134689003361174713e-04
9.94764766435222387314e+08 9.80216778062376614677e-01 -1.88435153959554096970e-01 -9.18255820385559706938e-04 -8.74638506478770880181e-03 -9.18255820385559706938e-04 -8.74638506478770880181e-03 9.99957378340377012194e-01 -4.05971232511961974566e-04
9.94775787979569315910e+08 9.80133913034797799035e-01 -1.88825027164256142864e-01 -9.22102074252628624469e-04 -8.76448137592240709981e-03 -9.22102074252628624469e-04 -8.76448137592240709981e-03 9.99957199813086949902e-01 -4.06811188868886003736e-04
9.94786809523916244507e+08 9.80050529144303017581e-01 -1.89216494068041474197e-01 -9.25972411602868708536e-04 -8.78265166001579791755e-03 -9.25972411602868708536e-04 -8.78265166001579791755e-03 9.99957020167940746624e-01 -4.07654578746400491403e-04
9.94797831068263053894e+08 9.79966622068351833619e-01 -1.89609564342731795605e-01 -9.29867033070825394978e-04 -8.80089636599407434958e-03 -9.29867033070825394978e-04 -8.80089636599407434958e-03 9.99956839395625518563e-01 -4.08501422981813661940e-04
9.94808852612609982491e+08 9.79882187439475638158e-01 -1.90004247737540543639e-01 -9.33786141376445090467e-04 -8.81921594637564108810e-03 -9.33786141376445090467e-04 -8.81921594637564108810e-03 9.99956657486732014561e-01 -4.09351742579169234487e-04
9.94819874156956911087e+08 9.79797220844725424982e-01 -1.90400554079800915508e-01 -9.37729941350677088929e-04 -8.83761085730489816259e-03 -9.37729941350677088929e-04 -8.83761085730489816259e-03 9.99956474431752839749e-01 -4.10205558710814612976e-04
9.94830895701303839684e+08 9.79711717825101469082e-01 -1.90798493275752156784e-01 -9.41698639961940030772e-04 -8.85608155858873952182e-03 -9.41698639961940030772e-04 -8.85608155858873952182e-03 9.99956290221081234293e-01 -4.11062892719095331496e-04
9.94841917245650649071e+08 9.79625673874976676814e-01 -1.91198075311331094905e-01 -9.45692446342934981557e-04 -8.87462851373329274229e-03 -9.45692446342934981557e-04 -8.87462851373329274229e-03 9.99956104845010185223e-01 -4.11923766118060124836e-04
9.94852938789997577667e+08 9.79539084441513052681e-01 -1.91599310252954957434e-01 -9.49711571817667870102e-04 -8.89325218998025975037e-03 -9.49711571817667870102e-04 -8.89325218998025975037e-03 9.99955918293730983137e-01 -4.12788200595147513391e-04
9.94863960334344506264e+08 9.79451944924070505571e-01 -1.92002208248321482031e-01 -9.53756229928947782924e-04 -8.91195305834404163936e-03 -9.53756229928947782924e-04 -8.91195305834404163936e-03 9.99955730557331778918e-01 -4.13656218012909467768e-04
9.94874981878691434860e+08 9.79364250673606551167e-01 -1.92406779527209886860e-01 -9.57826636466200761512e-04 -8.93073159364892940615e-03 -9.57826636466200761512e-04 -8.93073159364892940615e-03 9.99955541625796362482e-01 -4.14527840410737187602e-04
9.94886003423038244247e+08 9.79275996992063801905e-01 -1.92813034402316285654e-01 -9.61923009493942902937e-04 -8.94958827456787675558e-03 -9.61923009493942902937e-04 -8.94958827456787675558e-03 9.99955351489003385623e-01 -4.15403090006660985576e-04
9.94897024967385172844e+08 9.79187179131752238881e-01 -1.93220983270073864979e-01 -9.66045569380418042357e-04 -8.96852358366056166827e-03 -9.66045569380418042357e-04 -8.96852358366056166827e-03 9.99955160136724030551e-01 -4.16281989199117103285e-04
9.94908046511732101440e+08 9.79097792294722601980e-01 -1.93630636611487327858e-01 -9.70194538826703051920e-04 -8.98753800741213144943e-03 -9.70194538826703051920e-04 -8.98753800741213144943e-03 9.99954967558621454771e-01 -4.17164560568745806327e-04
9.94919068056079030037e+08 9.79007831632129343902e-01 -1.94042004992980854361e-01 -9.74370142896278370812e-04 -9.00663203627254799200e-03 -9.74370142896278370812e-04 -9.00663203627254799200e-03 9.99954773744249236778e-01 -4.18050826880217722865e-04
9.94930089600425958633e+08 9.78917292243578596178e-01 -1.94455099067279313374e-01 -9.78572609045269548034e-04 -9.02580616469750122988e-03 -9.78572609045269548034e-04 -9.02580616469750122988e-03 9.99954578683049710719e-01 -4.18940811084132932150e-04
9.94941111144772768021e+08 9.78826169176482241419e-01 -1.94869929574233102798e-01 -9.82802167152460343785e-04 -9.04506089118668754612e-03 -9.82802167152460343785e-04 -9.04506089118668754612e-03 9.99954382364352967194e-01 -4.19834536318797646622e-04
9.94952132689119696617e+08 9.78734457425381565443e-01 -1.95286507341742632260e-01 -9.87059049550660433034e-04 -9.06439671832672336227e-03 -9.87059049550660433034e-04 -9.06439671832672336227e-03 9.99954184777374854853e-01 -4.20732025912216270769e-04
9.94963154233466625214e+08 9.78642151931280124266e-01 -1.95704843286609975195e-01 -9.91343491057686048915e-04 -9.08381415283067428224e-03 -9.91343491057686048915e-04 -9.08381415283067428224e-03 9.99953985911216314264e-01 -4.21633303383925708580e-04
9.94974175777813553810e+08 9.78549247580950298797e-01 -1.96124948415472288854e-01 -9.95655729008535416921e-04 -9.10331370558138154581e-03 -9.95655729008535416921e-04 -9.10331370558138154581e-03 9.99953785754861157464e-01 -4.22538392447006992247e-04
9.94985197322160363197e+08 9.78455739206245067585e-01 -1.96546833825678640695e-01 -9.99996003287346914984e-04 -9.12289589167216211085e-03 -9.99996003287346914984e-04 -9.12289589167216211085e-03 9.99953584297174846718e-01 -4.23447317009973908143e-04
9.94996218866507291794e+08 9.78361621583385243639e-01 -1.96970510706238915999e-01 -1.00436455636046854077e-03 -9.14256123045084634349e-03 -1.00436455636046854077e-03 -9.14256123045084634349e-03 9.99953381526903162246e-01 -4.24360101178817476861e-04
9.95007240410854220390e+08 9.78266889432244268754e-01 -1.97395990338749965920e-01 -1.00876163330967092736e-03 -9.16231024556277660886e-03 -1.00876163330967092736e-03 -9.16231024556277660886e-03 9.99953177432670536895e-01 -4.25276769259001264679e-04
9.95018261955201148987e+08 9.78171537415624681167e-01 -1.97823284098318008528e-01 -1.01318748186570665309e-03 -9.18214346499361157294e-03 -1.01318748186570665309e-03 -9.18214346499361157294e-03 9.99952972002978168753e-01 -4.26197345757448834563e-04
9.95029283499547958374e+08 9.78075560138512600794e-01 -1.98252403454547837525e-01 -1.01764235244294638100e-03 -9.20206142111524606764e-03 -1.01764235244294638100e-03 -9.20206142111524606764e-03 9.99952765226202910931e-01 -4.27121855384674474487e-04
9.95040305043894886971e+08 9.77978952147333990830e-01 -1.98683359972479212097e-01 -1.02212649817387101620e-03 -9.22206465072927458748e-03 -1.02212649817387101620e-03 -9.22206465072927458748e-03 9.99952557090595384182e-01 -4.28050323056801222937e-04
9.95051326588241815567e+08 9.77881707929187049544e-01 -1.99116165313595300246e-01 -1.02664017494471203340e-03 -9.24215369511379933321e-03 -1.02664017494471203340e-03 -9.24215369511379933321e-03 9.99952347584278422588e-01 -4.28982773897732796910e-04
9.95062348132588744164e+08 9.77783821911078487865e-01 -1.99550831236773806854e-01 -1.03118364143090835740e-03 -9.26232910006757198529e-03 -1.03118364143090835740e-03 -9.26232910006757198529e-03 9.99952136695245297204e-01 -4.29919233241203276128e-04
9.95073369676935553551e+08 9.77685288459132162409e-01 -1.99987369599318953739e-01 -1.03575715913382460434e-03 -9.28259141595790329693e-03 -1.03575715913382460434e-03 -9.28259141595790329693e-03 9.99951924411358272771e-01 -4.30859726633000259585e-04
9.95084391221282482147e+08 9.77586101877791824322e-01 -2.00425792357980386837e-01 -1.04036099241775923871e-03 -9.30294119776794992127e-03 -1.04036099241775923871e-03 -9.30294119776794992127e-03 9.99951710720346720329e-01 -4.31804279833159887058e-04
9.95095412765629410744e+08 9.77486256409019982350e-01 -2.00866111569948796456e-01 -1.04499540854714224880e-03 -9.32337900514292744480e-03 -1.04499540854714224880e-03 -9.32337900514292744480e-03 9.99951495609805118825e-01 -4.32752918818112204159e-04
9.95106434309976339340e+08 9.77385746231471896905e-01 -2.01308339393916735371e-01 -1.04966067772485757356e-03 -9.34390540243935051323e-03 -1.04966067772485757356e-03 -9.34390540243935051323e-03 9.99951279067191944883e-01 -4.33705669782966009990e-04
9.95117455854323148727e+08 9.77284565459665133247e-01 -2.01752488091119064340e-01 -1.05435707313080188549e-03 -9.36452095877333100249e-03 -1.05435707313080188549e-03 -9.36452095877333100249e-03 9.99951061079827119293e-01 -4.34662559143751149864e-04
9.95128477398670077324e+08 9.77182708143124911793e-01 -2.02198570026435320290e-01 -1.05908487096155207868e-03 -9.38522624807173501404e-03 -1.05908487096155207868e-03 -9.38522624807173501404e-03 9.99950841634891007814e-01 -4.35623613539793080700e-04
9.95139498943017005920e+08 9.77080168265541115780e-01 -2.02646597669395744923e-01 -1.06384435046948133165e-03 -9.40602184911888336560e-03 -1.06384435046948133165e-03 -9.40602184911888336560e-03 9.99950620719421534588e-01 -4.36588859835880191158e-04
9.95150520487363934517e+08 9.76976939743881223066e-01 -2.03096583595338747719e-01 -1.06863579400395163413e-03 -9.42690834561028465077e-03 -1.06863579400395163413e-03 -9.42690834561028465077e-03 9.99950398320313516010e-01 -4.37558325124758008742e-04
9.95161542031710863113e+08 9.76873016427515117321e-01 -2.03548540486468115818e-01 -1.07345948705192149528e-03 -9.44788632620168801479e-03 -1.07345948705192149528e-03 -9.44788632620168801479e-03 9.99950174424315663124e-01 -4.38532036729406024360e-04
9.95172563576057672501e+08 9.76768392097308146838e-01 -2.04002481133003760183e-01 -1.07831571828004638136e-03 -9.46895638456251610704e-03 -1.07831571828004638136e-03 -9.46895638456251610704e-03 9.99949949018029249359e-01 -4.39510022205517967425e-04
9.95183585120404601097e+08 9.76663060464710297559e-01 -2.04458418434304539657e-01 -1.08320477957697387621e-03 -9.49011911942796923536e-03 -1.08320477957697387621e-03 -9.49011911942796923536e-03 9.99949722087906001100e-01 -4.40492309343919847750e-04
9.95194606664751529694e+08 9.76557015170831044237e-01 -2.04916365399999717001e-01 -1.08812696609624447695e-03 -9.51137513465154411929e-03 -1.08812696609624447695e-03 -9.51137513465154411929e-03 9.99949493620246099290e-01 -4.41478926173008380442e-04
9.95205628209098458290e+08 9.76450249785497437216e-01 -2.05376335151152472625e-01 -1.09308257630005151162e-03 -9.53272503925904797495e-03 -1.09308257630005151162e-03 -9.53272503925904797495e-03 9.99949263601196292051e-01 -4.42469900961257227648e-04
9.95216649753445267677e+08 9.76342757806293981560e-01 -2.05838340921447926490e-01 -1.09807191200378883797e-03 -9.55416944750372802708e-03 -1.09807191200378883797e-03 -9.55416944750372802708e-03 9.99949032016747341167e-01 -4.43465262219776637249e-04
9.95227671297792196274e+08 9.76234532657593301330e-01 -2.06302396058371723120e-01 -1.10309527842103981266e-03 -9.57570897892098989168e-03 -1.10309527842103981266e-03 -9.57570897892098989168e-03 9.99948798852732689824e-01 -4.44465038704852806982e-04
9.95238692842139124870e+08 9.76125567689570816654e-01 -2.06768514024408767149e-01 -1.10815298420932476821e-03 -9.59734425838402842313e-03 -1.10815298420932476821e-03 -9.59734425838402842313e-03 9.99948564094825576021e-01 -4.45469259420530074543e-04
9.95249714386486053467e+08 9.76015856177201102106e-01 -2.07236708398265412345e-01 -1.11324534151666034061e-03 -9.61907591616056184547e-03 -1.11324534151666034061e-03 -9.61907591616056184547e-03 9.99948327728537478265e-01 -4.46477953621244607295e-04
9.95260735930832862854e+08 9.75905391319239923220e-01 -2.07706992876107499058e-01 -1.11837266602885670487e-03 -9.64090458797029446758e-03 -1.11837266602885670487e-03 -9.64090458797029446758e-03 9.99948089739215451033e-01 -4.47491150814491105928e-04
9.95271757475179791451e+08 9.75794166237191173963e-01 -2.08179381272799446378e-01 -1.12353527701740418289e-03 -9.66283091504242970526e-03 -1.12353527701740418289e-03 -9.66283091504242970526e-03 9.99947850112040237391e-01 -4.48508880763492760735e-04
9.95282779019526720047e+08 9.75682173974255939619e-01 -2.08653887523177539176e-01 -1.12873349738831915343e-03 -9.68485554417477384481e-03 -1.12873349738831915343e-03 -9.68485554417477384481e-03 9.99947608832023937531e-01 -4.49531173489944337312e-04
9.95293800563873648643e+08 9.75569407494267792913e-01 -2.09130525683315970920e-01 -1.13396765373150690964e-03 -9.70697912779249633131e-03 -1.13396765373150690964e-03 -9.70697912779249633131e-03 9.99947365884007566272e-01 -4.50558059276739487128e-04
9.95304822108220458031e+08 9.75455859680605441575e-01 -2.09609309931841292229e-01 -1.13923807637126834995e-03 -9.72920232400914519744e-03 -1.13923807637126834995e-03 -9.72920232400914519744e-03 9.99947121252658832624e-01 -4.51589568670803279907e-04
9.95315843652567386627e+08 9.75341523335093829594e-01 -2.10090254571235646175e-01 -1.14454509941729889663e-03 -9.75152579668713166694e-03 -1.14454509941729889663e-03 -9.75152579668713166694e-03 9.99946874922469808311e-01 -4.52625732485899365688e-04
9.95326865196914315224e+08 9.75226391176887030809e-01 -2.10573374029157850407e-01 -1.14988906081652029860e-03 -9.77395021549905956837e-03 -1.14988906081652029860e-03 -9.77395021549905956837e-03 9.99946626877754152218e-01 -4.53666581805476330780e-04
9.95337886741261243820e+08 9.75110455841328604976e-01 -2.11058682859806001630e-01 -1.15527030240601051407e-03 -9.79647625599096120996e-03 -1.15527030240601051407e-03 -9.79647625599096120996e-03 9.99946377102645445056e-01 -4.54712147985603554624e-04
9.95348908285608053207e+08 9.74993709878802516933e-01 -2.11546195745255349863e-01 -1.16068916996631761769e-03 -9.81910459964440221481e-03 -1.16068916996631761769e-03 -9.81910459964440221481e-03 9.99946125581093858692e-01 -4.55762462657853181791e-04
