! File generated for n1 = 6, n2 = 4
! b1 = 2.154435
! b2 = 0.215443
! Q0 = 10000.000000
! f0 = 1000000000.000000
! n = 1001
! rel_span = 10.000000
# Hz S RI R 50
9.98315060920482516289e+08 9.87361302512883343141e-01 -1.26493631758074737137e-01 -3.99670707171353566806e-03 -4.00007985862125201026e-02 -3.99670707171353566806e-03 -4.00007985862125201026e-02 9.98736130251288378723e-01 -1.26493631758074730198e-02
9.98318430798641562462e+08 9.87311056411348753059e-01 -1.26742309668871261374e-01 -4.01259628415287332437e-03 -4.00794374464014391268e-02 -4.01259628415287332437e-03 -4.00794374464014391268e-02 9.98731105641134875306e-01 -1.26742309668871240558e-02
9.98321800676800608635e+08 9.87260511257817108266e-01 -1.26991956268300593136e-01 -4.02858006513716771640e-03 -4.01583826328326745636e-02 -4.02858006513716771640e-03 -4.01583826328326745636e-02 9.98726051125781721929e-01 -1.26991956268300582727e-02
9.98325170554959654808e+08 9.87209664682851761874e-01 -1.27242577165246950610e-01 -4.04465916394803823297e-03 -4.02376359191911545099e-02 -4.04465916394803823297e-03 -4.02376359191911545099e-02 9.98720966468285231699e-01 -1.27242577165246929793e-02
9.98328540433118700981e+08 9.87158514293585365174e-01 -1.27494178011469977418e-01 -4.06083433727667027918e-03 -4.03171990927202114618e-02 -4.06083433727667027918e-03 -4.03171990927202114618e-02 9.98715851429358481006e-01 -1.27494178011469967010e-02
9.98331910311277747154e+08 9.87107057673439536316e-01 -1.27746764502018245180e-01 -4.07710634931213698751e-03 -4.03970739543523249537e-02 -4.07710634931213698751e-03 -4.03970739543523249537e-02 9.98710705767343998041e-01 -1.27746764502018224363e-02
9.98335280189436674118e+08 9.87055292381854854078e-01 -1.28000342375588938015e-01 -4.09347597182717869158e-03 -4.04772623188228847235e-02 -4.09347597182717869158e-03 -4.04772623188228847235e-02 9.98705529238185452101e-01 -1.28000342375588910260e-02
9.98338650067595720291e+08 9.87003215953986767772e-01 -1.28254917415029173755e-01 -4.10994398427404986768e-03 -4.05577660148287166830e-02 -4.10994398427404986768e-03 -4.05577660148287166830e-02 9.98700321595398676777e-01 -1.28254917415029142530e-02
9.98342019945754766464e+08 9.86950825900432038296e-01 -1.28510495447680062053e-01 -4.12651117387115989876e-03 -4.06385868851368847743e-02 -4.12651117387115989876e-03 -4.06385868851368847743e-02 9.98695082590043248238e-01 -1.28510495447680030828e-02
9.98345389823913812637e+08 9.86898119706933862894e-01 -1.28767082345808331345e-01 -4.14317833569634395158e-03 -4.07197267867211859516e-02 -4.14317833569634395158e-03 -4.07197267867211859516e-02 9.98689811970693397392e-01 -1.28767082345808327876e-02
9.98348759702072858810e+08 9.86845094834074898493e-01 -1.29024684027080532855e-01 -4.15994627278385570301e-03 -4.08011875909120649841e-02 -4.15994627278385570301e-03 -4.08011875909120649841e-02 9.98684509483407478747e-01 -1.29024684027080494692e-02
9.98352129580231904984e+08 9.86791748716984495893e-01 -1.29283306454954477482e-01 -4.17681579621702585986e-03 -4.08829711835205014681e-02 -4.17681579621702585986e-03 -4.08829711835205014681e-02 9.98679174871698438487e-01 -1.29283306454954470543e-02
9.98355499458390951157e+08 9.86738078765031279005e-01 -1.29542955639125378919e-01 -4.19378772522543789847e-03 -4.09650794649789595780e-02 -4.19378772522543789847e-03 -4.09650794649789595780e-02 9.98673807876503172309e-01 -1.29542955639125358103e-02
9.98358869336549997330e+08 9.86684082361511172188e-01 -1.29803637635977242581e-01 -4.21086288728351500199e-03 -4.10475143504842321374e-02 -4.21086288728351500199e-03 -4.10475143504842321374e-02 9.98668408236151106117e-01 -1.29803637635977214826e-02
9.98362239214709043503e+08 9.86629756863335538597e-01 -1.30065358549022458412e-01 -4.22804211820936460403e-03 -4.11302777701363989071e-02 -4.22804211820936460403e-03 -4.11302777701363989071e-02 9.98662975686333553860e-01 -1.30065358549022423718e-02
9.98365609092868089676e+08 9.86575099600706106884e-01 -1.30328124529380445784e-01 -4.24532626226725110646e-03 -4.12133716690902332513e-02 -4.24532626226725110646e-03 -4.12133716690902332513e-02 9.98657509960070632893e-01 -1.30328124529380407620e-02
9.98368978971027135849e+08 9.86520107876803442615e-01 -1.30591941776184550239e-01 -4.26271617226643001475e-03 -4.12967980076838075965e-02 -4.26271617226643001475e-03 -4.12967980076838075965e-02 9.98652010787680288750e-01 -1.30591941776184508606e-02
9.98372348849186062813e+08 9.86464778967451216829e-01 -1.30856816537079340135e-01 -4.28021270966702244848e-03 -4.13805587615958120340e-02 -4.28021270966702244848e-03 -4.13805587615958120340e-02 9.98646477896745099478e-01 -1.30856816537079298501e-02
9.98375718727345108986e+08 9.86409110120778143127e-01 -1.31122755108720290274e-01 -4.29781674468718635773e-03 -4.14646559220035459958e-02 -4.29781674468718635773e-03 -4.14646559220035459958e-02 9.98640911012077858722e-01 -1.31122755108720283335e-02
9.98379088605504155159e+08 9.86353098556894791749e-01 -1.31389763837178291661e-01 -4.31552915640510612039e-03 -4.15490914957108090078e-02 -4.31552915640510612039e-03 -4.15490914957108090078e-02 9.98635309855689490277e-01 -1.31389763837178267375e-02
9.98382458483663201332e+08 9.86296741467545090565e-01 -1.31657849118453462722e-01 -4.33335083286938167052e-03 -4.16338675053104581569e-02 -4.33335083286938167052e-03 -4.16338675053104581569e-02 9.98629674146754520159e-01 -1.31657849118453455783e-02
9.98385828361822247505e+08 9.86240036015756160737e-01 -1.31927017398973694950e-01 -4.35128267120957114983e-03 -4.17189859893419626169e-02 -4.35128267120957114983e-03 -4.17189859893419626169e-02 9.98624003601575660483e-01 -1.31927017398973684542e-02
9.98389198239981293678e+08 9.86182979335490816908e-01 -1.32197275176067524649e-01 -4.36932557774622355035e-03 -4.18044490024410200779e-02 -4.36932557774622355035e-03 -4.18044490024410200779e-02 9.98618297933549059486e-01 -1.32197275176067496893e-02
9.98392568118140339851e+08 9.86125568531288743124e-01 -1.32468628998469395430e-01 -4.38748046810428019016e-03 -4.18902586154992900846e-02 -4.38748046810428019016e-03 -4.18902586154992900846e-02 9.98612556853128885415e-01 -1.32468628998469364205e-02
9.98395937996299386024e+08 9.86067800677909556128e-01 -1.32741085466798969250e-01 -4.40574826732596271095e-03 -4.19764169158159880513e-02 -4.40574826732596271095e-03 -4.19764169158159880513e-02 9.98606780067790911204e-01 -1.32741085466798955372e-02
9.98399307874458432198e+08 9.86009672819953553180e-01 -1.33014651234127367907e-01 -4.42412990999074134946e-03 -4.20629260072769364798e-02 -4.42412990999074134946e-03 -4.20629260072769364798e-02 9.98600967281995322011e-01 -1.33014651234127350560e-02
9.98402677752617478371e+08 9.85951181971508328061e-01 -1.33289333006400778636e-01 -4.44262634032700515913e-03 -4.21497880104884925512e-02 -4.44262634032700515913e-03 -4.21497880104884925512e-02 9.98595118197150855011e-01 -1.33289333006400747411e-02
9.98406047630776405334e+08 9.85892325115757084397e-01 -1.33565137543027373512e-01 -4.46123851233598024690e-03 -4.22370050629632398653e-02 -4.46123851233598024690e-03 -4.22370050629632398653e-02 9.98589232511575719542e-01 -1.33565137543027352696e-02
9.98409417508935451508e+08 9.85833099204593721332e-01 -1.33842071657412409191e-01 -4.47996738991350475917e-03 -4.23245793192890684686e-02 -4.47996738991350475917e-03 -4.23245793192890684686e-02 9.98583309920459405440e-01 -1.33842071657412388375e-02
9.98412787387094497681e+08 9.85773501158247245080e-01 -1.34120142217426158160e-01 -4.49881394696858942506e-03 -4.24125129512772647278e-02 -4.49881394696858942506e-03 -4.24125129512772647278e-02 9.98577350115824713406e-01 -1.34120142217426119996e-02
9.98416157265253543854e+08 9.85713527864874983209e-01 -1.34399356146005483081e-01 -4.51777916755237863439e-03 -4.25008081481526855949e-02 -4.51777916755237863439e-03 -4.25008081481526855949e-02 9.98571352786487453912e-01 -1.34399356146005458795e-02
9.98419527143412590027e+08 9.85653176180172563292e-01 -1.34679720421647858286e-01 -4.53686404598119524118e-03 -4.25894671167100086207e-02 -4.53686404598119524118e-03 -4.25894671167100086207e-02 9.98565317618017256329e-01 -1.34679720421647820122e-02
9.98422897021571636200e+08 9.85592442926964684702e-01 -1.34961242078979776204e-01 -4.55606958696603420167e-03 -4.26784920814934354283e-02 -4.55606958696603420167e-03 -4.26784920814934354283e-02 9.98559244292696490675e-01 -1.34961242078979748449e-02
9.98426266899730682373e+08 9.85531324894783899992e-01 -1.35243928209360375625e-01 -4.57539680574591423740e-03 -4.27678852849876431352e-02 -4.57539680574591423740e-03 -4.27678852849876431352e-02 9.98553132489478412204e-01 -1.35243928209360358278e-02
9.98429636777889728546e+08 9.85469818839472377903e-01 -1.35527785961352009725e-01 -4.59484672821358023503e-03 -4.28576489877665195438e-02 -4.59484672821358023503e-03 -4.28576489877665195438e-02 9.98546981883947193381e-01 -1.35527785961351999316e-02
9.98433006656048774719e+08 9.85407921482739701524e-01 -1.35812822541378747099e-01 -4.61442039105552578859e-03 -4.29477854687014479196e-02 -4.61442039105552578859e-03 -4.29477854687014479196e-02 9.98540792148273959050e-01 -1.35812822541378705465e-02
9.98436376534207820892e+08 9.85345629511743537066e-01 -1.36099045214251784808e-01 -4.63411884188442632637e-03 -4.30382970251274588058e-02 -4.63411884188442632637e-03 -4.30382970251274588058e-02 9.98534562951174375911e-01 -1.36099045214251763991e-02
9.98439746412366867065e+08 9.85282939578649874512e-01 -1.36386461303771938658e-01 -4.65394313937835674144e-03 -4.31291859730337165391e-02 -4.65394313937835674144e-03 -4.31291859730337165391e-02 9.98528293957865020758e-01 -1.36386461303771907433e-02
9.98443116290525794029e+08 9.85219848300197709179e-01 -1.36675078193286780870e-01 -4.67389435341846425087e-03 -4.32204546472397185819e-02 -4.67389435341846425087e-03 -4.32204546472397185819e-02 9.98521984830019748713e-01 -1.36675078193286749645e-02
9.98446486168684840202e+08 9.85156352257234746439e-01 -1.36964903326354331403e-01 -4.69397356523554905999e-03 -4.33121054016052040025e-02 -4.69397356523554905999e-03 -4.33121054016052040025e-02 9.98515635225723507951e-01 -1.36964903326354317525e-02
9.98449856046843886375e+08 9.85092447994268538558e-01 -1.37255944207319735550e-01 -4.71418186755228826867e-03 -4.34041406092124659732e-02 -4.71418186755228826867e-03 -4.34041406092124659732e-02 9.98509244799426820549e-01 -1.37255944207319707795e-02
9.98453225925002932549e+08 9.85028132019018509702e-01 -1.37548208401859606287e-01 -4.73452036472479017432e-03 -4.34965626625385196058e-02 -4.73452036472479017432e-03 -4.34965626625385196058e-02 9.98502813201901817663e-01 -1.37548208401859582001e-02
9.98456595803161978722e+08 9.84963400801923461003e-01 -1.37841703537706194993e-01 -4.75499017289831866356e-03 -4.35893739736840923893e-02 -4.75499017289831866356e-03 -4.35893739736840923893e-02 9.98496340080192390509e-01 -1.37841703537706153360e-02
9.98459965681321024895e+08 9.84898250775678829605e-01 -1.38136437305211606796e-01 -4.77559242015360152500e-03 -4.36825769745520578469e-02 -4.77559242015360152500e-03 -4.36825769745520578469e-02 9.98489825077567894063e-01 -1.38136437305211579041e-02
9.98463335559480071068e+08 9.84832678334749300753e-01 -1.38432417458000750488e-01 -4.79632824666102047795e-03 -4.37761741170538953849e-02 -4.79632824666102047795e-03 -4.37761741170538953849e-02 9.98483267833474963382e-01 -1.38432417458000736610e-02
9.98466705437639117241e+08 9.84766679834880198641e-01 -1.38729651813603083177e-01 -4.81719880483508049174e-03 -4.38701678733094749263e-02 -4.81719880483508049174e-03 -4.38701678733094749263e-02 9.98476667983487997660e-01 -1.38729651813603062360e-02
9.98470075315798163414e+08 9.84700251592601993877e-01 -1.39028148254091515890e-01 -4.83820525949114899067e-03 -4.39645607358491105621e-02 -4.83820525949114899067e-03 -4.39645607358491105621e-02 9.98470025159260199388e-01 -1.39028148254091502012e-02
9.98473445193957209587e+08 9.84633389884715937157e-01 -1.39327914726778634424e-01 -4.85934878800804020971e-03 -4.40593552178336969605e-02 -4.85934878800804020971e-03 -4.40593552178336969605e-02 9.98463338988471615920e-01 -1.39327914726778603199e-02
9.98476815072116255760e+08 9.84566090947785466092e-01 -1.39628959244861766686e-01 -4.88063058048886222462e-03 -4.41545538532587475422e-02 -4.88063058048886222462e-03 -4.41545538532587475422e-02 9.98456609094778513303e-01 -1.39628959244861745870e-02
9.98480184950275182724e+08 9.84498350977629166358e-01 -1.39931289888036269886e-01 -4.90205183992143984223e-03 -4.42501591971482532983e-02 -4.90205183992143984223e-03 -4.42501591971482532983e-02 9.98449835097762861125e-01 -1.39931289888036245600e-02
9.98483554828434228897e+08 9.84430166128759664979e-01 -1.40234914803320009913e-01 -4.92361378235564063621e-03 -4.43461738258154811176e-02 -4.92361378235564063621e-03 -4.43461738258154811176e-02 9.98443016612875933191e-01 -1.40234914803319989096e-02
9.98486924706593275070e+08 9.84361532513882919737e-01 -1.40539842205583465073e-01 -4.94531763706175693518e-03 -4.44426003370305758300e-02 -4.94531763706175693518e-03 -4.44426003370305758300e-02 9.98436153251388347485e-01 -1.40539842205583444257e-02
9.98490294584752321243e+08 9.84292446203336002242e-01 -1.40846080378326382609e-01 -4.96716464670834186718e-03 -4.45394413502661415394e-02 -4.96716464670834186718e-03 -4.45394413502661415394e-02 9.98429244620333555815e-01 -1.40846080378326347915e-02
9.98493664462911367416e+08 9.84222903224532874589e-01 -1.41153637674388654499e-01 -4.98915606753741643076e-03 -4.46366995069220895420e-02 -4.98915606753741643076e-03 -4.46366995069220895420e-02 9.98422290322453331868e-01 -1.41153637674388630213e-02
9.98497034341070413589e+08 9.84152899561405281048e-01 -1.41462522516654753968e-01 -5.01129316954124562344e-03 -4.47343774705483629428e-02 -5.01129316954124562344e-03 -4.47343774705483629428e-02 9.98415289956140483696e-01 -1.41462522516654729682e-02
9.98500404219229459763e+08 9.84082431153835535120e-01 -1.41772743398766609690e-01 -5.03357723664180772838e-03 -4.48324779270703743794e-02 -5.03357723664180772838e-03 -4.48324779270703743794e-02 9.98408243115383564614e-01 -1.41772743398766581935e-02
9.98503774097388505936e+08 9.84011493897082312188e-01 -1.42084308885834731395e-01 -5.05600956687223424685e-03 -4.49310035850138747571e-02 -5.05600956687223424685e-03 -4.49310035850138747571e-02 9.98401149389708253423e-01 -1.42084308885834717517e-02
9.98507143975547552109e+08 9.83940083641182350327e-01 -1.42397227615229826636e-01 -5.07859147256618879279e-03 -4.50299571757553085405e-02 -5.07859147256618879279e-03 -4.50299571757553085405e-02 9.98394008364118179522e-01 -1.42397227615229798880e-02
9.98510513853706598282e+08 9.83868196190358035302e-01 -1.42711508297312189564e-01 -5.10132428054500385722e-03 -4.51293414537524695263e-02 -5.10132428054500385722e-03 -4.51293414537524695263e-02 9.98386819619035748019e-01 -1.42711508297312175686e-02
9.98513883731865644455e+08 9.83795827302417214000e-01 -1.43027159716170165771e-01 -5.12420933230765124344e-03 -4.52291591967779599281e-02 -5.12420933230765124344e-03 -4.52291591967779599281e-02 9.98379582730241743604e-01 -1.43027159716170131076e-02
9.98517253610024571419e+08 9.83722972688135799402e-01 -1.43344190730398085565e-01 -5.14724798422586810043e-03 -4.53294132061653129440e-02 -5.14724798422586810043e-03 -4.53294132061653129440e-02 9.98372297268813602145e-01 -1.43344190730398061279e-02
9.98520623488183617592e+08 9.83649628010622945062e-01 -1.43662610273921187432e-01 -5.17044160774499800270e-03 -4.54301063070697286328e-02 -5.17044160774499800270e-03 -4.54301063070697286328e-02 9.98364962801062238995e-01 -1.43662610273921180493e-02
9.98523993366342663765e+08 9.83575788884708313020e-01 -1.43982427356688563735e-01 -5.19379158957760083543e-03 -4.55312413486872805124e-02 -5.19379158957760083543e-03 -4.55312413486872805124e-02 9.98357578888470875711e-01 -1.43982427356688542919e-02
9.98527363244501709938e+08 9.83501450876282268254e-01 -1.44303651065543075971e-01 -5.21729933191233084810e-03 -4.56328212045299802524e-02 -5.21729933191233084810e-03 -4.56328212045299802524e-02 9.98350145087628204621e-01 -1.44303651065543058624e-02
9.98530733122660756111e+08 9.83426609501647397416e-01 -1.44626290565001730526e-01 -5.24096625261873463875e-03 -4.57348487726725871916e-02 -5.24096625261873463875e-03 -4.57348487726725871916e-02 9.98342660950164773048e-01 -1.44626290565001720118e-02
9.98534103000819802284e+08 9.83351260226848045143e-01 -1.44950355098104305407e-01 -5.26479378545952926560e-03 -4.58373269760209006707e-02 -5.26479378545952926560e-03 -4.58373269760209006707e-02 9.98335126022684815617e-01 -1.44950355098104281121e-02
9.98537472878978848457e+08 9.83275398467010286474e-01 -1.45275853987176073456e-01 -5.28878338029911861107e-03 -4.59402587625530253734e-02 -5.28878338029911861107e-03 -4.59402587625530253734e-02 9.98327539846701084159e-01 -1.45275853987176049170e-02
9.98540842757137894630e+08 9.83199019585642819408e-01 -1.45602796634728692826e-01 -5.31293650332480358461e-03 -4.60436471056042198602e-02 -5.31293650332480358461e-03 -4.60436471056042198602e-02 9.98319901958564237532e-01 -1.45602796634728658132e-02
9.98544212635296940804e+08 9.83122118893953955698e-01 -1.45931192524253822151e-01 -5.33725463726275172610e-03 -4.61474950041178694216e-02 -5.33725463726275172610e-03 -4.61474950041178694216e-02 9.98312211889395340059e-01 -1.45931192524253790926e-02
9.98547582513455986977e+08 9.83044691650132196337e-01 -1.46261051221134946720e-01 -5.36173928160533705412e-03 -4.62518054829338109979e-02 -5.36173928160533705412e-03 -4.62518054829338109979e-02 9.98304469165013252940e-01 -1.46261051221134915495e-02
9.98550952391614913940e+08 9.82966733058638464371e-01 -1.46592382373477880808e-01 -5.38639195283521343000e-03 -4.63565815930510050080e-02 -5.38639195283521343000e-03 -4.63565815930510050080e-02 9.98296673305863802028e-01 -1.46592382373477870400e-02
9.98554322269773960114e+08 9.82888238269473024644e-01 -1.46925195713006773168e-01 -5.41121418465698080652e-03 -4.64618264119108226318e-02 -5.41121418465698080652e-03 -4.64618264119108226318e-02 9.98288823826947280260e-01 -1.46925195713006745413e-02
9.98557692147933006287e+08 9.82809202377439072862e-01 -1.47259501055937630509e-01 -5.43620752823002588439e-03 -4.65675430436733456263e-02 -5.43620752823002588439e-03 -4.65675430436733456263e-02 9.98280920237743951695e-01 -1.47259501055937609693e-02
9.98561062026092052460e+08 9.82729620421385896556e-01 -1.47595308303901912028e-01 -5.46137355240794430955e-03 -4.66737346195093480428e-02 -5.46137355240794430955e-03 -4.66737346195093480428e-02 9.98272962042138556349e-01 -1.47595308303901887742e-02
9.98564431904251098633e+08 9.82649487383449149469e-01 -1.47932627444842618170e-01 -5.48671384397884931428e-03 -4.67804042978837500422e-02 -5.48671384397884931428e-03 -4.67804042978837500422e-02 9.98264948738344926049e-01 -1.47932627444842586945e-02
9.98567801782410144806e+08 9.82568798188276693040e-01 -1.48271468553927560086e-01 -5.51223000790992349179e-03 -4.68875552648443522097e-02 -5.51223000790992349179e-03 -4.68875552648443522097e-02 9.98256879818827713713e-01 -1.48271468553927542738e-02
9.98571171660569190979e+08 9.82487547702228014579e-01 -1.48611841794540538997e-01 -5.53792366760088097810e-03 -4.69951907343353000868e-02 -5.53792366760088097810e-03 -4.69951907343353000868e-02 9.98248754770222790356e-01 -1.48611841794540518180e-02
9.98574541538728237152e+08 9.82405730732585857901e-01 -1.48953757419173743459e-01 -5.56379646513309282507e-03 -4.71033139484793167417e-02 -5.56379646513309282507e-03 -4.71033139484793167417e-02 9.98240573073258530279e-01 -1.48953757419173736520e-02
9.98577911416887283325e+08 9.82323342026746870737e-01 -1.49297225770369884623e-01 -5.58985006152554631670e-03 -4.72119281778755547907e-02 -5.58985006152554631670e-03 -4.72119281778755547907e-02 9.98232334202674653767e-01 -1.49297225770369870745e-02
