! File generated for n1 = 4, n2 = 7
! b1 = 10.000000
! b2 = 0.100000
! Q0 = 10000.000000
! f0 = 1000000000.000000
! n = 1001
! rel_span = 10.000000
# Hz S RI R 50
9.94450000000000000000e+08 9.82258549221977861343e-01 -1.77909580693984131772e-01 -1.77414507780221148044e-03 -1.77909580693984062383e-02 -1.77414507780221148044e-03 -1.77909580693984062383e-02 9.99822585492219806369e-01 -1.77909580693984053709e-03
9.94461100000000000000e+08 9.82187876205853127587e-01 -1.78260048783098173919e-01 -1.78121237941468533311e-03 -1.78260048783098132286e-02 -1.78121237941468533311e-03 -1.78260048783098132286e-02 9.99821878762058524615e-01 -1.78260048783098097591e-03
9.94472200000000000000e+08 9.82116782275453514828e-01 -1.78611882140909589145e-01 -1.78832177245464413705e-03 -1.78611882140909533634e-02 -1.78832177245464413705e-03 -1.78611882140909533634e-02 9.99821167822754541810e-01 -1.78611882140909498939e-03
9.94483300000000000000e+08 9.82045264094619896333e-01 -1.78965088673063488223e-01 -1.79547359053801292537e-03 -1.78965088673063432712e-02 -1.79547359053801292537e-03 -1.78965088673063432712e-02 9.99820452640946211176e-01 -1.78965088673063406691e-03
9.94494400000000000000e+08 9.81973318294193098232e-01 -1.79319676345647910365e-01 -1.80266817058068618690e-03 -1.79319676345647861793e-02 -1.80266817058068618690e-03 -1.79319676345647861793e-02 9.99819733182941927652e-01 -1.79319676345647831435e-03
9.94505500000000000000e+08 9.81900941471627985990e-01 -1.79675653185743577911e-01 -1.80990585283720547757e-03 -1.79675653185743522400e-02 -1.80990585283720547757e-03 -1.79675653185743522400e-02 9.99819009414716242112e-01 -1.79675653185743487705e-03
9.94516600000000000000e+08 9.81828130190595671500e-01 -1.80033027282003071923e-01 -1.81718698094042820958e-03 -1.80033027282003044167e-02 -1.81718698094042820958e-03 -1.80033027282003044167e-02 9.99818281301905975589e-01 -1.80033027282002996462e-03
9.94527700000000000000e+08 9.81754880980578170657e-01 -1.80391806785257541312e-01 -1.82451190194218132966e-03 -1.80391806785257478862e-02 -1.82451190194218132966e-03 -1.80391806785257478862e-02 9.99817548809805778376e-01 -1.80391806785257452841e-03
9.94538800000000000000e+08 9.81681190336465392399e-01 -1.80751999909080390827e-01 -1.83188096635346548725e-03 -1.80751999909080328377e-02 -1.83188096635346548725e-03 -1.80751999909080328377e-02 9.99816811903364688341e-01 -1.80751999909080298019e-03
9.94549900000000000000e+08 9.81607054718138694049e-01 -1.81113614930402289094e-01 -1.83929452818612634499e-03 -1.81113614930402226644e-02 -1.83929452818612634499e-03 -1.81113614930402226644e-02 9.99816070547181356964e-01 -1.81113614930402213633e-03
9.94561000000000000000e+08 9.81532470550056657110e-01 -1.81476660190094868375e-01 -1.84675294499432986542e-03 -1.81476660190094812863e-02 -1.84675294499432986542e-03 -1.81476660190094812863e-02 9.99815324705500607649e-01 -1.81476660190094769495e-03
9.94572100000000000000e+08 9.81457434220824098681e-01 -1.81841144093608464427e-01 -1.85425657791758800690e-03 -1.81841144093608415855e-02 -1.85425657791758800690e-03 -1.81841144093608415855e-02 9.99814574342208217672e-01 -1.81841144093608368150e-03
9.94583200000000000000e+08 9.81381942082766633995e-01 -1.82207075111566030312e-01 -1.86180579172333274078e-03 -1.82207075111565953984e-02 -1.86180579172333274078e-03 -1.82207075111565953984e-02 9.99813819420827698536e-01 -1.82207075111565932300e-03
9.94594300000000000000e+08 9.81305990451491250148e-01 -1.82574461780401847699e-01 -1.86940095485087459486e-03 -1.82574461780401799127e-02 -1.86940095485087459486e-03 -1.82574461780401799127e-02 9.99813059904514966902e-01 -1.82574461780401781780e-03
9.94605400000000000000e+08 9.81229575605445769604e-01 -1.82943312702980614981e-01 -1.87704243945541779208e-03 -1.82943312702980552531e-02 -1.87704243945541779208e-03 -1.82943312702980552531e-02 9.99812295756054458806e-01 -1.82943312702980539521e-03
9.94616500000000000000e+08 9.81152693785467100440e-01 -1.83313636549252145791e-01 -1.88473062145328969577e-03 -1.83313636549252076402e-02 -1.88473062145328969577e-03 -1.83313636549252076402e-02 9.99811526937854688768e-01 -1.83313636549252054718e-03
9.94627600000000000000e+08 9.81075341194328709449e-01 -1.83685442056881115258e-01 -1.89246588056713035617e-03 -1.83685442056881059747e-02 -1.89246588056713035617e-03 -1.83685442056881059747e-02 9.99810753411943253788e-01 -1.83685442056881020716e-03
9.94638700000000000000e+08 9.80997513996277104020e-01 -1.84058738031911223176e-01 -1.90024860037228747293e-03 -1.84058738031911174604e-02 -1.90024860037228747293e-03 -1.84058738031911174604e-02 9.99809975139962725521e-01 -1.84058738031911135573e-03
9.94649800000000000000e+08 9.80919208316563984162e-01 -1.84433533349424250147e-01 -1.90807916834360210417e-03 -1.84433533349424201575e-02 -1.90807916834360210417e-03 -1.84433533349424201575e-02 9.99809192083165654275e-01 -1.84433533349424145197e-03
9.94660900000000000000e+08 9.80840420240973065447e-01 -1.84809836954198725145e-01 -1.91595797590269115683e-03 -1.84809836954198669634e-02 -1.91595797590269115683e-03 -1.84809836954198669634e-02 9.99808404202409684025e-01 -1.84809836954198626266e-03
9.94672000000000000000e+08 9.80761145815336132792e-01 -1.85187657861399262993e-01 -1.92388541846638303455e-03 -1.85187657861399235237e-02 -1.92388541846638303455e-03 -1.85187657861399235237e-02 9.99807611458153333572e-01 -1.85187657861399191869e-03
9.94683100000000000000e+08 9.80681381045044431310e-01 -1.85567005157260239701e-01 -1.93186189549555834347e-03 -1.85567005157260198067e-02 -1.93186189549555834347e-03 -1.85567005157260198067e-02 9.99806813810450445423e-01 -1.85567005157260146025e-03
9.94694200000000000000e+08 9.80601121894558391823e-01 -1.85947887999752564658e-01 -1.93988781054416537138e-03 -1.85947887999752502208e-02 -1.93988781054416537138e-03 -1.85947887999752502208e-02 9.99806011218945633878e-01 -1.85947887999752463177e-03
9.94705300000000000000e+08 9.80520364286896151107e-01 -1.86330315619327002707e-01 -1.94796357131038488930e-03 -1.86330315619326961074e-02 -1.94796357131038488930e-03 -1.86330315619326961074e-02 9.99805203642868955960e-01 -1.86330315619326922043e-03
9.94716400000000000000e+08 9.80439104103134173585e-01 -1.86714297319574146217e-01 -1.95608958968658498342e-03 -1.86714297319574111522e-02 -1.95608958968658498342e-03 -1.86714297319574111522e-02 9.99804391041031359499e-01 -1.86714297319574081165e-03
9.94727500000000000000e+08 9.80357337181881005606e-01 -1.87099842477982225564e-01 -1.96426628181189943945e-03 -1.87099842477982149236e-02 -1.96426628181189943945e-03 -1.87099842477982149236e-02 9.99803573371818798954e-01 -1.87099842477982136225e-03
9.94738600000000000000e+08 9.80275059318759467430e-01 -1.87486960546632053237e-01 -1.97249406812405108855e-03 -1.87486960546631997726e-02 -1.97249406812405108855e-03 -1.87486960546631997726e-02 9.99802750593187572470e-01 -1.87486960546631958695e-03
9.94749700000000000000e+08 9.80192266265874190267e-01 -1.87875661052931963724e-01 -1.98077337341257941200e-03 -1.87875661052931929029e-02 -1.98077337341257941200e-03 -1.87875661052931929029e-02 9.99801922662658770768e-01 -1.87875661052931881324e-03
9.94760800000000000000e+08 9.80108953731265941656e-01 -1.88265953600386976019e-01 -1.98910462687340236498e-03 -1.88265953600386913569e-02 -1.98910462687340236498e-03 -1.88265953600386913569e-02 9.99801089537312615008e-01 -1.88265953600386874538e-03
9.94771900000000000000e+08 9.80025117378373500365e-01 -1.88657847869306255495e-01 -1.99748826216264571340e-03 -1.88657847869306213862e-02 -1.99748826216264571340e-03 -1.88657847869306213862e-02 9.99800251173783682823e-01 -1.88657847869306161820e-03
9.94783000000000000000e+08 9.79940752825472216614e-01 -1.89051353617590234268e-01 -2.00592471745278302236e-03 -1.89051353617590185696e-02 -2.00592471745278302236e-03 -1.89051353617590185696e-02 9.99799407528254691080e-01 -1.89051353617590155339e-03
9.94794100000000000000e+08 9.79855855645110795926e-01 -1.89446480681495832421e-01 -2.01441443548892136148e-03 -1.89446480681495776910e-02 -2.01441443548892136148e-03 -1.89446480681495776910e-02 9.99798558556451055779e-01 -1.89446480681495750889e-03
9.94805200000000000000e+08 9.79770421363543420057e-01 -1.89843238976398737128e-01 -2.02295786364565252993e-03 -1.89843238976398660800e-02 -2.02295786364565252993e-03 -1.89843238976398660800e-02 9.99797704213635451964e-01 -1.89843238976398630442e-03
9.94816300000000000000e+08 9.79684445460146324791e-01 -1.90241638497594428570e-01 -2.03155545398536925561e-03 -1.90241638497594366120e-02 -2.03155545398536925561e-03 -1.90241638497594366120e-02 9.99796844454601485452e-01 -1.90241638497594335762e-03
9.94827400000000000000e+08 9.79597923366833045478e-01 -1.90641689321074558894e-01 -2.04020766331669935537e-03 -1.90641689321074531138e-02 -2.04020766331669935537e-03 -1.90641689321074531138e-02 9.99795979233668363761e-01 -1.90641689321074492107e-03
9.94838500000000000000e+08 9.79510850467456006818e-01 -1.91043401604340634670e-01 -2.04891495325439966513e-03 -1.91043401604340593036e-02 -2.04891495325439966513e-03 -1.91043401604340593036e-02 9.99795108504674567840e-01 -1.91043401604340545331e-03
9.94849600000000000000e+08 9.79423222097197010427e-01 -1.91446785587234907799e-01 -2.05767779028030121241e-03 -1.91446785587234859227e-02 -2.05767779028030121241e-03 -1.91446785587234859227e-02 9.99794232220971967884e-01 -1.91446785587234824533e-03
9.94860700000000000000e+08 9.79335033541961164083e-01 -1.91851851592723304796e-01 -2.06649664580388489274e-03 -1.91851851592723249285e-02 -2.06649664580388489274e-03 -1.91851851592723249285e-02 9.99793350335419606090e-01 -1.91851851592723205917e-03
9.94871800000000000000e+08 9.79246280037747274250e-01 -1.92258610027757764760e-01 -2.07537199622527578427e-03 -1.92258610027757730065e-02 -2.07537199622527578427e-03 -1.92258610027757730065e-02 9.99792462800377479404e-01 -1.92258610027757682361e-03
9.94882900000000000000e+08 9.79156956770015352021e-01 -1.92667071384116428412e-01 -2.08430432299846687960e-03 -1.92667071384116372901e-02 -2.08430432299846687960e-03 -1.92667071384116372901e-02 9.99791569567700100230e-01 -1.92667071384116359890e-03
9.94894000000000000000e+08 9.79067058873048789991e-01 -1.93077246239237831915e-01 -2.09329411269511744473e-03 -1.93077246239237755587e-02 -2.09329411269511744473e-03 -1.93077246239237755587e-02 9.99790670588730501223e-01 -1.93077246239237729566e-03
9.94905100000000000000e+08 9.78976581429296777159e-01 -1.93489145257111416765e-01 -2.10234185707032289123e-03 -1.93489145257111361254e-02 -2.10234185707032289123e-03 -1.93489145257111361254e-02 9.99789765814293018842e-01 -1.93489145257111317885e-03
9.94916200000000000000e+08 9.78885519468719489389e-01 -1.93902779189119661707e-01 -2.11144805312805244890e-03 -1.93902779189119613135e-02 -2.11144805312805244890e-03 -1.93902779189119613135e-02 9.99788855194687187122e-01 -1.93902779189119569767e-03
9.94927300000000000000e+08 9.78793867968113517897e-01 -1.94318158874939500569e-01 -2.12061320318865115936e-03 -1.94318158874939445058e-02 -2.12061320318865115936e-03 -1.94318158874939445058e-02 9.99787938679681187359e-01 -1.94318158874939406026e-03
9.94938400000000000000e+08 9.78701621850431191518e-01 -1.94735295243433387258e-01 -2.12983781495688006755e-03 -1.94735295243433359502e-02 -2.12983781495688006755e-03 -1.94735295243433359502e-02 9.99787016218504298593e-01 -1.94735295243433307461e-03
9.94949500000000000000e+08 9.78608775984089684918e-01 -1.95154199313553933237e-01 -2.13912240159103150816e-03 -1.95154199313553877726e-02 -2.13912240159103150816e-03 -1.95154199313553877726e-02 9.99786087759840902400e-01 -1.95154199313553843032e-03
9.94960600000000000000e+08 9.78515325182272577287e-01 -1.95574882195243798799e-01 -2.14846748177273654673e-03 -1.95574882195243757166e-02 -2.14846748177273654673e-03 -1.95574882195243757166e-02 9.99785153251822711340e-01 -1.95574882195243731145e-03
9.94971700000000000000e+08 9.78421264202211427019e-01 -1.95997355090393232668e-01 -2.15787357977885408886e-03 -1.95997355090393177157e-02 -2.15787357977885408886e-03 -1.95997355090393177157e-02 9.99784212642022107609e-01 -1.95997355090393125115e-03
9.94982800000000000000e+08 9.78326587744470677066e-01 -1.96421629293741240030e-01 -2.16734122555293368118e-03 -1.96421629293741170641e-02 -2.16734122555293368118e-03 -1.96421629293741170641e-02 9.99783265877444704550e-01 -1.96421629293741127273e-03
9.94993900000000000000e+08 9.78231290452207802311e-01 -1.96847716193853522482e-01 -2.17687095477921794748e-03 -1.96847716193853487787e-02 -2.17687095477921794748e-03 -1.96847716193853487787e-02 9.99782312904522130204e-01 -1.96847716193853435745e-03
9.95005000000000000000e+08 9.78135366910433345922e-01 -1.97275627274063142247e-01 -2.18646330895666237207e-03 -1.97275627274063093675e-02 -2.18646330895666237207e-03 -1.97275627274063093675e-02 9.99781353669104366766e-01 -1.97275627274063041633e-03
9.95016100000000000000e+08 9.78038811645253525207e-01 -1.97705374113447851503e-01 -2.19611883547465164268e-03 -1.97705374113447789053e-02 -2.19611883547465164268e-03 -1.97705374113447789053e-02 9.99780388116452534142e-01 -1.97705374113447745685e-03
9.95027200000000000000e+08 9.77941619123103400568e-01 -1.98136968387811224224e-01 -2.20583808768966141770e-03 -1.98136968387811161774e-02 -2.20583808768966141770e-03 -1.98136968387811161774e-02 9.99779416191231007360e-01 -1.98136968387811144426e-03
9.95038300000000000000e+08 9.77843783749965722585e-01 -1.98570421870690294597e-01 -2.21562162500343190485e-03 -1.98570421870690252963e-02 -2.21562162500343190485e-03 -1.98570421870690252963e-02 9.99778437837499645013e-01 -1.98570421870690200922e-03
9.95049400000000000000e+08 9.77745299870586004332e-01 -1.99005746434334773731e-01 -2.22547001294139644434e-03 -1.99005746434334704342e-02 -2.22547001294139644434e-03 -1.99005746434334704342e-02 9.99777452998705906673e-01 -1.99005746434334669648e-03
9.95060500000000000000e+08 9.77646161767663279818e-01 -1.99442954050758097795e-01 -2.23538382323366967633e-03 -1.99442954050758035345e-02 -2.23538382323366967633e-03 -1.99442954050758035345e-02 9.99776461617676637239e-01 -1.99442954050757991977e-03
9.95071600000000000000e+08 9.77546363661039974247e-01 -1.99882056792745482765e-01 -2.24536363389600231513e-03 -1.99882056792745413376e-02 -2.24536363389600231513e-03 -1.99882056792745413376e-02 9.99775463636610406404e-01 -1.99882056792745387355e-03
9.95082700000000000000e+08 9.77445899706870902079e-01 -2.00323066834915713974e-01 -2.25541002931291343497e-03 -2.00323066834915651524e-02 -2.25541002931291343497e-03 -2.00323066834915651524e-02 9.99774458997068737887e-01 -2.00323066834915634177e-03
9.95093800000000000000e+08 9.77344763996787602167e-01 -2.00765996454757844614e-01 -2.26552360032123561995e-03 -2.00765996454757775225e-02 -2.26552360032123561995e-03 -2.00765996454757775225e-02 9.99773447639967893785e-01 -2.00765996454757740530e-03
9.95104900000000000000e+08 9.77242950557042355797e-01 -2.01210858033716633031e-01 -2.27570494429575869572e-03 -2.01210858033716577520e-02 -2.27570494429575869572e-03 -2.01210858033716577520e-02 9.99772429505570436881e-01 -2.01210858033716534152e-03
9.95116000000000000000e+08 9.77140453347641213533e-01 -2.01657664058277563690e-01 -2.28595466523588307026e-03 -2.01657664058277515118e-02 -2.28595466523588307026e-03 -2.01657664058277515118e-02 9.99771404533476459875e-01 -2.01657664058277471750e-03
9.95127100000000000000e+08 9.77037266261468473338e-01 -2.02106427121045317818e-01 -2.29627337385315041102e-03 -2.02106427121045290063e-02 -2.29627337385315041102e-03 -2.02106427121045290063e-02 9.99770372662614703607e-01 -2.02106427121045246695e-03
9.95138200000000000000e+08 9.76933383123391063663e-01 -2.02557159921868984442e-01 -2.30666168766089502151e-03 -2.02557159921868956687e-02 -2.30666168766089502151e-03 -2.02557159921868956687e-02 9.99769333831233897314e-01 -2.02557159921868887298e-03
9.95149300000000000000e+08 9.76828797689349159761e-01 -2.03009875268972073137e-01 -2.31712023106508046774e-03 -2.03009875268972024565e-02 -2.31712023106508046774e-03 -2.03009875268972024565e-02 9.99768287976893543778e-01 -2.03009875268971972523e-03
9.95160400000000000000e+08 9.76723503645445023658e-01 -2.03464586080051385020e-01 -2.32764963545549832813e-03 -2.03464586080051336447e-02 -2.32764963545549832813e-03 -2.03464586080051336447e-02 9.99767235036454482433e-01 -2.03464586080051275732e-03
9.95171500000000000000e+08 9.76617494606993541417e-01 -2.03921305383486933804e-01 -2.33825053930064065411e-03 -2.03921305383486864415e-02 -2.33825053930064065411e-03 -2.03921305383486864415e-02 9.99766174946069896556e-01 -2.03921305383486821047e-03
9.95182600000000000000e+08 9.76510764117586416155e-01 -2.04380046319450559000e-01 -2.34892358824136289475e-03 -2.04380046319450510428e-02 -2.34892358824136289475e-03 -2.04380046319450510428e-02 9.99765107641175876374e-01 -2.04380046319450458386e-03
9.95193700000000000000e+08 9.76403305648117614268e-01 -2.04840822141124617728e-01 -2.35966943518823354248e-03 -2.04840822141124576095e-02 -2.35966943518823354248e-03 -2.04840822141124576095e-02 9.99764033056481205008e-01 -2.04840822141124506706e-03
9.95204800000000000000e+08 9.76295112595808589617e-01 -2.05303646215880514214e-01 -2.37048874041913488001e-03 -2.05303646215880472581e-02 -2.37048874041913488001e-03 -2.05303646215880472581e-02 9.99762951125958032605e-01 -2.05303646215880411866e-03
9.95215900000000000000e+08 9.76186178283212413476e-01 -2.05768532026487843689e-01 -2.38138217167875500951e-03 -2.05768532026487788178e-02 -2.38138217167875500951e-03 -2.05768532026487788178e-02 9.99761861782832106371e-01 -2.05768532026487762157e-03
9.95227000000000000000e+08 9.76076495957202916465e-01 -2.06235493172341244339e-01 -2.39235040427971138929e-03 -2.06235493172341188828e-02 -2.39235040427971138929e-03 -2.06235493172341188828e-02 9.99760764959572001409e-01 -2.06235493172341128112e-03
9.95238100000000000000e+08 9.75966058787948509412e-01 -2.06704543370697602089e-01 -2.40339412120514845164e-03 -2.06704543370697553517e-02 -2.40339412120514845164e-03 -2.06704543370697553517e-02 9.99759660587879461779e-01 -2.06704543370697527496e-03
9.95249200000000000000e+08 9.75854859867867130419e-01 -2.07175696457942953854e-01 -2.41451401321328938676e-03 -2.07175696457942912221e-02 -2.41451401321328938676e-03 -2.07175696457942912221e-02 9.99758548598678631336e-01 -2.07175696457942860179e-03
9.95260300000000000000e+08 9.75742892210571866052e-01 -2.07648966390839767593e-01 -2.42571077894280714982e-03 -2.07648966390839712082e-02 -2.42571077894280714982e-03 -2.07648966390839712082e-02 9.99757428922105728653e-01 -2.07648966390839651366e-03
9.95271400000000000000e+08 9.75630148749787262652e-01 -2.08124367247849439977e-01 -2.43698512502127243376e-03 -2.08124367247849370588e-02 -2.43698512502127243376e-03 -2.08124367247849370588e-02 9.99756301487497833769e-01 -2.08124367247849344567e-03
9.95282500000000000000e+08 9.75516622338267191950e-01 -2.08601913230384988784e-01 -2.44833776617327681518e-03 -2.08601913230384919395e-02 -2.44833776617327681518e-03 -2.08601913230384919395e-02 9.99755166223382674140e-01 -2.08601913230384902048e-03
9.95293600000000000000e+08 9.75402305746673192743e-01 -2.09081618664180707290e-01 -2.45976942533267803684e-03 -2.09081618664180672595e-02 -2.45976942533267803684e-03 -2.09081618664180672595e-02 9.99754023057466745250e-01 -2.09081618664180629227e-03
9.95304700000000000000e+08 9.75287191662451480312e-01 -2.09563498000604114813e-01 -2.47128083375485656584e-03 -2.09563498000604059301e-02 -2.47128083375485656584e-03 -2.09563498000604059301e-02 9.99752871916624541448e-01 -2.09563498000604015933e-03
9.95315800000000000000e+08 9.75171272688689416697e-01 -2.10047565817996578774e-01 -2.48287273113105772318e-03 -2.10047565817996530202e-02 -2.48287273113105772318e-03 -2.10047565817996530202e-02 9.99751712726886898608e-01 -2.10047565817996460813e-03
