! File generated for n1 = 1, n2 = 7
! b1 = 100.000000
! b2 = 1.000000
! Q0 = 10000.000000
! f0 = 1000000000.000000
! n = 1001
! rel_span = 10.000000
# Hz S RI R 50
9.49000000000000000000e+08 9.81579588144289694185e-01 -1.89153755040987137104e-01 -1.84204118557102793606e-03 -1.89153755040987123226e-02 -1.84204118557102793606e-03 -1.89153755040987123226e-02 9.99815795881442870296e-01 -1.89153755040987066847e-03
9.49102000000000000000e+08 9.81504361452149920453e-01 -1.89535931400007323644e-01 -1.84956385478501103385e-03 -1.89535931400007309766e-02 -1.84956385478501103385e-03 -1.89535931400007309766e-02 9.99815043614521448134e-01 -1.89535931400007257724e-03
9.49204000000000000000e+08 9.81428683051463579545e-01 -1.89919596526297196348e-01 -1.85713169485363983370e-03 -1.89919596526297168593e-02 -1.85713169485363983370e-03 -1.89919596526297168593e-02 9.99814286830514653559e-01 -1.89919596526297112214e-03
9.49306000000000000000e+08 9.81352549346771629857e-01 -1.90304759047049881771e-01 -1.86474506532283514949e-03 -1.90304759047049826259e-02 -1.86474506532283514949e-03 -1.90304759047049826259e-02 9.99813525493467691874e-01 -1.90304759047049795902e-03
9.49408000000000000000e+08 9.81275956706956775655e-01 -1.90691427655457212964e-01 -1.87240432930432690144e-03 -1.90691427655457178270e-02 -1.87240432930432690144e-03 -1.90691427655457178270e-02 9.99812759567069608835e-01 -1.90691427655457113217e-03
9.49510000000000000000e+08 9.81198901464821027218e-01 -1.91079611111328984130e-01 -1.88010985351789723478e-03 -1.91079611111328942497e-02 -1.88010985351789723478e-03 -1.91079611111328942497e-02 9.99811989014648183627e-01 -1.91079611111328890455e-03
9.49612000000000000000e+08 9.81121379916656266573e-01 -1.91469318241727998187e-01 -1.88786200833436978649e-03 -1.91469318241727949614e-02 -1.88786200833436978649e-03 -1.91469318241727949614e-02 9.99811213799166598193e-01 -1.91469318241727906246e-03
9.49714000000000000000e+08 9.81043388321809040065e-01 -1.91860557941606391097e-01 -1.89566116781909313124e-03 -1.91860557941606335586e-02 -1.89566116781909313124e-03 -1.91860557941606335586e-02 9.99810433883218108164e-01 -1.91860557941606296554e-03
9.49816000000000000000e+08 9.80964922902239355729e-01 -1.92253339174451809424e-01 -1.90350770977606932773e-03 -1.92253339174451760851e-02 -1.90350770977606932773e-03 -1.92253339174451760851e-02 9.99809649229022379124e-01 -1.92253339174451717483e-03
9.49918000000000000000e+08 9.80885979842073374435e-01 -1.92647670972938694911e-01 -1.91140201579265882684e-03 -1.92647670972938660217e-02 -1.91140201579265882684e-03 -1.92647670972938660217e-02 9.99808859798420712650e-01 -1.92647670972938603838e-03
9.50020000000000000000e+08 9.80806555287150549916e-01 -1.93043562439588783919e-01 -1.91934447128494349057e-03 -1.93043562439588756163e-02 -1.91934447128494349057e-03 -1.93043562439588756163e-02 9.99808065552871494397e-01 -1.93043562439588708458e-03
9.50122000000000000000e+08 9.80726645344562664164e-01 -1.93441022747439350660e-01 -1.92733546554373015754e-03 -1.93441022747439309026e-02 -1.92733546554373015754e-03 -1.93441022747439309026e-02 9.99807266453445642185e-01 -1.93441022747439274332e-03
9.50224000000000000000e+08 9.80646246082188643989e-01 -1.93840061140716252153e-01 -1.93537539178113815984e-03 -1.93840061140716224397e-02 -1.93537539178113815984e-03 -1.93840061140716224397e-02 9.99806462460821832039e-01 -1.93840061140716150671e-03
9.50326000000000000000e+08 9.80565353528220606805e-01 -1.94240686935519185630e-01 -1.94346464717793624040e-03 -1.94240686935519130119e-02 -1.94346464717793624040e-03 -1.94240686935519130119e-02 9.99805653535282168320e-01 -1.94240686935519095424e-03
9.50428000000000000000e+08 9.80483963670685798597e-01 -1.94642909520508528010e-01 -1.95160363293141484939e-03 -1.94642909520508500254e-02 -1.95160363293141484939e-03 -1.94642909520508500254e-02 9.99804839636706854655e-01 -1.94642909520508443875e-03
9.50530000000000000000e+08 9.80402072456959539082e-01 -1.95046738357605636827e-01 -1.95979275430404860717e-03 -1.95046738357605616010e-02 -1.95979275430404860717e-03 -1.95046738357605616010e-02 9.99804020724569642020e-01 -1.95046738357605546621e-03
9.50632000000000000000e+08 9.80319675793271838593e-01 -1.95452182982699534941e-01 -1.96803242067281362535e-03 -1.95452182982699500247e-02 -1.96803242067281362535e-03 -1.95452182982699500247e-02 9.99803196757932721717e-01 -1.95452182982699474226e-03
9.50734000000000000000e+08 9.80236769544208574878e-01 -1.95859253006358924321e-01 -1.97632304557913930296e-03 -1.95859253006358882687e-02 -1.97632304557913930296e-03 -1.95859253006358882687e-02 9.99802367695442062434e-01 -1.95859253006358839319e-03
9.50836000000000000000e+08 9.80153349532203566064e-01 -1.96267958114555995941e-01 -1.98466504677964703657e-03 -1.96267958114555961247e-02 -1.98466504677964703657e-03 -1.96267958114555961247e-02 9.99801533495322081180e-01 -1.96267958114555891858e-03
9.50938000000000000000e+08 9.80069411537024315351e-01 -1.96678308069396456936e-01 -1.99305884629756655674e-03 -1.96678308069396443059e-02 -1.99305884629756655674e-03 -1.96678308069396443059e-02 9.99800694115370203185e-01 -1.96678308069396382343e-03
9.51040000000000000000e+08 9.79984951295251094372e-01 -1.97090312709858855866e-01 -2.00150487047489385878e-03 -1.97090312709858814233e-02 -2.00150487047489385878e-03 -1.97090312709858814233e-02 9.99799849512952532038e-01 -1.97090312709858770865e-03
9.51142000000000000000e+08 9.79899964499747255786e-01 -1.97503981952541290967e-01 -2.01000355002527945208e-03 -1.97503981952541242395e-02 -2.01000355002527945208e-03 -1.97503981952541242395e-02 9.99798999644997521408e-01 -1.97503981952541199027e-03
9.51244000000000000000e+08 9.79814446799123106580e-01 -1.97919325792417888366e-01 -2.01855532008768422461e-03 -1.97919325792417846732e-02 -2.01855532008768422461e-03 -1.97919325792417846732e-02 9.99798144467991201090e-01 -1.97919325792417786017e-03
9.51346000000000000000e+08 9.79728393797191787762e-01 -1.98336354303604578408e-01 -2.02716062028082113708e-03 -1.98336354303604543714e-02 -2.02716062028082113708e-03 -1.98336354303604543714e-02 9.99797283937971958956e-01 -1.98336354303604465651e-03
9.51448000000000000000e+08 9.79641801052417271478e-01 -1.98755077640128896554e-01 -2.03581989475827432670e-03 -1.98755077640128882677e-02 -2.03581989475827432670e-03 -1.98755077640128882677e-02 9.99796418010524212683e-01 -1.98755077640128813288e-03
9.51550000000000000000e+08 9.79554664077354031448e-01 -1.99175506036718186209e-01 -2.04453359226460223280e-03 -1.99175506036718130698e-02 -2.04453359226460223280e-03 -1.99175506036718130698e-02 9.99795546640773524771e-01 -1.99175506036718087330e-03
9.51652000000000000000e+08 9.79466978338079830024e-01 -1.99597649809585581115e-01 -2.05330216619202012007e-03 -1.99597649809585518665e-02 -2.05330216619202012007e-03 -1.99597649809585518665e-02 9.99794669783380829386e-01 -1.99597649809585492645e-03
9.51754000000000000000e+08 9.79378739253619179372e-01 -2.00021519357234417447e-01 -2.06212607463808266992e-03 -2.00021519357234354997e-02 -2.06212607463808266992e-03 -2.00021519357234354997e-02 9.99793787392536215108e-01 -2.00021519357234311629e-03
9.51856000000000000000e+08 9.79289942195358920074e-01 -2.00447125161267364346e-01 -2.07100578046410556399e-03 -2.00447125161267343529e-02 -2.07100578046410556399e-03 -2.00447125161267343529e-02 9.99792899421953595862e-01 -2.00447125161267282814e-03
9.51958000000000000000e+08 9.79200582486455917142e-01 -2.00874477787203520318e-01 -2.07994175135440672458e-03 -2.00874477787203499501e-02 -2.07994175135440672458e-03 -2.00874477787203499501e-02 9.99792005824864604691e-01 -2.00874477787203438786e-03
9.52060000000000000000e+08 9.79110655401234653006e-01 -2.01303587885311802141e-01 -2.08893445987653591372e-03 -2.01303587885311753569e-02 -2.08893445987653591372e-03 -2.01303587885311753569e-02 9.99791106554012376506e-01 -2.01303587885311727548e-03
9.52162000000000000000e+08 9.79020156164577826097e-01 -2.01734466191445721561e-01 -2.09798438354221903832e-03 -2.01734466191445666050e-02 -2.09798438354221903832e-03 -2.01734466191445666050e-02 9.99790201561645774930e-01 -2.01734466191445631356e-03
9.52264000000000000000e+08 9.78929079951307068441e-01 -2.02167123527893705104e-01 -2.10709200486929298241e-03 -2.02167123527893684287e-02 -2.10709200486929298241e-03 -2.02167123527893684287e-02 9.99789290799513064023e-01 -2.02167123527893614898e-03
9.52366000000000000000e+08 9.78837421885554781475e-01 -2.02601570804237490764e-01 -2.11625781144451647481e-03 -2.02601570804237449130e-02 -2.11625781144451647481e-03 -2.02601570804237449130e-02 9.99788374218855580011e-01 -2.02601570804237423110e-03
9.52468000000000000000e+08 9.78745177040127423140e-01 -2.03037819018219101164e-01 -2.12548229598726176257e-03 -2.03037819018219087286e-02 -2.12548229598726176257e-03 -2.03037819018219087286e-02 9.99787451770401291995e-01 -2.03037819018219009223e-03
9.52570000000000000000e+08 9.78652340435857803769e-01 -2.03475879256622110836e-01 -2.13476595641421979660e-03 -2.03475879256622069202e-02 -2.13476595641421979660e-03 -2.03475879256622069202e-02 9.99786523404358584699e-01 -2.03475879256622034508e-03
9.52672000000000000000e+08 9.78558907040950498590e-01 -2.03915762696157965017e-01 -2.14410929590495456451e-03 -2.03915762696157930323e-02 -2.14410929590495456451e-03 -2.03915762696157930323e-02 9.99785589070409486112e-01 -2.03915762696157878281e-03
9.52774000000000000000e+08 9.78464871770314714716e-01 -2.04357480604368396682e-01 -2.15351282296852297726e-03 -2.04357480604368361987e-02 -2.15351282296852297726e-03 -2.04357480604368361987e-02 9.99784648717703117171e-01 -2.04357480604368301272e-03
9.52876000000000000000e+08 9.78370229484890385763e-01 -2.04801044340532367727e-01 -2.16297705151095908185e-03 -2.04801044340532333032e-02 -2.16297705151095908185e-03 -2.04801044340532333032e-02 9.99783702294848919401e-01 -2.04801044340532272317e-03
9.52978000000000000000e+08 9.78274974990961276866e-01 -2.05246465356589552487e-01 -2.17250250090387066540e-03 -2.05246465356589517792e-02 -2.17250250090387066540e-03 -2.05246465356589517792e-02 9.99782749749909660508e-01 -2.05246465356589491771e-03
9.53080000000000000000e+08 9.78179103039460429159e-01 -2.05693755198070399315e-01 -2.18208969605395613003e-03 -2.05693755198070350743e-02 -2.18208969605395613003e-03 -2.05693755198070350743e-02 9.99781791030394551001e-01 -2.05693755198070290027e-03
9.53182000000000000000e+08 9.78082608325263724858e-01 -2.06142925505040736089e-01 -2.19173916747362855506e-03 -2.06142925505040687517e-02 -2.19173916747362855506e-03 -2.06142925505040687517e-02 9.99780826083252582848e-01 -2.06142925505040618128e-03
9.53284000000000000000e+08 9.77985485486473793415e-01 -2.06593988013054563613e-01 -2.20145145135262291364e-03 -2.06593988013054515041e-02 -2.20145145135262291364e-03 -2.06593988013054515041e-02 9.99779854854864757918e-01 -2.06593988013054454325e-03
9.53386000000000000000e+08 9.77887729103693148502e-01 -2.07046954554119339020e-01 -2.21122708963068792531e-03 -2.07046954554119290448e-02 -2.21122708963068792531e-03 -2.07046954554119290448e-02 9.99778877291036982555e-01 -2.07046954554119264427e-03
9.53488000000000000000e+08 9.77789333699286111745e-01 -2.07501837057674082265e-01 -2.22106663007139030000e-03 -2.07501837057674047571e-02 -2.22106663007139030000e-03 -2.07501837057674047571e-02 9.99777893336992851125e-01 -2.07501837057673995529e-03
9.53590000000000000000e+08 9.77690293736630078314e-01 -2.07958647551577502366e-01 -2.23097062633699277576e-03 -2.07958647551577460733e-02 -2.23097062633699277576e-03 -2.07958647551577460733e-02 9.99776902937366318547e-01 -2.07958647551577434712e-03
9.53692000000000000000e+08 9.77590603619355458243e-01 -2.08417398163108419373e-01 -2.24093963806444975220e-03 -2.08417398163108398557e-02 -2.24093963806444975220e-03 -2.08417398163108398557e-02 9.99775906036193595661e-01 -2.08417398163108320494e-03
9.53794000000000000000e+08 9.77490257690574515514e-01 -2.08878101119977926947e-01 -2.25097423094254697404e-03 -2.08878101119977892253e-02 -2.25097423094254697404e-03 -2.08878101119977892253e-02 9.99774902576905710738e-01 -2.08878101119977814190e-03
9.53896000000000000000e+08 9.77389250232097883675e-01 -2.09340768751354350252e-01 -2.26107497679020955084e-03 -2.09340768751354287802e-02 -2.26107497679020955084e-03 -2.09340768751354287802e-02 9.99773892502320959963e-01 -2.09340768751354244434e-03
9.53998000000000000000e+08 9.77287575463639979212e-01 -2.09805413488901110197e-01 -2.27124245363599912978e-03 -2.09805413488901061625e-02 -2.27124245363599912978e-03 -2.09805413488901061625e-02 9.99772875754636358714e-01 -2.09805413488901035604e-03
9.54100000000000000000e+08 9.77185227542012424529e-01 -2.10272047867824468659e-01 -2.28147724579875858797e-03 -2.10272047867824420087e-02 -2.28147724579875858797e-03 -2.10272047867824420087e-02 9.99771852275420092049e-01 -2.10272047867824350698e-03
9.54202000000000000000e+08 9.77082200560304481307e-01 -2.10740684527937760517e-01 -2.29177994396955689999e-03 -2.10740684527937725823e-02 -2.29177994396955689999e-03 -2.10740684527937725823e-02 9.99770822005603077010e-01 -2.10740684527937691128e-03
9.54304000000000000000e+08 9.76978488547052381641e-01 -2.11211336214733591543e-01 -2.30215114529476287675e-03 -2.11211336214733556849e-02 -2.30215114529476287675e-03 -2.11211336214733556849e-02 9.99769784885470524927e-01 -2.11211336214733478786e-03
9.54406000000000000000e+08 9.76874085465395003425e-01 -2.11684015780474132917e-01 -2.31259145346050364739e-03 -2.11684015780474084345e-02 -2.31259145346050364739e-03 -2.11684015780474084345e-02 9.99768740854653947814e-01 -2.11684015780474023630e-03
9.54508000000000000000e+08 9.76768985212216556135e-01 -2.12158736185292462473e-01 -2.32310147877834698854e-03 -2.12158736185292413901e-02 -2.32310147877834698854e-03 -2.12158736185292413901e-02 9.99767689852122165561e-01 -2.12158736185292335838e-03
9.54610000000000000000e+08 9.76663181617277498248e-01 -2.12635510498305174698e-01 -2.33368183827225347121e-03 -2.12635510498305133065e-02 -2.33368183827225347121e-03 -2.12635510498305133065e-02 9.99766631816172757219e-01 -2.12635510498305081023e-03
9.54712000000000000000e+08 9.76556668442330577662e-01 -2.13114351898742671043e-01 -2.34433315576694067256e-03 -2.13114351898742622471e-02 -2.34433315576694067256e-03 -2.13114351898742622471e-02 9.99765566684423290233e-01 -2.13114351898742579103e-03
9.54814000000000000000e+08 9.76449439380224881724e-01 -2.13595273677089358966e-01 -2.35505606197751633790e-03 -2.13595273677089324271e-02 -2.35505606197751633790e-03 -2.13595273677089324271e-02 9.99764494393802216621e-01 -2.13595273677089254882e-03
9.54916000000000000000e+08 9.76341488053994233098e-01 -2.14078289236241586790e-01 -2.36585119460057564933e-03 -2.14078289236241565974e-02 -2.36585119460057564933e-03 -2.14078289236241565974e-02 9.99763414880539991181e-01 -2.14078289236241479238e-03
9.55018000000000000000e+08 9.76232808015934261370e-01 -2.14563412092674682397e-01 -2.37671919840657655185e-03 -2.14563412092674647702e-02 -2.37671919840657655185e-03 -2.14563412092674647702e-02 9.99762328080159301535e-01 -2.14563412092674560966e-03
9.55120000000000000000e+08 9.76123392746662044139e-01 -2.15050655877630780832e-01 -2.38766072533379454523e-03 -2.15050655877630746138e-02 -2.38766072533379454523e-03 -2.15050655877630746138e-02 9.99761233927466630433e-01 -2.15050655877630685422e-03
9.55222000000000000000e+08 9.76013235654164312827e-01 -2.15540034338314367979e-01 -2.39867643458356333969e-03 -2.15540034338314347162e-02 -2.39867643458356333969e-03 -2.15540034338314347162e-02 9.99760132356541597609e-01 -2.15540034338314269100e-03
9.55324000000000000000e+08 9.75902330072828561036e-01 -2.16031561339109029474e-01 -2.40976699271713834527e-03 -2.16031561339108980901e-02 -2.40976699271713834527e-03 -2.16031561339108980901e-02 9.99759023300728300043e-01 -2.16031561339108954881e-03
9.55426000000000000000e+08 9.75790669262460497180e-01 -2.16525250862803830820e-01 -2.42093307375394403702e-03 -2.16525250862803775309e-02 -2.42093307375394403702e-03 -2.16525250862803775309e-02 9.99757906692624653822e-01 -2.16525250862803714594e-03
9.55528000000000000000e+08 9.75678246407285953978e-01 -2.17021117011837377797e-01 -2.43217535927140555627e-03 -2.17021117011837356980e-02 -2.43217535927140555627e-03 -2.17021117011837356980e-02 9.99756782464072846217e-01 -2.17021117011837296265e-03
9.55630000000000000000e+08 9.75565054614936477684e-01 -2.17519174009558363680e-01 -2.44349453850634936933e-03 -2.17519174009558335925e-02 -2.44349453850634936933e-03 -2.17519174009558335925e-02 9.99755650546149343683e-01 -2.17519174009558283883e-03
9.55732000000000000000e+08 9.75451086915420484402e-01 -2.18019436201499300365e-01 -2.45489130845794652908e-03 -2.18019436201499251793e-02 -2.45489130845794652908e-03 -2.18019436201499251793e-02 9.99754510869154233710e-01 -2.18019436201499208425e-03
9.55834000000000000000e+08 9.75336336260077652049e-01 -2.18521918056665404029e-01 -2.46636637399223713693e-03 -2.18521918056665369334e-02 -2.46636637399223713693e-03 -2.18521918056665369334e-02 9.99753363362600788733e-01 -2.18521918056665317293e-03
9.55936000000000000000e+08 9.75220795520515770782e-01 -2.19026634168844797079e-01 -2.47792044794842162073e-03 -2.19026634168844741568e-02 -2.47792044794842162073e-03 -2.19026634168844741568e-02 9.99752207955205141054e-01 -2.19026634168844680853e-03
9.56038000000000000000e+08 9.75104457487533271554e-01 -2.19533599257928702109e-01 -2.48955425124667379874e-03 -2.19533599257928681292e-02 -2.48955425124667379874e-03 -2.19533599257928681292e-02 9.99751044574875291637e-01 -2.19533599257928620577e-03
9.56140000000000000000e+08 9.74987314870022991897e-01 -2.20042828171250398617e-01 -2.50126851299770341236e-03 -2.20042828171250343106e-02 -2.50126851299770341236e-03 -2.20042828171250343106e-02 9.99749873148700229919e-01 -2.20042828171250308411e-03
9.56242000000000000000e+08 9.74869360293858733257e-01 -2.20554335884944274770e-01 -2.51306397061412320482e-03 -2.20554335884944226198e-02 -2.51306397061412320482e-03 -2.20554335884944226198e-02 9.99748693602938609537e-01 -2.20554335884944182830e-03
9.56344000000000000000e+08 9.74750586300765720082e-01 -2.21068137505315176483e-01 -2.52494136992342495598e-03 -2.21068137505315148728e-02 -2.52494136992342495598e-03 -2.21068137505315148728e-02 9.99747505863007646099e-01 -2.21068137505315079339e-03
9.56446000000000000000e+08 9.74630985347171185929e-01 -2.21584248270231043421e-01 -2.53690146528287975916e-03 -2.21584248270230987909e-02 -2.53690146528287975916e-03 -2.21584248270230987909e-02 9.99746309853471681883e-01 -2.21584248270230953215e-03
9.56548000000000000000e+08 9.74510549803038306216e-01 -2.22102683550528451351e-01 -2.54894501969616825085e-03 -2.22102683550528430534e-02 -2.54894501969616825085e-03 -2.22102683550528430534e-02 9.99745105498030417479e-01 -2.22102683550528352471e-03
9.56650000000000000000e+08 9.74389271950680257994e-01 -2.22623458851441191619e-01 -2.56107280493197237911e-03 -2.22623458851441136108e-02 -2.56107280493197237911e-03 -2.22623458851441136108e-02 9.99743892719506810352e-01 -2.22623458851441092740e-03
9.56752000000000000000e+08 9.74267143983556627163e-01 -2.23146589814040563482e-01 -2.57328560164433225305e-03 -2.23146589814040528787e-02 -2.57328560164433225305e-03 -2.23146589814040528787e-02 9.99742671439835528524e-01 -2.23146589814040468072e-03
9.56854000000000000000e+08 9.74144158005050164739e-01 -2.23672092216697232514e-01 -2.58558419949498838331e-03 -2.23672092216697197820e-02 -2.58558419949498838331e-03 -2.23672092216697197820e-02 9.99741441580050516080e-01 -2.23672092216697145778e-03
9.56956000000000000000e+08 9.74020306027222559919e-01 -2.24199981976563961217e-01 -2.59796939727774877857e-03 -2.24199981976563912645e-02 -2.59796939727774877857e-03 -2.24199981976563912645e-02 9.99740203060272225599e-01 -2.24199981976563834582e-03
