! File generated for n1 = 5, n2 = 11
! b1 = 4.641589
! b2 = 0.002154
! Q0 = 10000.000000
! f0 = 1000000000.000000
! n = 1001
! rel_span = 10.000000
# Hz S RI R 50
9.97178128365848541260e+08 9.83759774365545736075e-01 -1.62632043935880599150e-01 -3.49885054808132236939e-04 -3.50380117166250535515e-03 -3.49885054808132236939e-04 -3.50380117166250535515e-03 9.99992461955004019458e-01 -7.54871079120405814172e-05
9.97183772109116792679e+08 9.83695172428546538157e-01 -1.62951957641385425379e-01 -3.51276861349276005395e-04 -3.51069350351206803731e-03 -3.51276861349276005395e-04 -3.51069350351206803731e-03 9.99992431969440986883e-01 -7.56355987003596777615e-05
9.97189415852385163307e+08 9.83630185920341237882e-01 -1.63273117544346368923e-01 -3.52676953225892217750e-04 -3.51761268387193112850e-03 -3.52676953225892217750e-04 -3.51761268387193112850e-03 9.99992401805375963342e-01 -7.57846679222984477954e-05
9.97195059595653414726e+08 9.83564811793594451217e-01 -1.63595530860592863753e-01 -3.54085396090830079301e-04 -3.52455886820242803720e-03 -3.54085396090830079301e-04 -3.52455886820242803720e-03 9.99992371461394302656e-01 -7.59343189271482354617e-05
9.97200703338921785355e+08 9.83499046970830681502e-01 -1.63919204861131456719e-01 -3.55502256246289594175e-04 -3.53153221315264526092e-03 -3.55502256246289594175e-04 -3.53153221315264526092e-03 9.99992340936067591883e-01 -7.60845550898113000011e-05
9.97206347082190036774e+08 9.83432888344081157506e-01 -1.64244146872648238977e-01 -3.56927600651431905631e-04 -3.53853287657125009646e-03 -3.56927600651431905631e-04 -3.53853287657125009646e-03 9.99992310227953318247e-01 -7.62353798110340956026e-05
9.97211990825458407402e+08 9.83366332774523788096e-01 -1.64570364278023018034e-01 -3.58361496930122342720e-04 -3.54556101751756641560e-03 -3.58361496930122342720e-04 -3.54556101751756641560e-03 9.99992279335594425049e-01 -7.63867965176458636441e-05
9.97217634568726658821e+08 9.83299377092117343757e-01 -1.64897864516861891726e-01 -3.59804013378835013063e-04 -3.55261679627304812618e-03 -3.59804013378835013063e-04 -3.55261679627304812618e-03 9.99992248257519644739e-01 -7.65388086628058714449e-05
9.97223278311994910240e+08 9.83232018095221205201e-01 -1.65226655086071400058e-01 -3.61255218974824271992e-04 -3.55970037435365165360e-03 -3.61255218974824271992e-04 -3.55970037435365165360e-03 9.99992216992242832774e-01 -7.66914197262698820552e-05
9.97228922055263280869e+08 9.83164252550225659100e-01 -1.65556743540368228595e-01 -3.62715183384096861129e-04 -3.56681191452081240365e-03 -3.62715183384096861129e-04 -3.56681191452081240365e-03 9.99992185538263189670e-01 -7.68446332146267407220e-05
9.97234565798531532288e+08 9.83096077191171757725e-01 -1.65888137492819970342e-01 -3.64183976969607013131e-04 -3.57395158079310036950e-03 -3.64183976969607013131e-04 -3.57395158079310036950e-03 9.99992153894064594866e-01 -7.69984526615494219029e-05
9.97240209541799902916e+08 9.83027488719351971724e-01 -1.66220844615457941096e-01 -3.65661670799856505960e-04 -3.58111953845941964267e-03 -3.65661670799856505960e-04 -3.58111953845941964267e-03 9.99992122058116161831e-01 -7.71528816280794019428e-05
9.97245853285068154335e+08 9.82958483802932048157e-01 -1.66554872639765622067e-01 -3.67148336657033443325e-04 -3.58831595408953254664e-03 -3.67148336657033443325e-04 -3.58831595408953254664e-03 9.99992090028871238871e-01 -7.73079237028534335110e-05
9.97251497028336524963e+08 9.82889059076539006732e-01 -1.66890229357316899339e-01 -3.68644047045906507205e-04 -3.59554099554780948883e-03 -3.68644047045906507205e-04 -3.59554099554780948883e-03 9.99992057804767742191e-01 -7.74635825023997360824e-05
9.97257140771604776382e+08 9.82819211140865234277e-01 -1.67226922620306861500e-01 -3.70148875202331282836e-04 -3.60279483200466512510e-03 -3.70148875202331282836e-04 -3.60279483200466512510e-03 9.99992025384227822826e-01 -7.76198616713844215384e-05
9.97262784514873027802e+08 9.82748936562255037686e-01 -1.67564960342157343032e-01 -3.71662895102185006184e-04 -3.61007763394960608239e-03 -3.71662895102185006184e-04 -3.61007763394960608239e-03 9.99991992765657977671e-01 -7.77767648828925329228e-05
9.97268428258141398430e+08 9.82678231872286755966e-01 -1.67904350498110227496e-01 -3.73186181470339258491e-04 -3.61738957320400806444e-03 -3.73186181470339258491e-04 -3.61738957320400806444e-03 9.99991959947448050272e-01 -7.79342958387034317937e-05
9.97274072001409649849e+08 9.82607093567360201369e-01 -1.68245101125786666874e-01 -3.74718809789578288089e-04 -3.62473082293317087899e-03 -3.74718809789578288089e-04 -3.62473082293317087899e-03 9.99991926927971785943e-01 -7.80924582695503833284e-05
9.97279715744678020477e+08 9.82535518108256233916e-01 -1.68587220325847025881e-01 -3.76260856310064529043e-04 -3.63210155766053059342e-03 -3.76260856310064529043e-04 -3.63210155766053059342e-03 9.99991893705586609720e-01 -7.82512559354268569895e-05
9.97285359487946271896e+08 9.82463501919714765620e-01 -1.68930716262547214734e-01 -3.77812398058440044712e-04 -3.63950195327964950986e-03 -3.77812398058440044712e-04 -3.63950195327964950986e-03 9.99991860278632960224e-01 -7.84106926258447428256e-05
9.97291003231214642525e+08 9.82391041389986785504e-01 -1.69275597164395802396e-01 -3.79373512847481564932e-04 -3.64693218706836977394e-03 -3.79373512847481564932e-04 -3.64693218706836977394e-03 9.99991826645434400689e-01 -7.85707721601394188564e-05
9.97296646974482893944e+08 9.82318132870394156164e-01 -1.69621871324747819365e-01 -3.80944279285572672510e-04 -3.65439243770161042990e-03 -3.80944279285572672510e-04 -3.65439243770161042990e-03 9.99991792804297396913e-01 -7.87314983877452739510e-05
9.97302290717751145363e+08 9.82244772674875199492e-01 -1.69969547102449131115e-01 -3.82524776786508677144e-04 -3.66188288526524607577e-03 -3.82524776786508677144e-04 -3.66188288526524607577e-03 9.99991758753510984192e-01 -7.88928751884948798638e-05
9.97307934461019515991e+08 9.82170957079518736066e-01 -1.70318632922505958094e-01 -3.84115085579523100282e-04 -3.66940371127053239012e-03 -3.84115085579523100282e-04 -3.66940371127053239012e-03 9.99991724491346656301e-01 -7.90549064729297100255e-05
9.97313578204287767410e+08 9.82096682322115555053e-01 -1.70669137276651755597e-01 -3.85715286718954259056e-04 -3.67695509866632162105e-03 -3.85715286718954259056e-04 -3.67695509866632162105e-03 9.99991690016058143442e-01 -7.92175961825632889623e-05
9.97319221947556138039e+08 9.82021944601668472785e-01 -1.71021068724086094948e-01 -3.87325462094804148609e-04 -3.68453723185497824047e-03 -3.87325462094804148609e-04 -3.68453723185497824047e-03 9.99991655325881301231e-01 -7.93809482902241254432e-05
9.97324865690824389458e+08 9.81946740077929591806e-01 -1.71374435892059778785e-01 -3.88945694442708114758e-04 -3.69215029670498648059e-03 -3.88945694442708114758e-04 -3.69215029670498648059e-03 9.99991620419033555578e-01 -7.95449668003273322294e-05
9.97330509434092760086e+08 9.81871064870893706100e-01 -1.71729247476640117798e-01 -3.90576067354842253101e-04 -3.69979448056743714587e-03 -3.90576067354842253101e-04 -3.69979448056743714587e-03 9.99991585293713902693e-01 -7.97096557492297836008e-05
9.97336153177361011505e+08 9.81794915060332562540e-01 -1.72085512243262267473e-01 -3.92216665289964096924e-04 -3.70746997228790613199e-03 -3.92216665289964096924e-04 -3.70746997228790613199e-03 9.99991549948102909084e-01 -7.98750192054860954890e-05
9.97341796920629382133e+08 9.81718286685269836411e-01 -1.72443239027531530771e-01 -3.93867573584723285312e-04 -3.71517696222373877690e-03 -3.93867573584723285312e-04 -3.71517696222373877690e-03 9.99991514380361934400e-01 -8.00410612702209405033e-05
9.97347440663897633553e+08 9.81641175743494076578e-01 -1.72802436735821074443e-01 -3.95528878464150514434e-04 -3.72291564225692801424e-03 -3.95528878464150514434e-04 -3.72291564225692801424e-03 9.99991478588633242452e-01 -8.02077860774065359243e-05
9.97353084407165884972e+08 9.81563578191028129893e-01 -1.73163114346048974124e-01 -3.97200667053094244163e-04 -3.73068620581085618956e-03 -3.97200667053094244163e-04 -3.73068620581085618956e-03 9.99991442571040001219e-01 -8.03751977942233442141e-05
9.97358728150434255600e+08 9.81485489941618216569e-01 -1.73525280908334106345e-01 -3.98883027387219766483e-04 -3.73848884786442308206e-03 -3.98883027387219766483e-04 -3.73848884786442308206e-03 9.99991406325685283640e-01 -8.05433006213643950134e-05
9.97364371893702507019e+08 9.81406906866201245165e-01 -1.73888945545729978193e-01 -4.00576048424495948039e-04 -3.74632376496785790901e-03 -4.00576048424495948039e-04 -3.74632376496785790901e-03 9.99991369850652733753e-01 -8.07120987933760498847e-05
9.97370015636970877647e+08 9.81327824792363578865e-01 -1.74254117454967716316e-01 -4.02279820056850728749e-04 -3.75419115525872735400e-03 -4.02279820056850728749e-04 -3.75419115525872735400e-03 9.99991333144005678513e-01 -8.08815965790027379453e-05
9.97375659380239129066e+08 9.81248239503810126827e-01 -1.74620805907124865275e-01 -4.03994433121610484715e-04 -3.76209121847634244545e-03 -4.03994433121610484715e-04 -3.76209121847634244545e-03 9.99991296203787016772e-01 -8.10517982814974849220e-05
9.97381303123507499695e+08 9.81168146739787583321e-01 -1.74989020248475346531e-01 -4.05719979413916419925e-04 -3.77002415598006943021e-03 -4.05719979413916419925e-04 -3.77002415598006943021e-03 9.99991259028019108257e-01 -8.12227082390163323492e-05
9.97386946866775751114e+08 9.81087542194547634899e-01 -1.75358769901132222069e-01 -4.07456551698307531742e-04 -3.77799017076318154051e-03 -4.07456551698307531742e-04 -3.77799017076318154051e-03 9.99991221614703440501e-01 -8.13943308249167642165e-05
9.97392590610044002533e+08 9.81006421516760651613e-01 -1.75730064363883248246e-01 -4.09204243721340615771e-04 -3.78598946747085718378e-03 -4.09204243721340615771e-04 -3.78598946747085718378e-03 9.99991183961820184756e-01 -8.15666704481454989811e-05
9.97398234353312373161e+08 9.80924780308948141005e-01 -1.76102913212912354224e-01 -4.10963150223814807985e-04 -3.79402225241572436595e-03 -4.10963150223814807985e-04 -3.79402225241572436595e-03 9.99991146067328307012e-01 -8.17397315535733860661e-05
9.97403878096580624580e+08 9.80842614126891332305e-01 -1.76477326102602860569e-01 -4.12733366953520989118e-04 -3.80208873359516802762e-03 -4.12733366953520989118e-04 -3.80208873359516802762e-03 9.99991107929165012891e-01 -8.19135186223682087775e-05
9.97409521839848995209e+08 9.80759918479035430749e-01 -1.76853312766328346628e-01 -4.14514990678075702629e-04 -3.81018912070836286016e-03 -4.14514990678075702629e-04 -3.81018912070836286016e-03 9.99991069545245414574e-01 -8.20880361723617545024e-05
9.97415165583117246628e+08 9.80676688825896980539e-01 -1.77230883017197027307e-01 -4.16308119197682431102e-04 -3.81832362517231819685e-03 -4.16308119197682431102e-04 -3.81832362517231819685e-03 9.99991030913462530805e-01 -8.22632887583954041516e-05
9.97420809326385617256e+08 9.80592920579428151129e-01 -1.77610046748965078045e-01 -4.18112851358839543794e-04 -3.82649246014154847603e-03 -4.18112851358839543794e-04 -3.82649246014154847603e-03 9.99990992031686842800e-01 -8.24392809727439603408e-05
9.97426453069653868675e+08 9.80508609102426098580e-01 -1.77990813936707237275e-01 -4.19929287067048447133e-04 -3.83469584052252478873e-03 -4.19929287067048447133e-04 -3.83469584052252478873e-03 9.99990952897765850160e-01 -8.26160174454269760451e-05
9.97432096812922120094e+08 9.80423749707870828551e-01 -1.78373194637787085837e-01 -4.21757527301099249383e-04 -3.84293398299457612810e-03 -4.21757527301099249383e-04 -3.84293398299457612810e-03 9.99990913509523959846e-01 -8.27935028446590915233e-05
9.97437740556190490723e+08 9.80338337658302694244e-01 -1.78757198992606447518e-01 -4.23597674126462121150e-04 -3.85120710602603749662e-03 -4.23597674126462121150e-04 -3.85120710602603749662e-03 9.99990873864762486178e-01 -8.29717418771979141378e-05
9.97443384299458742142e+08 9.80252368165177356829e-01 -1.79142837225431172943e-01 -4.25449830709198639246e-04 -3.85951542989203906162e-03 -4.25449830709198639246e-04 -3.85951542989203906162e-03 9.99990833961258540619e-01 -8.31507392887272567174e-05
9.97449028042727112770e+08 9.80165836388186439976e-01 -1.79530119645332969514e-01 -4.27314101330592010803e-04 -3.86785917669479851685e-03 -4.27314101330592010803e-04 -3.86785917669479851685e-03 9.99990793796765586876e-01 -8.33304998642943285311e-05
9.97454671785995364189e+08 9.80078737434604496670e-01 -1.79919056646979519387e-01 -4.29190591401215409614e-04 -3.87623857038064175556e-03 -4.29190591401215409614e-04 -3.87623857038064175556e-03 9.99990753369012552731e-01 -8.35110284286764802250e-05
9.97460315529263734818e+08 9.79991066358599338670e-01 -1.80309658711555742538e-01 -4.31079407475795466347e-04 -3.88465383675985287751e-03 -4.31079407475795466347e-04 -3.88465383675985287751e-03 9.99990712675703719015e-01 -8.36923298468087860542e-05
9.97465959272531986237e+08 9.79902818160553579219e-01 -1.80701936407596630563e-01 -4.32980657267820754405e-04 -3.89310520352461513285e-03 -4.32980657267820754405e-04 -3.89310520352461513285e-03 9.99990671714518719604e-01 -8.38744090241706568255e-05
9.97471603015800237656e+08 9.79813987786347428965e-01 -1.81095900391960995535e-01 -4.34894449665004735519e-04 -3.90159290026999326997e-03 -4.34894449665004735519e-04 -3.90159290026999326997e-03 9.99990630483111431204e-01 -8.40572709072377895721e-05
9.97477246759068608284e+08 9.79724570126664140446e-01 -1.81491561410662749498e-01 -4.36820894744234197206e-04 -3.91011715851183761644e-03 -4.36820894744234197206e-04 -3.91011715851183761644e-03 9.99990588979110306411e-01 -8.42409204838679808976e-05
9.97482890502336859703e+08 9.79634560016256039638e-01 -1.81888930299847512151e-01 -4.38760103787402616030e-04 -3.91867821170782757584e-03 -4.38760103787402616030e-04 -3.91867821170782757584e-03 9.99990547200117929627e-01 -8.44253627837544861137e-05
9.97488534245605230331e+08 9.79543952233214998415e-01 -1.82288017986703632101e-01 -4.40712189297107832971e-04 -3.92727629527710175861e-03 -4.40712189297107832971e-04 -3.92727629527710175861e-03 9.99990505143710572966e-01 -8.46106028788488580879e-05
9.97494177988873481750e+08 9.79452741498239576323e-01 -1.82688835490356776825e-01 -4.42677265012452836410e-04 -3.93591164661952468834e-03 -4.42677265012452836410e-04 -3.93591164661952468834e-03 9.99990462807437641146e-01 -8.47966458837761560179e-05
9.97499821732141852379e+08 9.79360922473856088111e-01 -1.83091393922924089432e-01 -4.44655445925817881855e-04 -3.94458450513840430673e-03 -4.44655445925817881855e-04 -3.94458450513840430673e-03 9.99990420188821893532e-01 -8.49834969563242729768e-05
9.97505465475410103798e+08 9.79268489763675420434e-01 -1.83495704490377498086e-01 -4.46646848298888632118e-04 -3.95329511225908473981e-03 -4.46646848298888632118e-04 -3.95329511225908473981e-03 9.99990377285358333914e-01 -8.51711612978446028265e-05
9.97511109218678355217e+08 9.79175437911599777507e-01 -1.83901778493578194063e-01 -4.48651589679721445308e-04 -3.96204371145124183140e-03 -4.48651589679721445308e-04 -3.96204371145124183140e-03 9.99990334094514543573e-01 -8.53596441537322740169e-05
9.97516752961946725845e+08 9.79081761401035755021e-01 -1.84309627329253739036e-01 -4.50669788919724420301e-04 -3.97083054824992707360e-03 -4.50669788919724420301e-04 -3.97083054824992707360e-03 9.99990290613730015146e-01 -8.55489508138796442499e-05
9.97522396705214977264e+08 9.78987454654092204009e-01 -1.84719262490990243641e-01 -4.52701566190916811130e-04 -3.97965587027694633893e-03 -4.52701566190916811130e-04 -3.97965587027694633893e-03 9.99990246840415708540e-01 -8.57390866131367746948e-05
9.97528040448483347893e+08 9.78892512030765438169e-01 -1.85130695570245112913e-01 -4.54747043003495324785e-04 -3.98851992726267923217e-03 -4.54747043003495324785e-04 -3.98851992726267923217e-03 9.99990202771953606842e-01 -8.59300569317816078123e-05
9.97533684191751599312e+08 9.78796927828111118508e-01 -1.85543938257371837652e-01 -4.56806342223671252734e-04 -3.99742297106815778346e-03 -4.56806342223671252734e-04 -3.99742297106815778346e-03 9.99990158405696827337e-01 -8.61218671959955661905e-05
9.97539327935019969940e+08 9.78700696279395709887e-01 -1.85959002342690665754e-01 -4.58879588091949306393e-04 -4.00636525570813046421e-03 -4.58879588091949306393e-04 -4.00636525570813046421e-03 9.99990113738968622314e-01 -8.63145228783605237156e-05
9.97544971678288221359e+08 9.78603811553260150014e-01 -1.86375899717465653982e-01 -4.60966906241157845046e-04 -4.01534703737211479124e-03 -4.60966906241157845046e-04 -4.01534703737211479124e-03 9.99990068769062379062e-01 -8.65080294983123273406e-05
9.97550615421556472778e+08 9.78506267752833780449e-01 -1.86794642375045893967e-01 -4.63068423715519395748e-04 -4.02436857444898529734e-03 -4.63068423715519395748e-04 -4.02436857444898529734e-03 9.99990023493240842711e-01 -8.67023926226705111617e-05
9.97556259164824843407e+08 9.78408058914860934152e-01 -1.87215242411913590503e-01 -4.65184268989483570324e-04 -4.03343012754955008992e-03 -4.65184268989483570324e-04 -4.03343012754955008992e-03 9.99989977908736338286e-01 -8.68976178661247372756e-05
9.97561902908093094826e+08 9.78309179008812757061e-01 -1.87637712028745518023e-01 -4.67314571986854505881e-04 -4.04253195952942144531e-03 -4.67314571986854505881e-04 -4.04253195952942144531e-03 9.99989932012749549450e-01 -8.70937108917274979041e-05
9.97567546651361465454e+08 9.78209621935970496942e-01 -1.88062063531553635976e-01 -4.69459464100550015724e-04 -4.05167433551359076893e-03 -4.69459464100550015724e-04 -4.05167433551359076893e-03 9.99989885802449740559e-01 -8.72906774114235990778e-05
9.97573190394629716873e+08 9.78109381528508681214e-01 -1.88488309332773135152e-01 -4.71619078212335478360e-04 -4.06085752291986817886e-03 -4.71619078212335478360e-04 -4.06085752291986817886e-03 9.99989839274974201544e-01 -8.74885231865550735877e-05
9.97578834137898087502e+08 9.78008451548543877863e-01 -1.88916461952457009899e-01 -4.73793548713339056789e-04 -4.07008179148461799596e-03 -4.73793548713339056789e-04 -4.07008179148461799596e-03 9.99989792427427359733e-01 -8.76872540284157503962e-05
9.97584477881166338921e+08 9.77906825687205660813e-01 -1.89346534019320666964e-01 -4.75983011524053277030e-04 -4.07934741328526591364e-03 -4.75983011524053277030e-04 -4.07934741328526591364e-03 9.99989745256881112923e-01 -8.78868757987360691916e-05
9.97590121624434590340e+08 9.77804497563646846103e-01 -1.89778538271998448161e-01 -4.78187604115663886933e-04 -4.08865466276736849033e-03 -4.78187604115663886933e-04 -4.08865466276736849033e-03 9.99989697760373497104e-01 -8.80873944102662998412e-05
9.97595765367702960968e+08 9.77701460724075710473e-01 -1.90212487560154630550e-01 -4.80407465530896624507e-04 -4.09800381676855146607e-03 -4.80407465530896624507e-04 -4.09800381676855146607e-03 9.99989649934909130558e-01 -8.82888158272922973649e-05
9.97601409110971212387e+08 9.77597708640757234733e-01 -1.90648394845676694143e-01 -4.82642736405540528390e-04 -4.10739515454421576235e-03 -4.82642736405540528390e-04 -4.10739515454421576235e-03 9.99989601777457992604e-01 -8.84911460661892581951e-05
9.97607052854239583015e+08 9.77493234710983593949e-01 -1.91086273203943307619e-01 -4.84893558990623124889e-04 -4.11682895779485330534e-03 -4.84893558990623124889e-04 -4.11682895779485330534e-03 9.99989553284955423607e-01 -8.86943911960103606408e-05
9.97612696597507834435e+08 9.77388032256064409609e-01 -1.91526135824957977061e-01 -4.87160077174167275606e-04 -4.12630551069047713658e-03 -4.87160077174167275606e-04 -4.12630551069047713658e-03 9.99989504454301347813e-01 -8.88985573390128875444e-05
9.97618340340776205063e+08 9.77282094520267818893e-01 -1.91967996014635072788e-01 -4.89442436504004254813e-04 -4.13582509989832147745e-03 -4.89442436504004254813e-04 -4.13582509989832147745e-03 9.99989455282360273358e-01 -8.91036506712552286557e-05
