! File generated for n1 = 11, n2 = 1
! b1 = 0.046416
! b2 = 0.046416
! Q0 = 10000.000000
! f0 = 1000000000.000000
! n = 1001
! rel_span = 10.000000
# Hz S RI R 50
9.99453584111663818359e+08 9.99159404770339931723e-01 -8.40825012511790641223e-03 -8.40595229660103188465e-04 -8.40825012511790641223e-03 -8.40595229660103188465e-04 -8.40825012511790641223e-03 9.99159404770339931723e-01 -8.40825012511790641223e-03
9.99454676943440437317e+08 9.99156064866983939510e-01 -8.42477036476933262288e-03 -8.43935133016019182160e-04 -8.42477036476933262288e-03 -8.43935133016019182160e-04 -8.42477036476933262288e-03 9.99156064866983939510e-01 -8.42477036476933262288e-03
9.99455769775217175484e+08 9.99152705089352166645e-01 -8.44135495552908107775e-03 -8.47294910647806791791e-04 -8.44135495552908107775e-03 -8.47294910647806791791e-04 -8.44135495552908107775e-03 9.99152705089352166645e-01 -8.44135495552908107775e-03
9.99456862606993794441e+08 9.99149325279994671156e-01 -8.45800426999191584665e-03 -8.50674720005378174996e-04 -8.45800426999191584665e-03 -8.50674720005378174996e-04 -8.45800426999191584665e-03 9.99149325279994671156e-01 -8.45800426999191584665e-03
9.99457955438770532608e+08 9.99145925279903535099e-01 -8.47471868360553069743e-03 -8.54074720096519761706e-04 -8.47471868360553069743e-03 -8.54074720096519761706e-04 -8.47471868360553069743e-03 9.99145925279903535099e-01 -8.47471868360553069743e-03
9.99459048270547151566e+08 9.99142504928496544281e-01 -8.49149857468818602957e-03 -8.57495071503453442328e-04 -8.49149857468818602957e-03 -8.57495071503453442328e-04 -8.49149857468818602957e-03 9.99142504928496544281e-01 -8.49149857468818602957e-03
9.99460141102323889732e+08 9.99139064063596094023e-01 -8.50834432446779913295e-03 -8.60935936403956934490e-04 -8.50834432446779913295e-03 -8.60935936403956934490e-04 -8.50834432446779913295e-03 9.99139064063596094023e-01 -8.50834432446779913295e-03
9.99461233934100508690e+08 9.99135602521413201949e-01 -8.52525631709242018297e-03 -8.64397478586846732158e-04 -8.52525631709242018297e-03 -8.64397478586846732158e-04 -8.52525631709242018297e-03 9.99135602521413201949e-01 -8.52525631709242018297e-03
9.99462326765877246857e+08 9.99132120136525303522e-01 -8.54223493967513035352e-03 -8.67879863474681624395e-04 -8.54223493967513035352e-03 -8.67879863474681624395e-04 -8.54223493967513035352e-03 9.99132120136525303522e-01 -8.54223493967513035352e-03
9.99463419597653865814e+08 9.99128616741859709727e-01 -8.55928058230758133373e-03 -8.71383258140265661885e-04 -8.55928058230758133373e-03 -8.71383258140265661885e-04 -8.55928058230758133373e-03 9.99128616741859709727e-01 -8.55928058230758133373e-03
9.99464512429430484772e+08 9.99125092168670958515e-01 -8.57639363810137542177e-03 -8.74907831329053953771e-04 -8.57639363810137542177e-03 -8.74907831329053953771e-04 -8.57639363810137542177e-03 9.99125092168670958515e-01 -8.57639363810137542177e-03
9.99465605261207222939e+08 9.99121546246522718171e-01 -8.59357450320733830262e-03 -8.78453753477235533588e-04 -8.59357450320733830262e-03 -8.78453753477235533588e-04 -8.59357450320733830262e-03 9.99121546246522718171e-01 -8.59357450320733830262e-03
9.99466698092983841896e+08 9.99117978803267026144e-01 -8.61082357684891420979e-03 -8.82021196732929836995e-04 -8.61082357684891420979e-03 -8.82021196732929836995e-04 -8.61082357684891420979e-03 9.99117978803267026144e-01 -8.61082357684891420979e-03
9.99467790924760580063e+08 9.99114389665022972764e-01 -8.62814126135250970828e-03 -8.85610334976972917408e-04 -8.62814126135250970828e-03 -8.85610334976972917408e-04 -8.62814126135250970828e-03 9.99114389665022972764e-01 -8.62814126135250970828e-03
9.99468883756537199020e+08 9.99110778656157605404e-01 -8.64552796217020295966e-03 -8.89221343842339626874e-04 -8.64552796217020295966e-03 -8.89221343842339626874e-04 -8.64552796217020295966e-03 9.99110778656157605404e-01 -8.64552796217020295966e-03
9.99469976588313937187e+08 9.99107145599262169711e-01 -8.66298408792215944574e-03 -8.92854400737878536355e-04 -8.66298408792215944574e-03 -8.92854400737878536355e-04 -8.66298408792215944574e-03 9.99107145599262169711e-01 -8.66298408792215944574e-03
9.99471069420090556145e+08 9.99103490315132791721e-01 -8.68051005041472860391e-03 -8.96509684867224866840e-04 -8.68051005041472860391e-03 -8.96509684867224866840e-04 -8.68051005041472860391e-03 9.99103490315132791721e-01 -8.68051005041472860391e-03
9.99472162251867294312e+08 9.99099812622747607271e-01 -8.69810626468008399326e-03 -9.00187377252418641053e-04 -8.69810626468008399326e-03 -9.00187377252418641053e-04 -8.69810626468008399326e-03 9.99099812622747607271e-01 -8.69810626468008399326e-03
9.99473255083643913269e+08 9.99096112339245889800e-01 -8.71577314899842775509e-03 -9.03887660754126571853e-04 -8.71577314899842775509e-03 -9.03887660754126571853e-04 -8.71577314899842775509e-03 9.99096112339245889800e-01 -8.71577314899842775509e-03
9.99474347915420532227e+08 9.99092389279903514421e-01 -8.73351112494111410378e-03 -9.07610720096471376185e-04 -8.73351112494111410378e-03 -9.07610720096471376185e-04 -8.73351112494111410378e-03 9.99092389279903514421e-01 -8.73351112494111410378e-03
9.99475440747197270393e+08 9.99088643258111974710e-01 -8.75132061739446708015e-03 -9.11356741888070284556e-04 -8.75132061739446708015e-03 -9.11356741888070284556e-04 -8.75132061739446708015e-03 9.99088643258111974710e-01 -8.75132061739446708015e-03
9.99476533578973889351e+08 9.99084874085355179041e-01 -8.76920205459105761570e-03 -9.15125914644869639832e-04 -8.76920205459105761570e-03 -9.15125914644869639832e-04 -8.76920205459105761570e-03 9.99084874085355179041e-01 -8.76920205459105761570e-03
9.99477626410750627518e+08 9.99081081571185136703e-01 -8.78715586814862378850e-03 -9.18918428814844974288e-04 -8.78715586814862378850e-03 -9.18918428814844974288e-04 -8.78715586814862378850e-03 9.99081081571185136703e-01 -8.78715586814862378850e-03
9.99478719242527246475e+08 9.99077265523199864461e-01 -8.80518249309577595574e-03 -9.22734476800168932492e-04 -8.80518249309577595574e-03 -9.22734476800168932492e-04 -8.80518249309577595574e-03 9.99077265523199864461e-01 -8.80518249309577595574e-03
9.99479812074303984642e+08 9.99073425747017185294e-01 -8.82328236791261877325e-03 -9.26574252982789118432e-04 -8.82328236791261877325e-03 -9.26574252982789118432e-04 -8.82328236791261877325e-03 9.99073425747017185294e-01 -8.82328236791261877325e-03
9.99480904906080603600e+08 9.99069562046252745979e-01 -8.84145593455717276887e-03 -9.30437953747261068012e-04 -8.84145593455717276887e-03 -9.30437953747261068012e-04 -8.84145593455717276887e-03 9.99069562046252745979e-01 -8.84145593455717276887e-03
9.99481997737857341766e+08 9.99065674222492927647e-01 -8.85970363850682729456e-03 -9.34325777507038091746e-04 -8.85970363850682729456e-03 -9.34325777507038091746e-04 -8.85970363850682729456e-03 9.99065674222492927647e-01 -8.85970363850682729456e-03
9.99483090569633960724e+08 9.99061762075272197237e-01 -8.87802592878454872871e-03 -9.38237924727791379291e-04 -8.87802592878454872871e-03 -9.38237924727791379291e-04 -8.87802592878454872871e-03 9.99061762075272197237e-01 -8.87802592878454872871e-03
9.99484183401410698891e+08 9.99057825402044352714e-01 -8.89642325800680047743e-03 -9.42174597955632757776e-04 -8.89642325800680047743e-03 -9.42174597955632757776e-04 -8.89642325800680047743e-03 9.99057825402044352714e-01 -8.89642325800680047743e-03
9.99485276233187317848e+08 9.99053863998161428839e-01 -8.91489608239834710468e-03 -9.46136001838549043491e-04 -8.91489608239834710468e-03 -9.46136001838549043491e-04 -8.91489608239834710468e-03 9.99053863998161428839e-01 -8.91489608239834710468e-03
9.99486369064963936806e+08 9.99049877656842388873e-01 -8.93344486185134595280e-03 -9.50122343157585539514e-04 -8.93344486185134595280e-03 -9.50122343157585539514e-04 -8.93344486185134595280e-03 9.99049877656842388873e-01 -8.93344486185134595280e-03
9.99487461896740674973e+08 9.99045866169150142966e-01 -8.95207005994464420640e-03 -9.54133830849810521922e-04 -8.95207005994464420640e-03 -9.54133830849810521922e-04 -8.95207005994464420640e-03 9.99045866169150142966e-01 -8.95207005994464420640e-03
9.99488554728517293930e+08 9.99041829323963348486e-01 -8.97077214398690758745e-03 -9.58170676036673306560e-04 -8.97077214398690758745e-03 -9.58170676036673306560e-04 -8.97077214398690758745e-03 9.99041829323963348486e-01 -8.97077214398690758745e-03
9.99489647560294032097e+08 9.99037766907948876494e-01 -8.98955158505268005220e-03 -9.62233092051148443044e-04 -8.98955158505268005220e-03 -9.62233092051148443044e-04 -8.98955158505268005220e-03 9.99037766907948876494e-01 -8.98955158505268005220e-03
9.99490740392070651054e+08 9.99033678705534944342e-01 -9.00840885801788490705e-03 -9.66321294465064982090e-04 -9.00840885801788490705e-03 -9.66321294465064982090e-04 -9.00840885801788490705e-03 9.99033678705534944342e-01 -9.00840885801788490705e-03
9.99491833223847389221e+08 9.99029564498881028634e-01 -9.02734444160536997348e-03 -9.70435501118918674227e-04 -9.02734444160536997348e-03 -9.70435501118918674227e-04 -9.02734444160536997348e-03 9.99029564498881028634e-01 -9.02734444160536997348e-03
9.99492926055624008179e+08 9.99025424067852441112e-01 -9.04635881840979393098e-03 -9.74575932147523325833e-04 -9.04635881840979393098e-03 -9.74575932147523325833e-04 -9.04635881840979393098e-03 9.99025424067852441112e-01 -9.04635881840979393098e-03
9.99494018887400746346e+08 9.99021257189988132197e-01 -9.06545247494983108538e-03 -9.78742810011907918635e-04 -9.06545247494983108538e-03 -9.78742810011907918635e-04 -9.06545247494983108538e-03 9.99021257189988132197e-01 -9.06545247494983108538e-03
9.99495111719177365303e+08 9.99017063640472935404e-01 -9.08462590169971384579e-03 -9.82936359527056139132e-04 -9.08462590169971384579e-03 -9.82936359527056139132e-04 -9.08462590169971384579e-03 9.99017063640472935404e-01 -9.08462590169971384579e-03
9.99496204550953984261e+08 9.99012843192107591328e-01 -9.10387959313181498178e-03 -9.87156807892378097488e-04 -9.10387959313181498178e-03 -9.87156807892378097488e-04 -9.10387959313181498178e-03 9.99012843192107591328e-01 -9.10387959313181498178e-03
9.99497297382730722427e+08 9.99008595615278660595e-01 -9.12321404775387652386e-03 -9.91404384721347210763e-04 -9.12321404775387652386e-03 -9.91404384721347210763e-04 -9.12321404775387652386e-03 9.99008595615278660595e-01 -9.12321404775387652386e-03
9.99498390214507341385e+08 9.99004320677927104555e-01 -9.14262976815255652696e-03 -9.95679322072867906482e-04 -9.14262976815255652696e-03 -9.95679322072867906482e-04 -9.14262976815255652696e-03 9.99004320677927104555e-01 -9.14262976815255652696e-03
9.99499483046284079552e+08 9.99000018145517310053e-01 -9.16212726103557244250e-03 -9.99981854482686911140e-04 -9.16212726103557244250e-03 -9.99981854482686911140e-04 -9.16212726103557244250e-03 9.99000018145517310053e-01 -9.16212726103557244250e-03
9.99500575878060698509e+08 9.98995687781006669326e-01 -9.18170703726535475386e-03 -1.00431221899328427041e-03 -9.18170703726535475386e-03 -1.00431221899328427041e-03 -9.18170703726535475386e-03 9.98995687781006669326e-01 -9.18170703726535475386e-03
9.99501668709837436676e+08 9.98991329344810941038e-01 -9.20136961191504558488e-03 -1.00867065518906026331e-03 -9.20136961191504558488e-03 -1.00867065518906026331e-03 -9.20136961191504558488e-03 9.98991329344810941038e-01 -9.20136961191504558488e-03
9.99502761541614055634e+08 9.98986942594774163240e-01 -9.22111550429720663868e-03 -1.01305740522585866099e-03 -9.22111550429720663868e-03 -1.01305740522585866099e-03 -9.22111550429720663868e-03 9.98986942594774163240e-01 -9.22111550429720663868e-03
9.99503854373390793800e+08 9.98982527286134236455e-01 -9.24094523801484955816e-03 -1.01747271386580300997e-03 -9.24094523801484955816e-03 -1.01747271386580300997e-03 -9.24094523801484955816e-03 9.98982527286134236455e-01 -9.24094523801484955816e-03
9.99504947205167412758e+08 9.98978083171489283920e-01 -9.26085934100412400127e-03 -1.02191682851066468866e-03 -9.26085934100412400127e-03 -1.02191682851066468866e-03 -9.26085934100412400127e-03 9.98978083171489283920e-01 -9.26085934100412400127e-03
9.99506040036944031715e+08 9.98973610000764677963e-01 -9.28085834557542364853e-03 -1.02638999923526826052e-03 -9.28085834557542364853e-03 -1.02638999923526826052e-03 -9.28085834557542364853e-03 9.98973610000764677963e-01 -9.28085834557542364853e-03
9.99507132868720769882e+08 9.98969107521176735709e-01 -9.30094278846313633757e-03 -1.03089247882321550197e-03 -9.30094278846313633757e-03 -1.03089247882321550197e-03 -9.30094278846313633757e-03 9.98969107521176735709e-01 -9.30094278846313633757e-03
9.99508225700497388840e+08 9.98964575477199634435e-01 -9.32111321086373859068e-03 -1.03542452280040568093e-03 -9.32111321086373859068e-03 -1.03542452280040568093e-03 -9.32111321086373859068e-03 9.98964575477199634435e-01 -9.32111321086373859068e-03
9.99509318532274127007e+08 9.98960013610526997851e-01 -9.34137015849179595806e-03 -1.03998638947297612767e-03 -9.34137015849179595806e-03 -1.03998638947297612767e-03 -9.34137015849179595806e-03 9.98960013610526997851e-01 -9.34137015849179595806e-03
9.99510411364050745964e+08 9.98955421660040254750e-01 -9.36171418160984189494e-03 -1.04457833995978861819e-03 -9.36171418160984189494e-03 -1.04457833995978861819e-03 -9.36171418160984189494e-03 9.98955421660040254750e-01 -9.36171418160984189494e-03
9.99511504195827484131e+08 9.98950799361766228479e-01 -9.38214583509582381038e-03 -1.04920063823379016918e-03 -9.38214583509582381038e-03 -1.04920063823379016918e-03 -9.38214583509582381038e-03 9.98950799361766228479e-01 -9.38214583509582381038e-03
9.99512597027604103088e+08 9.98946146448844385368e-01 -9.40266567847407135072e-03 -1.05385355115559294775e-03 -9.40266567847407135072e-03 -1.05385355115559294775e-03 -9.40266567847407135072e-03 9.98946146448844385368e-01 -9.40266567847407135072e-03
9.99513689859380841255e+08 9.98941462651485867497e-01 -9.42327427597577059470e-03 -1.05853734851414334542e-03 -9.42327427597577059470e-03 -1.05853734851414334542e-03 -9.42327427597577059470e-03 9.98941462651485867497e-01 -9.42327427597577059470e-03
9.99514782691157460213e+08 9.98936747696938631691e-01 -9.44397219657084653621e-03 -1.06325230306136353856e-03 -9.44397219657084653621e-03 -1.06325230306136353856e-03 -9.44397219657084653621e-03 9.98936747696938631691e-01 -9.44397219657084653621e-03
9.99515875522934079170e+08 9.98932001309443817760e-01 -9.46476001403916654409e-03 -1.06799869055617226501e-03 -9.46476001403916654409e-03 -1.06799869055617226501e-03 -9.46476001403916654409e-03 9.98932001309443817760e-01 -9.46476001403916654409e-03
9.99516968354710817337e+08 9.98927223210199999315e-01 -9.48563830700249743799e-03 -1.07277678980005120903e-03 -9.48563830700249743799e-03 -1.07277678980005120903e-03 -9.48563830700249743799e-03 9.98927223210199999315e-01 -9.48563830700249743799e-03
9.99518061186487436295e+08 9.98922413117321550402e-01 -9.50660765898014327446e-03 -1.07758688267845285057e-03 -9.50660765898014327446e-03 -1.07758688267845285057e-03 -9.50660765898014327446e-03 9.98922413117321550402e-01 -9.50660765898014327446e-03
9.99519154018264174461e+08 9.98917570745796679077e-01 -9.52766865844743154890e-03 -1.08242925420336342374e-03 -9.52766865844743154890e-03 -1.08242925420336342374e-03 -9.52766865844743154890e-03 9.98917570745796679077e-01 -9.52766865844743154890e-03
9.99520246850040793419e+08 9.98912695807448680618e-01 -9.54882189887243382209e-03 -1.08730419255135190779e-03 -9.54882189887243382209e-03 -1.08730419255135190779e-03 -9.54882189887243382209e-03 9.98912695807448680618e-01 -9.54882189887243382209e-03
9.99521339681817531586e+08 9.98907788010890862473e-01 -9.57006797878321054107e-03 -1.09221198910912234772e-03 -9.57006797878321054107e-03 -1.09221198910912234772e-03 -9.57006797878321054107e-03 9.98907788010890862473e-01 -9.57006797878321054107e-03
9.99522432513594150543e+08 9.98902847061485688052e-01 -9.59140750181217659198e-03 -1.09715293851431433363e-03 -9.59140750181217659198e-03 -1.09715293851431433363e-03 -9.59140750181217659198e-03 9.98902847061485688052e-01 -9.59140750181217659198e-03
9.99523525345370888710e+08 9.98897872661300589847e-01 -9.61284107675182582231e-03 -1.10212733869942880113e-03 -9.61284107675182582231e-03 -1.10212733869942880113e-03 -9.61284107675182582231e-03 9.98897872661300589847e-01 -9.61284107675182582231e-03
9.99524618177147507668e+08 9.98892864509064115630e-01 -9.63436931760896890509e-03 -1.10713549093593207479e-03 -9.63436931760896890509e-03 -1.10713549093593207479e-03 -9.63436931760896890509e-03 9.98892864509064115630e-01 -9.63436931760896890509e-03
9.99525711008924245834e+08 9.98887822300120964414e-01 -9.65599284365964774524e-03 -1.11217769987905076498e-03 -9.65599284365964774524e-03 -1.11217769987905076498e-03 -9.65599284365964774524e-03 9.98887822300120964414e-01 -9.65599284365964774524e-03
9.99526803840700864792e+08 9.98882745726386689356e-01 -9.67771227950472989754e-03 -1.11725427361326554165e-03 -9.67771227950472989754e-03 -1.11725427361326554165e-03 -9.67771227950472989754e-03 9.98882745726386689356e-01 -9.67771227950472989754e-03
9.99527896672477483749e+08 9.98877634476301956568e-01 -9.69952825512396775431e-03 -1.12236552369799420965e-03 -9.69952825512396775431e-03 -1.12236552369799420965e-03 -9.69952825512396775431e-03 9.98877634476301956568e-01 -9.69952825512396775431e-03
9.99528989504254221916e+08 9.98872488234783140193e-01 -9.72144140594296407576e-03 -1.12751176521686219227e-03 -9.72144140594296407576e-03 -1.12751176521686219227e-03 -9.72144140594296407576e-03 9.98872488234783140193e-01 -9.72144140594296407576e-03
9.99530082336030840874e+08 9.98867306683179023707e-01 -9.74345237287200204024e-03 -1.13269331682094463384e-03 -9.74345237287200204024e-03 -1.13269331682094463384e-03 -9.74345237287200204024e-03 9.98867306683179023707e-01 -9.74345237287200204024e-03
9.99531175167807579041e+08 9.98862089499217287170e-01 -9.76556180238782531311e-03 -1.13791050078267531702e-03 -9.76556180238782531311e-03 -1.13791050078267531702e-03 -9.76556180238782531311e-03 9.98862089499217287170e-01 -9.76556180238782531311e-03
9.99532267999584197998e+08 9.98856836356960986478e-01 -9.78777034656707657645e-03 -1.14316364303897123784e-03 -9.78777034656707657645e-03 -1.14316364303897123784e-03 -9.78777034656707657645e-03 9.98856836356960986478e-01 -9.78777034656707657645e-03
9.99533360831360936165e+08 9.98851546926753042221e-01 -9.81007866317082366514e-03 -1.14845307324701003705e-03 -9.81007866317082366514e-03 -1.14845307324701003705e-03 -9.81007866317082366514e-03 9.98851546926753042221e-01 -9.81007866317082366514e-03
9.99534453663137555122e+08 9.98846220875169832354e-01 -9.83248741568494392939e-03 -1.15377912483018867963e-03 -9.83248741568494392939e-03 -1.15377912483018867963e-03 -9.83248741568494392939e-03 9.98846220875169832354e-01 -9.83248741568494392939e-03
9.99535546494914293289e+08 9.98840857864965459001e-01 -9.85499727340191644664e-03 -1.15914213503452386868e-03 -9.85499727340191644664e-03 -1.15914213503452386868e-03 -9.85499727340191644664e-03 9.98840857864965459001e-01 -9.85499727340191644664e-03
9.99536639326690912247e+08 9.98835457555024897047e-01 -9.87760891145792949142e-03 -1.16454244497506847512e-03 -9.87760891145792949142e-03 -1.16454244497506847512e-03 -9.87760891145792949142e-03 9.98835457555024897047e-01 -9.87760891145792949142e-03
9.99537732158467531204e+08 9.98830019600305707428e-01 -9.90032301091747952981e-03 -1.16998039969427630909e-03 -9.90032301091747952981e-03 -1.16998039969427630909e-03 -9.90032301091747952981e-03 9.98830019600305707428e-01 -9.90032301091747952981e-03
9.99538824990244269371e+08 9.98824543651784191312e-01 -9.92314025883613871903e-03 -1.17545634821585205654e-03 -9.92314025883613871903e-03 -1.17545634821585205654e-03 -9.92314025883613871903e-03 9.98824543651784191312e-01 -9.92314025883613871903e-03
