! File generated for n1 = 6, n2 = 2
! b1 = 2.154435
! b2 = 1.000000
! Q0 = 10000.000000
! f0 = 1000000000.000000
! n = 1001
! rel_span = 10.000000
# Hz S RI R 50
9.97922782654984116554e+08 9.89752087133983216027e-01 -1.02585785922257005653e-01 -6.98182176001425295470e-03 -6.98908823469115564331e-02 -6.98182176001425295470e-03 -6.98908823469115564331e-02 9.95243340207325966063e-01 -4.76161038424139093639e-02
9.97926937089674115181e+08 9.89711337582062533613e-01 -1.02787503961289619636e-01 -7.00958410655549112034e-03 -7.00283112470903995606e-02 -7.00958410655549112034e-03 -7.00283112470903995606e-02 9.95224425940808954394e-01 -4.77097330621651175009e-02
9.97931091524364233017e+08 9.89670345482450919405e-01 -1.02990007768049146586e-01 -7.03751169891492483338e-03 -7.01662754845897157496e-02 -7.03751169891492483338e-03 -7.01662754845897157496e-02 9.95205399093626597029e-01 -4.78037270029870245414e-02
9.97935245959054231644e+08 9.89629108913335886477e-01 -1.03193301892298597289e-01 -7.06560584640816315150e-03 -7.03047781591269460577e-02 -7.06560584640816315150e-03 -7.03047781591269460577e-02 9.95186258773752552287e-01 -4.78980877766925633443e-02
9.97939400393744230270e+08 9.89587625933900039144e-01 -1.03397390918579787367e-01 -7.09386787129868013474e-03 -7.04438223941140778672e-02 -7.09386787129868013474e-03 -7.04438223941140778672e-02 9.95167004080339090422e-01 -4.79928175112375246525e-02
9.97943554828434228897e+08 9.89545894584092144974e-01 -1.03602279466561350563e-01 -7.12229910895391914172e-03 -7.05834113368947191347e-02 -7.12229910895391914172e-03 -7.05834113368947191347e-02 9.95147634103611067324e-01 -4.80879183508821639315e-02
9.97947709263124346733e+08 9.89503912884407310635e-01 -1.03807972191327022027e-01 -7.15090090799472971606e-03 -7.07235481589404968439e-02 -7.15090090799472971606e-03 -7.07235481589404968439e-02 9.95128147924763784005e-01 -4.81833924563249346718e-02
9.97951863697814345360e+08 9.89461678835654723230e-01 -1.04014473783719876843e-01 -7.17967463045413121364e-03 -7.08642360560855916196e-02 -7.17967463045413121364e-03 -7.08642360560855916196e-02 9.95108544615854961890e-01 -4.82792420048623258100e-02
9.97956018132504343987e+08 9.89419190418710181589e-01 -1.04221788970739553948e-01 -7.20862165194520714689e-03 -7.10054782487973545901e-02 -7.20862165194520714689e-03 -7.10054782487973545901e-02 9.95088823239690278832e-01 -4.83754691905732142621e-02
9.97960172567194461823e+08 9.89376445594294606778e-01 -1.04429922515811762773e-01 -7.23774336181284318192e-03 -7.11472779823599660309e-02 -7.23774336181284318192e-03 -7.11472779823599660309e-02 9.95068982849720007344e-01 -4.84720762244439523636e-02
9.97964327001884460449e+08 9.89333442302728460760e-01 -1.04638879219151770261e-01 -7.26704116330025538806e-03 -7.12896385271220150992e-02 -7.26704116330025538806e-03 -7.12896385271220150992e-02 9.95049022489925771850e-01 -4.85690653345371078919e-02
9.97968481436574459076e+08 9.89290178463675839993e-01 -1.04848663918174336840e-01 -7.29651647372383648643e-03 -7.14325631787758041913e-02 -7.29651647372383648643e-03 -7.14325631787758041913e-02 9.95028941194701199713e-01 -4.86664387661817007813e-02
9.97972635871264457703e+08 9.89246651975914437216e-01 -1.05059281487759809126e-01 -7.32617072462956805956e-03 -7.15760552585386483626e-02 -7.32617072462956805956e-03 -7.15760552585386483626e-02 9.95008737988745228797e-01 -4.87641987820967640066e-02
9.97976790305954575539e+08 9.89202860717068088725e-01 -1.05270736840694448255e-01 -7.35600536197568953545e-03 -7.17201181134528714667e-02 -7.35600536197568953545e-03 -7.17201181134528714667e-02 9.94988411886938095563e-01 -4.88623476625956662533e-02
9.97980944740644574165e+08 9.89158802543364190640e-01 -1.05483034927969371308e-01 -7.38602184629733732324e-03 -7.18647551165894488134e-02 -7.38602184629733732324e-03 -7.18647551165894488134e-02 9.94967961894228758446e-01 -4.89608877057249314291e-02
9.97985099175334572792e+08 9.89114475289369021738e-01 -1.05696180739181563868e-01 -7.41622165288737932726e-03 -7.20099696673212469333e-02 -7.41622165288737932726e-03 -7.20099696673212469333e-02 9.94947387005511885150e-01 -4.90598212274503189811e-02
9.97989253610024571419e+08 9.89069876767722067079e-01 -1.05910179302920043343e-01 -7.44660627197708899910e-03 -7.21557651915860631675e-02 -7.44660627197708899910e-03 -7.21557651915860631675e-02 9.94926686205504728910e-01 -4.91591505618360902208e-02
9.97993408044714689255e+08 9.89025004768878446271e-01 -1.06125035687104879445e-01 -7.47717720891204803285e-03 -7.23021451421176630792e-02 -7.47717720891204803285e-03 -7.23021451421176630792e-02 9.94905858468627224411e-01 -4.92588780612023616201e-02
9.97997562479404687881e+08 9.88979857060837352911e-01 -1.06340754999372719136e-01 -7.50793598433657435876e-03 -7.24491129987083759545e-02 -7.50793598433657435876e-03 -7.24491129987083759545e-02 9.94884902758876643603e-01 -4.93590060963040658248e-02
9.98001716914094686508e+08 9.88934431388861501233e-01 -1.06557342387498865666e-01 -7.53888413438534056576e-03 -7.25966722684967119550e-02 -7.53888413438534056576e-03 -7.25966722684967119550e-02 9.94863818029696367340e-01 -4.94595370565268366292e-02
9.98005871348784804344e+08 9.88888725475205565552e-01 -1.06774803039757615331e-01 -7.57002321086824511709e-03 -7.27448264862127630392e-02 -7.57002321086824511709e-03 -7.27448264862127630392e-02 9.94842603223850763250e-01 -4.95604733500542710134e-02
9.98010025783474802971e+08 9.88842737018840733931e-01 -1.06993142185286507773e-01 -7.60135478145781799675e-03 -7.28935792144264904646e-02 -7.60135478145781799675e-03 -7.28935792144264904646e-02 9.94821257273296954970e-01 -4.96618174040370161104e-02
9.98014180218164801598e+08 9.88796463695155392060e-01 -1.07212365094553799261e-01 -7.63288042989353730794e-03 -7.30429340438661089951e-02 -7.63288042989353730794e-03 -7.30429340438661089951e-02 9.94799779099045822228e-01 -4.97635716648097345405e-02
9.98018334652854800224e+08 9.88749903155677345445e-01 -1.07432477079706045764e-01 -7.66460175617104336881e-03 -7.31928945936549391060e-02 -7.66460175617104336881e-03 -7.31928945936549391060e-02 9.94778167611032992923e-01 -4.98657385980524336944e-02
9.98022489087544918060e+08 9.88703053027775391470e-01 -1.07653483494995483305e-01 -7.69652037674497992853e-03 -7.33434645116025629719e-02 -7.69652037674497992853e-03 -7.33434645116025629719e-02 9.94756421707980620361e-01 -4.99683206889888625879e-02
9.98026643522234916687e+08 9.88655910914363222908e-01 -1.07875389737188950856e-01 -7.72863792473134966071e-03 -7.34946474744834210568e-02 -7.72863792473134966071e-03 -7.34946474744834210568e-02 9.94734540277259937646e-01 -5.00713204425762767324e-02
9.98030797956924915314e+08 9.88608474393596781127e-01 -1.08098201245984515406e-01 -7.76095605011321767325e-03 -7.36464471883206822644e-02 -7.76095605011321767325e-03 -7.36464471883206822644e-02 9.94712522194750481397e-01 -5.01747403836988667414e-02
9.98034952391615033150e+08 9.88560741018568500671e-01 -1.08321923504432995888e-01 -7.79347641994937098686e-03 -7.37988673886733753671e-02 -7.79347641994937098686e-03 -7.37988673886733753671e-02 9.94690366324698205247e-01 -5.02785830573633796270e-02
9.98039106826305031776e+08 9.88512708316997446012e-01 -1.08546562039358349128e-01 -7.82620071858510131524e-03 -7.39519118409228126687e-02 -7.82620071858510131524e-03 -7.39519118409228126687e-02 9.94668071519572261074e-01 -5.03828510288942404971e-02
9.98043261260995030403e+08 9.88464373790911010609e-01 -1.08772122421806644033e-01 -7.85913064786951387486e-03 -7.41055843405785119593e-02 -7.85913064786951387486e-03 -7.41055843405785119593e-02 9.94645636619916118093e-01 -5.04875468841419830501e-02
9.98047415695685029030e+08 9.88415734916329946635e-01 -1.08998610267455775524e-01 -7.89226792736944654516e-03 -7.42598887135572927054e-02 -7.89226792736944654516e-03 -7.42598887135572927054e-02 9.94623060454202678748e-01 -5.05926732296733891459e-02
9.98051570130375146866e+08 9.88366789142935520118e-01 -1.09226031237101769977e-01 -7.92561429459702308786e-03 -7.44148288165145804784e-02 -7.92561429459702308786e-03 -7.44148288165145804784e-02 9.94600341838678625450e-01 -5.06982326929972110241e-02
9.98055724565065145493e+08 9.88317533893756205998e-01 -1.09454391037026921296e-01 -7.95917150522234065346e-03 -7.45704085370952479694e-02 -7.95917150522234065346e-03 -7.45704085370952479694e-02 9.94577479577219869533e-01 -5.08042279227350693227e-02
9.98059878999755144119e+08 9.88267966564815858455e-01 -1.09683695419539262161e-01 -7.99294133331377235074e-03 -7.47266317943011404434e-02 -7.99294133331377235074e-03 -7.47266317943011404434e-02 9.94554472461167793362e-01 -5.09106615888718500029e-02
9.98064033434445142746e+08 9.88218084524804307733e-01 -1.09913950183384345749e-01 -8.02692557156208311153e-03 -7.48835025387716013423e-02 -8.02692557156208311153e-03 -7.48835025387716013423e-02 9.94531319269176261599e-01 -5.10175363829468014876e-02
9.98068187869135260582e+08 9.88167885114735078389e-01 -1.10145161174201505760e-01 -8.06112603151364938425e-03 -7.50410247530943763650e-02 -8.06112603151364938425e-03 -7.50410247530943763650e-02 9.94508018767053081355e-01 -5.11248550182653443974e-02
9.98072342303825259209e+08 9.88117365647593559608e-01 -1.10377334285006761805e-01 -8.09554454381022567389e-03 -7.51992024521345031607e-02 -8.09554454381022567389e-03 -7.51992024521345031607e-02 9.94484569707596688382e-01 -5.12326202301232325187e-02
9.98076496738515257835e+08 9.88066523407983732241e-01 -1.10610475456663373550e-01 -8.13018295842954548391e-03 -7.53580396833550408831e-02 -8.13018295842954548391e-03 -7.53580396833550408831e-02 9.94460970830431723044e-01 -5.13408347760248989777e-02
9.98080651173205375671e+08 9.88015355651765125877e-01 -1.10844590678379428805e-01 -8.16504314493270849651e-03 -7.55175405271559241349e-02 -8.16504314493270849651e-03 -7.55175405271559241349e-02 9.94437220861841275621e-01 -5.14495014359145005911e-02
9.98084805607895374298e+08 9.87963859605700434052e-01 -1.11079685988139637010e-01 -8.20012699270448487676e-03 -7.56777090971682830922e-02 -8.20012699270448487676e-03 -7.56777090971682830922e-02 9.94413318514602351250e-01 -5.15586230123762714883e-02
9.98088960042585372925e+08 9.87912032467072043218e-01 -1.11315767473254834119e-01 -8.23543641121395747495e-03 -7.58385495406286858078e-02 -8.23543641121395747495e-03 -7.58385495406286858078e-02 9.94389262487808789359e-01 -5.16682023308896176683e-02
9.98093114477275371552e+08 9.87859871403313993810e-01 -1.11552841270830122022e-01 -8.27097333026593009575e-03 -7.60000660386981885530e-02 -8.27097333026593009575e-03 -7.60000660386981885530e-02 9.94365051466699956251e-01 -5.17782422400463807066e-02
9.98097268911965489388e+08 9.87807373551630063524e-01 -1.11790913568270186551e-01 -8.30673970026076825823e-03 -7.61622628068065188334e-02 -8.30673970026076825823e-03 -7.61622628068065188334e-02 9.94340684122483442486e-01 -5.18887456117854140025e-02
9.98101423346655488014e+08 9.87754536018611850601e-01 -1.12029990603768170310e-01 -8.34273749245469965763e-03 -7.63251440949851700513e-02 -8.34273749245469965763e-03 -7.63251440949851700513e-02 9.94316159112158093336e-01 -5.19997153416194846098e-02
9.98105577781345486641e+08 9.87701355879835873885e-01 -1.12270078666867431649e-01 -8.37896869923412772330e-03 -7.64887141882501925272e-02 -8.37896869923412772330e-03 -7.64887141882501925272e-02 9.94291475078326936199e-01 -5.21111543488960091142e-02
9.98109732216035604477e+08 9.87647830179474661705e-01 -1.12511184098943853304e-01 -8.41543533438101135080e-03 -7.66529774069306529816e-02 -8.41543533438101135080e-03 -7.66529774069306529816e-02 9.94266630649016103227e-01 -5.22230655770209370448e-02
9.98113886650725603104e+08 9.87593955929894407042e-01 -1.12753313293722221000e-01 -8.45213943334650191774e-03 -7.68179381070205336002e-02 -8.45213943334650191774e-03 -7.68179381070205336002e-02 9.94241624437488979993e-01 -5.23354519936984272088e-02
9.98118041085415601730e+08 9.87539730111236080390e-01 -1.12996472697851110811e-01 -8.48908305353656376935e-03 -7.69836006805704187173e-02 -8.48908305353656376935e-03 -7.69836006805704187173e-02 9.94216455042051250324e-01 -5.24483165911976967344e-02
9.98122195520105600357e+08 9.87485149671004536209e-01 -1.13240668811419448181e-01 -8.52626827459203665005e-03 -7.71499695560392967364e-02 -8.52626827459203665005e-03 -7.71499695560392967364e-02 9.94191121045859937944e-01 -5.25616623865927320991e-02
9.98126349954795718193e+08 9.87430211523647072269e-01 -1.13485908188495743243e-01 -8.56369719867538896352e-03 -7.73170491986620994629e-02 -8.56369719867538896352e-03 -7.73170491986620994629e-02 9.94165621016728562331e-01 -5.26754924220126791168e-02
9.98130504389485716820e+08 9.87374912550127659117e-01 -1.13732197437670198847e-01 -8.60137195076120415760e-03 -7.74848441108188928927e-02 -8.60137195076120415760e-03 -7.74848441108188928927e-02 9.94139953506928741866e-01 -5.27898097648933847803e-02
9.98134658824175715446e+08 9.87319249597480297354e-01 -1.13979543222662904611e-01 -8.63929467894018580931e-03 -7.76533588324493512234e-02 -8.63929467894018580931e-03 -7.76533588324493512234e-02 9.94114117052983359279e-01 -5.29046175082597200379e-02
9.98138813258865833282e+08 9.87263219478377029859e-01 -1.14227952262847071152e-01 -8.67746755471364254741e-03 -7.78225979414091106889e-02 -8.67746755471364254741e-03 -7.78225979414091106889e-02 9.94088110175465833329e-01 -5.30199187709684480185e-02
9.98142967693555831909e+08 9.87206818970685406889e-01 -1.14477431333794399393e-01 -8.71589277329480952017e-03 -7.79925660538414722289e-02 -8.71589277329480952017e-03 -7.79925660538414722289e-02 9.94061931378794616521e-01 -5.31357166979613687596e-02
9.98147122128245830536e+08 9.87150044816994642893e-01 -1.14727987267937564519e-01 -8.75457255393177063985e-03 -7.81632678246286238810e-02 -8.75457255393177063985e-03 -7.81632678246286238810e-02 9.94035579151013815036e-01 -5.32520144605728024123e-02
9.98151276562935829163e+08 9.87092893724167863567e-01 -1.14979626955093866547e-01 -8.79350914021267276999e-03 -7.83347079477484387056e-02 -8.79350914021267276999e-03 -7.83347079477484387056e-02 9.94009051963584466804e-01 -5.33688152567726586950e-02
9.98155430997625946999e+08 9.87035362362866375285e-01 -1.15232357343085262125e-01 -8.83270480038948063717e-03 -7.85068911566969146465e-02 -8.83270480038948063717e-03 -7.85068911566969146465e-02 9.93982348271164495301e-01 -5.34861223114541997625e-02
9.98159585432315945625e+08 9.86977447367082150187e-01 -1.15486185438302163542e-01 -8.87216182769681033227e-03 -7.86798222248722839423e-02 -8.87216182769681033227e-03 -7.86798222248722839423e-02 9.93955466511391327877e-01 -5.36039388766957961008e-02
9.98163739867005944252e+08 9.86919145333643887952e-01 -1.15741118306355278422e-01 -8.91188254068820719100e-03 -7.88535059660190745801e-02 -8.91188254068820719100e-03 -7.88535059660190745801e-02 9.93928405104652967772e-01 -5.37222682320634206676e-02
9.98167894301695942879e+08 9.86860452821726963357e-01 -1.15997163072688216912e-01 -8.95186928357030037295e-03 -7.90279472346454986420e-02 -8.95186928357030037295e-03 -7.90279472346454986420e-02 9.93901162453859954304e-01 -5.38411136848950186429e-02
9.98172048736386060715e+08 9.86801366352362152590e-01 -1.16254326923166326213e-01 -8.99212442653720030183e-03 -7.92031509264246452728e-02 -8.99212442653720030183e-03 -7.92031509264246452728e-02 9.93873736944217878175e-01 -5.39604785705738235202e-02
9.98176203171076059341e+08 9.86741882407925596787e-01 -1.16512617104724394701e-01 -9.03265036611809214728e-03 -7.93791219786356971877e-02 -9.03265036611809214728e-03 -7.93791219786356971877e-02 9.93846126942990237829e-01 -5.40803662528289985634e-02
9.98180357605766057968e+08 9.86681997431620882999e-01 -1.16772040926022363516e-01 -9.07344952553022603137e-03 -7.95558653706107121728e-02 -9.07344952553022603137e-03 -7.95558653706107121728e-02 9.93818330799258520258e-01 -5.42007801240399766929e-02
9.98184512040456175804e+08 9.86621707826955685050e-01 -1.17032605758095528681e-01 -9.11452435503528127225e-03 -7.97333861241775743167e-02 -9.11452435503528127225e-03 -7.97333861241775743167e-02 9.93790346843678840116e-01 -5.43217236055382746152e-02
9.98188666475146174431e+08 9.86561009957227841305e-01 -1.17294319034939059643e-01 -9.15587733228959144149e-03 -7.99116893040582448871e-02 -9.15587733228959144149e-03 -7.99116893040582448871e-02 9.93762173388243574834e-01 -5.44432001478787896964e-02
9.98192820909836173058e+08 9.86499900144963470794e-01 -1.17557188254271416383e-01 -9.19751096272691283373e-03 -8.00907800183888324286e-02 -9.19751096272691283373e-03 -8.00907800183888324286e-02 9.93733808726020462210e-01 -5.45652132311941484577e-02
9.98196975344526171684e+08 9.86438374671387174786e-01 -1.17821220978131802060e-01 -9.23942777991946032068e-03 -8.02706634191266837908e-02 -9.23942777991946032068e-03 -8.02706634191266837908e-02 9.93705251130907019075e-01 -5.46877663654720194697e-02
9.98201129779216289520e+08 9.86376429775856822246e-01 -1.18086424833600864281e-01 -9.28163034596291361411e-03 -8.04513447025413525049e-02 -9.28163034596291361411e-03 -8.04513447025413525049e-02 9.93676498857367751505e-01 -5.48108630908896443668e-02
9.98205284213906288147e+08 9.86314061655310103660e-01 -1.18352807513442348508e-01 -9.32412125185344727030e-03 -8.06328291096517629777e-02 -9.32412125185344727030e-03 -8.06328291096517629777e-02 9.93647550140177471256e-01 -5.49345069781116551733e-02
9.98209438648596286774e+08 9.86251266463677667140e-01 -1.18620376776859159929e-01 -9.36690311788764690126e-03 -8.08151219267413262193e-02 -9.36690311788764690126e-03 -8.08151219267413262193e-02 9.93618403194148847035e-01 -5.50587016286410019239e-02
9.98213593083286404610e+08 9.86188040311312574815e-01 -1.18889140450147950956e-01 -9.40997859405102998753e-03 -8.09982284858038609210e-02 -9.40997859405102998753e-03 -8.09982284858038609210e-02 9.93589056213867838352e-01 -5.51834506751228068278e-02
9.98217747517976403236e+08 9.86124379264395445333e-01 -1.19159106427430466768e-01 -9.45335036042359126707e-03 -8.11821541650419170599e-02 -9.45335036042359126707e-03 -8.11821541650419170599e-02 9.93559507373417138965e-01 -5.53087577816837941413e-02
9.98221901952666401863e+08 9.86060279344334600360e-01 -1.19430282671371970626e-01 -9.49702112758827286798e-03 -8.13669043893561899639e-02 -9.49702112758827286798e-03 -8.13669043893561899639e-02 9.93529754826098177034e-01 -5.54346266442657872875e-02
9.98226056387356400490e+08 9.85995736527150334894e-01 -1.19702677213937777601e-01 -9.54099363705055748819e-03 -8.15524846308609413503e-02 -9.54099363705055748819e-03 -8.15524846308609413503e-02 9.93499796704145010651e-01 -5.55610609909768377035e-02
9.98230210822046518326e+08 9.85930746742863739485e-01 -1.19976298157097885366e-01 -9.58527066165482805049e-03 -8.17389004093640875181e-02 -9.58527066165482805049e-03 -8.17389004093640875181e-02 9.93469631118440554829e-01 -5.56880645824182965442e-02
9.98234365256736516953e+08 9.85865305874868202984e-01 -1.20251153673572350189e-01 -9.62985500601244541474e-03 -8.19261572928749737255e-02 -9.62985500601244541474e-03 -8.19261572928749737255e-02 9.93439256158225592053e-01 -5.58156412120307671154e-02
9.98238519691426515579e+08 9.85799409759278932874e-01 -1.20527252007638224773e-01 -9.67474950694514890248e-03 -8.21142608981541705093e-02 -9.67474950694514890248e-03 -8.21142608981541705093e-02 9.93408669890795903434e-01 -5.59437947064686941223e-02
9.98242674126116514206e+08 9.85733054184291690447e-01 -1.20804601475861819737e-01 -9.71995703392173303337e-03 -8.23032168912123385240e-02 -9.71995703392173303337e-03 -8.23032168912123385240e-02 9.93377870361204950989e-01 -5.60725289259402029374e-02
9.98246828560806632042e+08 9.85666234889522097085e-01 -1.21083210467880453276e-01 -9.76548048950828286030e-03 -8.24930309878428719150e-02 -9.76548048950828286030e-03 -8.24930309878428719150e-02 9.93346855591957789144e-01 -5.62018477645699829348e-02
