! File generated for n1 = 12, n2 = 1
! b1 = 0.021544
! b2 = 0.021544
! Q0 = 10000.000000
! f0 = 1000000000.000000
! n = 1001
! rel_span = 10.000000
# Hz S RI R 50
9.99478455653099656105e+08 9.99591213666941369453e-01 -4.08892988784887931319e-03 -4.08786333058649303286e-04 -4.08892988784887931319e-03 -4.08786333058649303286e-04 -4.08892988784887931319e-03 9.99591213666941369453e-01 -4.08892988784887931319e-03
9.99479498741793513298e+08 9.99589589473224293670e-01 -4.09696357212922194352e-03 -4.10410526775704703924e-04 -4.09696357212922194352e-03 -4.10410526775704703924e-04 -4.09696357212922194352e-03 9.99589589473224293670e-01 -4.09696357212922194352e-03
9.99480541830487251282e+08 9.99587955614697154516e-01 -4.10502854991815976926e-03 -4.12044385302840388170e-04 -4.10502854991815976926e-03 -4.12044385302840388170e-04 -4.10502854991815976926e-03 9.99587955614697154516e-01 -4.10502854991815976926e-03
9.99481584919181108475e+08 9.99586312014791977809e-01 -4.11312500240929631440e-03 -4.13687985208057264815e-04 -4.11312500240929631440e-03 -4.13687985208057264815e-04 -4.11312500240929631440e-03 9.99586312014791977809e-01 -4.11312500240929631440e-03
9.99482628007874846458e+08 9.99584658596184283397e-01 -4.12125311217727448299e-03 -4.15341403815661417386e-04 -4.12125311217727448299e-03 -4.15341403815661417386e-04 -4.12125311217727448299e-03 9.99584658596184283397e-01 -4.12125311217727448299e-03
9.99483671096568703651e+08 9.99582995280782982128e-01 -4.12941306319947534775e-03 -4.17004719216983990495e-04 -4.12941306319947534775e-03 -4.17004719216983990495e-04 -4.12941306319947534775e-03 9.99582995280782982128e-01 -4.12941306319947534775e-03
9.99484714185262441635e+08 9.99581321989722271226e-01 -4.13760504086061516732e-03 -4.18678010277717931736e-04 -4.13760504086061516732e-03 -4.18678010277717931736e-04 -4.13760504086061516732e-03 9.99581321989722271226e-01 -4.13760504086061516732e-03
9.99485757273956298828e+08 9.99579638643351864324e-01 -4.14582923197129998849e-03 -4.20361356648189831483e-04 -4.14582923197129998849e-03 -4.20361356648189831483e-04 -4.14582923197129998849e-03 9.99579638643351864324e-01 -4.14582923197129998849e-03
9.99486800362650036812e+08 9.99577945161227554571e-01 -4.15408582478026845719e-03 -4.22054838772443314480e-04 -4.15408582478026845719e-03 -4.22054838772443314480e-04 -4.15408582478026845719e-03 9.99577945161227554571e-01 -4.15408582478026845719e-03
9.99487843451343894005e+08 9.99576241462102110802e-01 -4.16237500898894528106e-03 -4.23758537897896137014e-04 -4.16237500898894528106e-03 -4.23758537897896137014e-04 -4.16237500898894528106e-03 9.99576241462102110802e-01 -4.16237500898894528106e-03
9.99488886540037631989e+08 9.99574527463915729619e-01 -4.17069697576174895637e-03 -4.25472536084221862693e-04 -4.17069697576174895637e-03 -4.25472536084221862693e-04 -4.17069697576174895637e-03 9.99574527463915729619e-01 -4.17069697576174895637e-03
9.99489929628731489182e+08 9.99572803083785488276e-01 -4.17905191774715478042e-03 -4.27196916214546472488e-04 -4.17905191774715478042e-03 -4.27196916214546472488e-04 -4.17905191774715478042e-03 9.99572803083785488276e-01 -4.17905191774715478042e-03
9.99490972717425227165e+08 9.99571068237996684935e-01 -4.18744002908209411035e-03 -4.28931762003317504101e-04 -4.18744002908209411035e-03 -4.28931762003317504101e-04 -4.18744002908209411035e-03 9.99571068237996684935e-01 -4.18744002908209411035e-03
9.99492015806119084358e+08 9.99569322841991514395e-01 -4.19586150541693091165e-03 -4.30677158008520733629e-04 -4.19586150541693091165e-03 -4.30677158008520733629e-04 -4.19586150541693091165e-03 9.99569322841991514395e-01 -4.19586150541693091165e-03
9.99493058894812822342e+08 9.99567566810360519369e-01 -4.20431654391876814120e-03 -4.32433189639527251411e-04 -4.20431654391876814120e-03 -4.32433189639527251411e-04 -4.20431654391876814120e-03 9.99567566810360519369e-01 -4.20431654391876814120e-03
9.99494101983506679535e+08 9.99565800056830155995e-01 -4.21280534329773574675e-03 -4.34199943169805895136e-04 -4.21280534329773574675e-03 -4.34199943169805895136e-04 -4.21280534329773574675e-03 9.99565800056830155995e-01 -4.21280534329773574675e-03
9.99495145072200417519e+08 9.99564022494254689200e-01 -4.22132810381191121013e-03 -4.35977505745317359901e-04 -4.22132810381191121013e-03 -4.35977505745317359901e-04 -4.22132810381191121013e-03 9.99564022494254689200e-01 -4.22132810381191121013e-03
9.99496188160894274712e+08 9.99562234034603536159e-01 -4.22988502728859506324e-03 -4.37765965396414347046e-04 -4.22988502728859506324e-03 -4.37765965396414347046e-04 -4.22988502728859506324e-03 9.99562234034603536159e-01 -4.22988502728859506324e-03
9.99497231249588012695e+08 9.99560434588952273494e-01 -4.23847631713537668918e-03 -4.39565411047732306892e-04 -4.23847631713537668918e-03 -4.39565411047732306892e-04 -4.23847631713537668918e-03 9.99560434588952273494e-01 -4.23847631713537668918e-03
9.99498274338281869888e+08 9.99558624067470202768e-01 -4.24710217835908444145e-03 -4.41375932529841467911e-04 -4.24710217835908444145e-03 -4.41375932529841467911e-04 -4.24710217835908444145e-03 9.99558624067470202768e-01 -4.24710217835908444145e-03
9.99499317426975727081e+08 9.99556802379410358483e-01 -4.25576281757808917022e-03 -4.43197620589626446221e-04 -4.25576281757808917022e-03 -4.43197620589626446221e-04 -4.25576281757808917022e-03 9.99556802379410358483e-01 -4.25576281757808917022e-03
9.99500360515669465065e+08 9.99554969433098072784e-01 -4.26445844304025340615e-03 -4.45030566901967927686e-04 -4.26445844304025340615e-03 -4.45030566901967927686e-04 -4.26445844304025340615e-03 9.99554969433098072784e-01 -4.26445844304025340615e-03
9.99501403604363322258e+08 9.99553125135919429134e-01 -4.27318926463646914238e-03 -4.46874864080619275692e-04 -4.27318926463646914238e-03 -4.46874864080619275692e-04 -4.27318926463646914238e-03 9.99553125135919429134e-01 -4.27318926463646914238e-03
9.99502446693057060242e+08 9.99551269394309604976e-01 -4.28195549391993755123e-03 -4.48730605690416924428e-04 -4.28195549391993755123e-03 -4.48730605690416924428e-04 -4.28195549391993755123e-03 9.99551269394309604976e-01 -4.28195549391993755123e-03
9.99503489781750917435e+08 9.99549402113741658482e-01 -4.29075734411959921338e-03 -4.50597886258382825976e-04 -4.29075734411959921338e-03 -4.50597886258382825976e-04 -4.29075734411959921338e-03 9.99549402113741658482e-01 -4.29075734411959921338e-03
9.99504532870444655418e+08 9.99547523198714538140e-01 -4.29959503015604673631e-03 -4.52476801285474925039e-04 -4.29959503015604673631e-03 -4.52476801285474925039e-04 -4.29959503015604673631e-03 9.99547523198714538140e-01 -4.29959503015604673631e-03
9.99505575959138512611e+08 9.99545632552740426213e-01 -4.30846876866281501550e-03 -4.54367447259614010667e-04 -4.30846876866281501550e-03 -4.54367447259614010667e-04 -4.30846876866281501550e-03 9.99545632552740426213e-01 -4.30846876866281501550e-03
9.99506619047832250595e+08 9.99543730078333303446e-01 -4.31737877799753550639e-03 -4.56269921666687175692e-04 -4.31737877799753550639e-03 -4.56269921666687175692e-04 -4.31737877799753550639e-03 9.99543730078333303446e-01 -4.31737877799753550639e-03
9.99507662136526107788e+08 9.99541815676996514561e-01 -4.32632527826172508245e-03 -4.58184323003519536777e-04 -4.32632527826172508245e-03 -4.58184323003519536777e-04 -4.32632527826172508245e-03 9.99541815676996514561e-01 -4.32632527826172508245e-03
9.99508705225219845772e+08 9.99539889249209889677e-01 -4.33530849131653385486e-03 -4.60110750790124526342e-04 -4.33530849131653385486e-03 -4.60110750790124526342e-04 -4.33530849131653385486e-03 9.99539889249209889677e-01 -4.33530849131653385486e-03
9.99509748313913702965e+08 9.99537950694416532649e-01 -4.34432864080491146913e-03 -4.62049305583466592313e-04 -4.34432864080491146913e-03 -4.62049305583466592313e-04 -4.34432864080491146913e-03 9.99537950694416532649e-01 -4.34432864080491146913e-03
9.99510791402607440948e+08 9.99535999911011829866e-01 -4.35338595215863620458e-03 -4.64000088988117279174e-04 -4.35338595215863620458e-03 -4.64000088988117279174e-04 -4.35338595215863620458e-03 9.99535999911011829866e-01 -4.35338595215863620458e-03
9.99511834491301298141e+08 9.99534036796327796104e-01 -4.36248065262953912957e-03 -4.65963203672250083145e-04 -4.36248065262953912957e-03 -4.65963203672250083145e-04 -4.36248065262953912957e-03 9.99534036796327796104e-01 -4.36248065262953912957e-03
9.99512877579995036125e+08 9.99532061246621528205e-01 -4.37161297129594599714e-03 -4.67938753378454989386e-04 -4.37161297129594599714e-03 -4.67938753378454989386e-04 -4.37161297129594599714e-03 9.99532061246621528205e-01 -4.37161297129594599714e-03
9.99513920668688893318e+08 9.99530073157060883204e-01 -4.38078313908958367345e-03 -4.69926842939108013568e-04 -4.38078313908958367345e-03 -4.69926842939108013568e-04 -4.38078313908958367345e-03 9.99530073157060883204e-01 -4.38078313908958367345e-03
9.99514963757382631302e+08 9.99528072421711710760e-01 -4.38999138880572740279e-03 -4.71927578288270808612e-04 -4.38999138880572740279e-03 -4.71927578288270808612e-04 -4.38999138880572740279e-03 9.99528072421711710760e-01 -4.38999138880572740279e-03
9.99516006846076488495e+08 9.99526058933522310035e-01 -4.39923795513159909820e-03 -4.73941066477699777127e-04 -4.39923795513159909820e-03 -4.73941066477699777127e-04 -4.39923795513159909820e-03 9.99526058933522310035e-01 -4.39923795513159909820e-03
9.99517049934770226479e+08 9.99524032584311439287e-01 -4.40852307465444247930e-03 -4.75967415688597576123e-04 -4.40852307465444247930e-03 -4.75967415688597576123e-04 -4.40852307465444247930e-03 9.99524032584311439287e-01 -4.40852307465444247930e-03
9.99518093023464083672e+08 9.99521993264751995589e-01 -4.41784698589042876954e-03 -4.78006735248052657718e-04 -4.41784698589042876954e-03 -4.78006735248052657718e-04 -4.41784698589042876954e-03 9.99521993264751995589e-01 -4.41784698589042876954e-03
9.99519136112157821655e+08 9.99519940864358025223e-01 -4.42720992929655429715e-03 -4.80059135641938185008e-04 -4.42720992929655429715e-03 -4.80059135641938185008e-04 -4.42720992929655429715e-03 9.99519940864358025223e-01 -4.42720992929655429715e-03
9.99520179200851678848e+08 9.99517875271469291576e-01 -4.43661214729512611704e-03 -4.82124728530718778177e-04 -4.43661214729512611704e-03 -4.82124728530718778177e-04 -4.43661214729512611704e-03 9.99517875271469291576e-01 -4.43661214729512611704e-03
9.99521222289545536041e+08 9.99515796373236620198e-01 -4.44605388428902410791e-03 -4.84203626763408804309e-04 -4.44605388428902410791e-03 -4.84203626763408804309e-04 -4.44605388428902410791e-03 9.99515796373236620198e-01 -4.44605388428902410791e-03
9.99522265378239274025e+08 9.99513704055606244658e-01 -4.45553538668620220664e-03 -4.86295944393724225048e-04 -4.45553538668620220664e-03 -4.86295944393724225048e-04 -4.45553538668620220664e-03 9.99513704055606244658e-01 -4.45553538668620220664e-03
9.99523308466933131218e+08 9.99511598203304818533e-01 -4.46505690291843122808e-03 -4.88401796695148290514e-04 -4.46505690291843122808e-03 -4.88401796695148290514e-04 -4.46505690291843122808e-03 9.99511598203304818533e-01 -4.46505690291843122808e-03
9.99524351555626869202e+08 9.99509478699823983305e-01 -4.47461868345923677315e-03 -4.90521300175988613813e-04 -4.47461868345923677315e-03 -4.90521300175988613813e-04 -4.47461868345923677315e-03 9.99509478699823983305e-01 -4.47461868345923677315e-03
9.99525394644320726395e+08 9.99507345427403826044e-01 -4.48422098084866761064e-03 -4.92654572596123757795e-04 -4.48422098084866761064e-03 -4.92654572596123757795e-04 -4.48422098084866761064e-03 9.99507345427403826044e-01 -4.48422098084866761064e-03
9.99526437733014464378e+08 9.99505198267018113434e-01 -4.49386404970865231678e-03 -4.94801732981846017004e-04 -4.49386404970865231678e-03 -4.94801732981846017004e-04 -4.49386404970865231678e-03 9.99505198267018113434e-01 -4.49386404970865231678e-03
9.99527480821708321571e+08 9.99503037098355529011e-01 -4.50354814677445935284e-03 -4.96962901644470446925e-04 -4.50354814677445935284e-03 -4.96962901644470446925e-04 -4.50354814677445935284e-03 9.99503037098355529011e-01 -4.50354814677445935284e-03
9.99528523910402059555e+08 9.99500861799806239461e-01 -4.51327353090179815565e-03 -4.99138200193706546223e-04 -4.51327353090179815565e-03 -4.99138200193706546223e-04 -4.51327353090179815565e-03 9.99500861799806239461e-01 -4.51327353090179815565e-03
9.99529566999095916748e+08 9.99498672248442576738e-01 -4.52304046310191432828e-03 -5.01327751557461534677e-04 -4.52304046310191432828e-03 -5.01327751557461534677e-04 -4.52304046310191432828e-03 9.99498672248442576738e-01 -4.52304046310191432828e-03
9.99530610087789654732e+08 9.99496468320003050856e-01 -4.53284920655482124335e-03 -5.03531679996961287205e-04 -4.53284920655482124335e-03 -5.03531679996961287205e-04 -4.53284920655482124335e-03 9.99496468320003050856e-01 -4.53284920655482124335e-03
9.99531653176483511925e+08 9.99494249888874475296e-01 -4.54270002663777986568e-03 -5.05750111125478842185e-04 -4.54270002663777986568e-03 -5.05750111125478842185e-04 -4.54270002663777986568e-03 9.99494249888874475296e-01 -4.54270002663777986568e-03
9.99532696265177249908e+08 9.99492016828075979795e-01 -4.55259319093946103474e-03 -5.07983171924048502489e-04 -4.55259319093946103474e-03 -5.07983171924048502489e-04 -4.55259319093946103474e-03 9.99492016828075979795e-01 -4.55259319093946103474e-03
9.99533739353871107101e+08 9.99489769009238027131e-01 -4.56252896929427304018e-03 -5.10230990761927657821e-04 -4.56252896929427304018e-03 -5.10230990761927657821e-04 -4.56252896929427304018e-03 9.99489769009238027131e-01 -4.56252896929427304018e-03
9.99534782442564845085e+08 9.99487506302588091245e-01 -4.57250763379281333076e-03 -5.12493697411880240640e-04 -4.57250763379281333076e-03 -5.12493697411880240640e-04 -4.57250763379281333076e-03 9.99487506302588091245e-01 -4.57250763379281333076e-03
9.99535825531258702278e+08 9.99485228576928341759e-01 -4.58252945881896904534e-03 -5.14771423071699115066e-04 -4.58252945881896904534e-03 -5.14771423071699115066e-04 -4.58252945881896904534e-03 9.99485228576928341759e-01 -4.58252945881896904534e-03
9.99536868619952440262e+08 9.99482935699621100056e-01 -4.59259472105600849434e-03 -5.17064300378914797236e-04 -4.59259472105600849434e-03 -5.17064300378914797236e-04 -4.59259472105600849434e-03 9.99482935699621100056e-01 -4.59259472105600849434e-03
9.99537911708646297455e+08 9.99480627536565080504e-01 -4.60270369953292429743e-03 -5.19372463434868104556e-04 -4.60270369953292429743e-03 -5.19372463434868104556e-04 -4.60270369953292429743e-03 9.99480627536565080504e-01 -4.60270369953292429743e-03
9.99538954797340035439e+08 9.99478303952181401648e-01 -4.61285667562509518053e-03 -5.21696047818614506465e-04 -4.61285667562509518053e-03 -5.21696047818614506465e-04 -4.61285667562509518053e-03 9.99478303952181401648e-01 -4.61285667562509518053e-03
9.99539997886033892632e+08 9.99475964809389050281e-01 -4.62305393309813197900e-03 -5.24035190610895292365e-04 -4.62305393309813197900e-03 -5.24035190610895292365e-04 -4.62305393309813197900e-03 9.99475964809389050281e-01 -4.62305393309813197900e-03
9.99541040974727749825e+08 9.99473609969588672186e-01 -4.63329575812084989983e-03 -5.26390030411297673088e-04 -4.63329575812084989983e-03 -5.26390030411297673088e-04 -4.63329575812084989983e-03 9.99473609969588672186e-01 -4.63329575812084989983e-03
9.99542084063421487808e+08 9.99471239292641255858e-01 -4.64358243929194943606e-03 -5.28760707358774282791e-04 -4.64358243929194943606e-03 -5.28760707358774282791e-04 -4.64358243929194943606e-03 9.99471239292641255858e-01 -4.64358243929194943606e-03
9.99543127152115345001e+08 9.99468852636845928039e-01 -4.65391426767365352229e-03 -5.31147363154017750769e-04 -4.65391426767365352229e-03 -5.31147363154017750769e-04 -4.65391426767365352229e-03 9.99468852636845928039e-01 -4.65391426767365352229e-03
9.99544170240809082985e+08 9.99466449858922079130e-01 -4.66429153680707284796e-03 -5.33550141077870345926e-04 -4.66429153680707284796e-03 -5.33550141077870345926e-04 -4.66429153680707284796e-03 9.99466449858922079130e-01 -4.66429153680707284796e-03
9.99545213329502940178e+08 9.99464030813986270552e-01 -4.67471454274371537446e-03 -5.35969186013700283309e-04 -4.67471454274371537446e-03 -5.35969186013700283309e-04 -4.67471454274371537446e-03 9.99464030813986270552e-01 -4.67471454274371537446e-03
9.99546256418196678162e+08 9.99461595355531695617e-01 -4.68518358406965883950e-03 -5.38404644468339185943e-04 -4.68518358406965883950e-03 -5.38404644468339185943e-04 -4.68518358406965883950e-03 9.99461595355531695617e-01 -4.68518358406965883950e-03
9.99547299506890535355e+08 9.99459143335405086894e-01 -4.69569896193671332957e-03 -5.40856664594903781620e-04 -4.69569896193671332957e-03 -5.40856664594903781620e-04 -4.69569896193671332957e-03 9.99459143335405086894e-01 -4.69569896193671332957e-03
9.99548342595584273338e+08 9.99456674603787065259e-01 -4.70626098008108170040e-03 -5.43325396212968676941e-04 -4.70626098008108170040e-03 -5.43325396212968676941e-04 -4.70626098008108170040e-03 9.99456674603787065259e-01 -4.70626098008108170040e-03
9.99549385684278130531e+08 9.99454189009166382718e-01 -4.71686994486193462289e-03 -5.45810990833648940895e-04 -4.71686994486193462289e-03 -5.45810990833648940895e-04 -4.71686994486193462289e-03 9.99454189009166382718e-01 -4.71686994486193462289e-03
9.99550428772971868515e+08 9.99451686398320493510e-01 -4.72752616527675161018e-03 -5.48313601679532077599e-04 -4.72752616527675161018e-03 -5.48313601679532077599e-04 -4.72752616527675161018e-03 9.99451686398320493510e-01 -4.72752616527675161018e-03
9.99551471861665725708e+08 9.99449166616289241816e-01 -4.73822995300180252465e-03 -5.50833383710767400011e-04 -4.73822995300180252465e-03 -5.50833383710767400011e-04 -4.73822995300180252465e-03 9.99449166616289241816e-01 -4.73822995300180252465e-03
9.99552514950359463692e+08 9.99446629506354766725e-01 -4.74898162240634455489e-03 -5.53370493645274474231e-04 -4.74898162240634455489e-03 -5.53370493645274474231e-04 -4.74898162240634455489e-03 9.99446629506354766725e-01 -4.74898162240634455489e-03
9.99553558039053320885e+08 9.99444074910013302571e-01 -4.75978149059849784536e-03 -5.55925089986687454707e-04 -4.75978149059849784536e-03 -5.55925089986687454707e-04 -4.75978149059849784536e-03 9.99444074910013302571e-01 -4.75978149059849784536e-03
9.99554601127747058868e+08 9.99441502666955416956e-01 -4.77062987743720121059e-03 -5.58497333044603860852e-04 -4.77062987743720121059e-03 -5.58497333044603860852e-04 -4.77062987743720121059e-03 9.99441502666955416956e-01 -4.77062987743720121059e-03
9.99555644216440916061e+08 9.99438912615037478027e-01 -4.78152710557546833242e-03 -5.61087384962517094454e-04 -4.78152710557546833242e-03 -5.61087384962517094454e-04 -4.78152710557546833242e-03 9.99438912615037478027e-01 -4.78152710557546833242e-03
9.99556687305134654045e+08 9.99436304590259561031e-01 -4.79247350047986436783e-03 -5.63695409740429102287e-04 -4.79247350047986436783e-03 -5.63695409740429102287e-04 -4.79247350047986436783e-03 9.99436304590259561031e-01 -4.79247350047986436783e-03
9.99557730393828511238e+08 9.99433678426737248657e-01 -4.80346939047117914290e-03 -5.66321573262806095446e-04 -4.80346939047117914290e-03 -5.66321573262806095446e-04 -4.80346939047117914290e-03 9.99433678426737248657e-01 -4.80346939047117914290e-03
9.99558773482522249222e+08 9.99431033956678760433e-01 -4.81451510674163560971e-03 -5.68966043321257890393e-04 -4.81451510674163560971e-03 -5.68966043321257890393e-04 -4.81451510674163560971e-03 9.99431033956678760433e-01 -4.81451510674163560971e-03
9.99559816571216106415e+08 9.99428371010355309778e-01 -4.82561098340226948128e-03 -5.71628989644744540423e-04 -4.82561098340226948128e-03 -5.71628989644744540423e-04 -4.82561098340226948128e-03 9.99428371010355309778e-01 -4.82561098340226948128e-03
