! File generated for n1 = 5, n2 = 6
! b1 = 4.641589
! b2 = 0.100000
! Q0 = 10000.000000
! f0 = 1000000000.000000
! n = 1001
! rel_span = 10.000000
# Hz S RI R 50
9.97129205583193659782e+08 9.84037309520581215949e-01 -1.59856692480920103971e-01 -2.34300253949687106725e-03 -2.34637536147980878265e-02 -2.34300253949687106725e-03 -2.34637536147980878265e-02 9.99656094258848937351e-01 -3.44400803714653121548e-03
9.97134947172027230263e+08 9.83973809992924719481e-01 -1.60171154844559820996e-01 -2.35232299551572845292e-03 -2.35099103775025970731e-02 -2.35232299551572845292e-03 -2.35099103775025970731e-02 9.99654726202997112594e-01 -3.45078292339587961932e-03
9.97140688760860919952e+08 9.83909932453380875472e-01 -1.60486842171225718712e-01 -2.36169893609172124732e-03 -2.35562469401903729072e-02 -2.36169893609172124732e-03 -2.35562469401903729072e-02 9.99653350003126051071e-01 -3.45758420067360369363e-03
9.97146430349694490433e+08 9.83845673906573403578e-01 -1.60803761553816398910e-01 -2.37113080088596729286e-03 -2.36027643439565594508e-02 -2.37113080088596729286e-03 -2.36027643439565594508e-02 9.99651965594702374140e-01 -3.46441202179157249977e-03
9.97152171938528060913e+08 9.83781031327505162132e-01 -1.61121920139439961384e-01 -2.38061903390731363986e-03 -2.36494636378531512821e-02 -2.38061903390731363986e-03 -2.36494636378531512821e-02 9.99650572912554324922e-01 -3.47126654072956114874e-03
9.97157913527361750603e+08 9.83716001661200767359e-01 -1.61441325129959761808e-01 -2.39016408356485356504e-03 -2.36963458789691307216e-02 -2.39016408356485356504e-03 -2.36963458789691307216e-02 9.99649171890864662871e-01 -3.47814791264701266005e-03
9.97163655116195321083e+08 9.83650581822364422635e-01 -1.61761983782441748358e-01 -2.39976640271804099805e-03 -2.37434121324961062982e-02 -2.39976640271804099805e-03 -2.37434121324961062982e-02 9.99647762463162670166e-01 -3.48505629389267348323e-03
9.97169396705028891563e+08 9.83584768695005107197e-01 -1.62083903409751900471e-01 -2.40942644873183911547e-03 -2.37906634718160099606e-02 -2.40942644873183911547e-03 -2.37906634718160099606e-02 9.99646344562316269133e-01 -3.49199184201746514605e-03
9.97175138293862581253e+08 9.83518559132076308771e-01 -1.62407091381055329604e-01 -2.41914468352948846055e-03 -2.38381009785743509799e-02 -2.41914468352948846055e-03 -2.38381009785743509799e-02 9.99644918120524361704e-01 -3.49895471578523650433e-03
9.97180879882696151733e+08 9.83451949955110760193e-01 -1.62731555122326704277e-01 -2.42892157364617581813e-03 -2.38857257427551560036e-02 -2.42892157364617581813e-03 -2.38857257427551560036e-02 9.99643483069309057854e-01 -3.50594507518376188870e-03
9.97186621471529841423e+08 9.83384937953833748736e-01 -1.63057302116944802250e-01 -2.43875759028580650981e-03 -2.39335388627682082996e-02 -2.43875759028580650981e-03 -2.39335388627682082996e-02 9.99642039339507126883e-01 -3.51296308143755030284e-03
9.97192363060363411903e+08 9.83317519885789192990e-01 -1.63384339906202907811e-01 -2.44865320937583206412e-03 -2.39815414455239843405e-02 -2.44865320937583206412e-03 -2.39815414455239843405e-02 9.99640586861261781770e-01 -3.52000889701884053448e-03
9.97198104649196982384e+08 9.83249692475954284454e-01 -1.63712676089859315853e-01 -2.45860891162387766237e-03 -2.40297346065144572236e-02 -2.45860891162387766237e-03 -2.40297346065144572236e-02 9.99639125564014907610e-01 -3.52708268565946102616e-03
9.97203846238030672073e+08 9.83181452416339252132e-01 -1.64042318326735464540e-01 -2.46862518257641265496e-03 -2.40781194699008702087e-02 -2.46862518257641265496e-03 -2.40781194699008702087e-02 9.99637655376498068804e-01 -3.53418461236371800327e-03
9.97209587826864242554e+08 9.83112796365603669457e-01 -1.64373274335219060616e-01 -2.47870251267516290145e-03 -2.41266971685876047138e-02 -2.47870251267516290145e-03 -2.41266971685876047138e-02 9.99636176226724293414e-01 -3.54131484341923359269e-03
9.97215329415697813034e+08 9.83043720948635901813e-01 -1.64705551893919610595e-01 -2.48884139731876371029e-03 -2.41754688443183984869e-02 -2.48884139731876371029e-03 -2.41754688443183984869e-02 9.99634688041978858308e-01 -3.54847354641106950759e-03
9.97221071004531502724e+08 9.82974222756158422243e-01 -1.65039158842181205022e-01 -2.49904233692072128697e-03 -2.42244356477515979109e-02 -2.49904233692072128697e-03 -2.42244356477515979109e-02 9.99633190748811073512e-01 -3.55566089023277376660e-03
9.97226812593365073204e+08 9.82904298344310145552e-01 -1.65374103080684176081e-01 -2.50930583697070441751e-03 -2.42735987385484831835e-02 -2.50930583697070441751e-03 -2.42735987385484831835e-02 9.99631684273025511445e-01 -3.56287704509934471594e-03
9.97232554182198643684e+08 9.82833944234222878222e-01 -1.65710392572054054927e-01 -2.51963240809673040196e-03 -2.43229592854626551490e-02 -2.51963240809673040196e-03 -2.43229592854626551490e-02 9.99630168539671903893e-01 -3.57012218256034944211e-03
9.97238295771032333374e+08 9.82763156911597768328e-01 -1.66048035341448324553e-01 -2.53002256612733060492e-03 -2.43725184664261365630e-02 -2.53002256612733060492e-03 -2.43725184664261365630e-02 9.99628643473037148404e-01 -3.57739647551256383443e-03
9.97244037359865903854e+08 9.82691932826272429580e-01 -1.66387039477165848966e-01 -2.54047683215508903962e-03 -2.44222774686388352516e-02 -2.54047683215508903962e-03 -2.44222774686388352516e-02 9.99627108996635205251e-01 -3.58470009821310444179e-03
9.97249778948699474335e+08 9.82620268391782403228e-01 -1.66727413131260215895e-01 -2.55099573260099280261e-03 -2.44722374886585936071e-02 -2.55099573260099280261e-03 -2.44722374886585936071e-02 9.99625565033198104636e-01 -3.59203322629264272872e-03
9.97255520537533164024e+08 9.82548159984913072051e-01 -1.67069164520176866029e-01 -2.56157979928020671651e-03 -2.45223997324946624277e-02 -2.56157979928020671651e-03 -2.45223997324946624277e-02 9.99624011504666065697e-01 -3.59939603676912890651e-03
9.97261262126366734505e+08 9.82475603945260123062e-01 -1.67412301925327661190e-01 -2.57222956946663279879e-03 -2.45727654156920674589e-02 -2.57222956946663279879e-03 -2.45727654156920674589e-02 9.99622448332178059616e-01 -3.60678870806017265460e-03
9.97267003715200424194e+08 9.82402596574756148406e-01 -1.67756833693798262930e-01 -2.58294558596229529776e-03 -2.46233357634354395327e-02 -2.58294558596229529776e-03 -2.46233357634354395327e-02 9.99620875436061706587e-01 -3.61421141999828440111e-03
9.97272745304033994675e+08 9.82329134137221671175e-01 -1.68102768238924227262e-01 -2.59372839716339158994e-03 -2.46741120106335441731e-02 -2.59372839716339158994e-03 -2.46741120106335441731e-02 9.99619292735823283813e-01 -3.62166435384328163141e-03
9.97278486892867565155e+08 9.82255212857881421229e-01 -1.68450114040996606901e-01 -2.60457855713112397533e-03 -2.47250954020228862207e-02 -2.60457855713112397533e-03 -2.47250954020228862207e-02 9.99617700150137844517e-01 -3.62914769229749850990e-03
9.97284228481701254845e+08 9.82180828922895488020e-01 -1.68798879647882843491e-01 -2.61549662566063411892e-03 -2.47762871922588279183e-02 -2.61549662566063411892e-03 -2.47762871922588279183e-02 9.99616097596838781847e-01 -3.63666161951915582751e-03
9.97289970070534825325e+08 9.82105978478877261750e-01 -1.69149073675680938766e-01 -2.62648316835175634973e-03 -2.48276886460115954469e-02 -2.62648316835175634973e-03 -2.48276886460115954469e-02 9.99614484992907170735e-01 -3.64420632113645823202e-03
9.97295711659368395805e+08 9.82030657632390058254e-01 -1.69500704809445762455e-01 -2.63753875668281106276e-03 -2.48793010380729054387e-02 -2.63753875668281106276e-03 -2.48793010380729054387e-02 9.99612862254461664868e-01 -3.65178198426323969913e-03
9.97301453248202085495e+08 9.81954862449460175178e-01 -1.69853781803818826290e-01 -2.64866396808217854225e-03 -2.49311256534484083913e-02 -2.64866396808217854225e-03 -2.49311256534484083913e-02 9.99611229296747172413e-01 -3.65938879751253514153e-03
9.97307194837035655975e+08 9.81878588955069075972e-01 -1.70208313483726364490e-01 -2.65985938600280837074e-03 -2.49831637874601171501e-02 -2.65985938600280837074e-03 -2.49831637874601171501e-02 9.99609586034124752985e-01 -3.66702695101161612462e-03
9.97312936425869226456e+08 9.81801833132634915735e-01 -1.70564308745099424414e-01 -2.67112559999826536944e-03 -2.50354167458521487122e-02 -2.67112559999826536944e-03 -2.50354167458521487122e-02 9.99607932380059627242e-01 -3.67469663641750666702e-03
9.97318678014702916145e+08 9.81724590923500062267e-01 -1.70921776555544135956e-01 -2.68246320579803220960e-03 -2.50878858448890691701e-02 -2.68246320579803220960e-03 -2.50878858448890691701e-02 9.99606268247110629765e-01 -3.68239804693142481345e-03
9.97324419603536486626e+08 9.81646858226396079594e-01 -1.71280725955084922596e-01 -2.69387280538597832791e-03 -2.51405724114650043488e-02 -2.69387280538597832791e-03 -2.51405724114650043488e-02 9.99604593546918773761e-01 -3.69013137731479283141e-03
9.97330161192370057106e+08 9.81568630896912930339e-01 -1.71641166056865163148e-01 -2.70535500707833227729e-03 -2.51934777832064672742e-02 -2.70535500707833227729e-03 -2.51934777832064672742e-02 9.99602908190195260651e-01 -3.69789682390433234113e-03
9.97335902781203746796e+08 9.81489904746952412928e-01 -1.72003106047886711316e-01 -2.71691042560379342544e-03 -2.52466033085809241077e-02 -2.71691042560379342544e-03 -2.52466033085809241077e-02 9.99601212086710377847e-01 -3.70569458462799905182e-03
9.97341644370037317276e+08 9.81410675544180932661e-01 -1.72366555189734010911e-01 -2.72853968218402572615e-03 -2.52999503470030598362e-02 -2.72853968218402572615e-03 -2.52999503470030598362e-02 9.99599505145281286289e-01 -3.71352485902058052775e-03
9.97347385958870887756e+08 9.81330939011464842281e-01 -1.72731522819338456642e-01 -2.74024340461635805902e-03 -2.53535202689469732484e-02 -2.74024340461635805902e-03 -2.53535202689469732484e-02 9.99597787273759808002e-01 -3.72138784824016521924e-03
9.97353127547704577446e+08 9.81250690826299676317e-01 -1.73098018349751386902e-01 -2.75202222735770017648e-03 -2.54073144560596625441e-02 -2.75202222735770017648e-03 -2.54073144560596625441e-02 9.99596058379020435680e-01 -3.72928375508479841016e-03
9.97358869136538147926e+08 9.81169926620251153793e-01 -1.73466051270827814612e-01 -2.76387679160651402593e-03 -2.54613343012613374539e-02 -2.76387679160651402593e-03 -2.54613343012613374539e-02 9.99594318366948231258e-01 -3.73721278400720611709e-03
9.97364610725371837616e+08 9.81088641978343445338e-01 -1.73835631150123293143e-01 -2.77580774539261691466e-03 -2.55155812088771159762e-02 -2.77580774539261691466e-03 -2.55155812088771159762e-02 9.99592567142425281190e-01 -3.74517514113412598037e-03
9.97370352314205408096e+08 9.81006832438496401139e-01 -1.74206767633538622819e-01 -2.78781574365982243516e-03 -2.55700565947316049709e-02 -2.78781574365982243516e-03 -2.55700565947316049709e-02 9.99590804609319039109e-01 -3.75317103428019068975e-03
9.97376093903038978577e+08 9.80924493490894722214e-01 -1.74579470446239864989e-01 -2.79990144835846627852e-03 -2.56247618862839587894e-02 -2.79990144835846627852e-03 -2.56247618862839587894e-02 9.99589030670468559059e-01 -3.76120067296775066959e-03
9.97381835491872668266e+08 9.80841620577392214742e-01 -1.74953749393392476996e-01 -2.81206552853293734531e-03 -2.56796985227356541759e-02 -2.81206552853293734531e-03 -2.56796985227356541759e-02 9.99587245227671394865e-01 -3.76926426844269258851e-03
9.97387577080706238747e+08 9.80758209090895061166e-01 -1.75329614360953872643e-01 -2.82430866041211972237e-03 -2.57348679551467965365e-02 -2.82430866041211972237e-03 -2.57348679551467965365e-02 9.99585448181670832568e-01 -3.77736203369151250786e-03
9.97393318669539809227e+08 9.80674254374719778227e-01 -1.75707075316551997179e-01 -2.83663152750367143426e-03 -2.57902716465650827526e-02 -2.83663152750367143426e-03 -2.57902716465650827526e-02 9.99583639432141679571e-01 -3.78549418346024431695e-03
9.97399060258373498917e+08 9.80589751721962166187e-01 -1.76086142310279969436e-01 -2.84903482068664349811e-03 -2.58459110721424439872e-02 -2.84903482068664349811e-03 -2.58459110721424439872e-02 9.99581818877676608892e-01 -3.79366093427158058635e-03
9.97404801847207069397e+08 9.80504696374850492901e-01 -1.76466825475529082157e-01 -2.86151923830642697724e-03 -2.59017877192573124645e-02 -2.86151923830642697724e-03 -2.59017877192573124645e-02 9.99579986415772725472e-01 -3.80186250444281914965e-03
9.97410543436040639877e+08 9.80419083524079026937e-01 -1.76849135029876119996e-01 -2.87408548627257403804e-03 -2.59579030876448645093e-02 -2.87408548627257403804e-03 -2.59579030876448645093e-02 9.99578141942816578158e-01 -3.81009911410497802142e-03
9.97416285024874329567e+08 9.80332908308145234422e-01 -1.77233081275918885611e-01 -2.88673427815604958374e-03 -2.60142586895196412100e-02 -2.88673427815604958374e-03 -2.60142586895196412100e-02 9.99576285354070281919e-01 -3.81837098522079792379e-03
9.97422026613707900047e+08 9.80246165812676206741e-01 -1.77618674602128545637e-01 -2.89946633528816990685e-03 -2.60708560497006948398e-02 -2.89946633528816990685e-03 -2.60708560497006948398e-02 9.99574416543656862899e-01 -3.82667834160310693647e-03
9.97427768202541470528e+08 9.80158851069729553096e-01 -1.78005925483776195062e-01 -2.91228238686313438757e-03 -2.61276967057475356659e-02 -2.91228238686313438757e-03 -2.61276967057475356659e-02 9.99572535404545381432e-01 -3.83502140893477805675e-03
9.97433509791375160217e+08 9.80070959057099067024e-01 -1.78394844483806713775e-01 -2.92518317004001986159e-03 -2.61847822080884494456e-02 -2.92518317004001986159e-03 -2.61847822080884494456e-02 9.99570641828535499940e-01 -3.84340041478756092377e-03
9.97439251380208730698e+08 9.79982484697610622959e-01 -1.78785442253716120309e-01 -2.93816943004607126003e-03 -2.62421141201492312545e-02 -2.93816943004607126003e-03 -2.62421141201492312545e-02 9.99568735706242827987e-01 -3.85181558864098032985e-03
9.97444992969042420387e+08 9.79893422858392537655e-01 -1.79177729534506641196e-01 -2.95124192028379996738e-03 -2.62996940184934066553e-02 -2.95124192028379996738e-03 -2.62996940184934066553e-02 9.99566816927083157118e-01 -3.86026716190291351027e-03
9.97450734557875990868e+08 9.79803768350150483535e-01 -1.79571717157586130398e-01 -2.96440140243747372525e-03 -2.63575234929542302764e-02 -2.96440140243747372525e-03 -2.63575234929542302764e-02 9.99564885379256473641e-01 -3.86875536792897047403e-03
9.97456476146709561348e+08 9.79713515926424416413e-01 -1.79967416045704542427e-01 -2.97764864658210323678e-03 -2.64156041467721383609e-02 -2.97764864658210323678e-03 -2.64156041467721383609e-02 9.99562940949731082441e-01 -3.87728044204266406730e-03
9.97462217735543251038e+08 9.79622660282827073530e-01 -1.80364837213936396454e-01 -2.99098443129525767142e-03 -2.64739375967389597988e-02 -2.99098443129525767142e-03 -2.64739375967389597988e-02 9.99560983524227619768e-01 -3.88584262155658053881e-03
9.97467959324376821518e+08 9.79531196056291464380e-01 -1.80763991770583082319e-01 -3.00440954376751190660e-03 -2.65325254733303622645e-02 -3.00440954376751190660e-03 -2.65325254733303622645e-02 9.99559012987202177847e-01 -3.89444214579182015207e-03
9.97473700913210391998e+08 9.79439117824283278502e-01 -1.81164890918190296665e-01 -3.01792477991806931681e-03 -2.65913694208551806830e-02 -3.01792477991806931681e-03 -2.65913694208551806830e-02 9.99557029221829762555e-01 -3.90307925609991194713e-03
9.97479442502044081688e+08 9.79346420104012960195e-01 -1.81567545954523762441e-01 -3.03153094451037111862e-03 -2.66504710975986429389e-02 -3.03153094451037111862e-03 -2.66504710975986429389e-02 9.99555032109987418032e-01 -3.91175419588384119113e-03
9.97485184090877652168e+08 9.79253097351643453372e-01 -1.81971968273525935844e-01 -3.04522885126841521761e-03 -2.67098321759627818639e-02 -3.04522885126841521761e-03 -2.67098321759627818639e-02 9.99553021532236685154e-01 -3.92046721061865485747e-03
9.97490925679711222649e+08 9.79159143961461864158e-01 -1.82378169366385622929e-01 -3.05901932299831912435e-03 -2.67694543426234554673e-02 -3.05901932299831912435e-03 -2.67694543426234554673e-02 9.99550997367806171034e-01 -3.92921854787451306501e-03
9.97496667268544912338e+08 9.79064554265061337546e-01 -1.82786160822523330305e-01 -3.07290319170845389191e-03 -2.68293392986749534845e-02 -3.07290319170845389191e-03 -2.68293392986749534845e-02 9.99548959494573674434e-01 -3.93800845733790951669e-03
9.97502408857378482819e+08 9.78969322530503838209e-01 -1.83195954330611976424e-01 -3.08688129873224215496e-03 -2.68894887597798358525e-02 -3.08688129873224215496e-03 -2.68894887597798358525e-02 9.99546907789048422188e-01 -3.94683719083366996161e-03
9.97508150446212053299e+08 9.78873442961460060729e-01 -1.83607561679657915743e-01 -3.10095449485447722388e-03 -2.69499044563275801101e-02 -3.10095449485447722388e-03 -2.69499044563275801101e-02 9.99544842126352306444e-01 -3.95570500234823652086e-03
9.97513892035045742989e+08 9.78776909696354557866e-01 -1.84020994760011602498e-01 -3.11512364043677438333e-03 -2.70105881335829696444e-02 -3.11512364043677438333e-03 -2.70105881335829696444e-02 9.99542762380201454953e-01 -3.96461214805144367135e-03
9.97519633623879313469e+08 9.78679716807472677154e-01 -1.84436265564498935721e-01 -3.12938960554867045064e-03 -2.70715415518521032578e-02 -3.12938960554867045064e-03 -2.70715415518521032578e-02 9.99540668422887135236e-01 -3.97355888632089371271e-03
9.97525375212712883949e+08 9.78581858300080265067e-01 -1.84853386189450241694e-01 -3.14375327009679432153e-03 -2.71327664866334618277e-02 -3.14375327009679432153e-03 -2.71327664866334618277e-02 9.99538560125256769773e-01 -3.98254547776412219651e-03
9.97531116801546573639e+08 9.78483328111504513380e-01 -1.85272368835850798074e-01 -3.15821552395980677252e-03 -2.71942647287867732275e-02 -3.15821552395980677252e-03 -2.71942647287867732275e-02 9.99536437356693951983e-01 -3.99157218524338885945e-03
9.97536858390380144119e+08 9.78384120110229793532e-01 -1.85693225810380335705e-01 -3.17277726712112979196e-03 -2.72560380846855812575e-02 -3.17277726712112979196e-03 -2.72560380846855812575e-02 9.99534299985099128349e-01 -4.00063927389807203611e-03
9.97542599979213833809e+08 9.78284228094940644382e-01 -1.86115969526627761388e-01 -3.18743940980939586410e-03 -2.73180883763955613397e-02 -3.18743940980939586410e-03 -2.73180883763955613397e-02 9.99532147876869170311e-01 -4.00974701117083696250e-03
9.97548341568047404289e+08 9.78183645793590295092e-01 -1.86540612506150227379e-01 -3.20220287263518017459e-03 -2.73804174418299552107e-02 -3.20220287263518017459e-03 -2.73804174418299552107e-02 9.99529980896876835139e-01 -4.01889566683045346140e-03
9.97554083156880974770e+08 9.78082366862418228770e-01 -1.86967167379696819207e-01 -3.21706858673517521324e-03 -2.74430271349291841909e-02 -3.21706858673517521324e-03 -2.74430271349291841909e-02 9.99527798908450004767e-01 -4.02808551299816287178e-03
9.97559824745714664459e+08 9.77980384884979958571e-01 -1.87395646888332184643e-01 -3.23203749391462588289e-03 -2.75059193258257901615e-02 -3.23203749391462588289e-03 -2.75059193258257901615e-02 9.99525601773350480528e-01 -4.03731682417188177808e-03
9.97565566334548234940e+08 9.77877693371153378088e-01 -1.87826063884607735721e-01 -3.24711054679319675864e-03 -2.75690959010163258447e-02 -3.24711054679319675864e-03 -2.75690959010163258447e-02 9.99523389351752888921e-01 -4.04658987725143529796e-03
9.97571307923381805420e+08 9.77774285756110028700e-01 -1.88258431333826053988e-01 -3.26228870895591211224e-03 -2.76325587635469528680e-02 -3.26228870895591211224e-03 -2.76325587635469528680e-02 9.99521161502222255102e-01 -4.05590495156580091440e-03
9.97577049512215495110e+08 9.77670155399299356525e-01 -1.88692762315201018053e-01 -3.27757295510231047228e-03 -2.76963098331837291599e-02 -3.27757295510231047228e-03 -2.76963098331837291599e-02 9.99518918081692242517e-01 -4.06526232889809890220e-03
