! File generated for n1 = 4, n2 = 3
! b1 = 10.000000
! b2 = 2.154435
! Q0 = 10000.000000
! f0 = 1000000000.000000
! n = 1001
! rel_span = 10.000000
# Hz S RI R 50
9.93422782654984116554e+08 9.85044733736100019961e-01 -1.50047739047490941156e-01 -6.94161968942240501651e-03 -6.96459910071678123256e-02 -6.94161968942240501651e-03 -6.96459910071678123256e-02 9.96777985556239087828e-01 -3.23268054164766102665e-02
9.93435937089674115181e+08 9.84985127764065548917e-01 -1.50343481742865520134e-01 -6.96928633084357030542e-03 -6.97832626064151251288e-02 -6.96928633084357030542e-03 -6.97832626064151251288e-02 9.96765143838850620206e-01 -3.23905212487004615096e-02
9.93449091524364233017e+08 9.84925166726477452350e-01 -1.50640376535460113194e-01 -6.99711777909564451583e-03 -6.99210689618216113539e-02 -6.99711777909564451583e-03 -6.99210689618216113539e-02 9.96752225624907617352e-01 -3.24544852927460200642e-02
9.93462245959054231644e+08 9.84864847808825549791e-01 -1.50938430096650727519e-01 -7.02511534055850518643e-03 -7.00594131699656952339e-02 -7.02511534055850518643e-03 -7.00594131699656952339e-02 9.96739230308042234441e-01 -3.25186989859176794893e-02
9.93475400393744230270e+08 9.84804168168759153090e-01 -1.51237649148816349909e-01 -7.05328033453451325174e-03 -7.01982983510993086007e-02 -7.05328033453451325174e-03 -7.01982983510993086007e-02 9.96726157275888424714e-01 -3.25831637765080853186e-02
9.93488554828434228897e+08 9.84743124935758551430e-01 -1.51538040465812151592e-01 -7.08161409340082349806e-03 -7.03377276493675068769e-02 -7.08161409340082349806e-03 -7.03377276493675068769e-02 9.96713005910011551336e-01 -3.26478811239001021072e-02
9.93501709263124346733e+08 9.84681715210799501925e-01 -1.51839610873464148089e-01 -7.11011796276532666294e-03 -7.04777042330380631974e-02 -7.11011796276532666294e-03 -7.04777042330380631974e-02 9.96699775585835889835e-01 -3.27128524986733532076e-02
9.93514863697814345360e+08 9.84619936066017276133e-01 -1.52142367250045262850e-01 -7.13879330162246143049e-03 -7.06182312947224583022e-02 -7.13879330162246143049e-03 -7.06182312947224583022e-02 9.96686465672571908492e-01 -3.27780793827068261947e-02
9.93528018132504343987e+08 9.84557784544359049228e-01 -1.52446316526792718937e-01 -7.16764148251457060279e-03 -7.07593120516160217770e-02 -7.16764148251457060279e-03 -7.07593120516160217770e-02 9.96673075533142105442e-01 -3.28435632692903045626e-02
9.93541172567194461823e+08 9.84495257659235956105e-01 -1.52751465688408138988e-01 -7.19666389169334053816e-03 -7.09009497457300658096e-02 -7.19666389169334053816e-03 -7.09009497457300658096e-02 9.96659604524105180445e-01 -3.29093056632321426247e-02
9.93554327001884460449e+08 9.84432352394173371124e-01 -1.53057821773551344657e-01 -7.22586192928234127136e-03 -7.10431476441210768558e-02 -7.22586192928234127136e-03 -7.10431476441210768558e-02 9.96646051995581538918e-01 -3.29753080809656318184e-02
9.93567481436574459076e+08 9.84369065702447643140e-01 -1.53365391875377649056e-01 -7.25523700944541265201e-03 -7.11859090391400856079e-02 -7.25523700944541265201e-03 -7.11859090391400856079e-02 9.96632417291174355078e-01 -3.30415720506647553334e-02
9.93580635871264457703e+08 9.84305394506725495063e-01 -1.53674183142045978068e-01 -7.28479056055408424192e-03 -7.13292372486685755106e-02 -7.28479056055408424192e-03 -7.13292372486685755106e-02 9.96618699747892411445e-01 -3.31080991123536699794e-02
9.93593790305954575539e+08 9.84241335698695096745e-01 -1.53984202777249723493e-01 -7.31452402535892436120e-03 -7.14731356163648134938e-02 -7.31452402535892436120e-03 -7.14731356163648134938e-02 9.96604898696070162778e-01 -3.31748908180210660968e-02
9.93606944740644574165e+08 9.84176886138694140271e-01 -1.54295458040740435246e-01 -7.34443886116206094000e-03 -7.16176075119069749375e-02 -7.34443886116206094000e-03 -7.16176075119069749375e-02 9.96591013459287800025e-01 -3.32419487317330078491e-02
9.93620099175334572792e+08 9.84112042655328700391e-01 -1.54607956248879824246e-01 -7.37453653999422305970e-03 -7.17626563312493553903e-02 -7.37453653999422305970e-03 -7.17626563312493553903e-02 9.96577043354289315857e-01 -3.33092744297518381091e-02
9.93633253610024571419e+08 9.84046802045089208377e-01 -1.54921704775182411673e-01 -7.40481854879281725657e-03 -7.19082854968742107848e-02 -7.40481854879281725657e-03 -7.19082854968742107848e-02 9.96562987690899459992e-01 -3.33768695006531057601e-02
9.93646408044714689255e+08 9.83981161071961096809e-01 -1.55236711050866726946e-01 -7.43528638958273254550e-03 -7.20544984580476360891e-02 -7.43528638958273254550e-03 -7.20544984580476360891e-02 9.96548845771939917348e-01 -3.34447355454443109868e-02
9.93659562479404687881e+08 9.83915116467033001868e-01 -1.55552982565397179826e-01 -7.46594157965816632855e-03 -7.22012986910710724553e-02 -7.46594157965816632855e-03 -7.22012986910710724553e-02 9.96534616893145375194e-01 -3.35128741776816452269e-02
9.93672716914094686508e+08 9.83848664928091531934e-01 -1.55870526867071618193e-01 -7.49678565177086097399e-03 -7.23486896995540196276e-02 -7.49678565177086097399e-03 -7.23486896995540196276e-02 9.96520300343075149385e-01 -3.35812870235965774124e-02
9.93685871348784804344e+08 9.83781803119216147202e-01 -1.56189351563584100102e-01 -7.52782015431796916460e-03 -7.24966750146752436645e-02 -7.52782015431796916460e-03 -7.24966750146752436645e-02 9.96505895403027253110e-01 -3.36499757222171180793e-02
9.93699025783474802971e+08 9.83714527670370708634e-01 -1.56509464322585722940e-01 -7.55904665153174070563e-03 -7.26452581954431381162e-02 -7.55904665153174070563e-03 -7.26452581954431381162e-02 9.96491401346949245976e-01 -3.37189419254886046939e-02
9.93712180218164801598e+08 9.83646835176979483784e-01 -1.56830872872294857512e-01 -7.59046672367611873627e-03 -7.27944428289789002839e-02 -7.59046672367611873627e-03 -7.27944428289789002839e-02 9.96476817441347528792e-01 -3.37881872984052283870e-02
9.93725334652854800224e+08 9.83578722199508259649e-01 -1.57153585002067691656e-01 -7.62208196724156565593e-03 -7.29442325307813888013e-02 -7.62208196724156565593e-03 -7.29442325307813888013e-02 9.96462142945196971411e-01 -3.38577135191328940089e-02
9.93738489087544918060e+08 9.83510185263031133651e-01 -1.57477608563007048792e-01 -7.65389399514579318179e-03 -7.30946309450097586602e-02 -7.65389399514579318179e-03 -7.30946309450097586602e-02 9.96447377109847542975e-01 -3.39275222791404346134e-02
9.93751643522234916687e+08 9.83441220856798081762e-01 -1.57802951468550584080e-01 -7.68590443693462511271e-03 -7.32456417447563540302e-02 -7.68590443693462511271e-03 -7.32456417447563540302e-02 9.96432519178930942161e-01 -3.39976152833263087216e-02
9.93764797956924915314e+08 9.83371825433787538628e-01 -1.58129621695104555235e-01 -7.71811493898958041193e-03 -7.33972686323410283826e-02 -7.71811493898958041193e-03 -7.33972686323410283826e-02 9.96417568388264562884e-01 -3.40679942501551577538e-02
9.93777952391615033150e+08 9.83301995410261975294e-01 -1.58457627282643065403e-01 -7.75052716473430096389e-03 -7.35495153395891582138e-02 -7.75052716473430096389e-03 -7.35495153395891582138e-02 9.96402523965755682056e-01 -3.41386609117868833341e-02
9.93791106826305031776e+08 9.83231727165310931404e-01 -1.58786976335339974353e-01 -7.78314279484650616003e-03 -7.37023856281250472344e-02 -7.78314279484650616003e-03 -7.37023856281250472344e-02 9.96387385131302649732e-01 -3.42096170142128161440e-02
9.93804261260995030403e+08 9.83161017040388718335e-01 -1.59117677022205611381e-01 -7.81596352747273778738e-03 -7.38558832896674122281e-02 -7.81596352747273778738e-03 -7.38558832896674122281e-02 9.96372151096695746197e-01 -3.42808643173928909165e-02
9.93817415695685029030e+08 9.83089861338847681438e-01 -1.59449737577717159942e-01 -7.84899107844485612040e-03 -7.40100121463219823292e-02 -7.84899107844485612040e-03 -7.40100121463219823292e-02 9.96356821065516373714e-01 -3.43524045953914197726e-02
9.93830570130375146866e+08 9.83018256325459915956e-01 -1.59783166302479656684e-01 -7.88222718150198564668e-03 -7.41647760508883230335e-02 -7.88222718150198564668e-03 -7.41647760508883230335e-02 9.96341394233034138850e-01 -3.44242396365195615915e-02
9.93843724565065145493e+08 9.82946198225939427040e-01 -1.60117971563862981910e-01 -7.91567358851253365104e-03 -7.43201788871554747118e-02 -7.91567358851253365104e-03 -7.43201788871554747118e-02 9.96325869786103712755e-01 -3.44963712434725039424e-02
9.93856878999755144119e+08 9.82873683226450634010e-01 -1.60454161796673960838e-01 -7.94933206970217451359e-03 -7.44762245702139946690e-02 -7.94933206970217451359e-03 -7.44762245702139946690e-02 9.96310246903059026913e-01 -3.45688012334742916787e-02
9.93870033434445142746e+08 9.82800707473109103063e-01 -1.60791745503841093656e-01 -7.98320441388565039953e-03 -7.46329170467736474626e-02 -7.98320441388565039953e-03 -7.46329170467736474626e-02 9.96294524753606025591e-01 -3.46415314384253339441e-02
9.93883187869135260582e+08 9.82727267071483723271e-01 -1.61130731257064452322e-01 -8.01729242869767509683e-03 -7.47902602954651912759e-02 -8.01729242869767509683e-03 -7.47902602954651912759e-02 9.96278702498714863189e-01 -3.47145637050424379910e-02
9.93896342303825259209e+08 9.82653358086082784340e-01 -1.61471127697518701538e-01 -8.05159794083173778467e-03 -7.49482583271665891989e-02 -8.05159794083173778467e-03 -7.49482583271665891989e-02 9.96262779290509548069e-01 -3.47878998950102366616e-02
9.93909496738515257835e+08 9.82578976539835724502e-01 -1.61812943536544684431e-01 -8.08612279628049580860e-03 -7.51069151853240718486e-02 -8.08612279628049580860e-03 -7.51069151853240718486e-02 9.96246754272156254117e-01 -3.48615418851302288905e-02
9.93922651173205375671e+08 9.82504118413564775381e-01 -1.62156187556361963686e-01 -8.12086886058092059792e-03 -7.52662349462829005642e-02 -8.12086886058092059792e-03 -7.52662349462829005642e-02 9.96230626577749411865e-01 -3.49354915674742610987e-02
9.93935805607895374298e+08 9.82428779645457384007e-01 -1.62500868610753579357e-01 -8.15583801905944531796e-03 -7.54262217196050993584e-02 -8.15583801905944531796e-03 -7.54262217196050993584e-02 9.96214395332197910626e-01 -3.50097508495320688948e-02
9.93948960042585372925e+08 9.82352956130519427980e-01 -1.62846995625806928443e-01 -8.19103217708556236021e-03 -7.55868796484134436442e-02 -8.19103217708556236021e-03 -7.55868796484134436442e-02 9.96198059651107636903e-01 -3.50843216543708855126e-02
9.93962114477275371552e+08 9.82276643720026321205e-01 -1.63194577600638685011e-01 -8.22645326032666983351e-03 -7.57482129097278578111e-02 -8.22645326032666983351e-03 -7.57482129097278578111e-02 9.96181618640663013586e-01 -3.51592059207916154961e-02
9.93975268911965489388e+08 9.82199838220964016600e-01 -1.63543623608135346714e-01 -8.26210321500743354040e-03 -7.59102257148092235406e-02 -8.26210321500743354040e-03 -7.59102257148092235406e-02 9.96165071397506540762e-01 -3.52344056034884084427e-02
9.93988423346655488014e+08 9.82122535395469342667e-01 -1.63894142795670771928e-01 -8.29798400816970753435e-03 -7.60729223094923634463e-02 -8.29798400816970753435e-03 -7.60729223094923634463e-02 9.96148417008618225488e-01 -3.53099226732032228648e-02
9.94001577781345486641e+08 9.82044730960247691520e-01 -1.64246144385895243012e-01 -8.33409762794277801656e-03 -7.62363069745523452836e-02 -8.33409762794277801656e-03 -7.62363069745523452836e-02 9.96131654551190237612e-01 -3.53857591168958152128e-02
9.94014732216035604477e+08 9.81966420585991484060e-01 -1.64599637677489807341e-01 -8.37044608381314406143e-03 -7.64003840260545769025e-02 -8.37044608381314406143e-03 -7.64003840260545769025e-02 9.96114783092501454576e-01 -3.54619169379063042813e-02
9.94027886650725603104e+08 9.81887599896794749377e-01 -1.64954632045911597782e-01 -8.40703140689643205197e-03 -7.65651578157007933756e-02 -8.40703140689643205197e-03 -7.65651578157007933756e-02 9.96097801689791784163e-01 -3.55383981561156955808e-02
9.94041041085415601730e+08 9.81808264469544611508e-01 -1.65311136944210984590e-01 -8.44385565021986070344e-03 -7.67306327312082536718e-02 -8.44385565021986070344e-03 -7.67306327312082536718e-02 9.96080709390130158987e-01 -3.56152048081219418929e-02
9.94054195520105600357e+08 9.81728409833313997446e-01 -1.65669161903808759284e-01 -8.48092088900385433770e-03 -7.68968131966706186509e-02 -8.48092088900385433770e-03 -7.68968131966706186509e-02 9.96063505230284640390e-01 -3.56923389474074065353e-02
9.94067349954795718193e+08 9.81648031468745241312e-01 -1.66028716535289139200e-01 -8.51822922094850644437e-03 -7.70637036729259344847e-02 -8.51822922094850644437e-03 -7.70637036729259344847e-02 9.96046188236589080667e-01 -3.57698026445097058690e-02
9.94080504389485716820e+08 9.81567124807420698929e-01 -1.66389810529212450740e-01 -8.55578276652542955849e-03 -7.72313086579338448079e-02 -8.55578276652542955849e-03 -7.72313086579338448079e-02 9.96028757424807897891e-01 -3.58475979871967637136e-02
9.94093658824175715446e+08 9.81485685231222482194e-01 -1.66752453656947102756e-01 -8.59358366927498625032e-03 -7.73996326871618095522e-02 -8.59358366927498625032e-03 -7.73996326871618095522e-02 9.96011211799997631111e-01 -3.59257270806460846102e-02
9.94106813258865833282e+08 9.81403708071688085646e-01 -1.67116655771488237248e-01 -8.63163409610562086527e-03 -7.75686803339650232658e-02 -8.63163409610562086527e-03 -7.75686803339650232658e-02 9.95993550356368495535e-01 -3.60041920476211196878e-02
9.94119967693555831909e+08 9.81321188609355576915e-01 -1.67482426808283846320e-01 -8.66993623759741878498e-03 -7.77384562099699694127e-02 -8.66993623759741878498e-03 -7.77384562099699694127e-02 9.95975772077143273187e-01 -3.60829950286492631695e-02
9.94133122128245830536e+08 9.81238122073088470110e-01 -1.67849776786124171846e-01 -8.70849230831587974022e-03 -7.79089649654871319040e-02 -8.70849230831587974022e-03 -7.79089649654871319040e-02 9.95957875934411873686e-01 -3.61621381822134213557e-02
9.94146276562935829163e+08 9.81154503639406816440e-01 -1.68218715807960522701e-01 -8.74730454712194412104e-03 -7.80802112898910938288e-02 -8.74730454712194412104e-03 -7.80802112898910938288e-02 9.95939860888986894238e-01 -3.62416236849284895127e-02
9.94159430997625946999e+08 9.81070328431795535273e-01 -1.68589254061798837769e-01 -8.78637521749351876887e-03 -7.82521999120353167756e-02 -8.78637521749351876887e-03 -7.82521999120353167756e-02 9.95921725890254960767e-01 -3.63214537317338020950e-02
9.94172585432315945625e+08 9.80985591520008970434e-01 -1.68961401821565271320e-01 -8.82570660784787013042e-03 -7.84249356006539027897e-02 -8.82570660784787013042e-03 -7.84249356006539027897e-02 9.95903469876027069851e-01 -3.64016305360796432744e-02
9.94185739867005944252e+08 9.80900287919355795552e-01 -1.69335169448027789141e-01 -8.86530103187372145457e-03 -7.85984231647893494266e-02 -8.86530103187372145457e-03 -7.85984231647893494266e-02 9.95885091772383934661e-01 -3.64821563301258242062e-02
9.94198894301695942879e+08 9.80814412589989914615e-01 -1.69710567389653704806e-01 -8.90516082886048422618e-03 -7.87726674541905508287e-02 -8.90516082886048422618e-03 -7.87726674541905508287e-02 9.95866590493523551331e-01 -3.65630333649263616902e-02
9.94212048736386060715e+08 9.80727960436167722769e-01 -1.70087606183573658569e-01 -8.94528836404274128868e-03 -7.89476733597603286263e-02 -8.94528836404274128868e-03 -7.89476733597603286263e-02 9.95847964941601326849e-01 -3.66442639106372564095e-02
9.94225203171076059341e+08 9.80640926305518023653e-01 -1.70466296456457860886e-01 -8.98568602893944426424e-03 -7.91234458139620372430e-02 -8.98568602893944426424e-03 -7.91234458139620372430e-02 9.95829214006572427387e-01 -3.67258502567051892118e-02
9.94238357605766057968e+08 9.80553304988279528231e-01 -1.70846648925489008608e-01 -9.02635624170749877038e-03 -7.92999897912712303771e-02 -9.02635624170749877038e-03 -7.92999897912712303771e-02 9.95810336566027909377e-01 -3.68077947120771867273e-02
9.94251512040456175804e+08 9.80465091216538242591e-01 -1.71228674399302061016e-01 -9.06730144749603832188e-03 -7.94773103086118676286e-02 -9.06730144749603832188e-03 -7.94773103086118676286e-02 9.95791331485030184467e-01 -3.68900996054030635984e-02
9.94264666475146174431e+08 9.80376279663453642499e-01 -1.71612383778928373479e-01 -9.10852411880536810829e-03 -7.96554124257944640153e-02 -9.10852411880536810829e-03 -7.96554124257944640153e-02 9.95772197615946041971e-01 -3.69727672852388153379e-02
9.94277820909836173058e+08 9.80286864942466640294e-01 -1.71997788058781186926e-01 -9.15002675585473330966e-03 -7.98343012459735990038e-02 -9.15002675585473330966e-03 -7.98343012459735990038e-02 9.95752933798276673727e-01 -3.70558001202589831768e-02
9.94290975344526171684e+08 9.80196841606499114086e-01 -1.72384898327635982529e-01 -9.19181188695390033461e-03 -8.00139819161029414163e-02 -9.19181188695390033461e-03 -8.00139819161029414163e-02 9.95733538858484590328e-01 -3.71392004994678184837e-02
9.94304129779216289520e+08 9.80106204147136117477e-01 -1.72773725769641117722e-01 -9.23388206888253737503e-03 -8.01944596274042492690e-02 -9.23388206888253737503e-03 -8.01944596274042492690e-02 9.95714011609817761794e-01 -3.72229708324170391331e-02
9.94317284213906288147e+08 9.80014946993810753817e-01 -1.73164281665278307898e-01 -9.27623988726873280330e-03 -8.03757396158133741171e-02 -9.27623988726873280330e-03 -8.03757396158133741171e-02 9.95694350852133980290e-01 -3.73071135494127611998e-02
9.94330438648596286774e+08 9.79923064512949526517e-01 -1.73556577392448563302e-01 -9.31888795698574898263e-03 -8.05578271624841218967e-02 -9.31888795698574898263e-03 -8.05578271624841218967e-02 9.95674555371716674124e-01 -3.73916311017494437663e-02
9.94343593083286404610e+08 9.79830551007130567953e-01 -1.73950624427456568277e-01 -9.36182892254253107289e-03 -8.07407275942452623552e-02 -9.36182892254253107289e-03 -8.07407275942452623552e-02 9.95654623941093386286e-01 -3.74765259619219970322e-02
9.94356747517976403236e+08 9.79737400714214001773e-01 -1.74346434346073081434e-01 -9.40506545848747606275e-03 -8.09244462840936207293e-02 -9.40506545848747606275e-03 -8.09244462840936207293e-02 9.95634555318848701866e-01 -3.75618006238546062181e-02
9.94369901952666401863e+08 9.79643607806461202969e-01 -1.74744018824597502348e-01 -9.44860026981720821371e-03 -8.11089886516872943245e-02 -9.44860026981720821371e-03 -8.11089886516872943245e-02 9.95614348249434621962e-01 -3.76474576031297289425e-02
9.94383056387356400490e+08 9.79549166389641290387e-01 -1.75143389640930374762e-01 -9.49243609239140695433e-03 -8.12943601638434348855e-02 -9.49243609239140695433e-03 -8.12943601638434348855e-02 9.95594001462977273853e-01 -3.77334994372191187550e-02
9.94396210822046518326e+08 9.79454070502124296560e-01 -1.75544558675652856428e-01 -9.53657569335351548712e-03 -8.14805663350393477584e-02 -9.53657569335351548712e-03 -8.14805663350393477584e-02 9.95573513675082732988e-01 -3.78199286857163891051e-02
9.94409365256736516953e+08 9.79358314113959460556e-01 -1.75947537913126117459e-01 -9.58102187155882023539e-03 -8.16676127279227087596e-02 -9.58102187155882023539e-03 -8.16676127279227087596e-02 9.95552883586637293867e-01 -3.79067479305738863626e-02
9.94422519691426515579e+08 9.79261891125936867475e-01 -1.76352339442607919384e-01 -9.62577745800974327040e-03 -8.18555049538299273060e-02 -9.62577745800974327040e-03 -8.18555049538299273060e-02 9.95532109883606075584e-01 -3.79939597763432473920e-02
9.94435674126116514206e+08 9.79164795368632989714e-01 -1.76758975459392314589e-01 -9.67084531629903987326e-03 -8.20442486733150566636e-02 -9.67084531629903987326e-03 -8.20442486733150566636e-02 9.95511191236826964435e-01 -3.80815668504209184353e-02
9.94448828560806632042e+08 9.79067020601449344852e-01 -1.77167458265925670258e-01 -9.71622834305590522830e-03 -8.22338495966678517668e-02 -9.71622834305590522830e-03 -8.22338495966678517668e-02 9.95490126301804001407e-01 -3.81695718032886155413e-02
