! File generated for n1 = 13, n2 = 2
! b1 = 0.010000
! b2 = 0.004642
! Q0 = 10000.000000
! f0 = 1000000000.000000
! n = 1001
! rel_span = 10.000000
# Hz S RI R 50
9.99492679205583214760e+08 9.99804935726931187645e-01 -1.95113778264829180152e-03 -1.32895742198369909122e-04 -1.32929469695761744846e-03 -1.32895742198369909122e-04 -1.32929469695761744846e-03 9.99909459184828652845e-01 -9.05637934478030807127e-04
9.99493693847172021866e+08 9.99804160701354138752e-01 -1.95497123278681392278e-03 -1.33423760977320328370e-04 -1.33190639613412170443e-03 -1.33423760977320328370e-04 -1.33190639613412170443e-03 9.99909099449822313943e-01 -9.07417264413748264271e-04
9.99494708488760828972e+08 9.99803381063977147925e-01 -1.95881961531251414660e-03 -1.33954921738997233434e-04 -1.33452826862758260756e-03 -1.33954921738997233434e-04 -1.33452826862758260756e-03 9.99908737574207950871e-01 -9.09203525349624509279e-04
9.99495723130349755287e+08 9.99802596778264107691e-01 -1.96268301668528705531e-03 -1.34489249375168849927e-04 -1.33716037334244029419e-03 -1.34489249375168849927e-04 -1.33716037334244029419e-03 9.99908373541027128972e-01 -9.10996757416787021448e-04
9.99496737771938562393e+08 9.99801807807317866050e-01 -1.96656152402480653707e-03 -1.35026769023582611604e-04 -1.33980276963263796562e-03 -1.35026769023582611604e-04 -1.33980276963263796562e-03 9.99908007333153658891e-01 -9.12797001052606917296e-04
9.99497752413527369499e+08 9.99801014113875341494e-01 -1.97045522511930804033e-03 -1.35567506071232430709e-04 -1.34245551730760429889e-03 -1.35567506071232430709e-04 -1.34245551730760429889e-03 9.99907638933291709193e-01 -9.14604297004773382322e-04
9.99498767055116176605e+08 9.99800215660303859266e-01 -1.97436420842936203104e-03 -1.36111486156962924491e-04 -1.34511867663482409009e-03 -1.36111486156962924491e-04 -1.34511867663482409009e-03 9.99907268323973585922e-01 -9.16418686333046066984e-04
9.99499781696705102921e+08 9.99799412408596377411e-01 -1.97828856309638584712e-03 -1.36658735174761866151e-04 -1.34779230834563786869e-03 -1.36658735174761866151e-04 -1.34779230834563786869e-03 9.99906895487557956237e-01 -9.18240210413205377310e-04
9.99500796338293910027e+08 9.99798604320367045872e-01 -1.98222837894696055777e-03 -1.37209279276501210565e-04 -1.35047647363818333795e-03 -1.37209279276501210565e-04 -1.35047647363818333795e-03 9.99906520406227738995e-01 -9.20068910939057164715e-04
9.99501810979882717133e+08 9.99797791356846876631e-01 -1.98618374650063852019e-03 -1.37763144875195121808e-04 -1.35317123418271338664e-03 -1.37763144875195121808e-04 -1.35317123418271338664e-03 9.99906143061987995324e-01 -9.21904829926055695982e-04
9.99502825621471524239e+08 9.99796973478878858721e-01 -1.99015475697741960406e-03 -1.38320358648246779197e-04 -1.35587665212669032135e-03 -1.38320358648246779197e-04 -1.35587665212669032135e-03 9.99905763436663708177e-01 -9.23748009714774292837e-04
9.99503840263060331345e+08 9.99796150646913850402e-01 -1.99414150230138847303e-03 -1.38880947540188942222e-04 -1.35859279009726435263e-03 -1.38880947540188942222e-04 -1.35859279009726435263e-03 9.99905381511897561886e-01 -9.25598492972593651570e-04
9.99504854904649257660e+08 9.99795322821004917024e-01 -1.99814407511181594754e-03 -1.39444938766505925837e-04 -1.36131971120883568833e-03 -1.39444938766505925837e-04 -1.36131971120883568833e-03 9.99904997269148054784e-01 -9.27456322698853863340e-04
9.99505869546238064766e+08 9.99794489960803778317e-01 -2.00216256876496571937e-03 -1.40012359816183318707e-04 -1.36405747906428640413e-03 -1.40012359816183318707e-04 -1.36405747906428640413e-03 9.99904610689687167735e-01 -9.29321542225694237176e-04
9.99506884187826871872e+08 9.99793652025554924201e-01 -2.00619707734515234643e-03 -1.40583238455594034845e-04 -1.36680615776251369702e-03 -1.40583238455594034845e-04 -1.36680615776251369702e-03 9.99904221754597699601e-01 -9.31194195223185154121e-04
9.99507898829415678978e+08 9.99792808974091062879e-01 -2.01024769567086265820e-03 -1.41157602731726037693e-04 -1.36956581190260081107e-03 -1.41157602731726037693e-04 -1.36956581190260081107e-03 9.99903830444771601904e-01 -9.33074325702169435869e-04
9.99508913471004605293e+08 9.99791960764828346875e-01 -2.01431451930005143286e-03 -1.41735480975327204044e-04 -1.37233650658742461180e-03 -1.41735480975327204044e-04 -1.37233650658742461180e-03 9.99903436740907425317e-01 -9.34961978016720990023e-04
9.99509928112593412399e+08 9.99791107355761154984e-01 -2.01839764453815712075e-03 -1.42316901804470777098e-04 -1.37511830742911671244e-03 -1.42316901804470777098e-04 -1.37511830742911671244e-03 9.99903040623507766149e-01 -9.36857196867864490918e-04
9.99510942754182219505e+08 9.99790248704456985251e-01 -2.02249716844577322530e-03 -1.42901894128110221443e-04 -1.37791128055428911160e-03 -1.42901894128110221443e-04 -1.37791128055428911160e-03 9.99902642072877156920e-01 -9.38760027307136441649e-04
9.99511957395771026611e+08 9.99789384768050903851e-01 -2.02661318884685831554e-03 -1.43490487149750006344e-04 -1.38071549260962889334e-03 -1.43490487149750006344e-04 -1.38071549260962889334e-03 9.99902241069119623873e-01 -9.40670514740396253132e-04
9.99512972037359833717e+08 9.99788515503240993176e-01 -2.03074580433320770953e-03 -1.44082710370619444980e-04 -1.38353101076494483523e-03 -1.44082710370619444980e-04 -1.38353101076494483523e-03 9.99901837592136133459e-01 -9.42588704929901732323e-04
9.99513986678948760033e+08 9.99787640866282356633e-01 -2.03489511427575910096e-03 -1.44678593593862539523e-04 -1.38635790272086849642e-03 -1.44678593593862539523e-04 -1.38635790272086849642e-03 9.99901431621622038826e-01 -9.44514643999556187046e-04
9.99515001320537567139e+08 9.99786760812982122637e-01 -2.03906121882831310732e-03 -1.45278166927681815076e-04 -1.38919623671138994965e-03 -1.45278166927681815076e-04 -1.38919623671138994965e-03 9.99901023137064859370e-01 -9.46448378436636102162e-04
9.99516015962126374245e+08 9.99785875298693671454e-01 -2.04324421893721042479e-03 -1.45881460789374912783e-04 -1.39204608151045016416e-03 -1.45881460789374912783e-04 -1.39204608151045016416e-03 9.99900612117741616203e-01 -9.48389955096281904966e-04
9.99517030603715181351e+08 9.99784984278311417150e-01 -2.04744421634975824753e-03 -1.46488505909235088454e-04 -1.39490750643768294040e-03 -1.46488505909235088454e-04 -1.39490750643768294040e-03 9.99900198542715834549e-01 -9.50339421205410308721e-04
9.99518045245304107666e+08 9.99784087706264257278e-01 -2.05166131362138730310e-03 -1.47099333334310005978e-04 -1.39778058136328991665e-03 -1.47099333334310005978e-04 -1.39778058136328991665e-03 9.99899782390835656365e-01 -9.52296824366035657601e-04
9.99519059886892914772e+08 9.99783185536511131986e-01 -2.05589561412171557830e-03 -1.47713974432042596634e-04 -1.40066537671217159616e-03 -1.47713974432042596634e-04 -1.40066537671217159616e-03 9.99899363640730398650e-01 -9.54262212558084081844e-04
9.99520074528481721878e+08 9.99782277722534251652e-01 -2.06014722204531661523e-03 -1.48332460894636897295e-04 -1.40356196347126501063e-03 -1.48332460894636897295e-04 -1.40356196347126501063e-03 9.99898942270808666066e-01 -9.56235634144392862392e-04
9.99521089170070528984e+08 9.99781364217333656796e-01 -2.06441624241844633517e-03 -1.48954824742882031494e-04 -1.40647041319412512486e-03 -1.48954824742882031494e-04 -1.40647041319412512486e-03 9.99898518259254798224e-01 -9.58217137873831198425e-04
9.99522103811659336090e+08 9.99780444973420667765e-01 -2.06870278110793132803e-03 -1.49581098330334871663e-04 -1.40939079800698140697e-03 -1.49581098330334871663e-04 -1.40939079800698140697e-03 9.99898091584026538214e-01 -9.60206772885427439768e-04
9.99523118453248262405e+08 9.99779519942812444633e-01 -2.07300694482829509641e-03 -1.50211314347290062236e-04 -1.41232319061359223519e-03 -1.50211314347290062236e-04 -1.41232319061359223519e-03 9.99897662222852368075e-01 -9.62204588711675686680e-04
9.99524133094837069511e+08 9.99778589077025880982e-01 -2.07732884115084106766e-03 -1.50845505825081347816e-04 -1.41526766430143352386e-03 -1.50845505825081347816e-04 -1.41526766430143352386e-03 9.99897230153228289140e-01 -9.64210635282751818420e-04
9.99525147736425876617e+08 9.99777652327070498472e-01 -2.08166857851237348254e-03 -1.51483706140377615869e-04 -1.41822429294764015134e-03 -1.51483706140377615869e-04 -1.41822429294764015134e-03 9.99896795352415046487e-01 -9.66224962930561795740e-04
9.99526162378014683723e+08 9.99776709643442895725e-01 -2.08602626622355052238e-03 -1.52125949019472163143e-04 -1.42119315102469650353e-03 -1.52125949019472163143e-04 -1.42119315102469650353e-03 9.99896357797435131332e-01 -9.68247622392618984694e-04
9.99527177019603610039e+08 9.99775760976119975965e-01 -2.09040201447828737774e-03 -1.52772268542775141583e-04 -1.42417431360684280765e-03 -1.52772268542775141583e-04 -1.42417431360684280765e-03 9.99895917465069783425e-01 -9.70278664816407745118e-04
9.99528191661192417145e+08 9.99774806274552507723e-01 -2.09479593436063312589e-03 -1.53422699148981990427e-04 -1.42716785637476105408e-03 -1.53422699148981990427e-04 -1.42716785637476105408e-03 9.99895474331856326522e-01 -9.72318141762576189195e-04
9.99529206302781224251e+08 9.99773845487658796571e-01 -2.09920813785460444456e-03 -1.54077275639726886131e-04 -1.43017385562227363101e-03 -1.54077275639726886131e-04 -1.43017385562227363101e-03 9.99895028374084615663e-01 -9.74366105209500672595e-04
9.99530220944370031357e+08 9.99772878563817024578e-01 -2.10363873785560139343e-03 -1.54736033184524264831e-04 -1.43319238826412074031e-03 -1.54736033184524264831e-04 -1.43319238826412074031e-03 9.99894579567793928554e-01 -9.76422607558583748391e-04
9.99531235585958838463e+08 9.99771905450859699194e-01 -2.10808784817443587573e-03 -1.55399007324664740213e-04 -1.43622353183870668167e-03 -1.55399007324664740213e-04 -1.43622353183870668167e-03 9.99894127888770190005e-01 -9.78487701636125174753e-04
9.99532250227547764778e+08 9.99770926096065326583e-01 -2.11255558355260024059e-03 -1.56066233978833791536e-04 -1.43926736451849995348e-03 -1.56066233978833791536e-04 -1.43926736451849995348e-03 9.99893673312542530240e-01 -9.80561440700407826662e-04
9.99533264869136571884e+08 9.99769940446152971525e-01 -2.11704205966526054841e-03 -1.56737749446955829547e-04 -1.44232396511207328765e-03 -1.56737749446955829547e-04 -1.44232396511207328765e-03 9.99893215814379843209e-01 -9.82643878443087209415e-04
9.99534279510725378990e+08 9.99768948447273930746e-01 -2.12154739313555459543e-03 -1.57413590415778677917e-04 -1.44539341307384585668e-03 -1.57413590415778677917e-04 -1.44539341307384585668e-03 9.99892755369287788980e-01 -9.84735068995828835905e-04
9.99535294152314186096e+08 9.99767950045004627491e-01 -2.12607170154292812736e-03 -1.58093793963624628480e-04 -1.44847578850976189090e-03 -1.58093793963624628480e-04 -1.44847578850976189090e-03 9.99892291952005352051e-01 -9.86835066934177527337e-04
9.99536308793903112411e+08 9.99766945184339617114e-01 -2.13061510343155909031e-03 -1.58778397565208689900e-04 -1.45157117218302892693e-03 -1.58778397565208689900e-04 -1.45157117218302892693e-03 9.99891825537001066593e-01 -9.88943927281465962054e-04
9.99537323435491919518e+08 9.99765933809684370637e-01 -2.13517771831985307338e-03 -1.59467439096673649660e-04 -1.45467964552058962729e-03 -1.59467439096673649660e-04 -1.45467964552058962729e-03 9.99891356098470462932e-01 -9.91061705513224125777e-04
9.99538338077080726624e+08 9.99764915864847059090e-01 -2.13975966671257683202e-03 -1.60160956841081720701e-04 -1.45780129062138513567e-03 -1.60160956841081720701e-04 -1.45780129062138513567e-03 9.99890883610331404618e-01 -9.93188457562809790327e-04
9.99539352718669533730e+08 9.99763891293030892982e-01 -2.14436107011037628209e-03 -1.60858989493573256669e-04 -1.46093619026284207534e-03 -1.60858989493573256669e-04 -1.46093619026284207534e-03 9.99890408046221312865e-01 -9.95324239825827071157e-04
9.99540367360258340836e+08 9.99762860036827349930e-01 -2.14898205101713693152e-03 -1.61561576166255636356e-04 -1.46408442790588655055e-03 -1.61561576166255636356e-04 -1.46408442790588655055e-03 9.99889929379493391792e-01 -9.97469109163542965238e-04
9.99541382001847267151e+08 9.99761822038206626750e-01 -2.15362273295450438321e-03 -1.62268756394239965866e-04 -1.46724608770483553981e-03 -1.62268756394239965866e-04 -1.46724608770483553981e-03 9.99889447583212742643e-01 -9.99623122909626101243e-04
9.99542396643436074257e+08 9.99760777238511422205e-01 -2.15828324046719649196e-03 -1.62980570140340959512e-04 -1.47042125451101769740e-03 -1.62980570140340959512e-04 -1.47042125451101769740e-03 9.99888962630152811073e-01 -1.00178633887261416685e-03
9.99543411285024881363e+08 9.99759725578447167038e-01 -2.16296369913856686984e-03 -1.63697057801400332145e-04 -1.47361001388337576647e-03 -1.63697057801400332145e-04 -1.47361001388337576647e-03 9.99888474492791834436e-01 -1.00395881534313599626e-03
9.99544425926613688469e+08 9.99758666998075140597e-01 -2.16766423559766477705e-03 -1.64418260213379269653e-04 -1.47681245209327718405e-03 -1.64418260213379269653e-04 -1.47681245209327718405e-03 9.99887983143308289868e-01 -1.00614061109718998070e-03
9.99545440568202614784e+08 9.99757601436802478823e-01 -2.17238497753306216906e-03 -1.65144218657550307565e-04 -1.48002865613393276220e-03 -1.65144218657550307565e-04 -1.48002865613393276220e-03 9.99887488553577785666e-01 -1.00833178540256081061e-03
9.99546455209791421890e+08 9.99756528833375290866e-01 -2.17712605369987108675e-03 -1.65874974865712099563e-04 -1.48325871372517932058e-03 -1.65874974865712099563e-04 -1.48325871372517932058e-03 9.99886990695168842436e-01 -1.01053239802207750313e-03
9.99547469851380228996e+08 9.99755449125869333216e-01 -2.18188759393306026119e-03 -1.66610571026437484857e-04 -1.48650271332255142290e-03 -1.66610571026437484857e-04 -1.48650271332255142290e-03 9.99886489539338452204e-01 -1.01274250921979443868e-03
9.99548484492969036102e+08 9.99754362251680683826e-01 -2.18666972915938784272e-03 -1.67351049791181286921e-04 -1.48976074412541137533e-03 -1.67351049791181286921e-04 -1.48976074412541137533e-03 9.99885985057028747747e-01 -1.01496217976652946570e-03
9.99549499134557843208e+08 9.99753268147517748510e-01 -2.19147259140712409239e-03 -1.68096454280116763521e-04 -1.49303289608357196705e-03 -1.68096454280116763521e-04 -1.49303289608357196705e-03 9.99885477218862228632e-01 -1.01719147094437678373e-03
9.99550513776146769524e+08 9.99752166749391379952e-01 -2.19629631381877948176e-03 -1.68846828088507679719e-04 -1.49631925990596987078e-03 -1.68846828088507679719e-04 -1.49631925990596987078e-03 9.99884965995137653394e-01 -1.01943044455261541160e-03
9.99551528417735576630e+08 9.99751057992606662062e-01 -2.20114103065948904514e-03 -1.69602215292478540262e-04 -1.49961992706637656930e-03 -1.69602215292478540262e-04 -1.49961992706637656930e-03 9.99884451355826597840e-01 -1.02167916291160060585e-03
9.99552543059324383736e+08 9.99749941811752362852e-01 -2.20600687733345885919e-03 -1.70362660456112969621e-04 -1.50293498981460445230e-03 -1.70362660456112969621e-04 -1.50293498981460445230e-03 9.99883933270567681895e-01 -1.02393768887039772822e-03
9.99553557700913190842e+08 9.99748818140692496748e-01 -2.21089399039264486446e-03 -1.71128208637419588654e-04 -1.50626454118241745288e-03 -1.71128208637419588654e-04 -1.50626454118241745288e-03 9.99883411708663238926e-01 -1.02620608581080983990e-03
9.99554572342502117157e+08 9.99747686912555888483e-01 -2.21580250755087134612e-03 -1.71898905395223122305e-04 -1.50960867499315204085e-03 -1.71898905395223122305e-04 -1.50960867499315204085e-03 9.99882886639074541790e-01 -1.02848441765393192049e-03
9.99555586984090924263e+08 9.99746548059727402347e-01 -2.22073256769139823139e-03 -1.72674796795105908818e-04 -1.51296748586687195351e-03 -1.72674796795105908818e-04 -1.51296748586687195351e-03 9.99882358030417250916e-01 -1.03077274886366281569e-03
9.99556601625679731369e+08 9.99745401513837061991e-01 -2.22568431088429304412e-03 -1.73455929416966686237e-04 -1.51634106923220291288e-03 -1.73455929416966686237e-04 -1.51634106923220291288e-03 9.99881825850957195456e-01 -1.03307114445476866567e-03
9.99557616267268538475e+08 9.99744247205750280472e-01 -2.23065787839808087403e-03 -1.74242350361766959108e-04 -1.51972952133427072034e-03 -1.74242350361766959108e-04 -1.51972952133427072034e-03 9.99881290068604489107e-01 -1.03537966999829047186e-03
9.99558630908857345581e+08 9.99743085065557757218e-01 -2.23565341270962275946e-03 -1.75034107258075703577e-04 -1.52313293924143111635e-03 -1.75034107258075703577e-04 -1.52313293924143111635e-03 9.99880750650910421484e-01 -1.03769839162612853740e-03
9.99559645550446271896e+08 9.99741915022564819893e-01 -2.24067105751984269046e-03 -1.75831248269623031033e-04 -1.52655142085598386631e-03 -1.75831248269623031033e-04 -1.52655142085598386631e-03 9.99880207565061351893e-01 -1.04002737603834391825e-03
9.99560660192035079002e+08 9.99740737005281432381e-01 -2.24571095776334621677e-03 -1.76633822101971148548e-04 -1.52998506492072611218e-03 -1.76633822101971148548e-04 -1.52998506492072611218e-03 9.99879660777874490485e-01 -1.04236669050762056563e-03
9.99561674833623886108e+08 9.99739550941410981544e-01 -2.25077325962476631344e-03 -1.77441878010340780680e-04 -1.53343397103008886352e-03 -1.77441878010340780680e-04 -1.53343397103008886352e-03 9.99879110255792791229e-01 -1.04471640288685517495e-03
9.99562689475212693214e+08 9.99738356757839063960e-01 -2.25585811055089950627e-03 -1.78255465806859060996e-04 -1.53689823963840555693e-03 -1.78255465806859060996e-04 -1.53689823963840555693e-03 9.99878555964879511819e-01 -1.04707658161478766451e-03
9.99563704116801619530e+08 9.99737154380623271877e-01 -2.26096565926354325926e-03 -1.79074635868006727061e-04 -1.54037797206865679708e-03 -1.79074635868006727061e-04 -1.54037797206865679708e-03 9.99877997870813661763e-01 -1.04944729572196168536e-03
9.99564718758390426636e+08 9.99735943734981646891e-01 -2.26609605577163296733e-03 -1.79899439142044851106e-04 -1.54387327052074108460e-03 -1.79899439142044851106e-04 -1.54387327052074108460e-03 9.99877435938884562283e-01 -1.05182861483635726844e-03
9.99565733399979233742e+08 9.99734724745281022606e-01 -2.27124945138860306892e-03 -1.80729927157372900369e-04 -1.54738423808330085966e-03 -1.80729927157372900369e-04 -1.54738423808330085966e-03 9.99876870133986295208e-01 -1.05422060919144904879e-03
9.99566748041568040848e+08 9.99733497335025145247e-01 -2.27642599874490611164e-03 -1.81566152030208168185e-04 -1.55091097874225300468e-03 -1.81566152030208168185e-04 -1.55091097874225300468e-03 9.99876300420612484920e-01 -1.05662334963201737237e-03
9.99567762683156847954e+08 9.99732261426844015517e-01 -2.28162585179867566376e-03 -1.82408166472058176676e-04 -1.55445359738805299887e-03 -1.82408166472058176676e-04 -1.55445359738805299887e-03 9.99875726762851191332e-01 -1.05903690761909767895e-03
9.99568777324745774269e+08 9.99731016942480565923e-01 -2.28684916585648748480e-03 -1.83256023798924604518e-04 -1.55801219982983941981e-03 -1.83256023798924604518e-04 -1.55801219982983941981e-03 9.99875149124378692633e-01 -1.06146135523961689107e-03
9.99569791966334581375e+08 9.99729763802780113657e-01 -2.29209609757982440623e-03 -1.84109777938293572028e-04 -1.56158689279983732209e-03 -1.84109777938293572028e-04 -1.56158689279983732209e-03 9.99874567468454600316e-01 -1.06389676520939383507e-03
9.99570806607923388481e+08 9.99728501927675927696e-01 -2.29736680500824443085e-03 -1.84969483438938753260e-04 -1.56517778396914487155e-03 -1.84969483438938753260e-04 -1.56517778396914487155e-03 9.99873981757915308854e-01 -1.06634321088389344249e-03
9.99571821249512195587e+08 9.99727231236178570661e-01 -2.30266144756672772043e-03 -1.85835195478257413169e-04 -1.56878498195273607084e-03 -1.85835195478257413169e-04 -1.56878498195273607084e-03 9.99873391955168777656e-01 -1.06880076626163591537e-03
