! File generated for n1 = 3, n2 = 11
! b1 = 21.544347
! b2 = 0.010000
! Q0 = 10000.000000
! f0 = 1000000000.000000
! n = 1001
! rel_span = 10.000000
# Hz S RI R 50
9.88722826549840569496e+08 9.81296584336111443747e-01 -1.88100793601685051248e-01 -4.02952875283673055823e-04 -4.05250874957997515163e-03 -4.02952875283673055823e-04 -4.05250874957997515163e-03 9.99991318643470461502e-01 -8.73086543175282851032e-05
9.88745380896740913391e+08 9.81221856646435797167e-01 -1.88472465634697189385e-01 -4.04562834553104594751e-04 -4.06051618079233522102e-03 -4.04562834553104594751e-04 -4.06051618079233522102e-03 9.99991283957949450567e-01 -8.74811691933478067411e-05
9.88767935243641257286e+08 9.81146683442716716073e-01 -1.88845585628503787046e-01 -4.06182392131636781085e-04 -4.06855480737434993532e-03 -4.06182392131636781085e-04 -4.06855480737434993532e-03 9.99991249065639076221e-01 -8.76543561530328583066e-05
9.88790489590541481972e+08 9.81071061191948312619e-01 -1.89220161968351646697e-01 -4.07811624135572816600e-04 -4.07662480998068413318e-03 -4.07811624135572816600e-04 -4.07662480998068413318e-03 9.99991213964899650080e-01 -8.78282190886701930564e-05
9.88813043937441825867e+08 9.80994986326167328627e-01 -1.89596203103598481832e-01 -4.09450607434355099042e-04 -4.08472637064723111816e-03 -4.09450607434355099042e-04 -4.08472637064723111816e-03 9.99991178654074941434e-01 -8.80027619221042682520e-05
9.88835598284342169762e+08 9.80918455242041131825e-01 -1.89973717548304277258e-01 -4.11099419659427219639e-04 -4.09285967280385420269e-03 -4.11099419659427219639e-04 -4.09285967280385420269e-03 9.99991143131492288276e-01 -8.81779886052116702823e-05
9.88858152631242513657e+08 9.80841464300447274383e-01 -1.90352713881849239241e-01 -4.12758139213307217400e-04 -4.10102490128769637395e-03 -4.12758139213307217400e-04 -4.10102490128769637395e-03 9.99991107395462819341e-01 -8.83539031201879132430e-05
9.88880706978142857552e+08 9.80764009826046057050e-01 -1.90733200749559322906e-01 -4.14426845278788877694e-04 -4.10922224235665736053e-03 -4.14426845278788877694e-04 -4.10922224235665736053e-03 9.99991071444280454905e-01 -8.85305094798378560414e-05
9.88903261325043082237e+08 9.80686088106851205914e-01 -1.91115186863320768440e-01 -4.16105617828191223610e-04 -4.11745188370263911354e-03 -4.16105617828191223610e-04 -4.11745188370263911354e-03 9.99991035276222350880e-01 -8.87078117278608746727e-05
9.88925815671943426132e+08 9.80607695393789891014e-01 -1.91498681002225418224e-01 -4.17794537632841165003e-04 -4.12571401446543920694e-03 -4.17794537632841165003e-04 -4.12571401446543920694e-03 9.99990998889548232675e-01 -8.88858139391504543849e-05
9.88948370018843770027e+08 9.80528827900260302464e-01 -1.91883692013203682736e-01 -4.19493686272602605593e-04 -4.13400882524639790710e-03 -4.19493686272602605593e-04 -4.13400882524639790710e-03 9.99990962282500395197e-01 -8.90645202200879271531e-05
9.88970924365744113922e+08 9.80449481801681455018e-01 -1.92270228811672300173e-01 -4.21203146145570782484e-04 -4.14233650812234448224e-03 -4.21203146145570782484e-04 -4.14233650812234448224e-03 9.99990925453303924897e-01 -8.92439347088431615988e-05
9.88993478712644338608e+08 9.80369653235037552541e-01 -1.92658300382189257016e-01 -4.22923000477902347790e-04 -4.15069725665971264728e-03 -4.22923000477902347790e-04 -4.15069725665971264728e-03 9.99990888400165589545e-01 -8.94240615756785597271e-05
9.89016033059544682503e+08 9.80289338298412582517e-01 -1.93047915779126610936e-01 -4.24653333333828680429e-04 -4.15909126592903678060e-03 -4.24653333333828680429e-04 -4.15909126592903678060e-03 9.99990851121274282320e-01 -8.96049050232613749148e-05
9.89038587406445026398e+08 9.80208533050524799535e-01 -1.93439084127323579487e-01 -4.26394229625688496715e-04 -4.16751873251901706202e-03 -4.26394229625688496715e-04 -4.16751873251901706202e-03 9.99990813614800688747e-01 -8.97864692869667464174e-05
9.89061141753345370293e+08 9.80127233510248663251e-01 -1.93831814622777043322e-01 -4.28145775124234926733e-04 -4.17597985455140079808e-03 -4.28145775124234926733e-04 -4.17597985455140079808e-03 9.99990775878896842599e-01 -8.99687586351983521618e-05
9.89083696100245714188e+08 9.80045435656134000801e-01 -1.94226116533316589541e-01 -4.29908056468983194084e-04 -4.18447483169552374160e-03 -4.29908056468983194084e-04 -4.18447483169552374160e-03 9.99990737911696236928e-01 -9.01517773697016076492e-05
9.89106250447145938873e+08 9.79963135425914622090e-01 -1.94621999199309891893e-01 -4.31681161178805276879e-04 -4.19300386518350626935e-03 -4.31681161178805276879e-04 -4.19300386518350626935e-03 9.99990699711313268949e-01 -9.03355298258911492207e-05
9.89128804794046282768e+08 9.79880328716014048496e-01 -1.95019472034354157675e-01 -4.33465177662577152550e-04 -4.20156715782515292196e-03 -4.33465177662577152550e-04 -4.20156715782515292196e-03 9.99990661275843240041e-01 -9.05200203731717307955e-05
9.89151359140946626663e+08 9.79797011381042359801e-01 -1.95418544525984977378e-01 -4.35260195230017079074e-04 -4.21016491402322143994e-03 -4.35260195230017079074e-04 -4.21016491402322143994e-03 9.99990622603362022680e-01 -9.07052534152673063357e-05
9.89173913487846970558e+08 9.79713179233283826264e-01 -1.95819226236403298724e-01 -4.37066304102724887282e-04 -4.21879733978908731673e-03 -4.37066304102724887282e-04 -4.21879733978908731673e-03 9.99990583691925949417e-01 -9.08912333905583522467e-05
9.89196467834747314453e+08 9.79628828042182542291e-01 -1.96221526803186024912e-01 -4.38883595425265345992e-04 -4.22746464275804926386e-03 -4.38883595425265345992e-04 -4.22746464275804926386e-03 9.99990544539571257765e-01 -9.10779647724118307560e-05
9.89219022181647539139e+08 9.79543953533814848456e-01 -1.96625455940032556335e-01 -4.40712161276534666529e-04 -4.23616703220541703651e-03 -4.40712161276534666529e-04 -4.23616703220541703651e-03 9.99990505144314312247e-01 -9.12654520695276060601e-05
9.89241576528547883034e+08 9.79458551390357978761e-01 -1.97031023437499674955e-01 -4.42552094681198998280e-04 -4.24490471906234338728e-03 -4.42552094681198998280e-04 -4.24490471906234338728e-03 9.99990465504150716214e-01 -9.14536998262795749852e-05
9.89264130875448226929e+08 9.79372617249549937135e-01 -1.97438239163756662498e-01 -4.44403489621347758901e-04 -4.25367791593208883355e-03 -4.44403489621347758901e-04 -4.25367791593208883355e-03 9.99990425617055866958e-01 -9.16427126230661624447e-05
9.89286685222348570824e+08 9.79286146704142046460e-01 -1.97847113065340307614e-01 -4.46266441048275279858e-04 -4.26248683710629336363e-03 -4.46266441048275279858e-04 -4.26248683710629336363e-03 9.99990385480984067534e-01 -9.18324950766607897915e-05
9.89309239569248914719e+08 9.79199135301342837856e-01 -1.98257655167926122308e-01 -4.48141044894465251976e-04 -4.27133169858158814880e-03 -4.48141044894465251976e-04 -4.27133169858158814880e-03 9.99990345093868526760e-01 -9.20230518405698106124e-05
9.89331793916149139404e+08 9.79111578542255833746e-01 -1.98669875577099336317e-01 -4.50027398085704624740e-04 -4.28021271807620812266e-03 -4.50027398085704624740e-04 -4.28021271807620812266e-03 9.99990304453621026148e-01 -9.22143876053903923133e-05
9.89354348263049483299e+08 9.79023471881304563347e-01 -1.99083784479155090352e-01 -4.51925598553466279297e-04 -4.28913011504722645889e-03 -4.51925598553466279297e-04 -4.28913011504722645889e-03 9.99990263558131586841e-01 -9.24065070991818689151e-05
9.89376902609949827194e+08 9.78934810725656134878e-01 -1.99499392141879366980e-01 -4.53835745247338593223e-04 -4.29808411070738919518e-03 -4.53835745247338593223e-04 -4.29808411070738919518e-03 9.99990222405268580630e-01 -9.25994150878283660234e-05
9.89399456956850171089e+08 9.78845590434632040200e-01 -1.99916708915355484377e-01 -4.55757938147710443301e-04 -4.30707492804248068263e-03 -4.55757938147710443301e-04 -4.30707492804248068263e-03 9.99990180992877952804e-01 -9.27931163754129725504e-05
9.89422011303750395775e+08 9.78755806319109411540e-01 -2.00335745232786049952e-01 -4.57692278278668495100e-04 -4.31610279182903684714e-03 -4.57692278278668495100e-04 -4.31610279182903684714e-03 9.99990139318783222144e-01 -9.29876158045993663273e-05
9.89444565650650739670e+08 9.78665453640917171185e-01 -2.00756511611310362042e-01 -4.59638867721015489509e-04 -4.32516792865195610213e-03 -4.59638867721015489509e-04 -4.32516792865195610213e-03 9.99990097380784925818e-01 -9.31829182570111899967e-05
9.89467119997551083565e+08 9.78574527612221856110e-01 -2.01179018652834912251e-01 -4.61597809625495557675e-04 -4.33427056692238781704e-03 -4.61597809625495557675e-04 -4.33427056692238781704e-03 9.99990055176660952441e-01 -9.33790286536174848854e-05
9.89489674344451427460e+08 9.78483023394902562409e-01 -2.01603277044884704461e-01 -4.63569208226263101968e-04 -4.34341093689607962020e-03 -4.63569208226263101968e-04 -4.34341093689607962020e-03 9.99990012704165653901e-01 -9.35759519551279775633e-05
9.89512228691351771355e+08 9.78390936099921670888e-01 -2.02029297561442194864e-01 -4.65553168854444159377e-04 -4.35258927069144801320e-03 -4.65553168854444159377e-04 -4.35258927069144801320e-03 9.99989969961029623313e-01 -9.37736931623822948714e-05
9.89534783038251996040e+08 9.78298260786679252377e-01 -2.02457091063825755928e-01 -4.67549797952035006005e-04 -4.36180580230850160200e-03 -4.67549797952035006005e-04 -4.36180580230850160200e-03 9.99989926944959695021e-01 -9.39722573167578543313e-05
9.89557337385152339935e+08 9.78204992462363698280e-01 -2.02886668501555955668e-01 -4.69559203085899478161e-04 -4.37106076764751105834e-03 -4.69559203085899478161e-04 -4.37106076764751105834e-03 9.99989883653638500505e-01 -9.41716495005718998634e-05
9.89579891732052683830e+08 9.78111126081293247303e-01 -2.03318040913229497457e-01 -4.71581492961959931973e-04 -4.38035440452783347148e-03 -4.71581492961959931973e-04 -4.38035440452783347148e-03 9.99989840084723802249e-01 -9.43718748374871695822e-05
9.89602446078953027725e+08 9.78016656544241302917e-01 -2.03751219427429408615e-01 -4.73616777439717963078e-04 -4.38968695270752079507e-03 -4.73616777439717963078e-04 -4.38968695270752079507e-03 9.99989796235849048855e-01 -9.45729384929342874102e-05
9.89625000425853371620e+08 9.77921578697759974474e-01 -2.04186215263615689075e-01 -4.75665167546848581016e-04 -4.39905865390251196029e-03 -4.75665167546848581016e-04 -4.39905865390251196029e-03 9.99989752104621931750e-01 -9.47748456745253048915e-05
9.89647554772753596306e+08 9.77825887333487631103e-01 -2.04623039733044964628e-01 -4.77726775494096225511e-04 -4.40846975180644428532e-03 -4.77726775494096225511e-04 -4.40846975180644428532e-03 9.99989707688625162341e-01 -9.49776016324804838245e-05
9.89670109119653940201e+08 9.77729577187447906894e-01 -2.05061704239702130570e-01 -4.79801714690395646277e-04 -4.41792049211072335863e-03 -4.79801714690395646277e-04 -4.41792049211072335863e-03 9.99989662985415361796e-01 -9.51812116600607031934e-05
9.89692663466554284096e+08 9.77632642939341156563e-01 -2.05502220281223946241e-01 -4.81890099758128741779e-04 -4.42741112252442465397e-03 -4.81890099758128741779e-04 -4.42741112252442465397e-03 9.99989617992522950018e-01 -9.53856810939962069173e-05
9.89715217813454627991e+08 9.77535079211819701861e-01 -2.05944599449861903695e-01 -4.83992046548740865227e-04 -4.43694189279503561907e-03 -4.83992046548740865227e-04 -4.43694189279503561907e-03 9.99989572707452145650e-01 -9.55910153149334984330e-05
9.89737772160354971886e+08 9.77436880569758637094e-01 -2.06388853433425611961e-01 -4.86107672158443324638e-04 -4.44651305472878056319e-03 -4.86107672158443324638e-04 -4.44651305472878056319e-03 9.99989527127680077889e-01 -9.57972197478732092951e-05
9.89760326507255196571e+08 9.77338041519510314359e-01 -2.06834994016267065264e-01 -4.88237094944292101054e-04 -4.45612486221182765161e-03 -4.88237094944292101054e-04 -4.45612486221182765161e-03 9.99989481250656897515e-01 -9.60042998626270632865e-05
9.89782880854155540466e+08 9.77238556508149502910e-01 -2.07283033080261330783e-01 -4.90380434540432287062e-04 -4.46577757123141350082e-03 -4.90380434540432287062e-04 -4.46577757123141350082e-03 9.99989435073805110754e-01 -9.62122611742728618602e-05
9.89805435201055884361e+08 9.77138419922710999010e-01 -2.07732982605787097619e-01 -4.92537811874531610175e-04 -4.47547143989697471245e-03 -4.92537811874531610175e-04 -4.47547143989697471245e-03 9.99989388594519468256e-01 -9.64211092436098354992e-05
9.89827989547956228256e+08 9.77037626089407695851e-01 -2.08184854672754993121e-01 -4.94709349184631157204e-04 -4.48520672846229508796e-03 -4.94709349184631157204e-04 -4.48520672846229508796e-03 9.99989341810166298963e-01 -9.66308496776358146450e-05
9.89850543894856452942e+08 9.76936169272847543255e-01 -2.08638661461597041402e-01 -4.96895170036005368562e-04 -4.49498369934682798221e-03 -4.96895170036005368562e-04 -4.49498369934682798221e-03 9.99989294718083621127e-01 -9.68414881300065112906e-05
9.89873098241756796837e+08 9.76834043675224639180e-01 -2.09094415254334559107e-01 -4.99095399338596117621e-04 -4.50480261715870133887e-03 -4.99095399338596117621e-04 -4.50480261715870133887e-03 9.99989247315580254138e-01 -9.70530303015312297661e-05
9.89895652588657140732e+08 9.76731243435514429052e-01 -2.09552128435583573385e-01 -5.01310163364347585561e-04 -4.51466374871637831506e-03 -5.01310163364347585561e-04 -4.51466374871637831506e-03 9.99989199599935818519e-01 -9.72654819406394938013e-05
9.89918206935557484627e+08 9.76627762628644591203e-01 -2.10011813493629073690e-01 -5.03539589765076623686e-04 -4.52456736307180369672e-03 -5.03539589765076623686e-04 -4.52456736307180369672e-03 9.99989151568400069792e-01 -9.74788488438797659725e-05
9.89940761282457828522e+08 9.76523595264654931114e-01 -2.10473483021501345247e-01 -5.05783807590562341401e-04 -4.53451373153359021256e-03 -5.05783807590562341401e-04 -4.53451373153359021256e-03 9.99989103218192676437e-01 -9.76931368564188854333e-05
9.89963315629358053207e+08 9.76418735287852279647e-01 -2.10937149718033484236e-01 -5.08042947306757124853e-04 -4.54450312768980325961e-03 -5.08042947306757124853e-04 -4.54450312768980325961e-03 9.99989054546502997844e-01 -9.79083518725330488684e-05
9.89985869976258397102e+08 9.76313176575941632507e-01 -2.11402826388980807915e-01 -5.10317140814512217907e-04 -4.55453582743207876365e-03 -5.10317140814512217907e-04 -4.55453582743207876365e-03 9.99989005550489085117e-01 -9.81244998361273601745e-05
9.90008424323158740997e+08 9.76206912939153070852e-01 -2.11870525948109345027e-01 -5.12606521468373342587e-04 -4.56461210897906970174e-03 -5.12606521468373342587e-04 -4.56461210897906970174e-03 9.99988956227278125155e-01 -9.83415867412410280154e-05
9.90030978670059084892e+08 9.76099938119349697097e-01 -2.12340261418328457577e-01 -5.14911224095815855083e-04 -4.57473225290085452888e-03 -5.14911224095815855083e-04 -4.57473225290085452888e-03 9.99988906573965219415e-01 -9.85596186325731225602e-05
9.90053533016959428787e+08 9.75992245789124135413e-01 -2.12812045932822574423e-01 -5.17231385016700753732e-04 -4.58489654214331437965e-03 -5.17231385016700753732e-04 -4.58489654214331437965e-03 9.99988856587613494931e-01 -9.87786016060078443310e-05
9.90076087363859653473e+08 9.75883829550881376491e-01 -2.13285892736196275310e-01 -5.19567142063030143646e-04 -4.59510526205280430551e-03 -5.19567142063030143646e-04 -4.59510526205280430551e-03 9.99988806265253438177e-01 -9.89985418091460949754e-05
9.90098641710759997368e+08 9.75774682935905190995e-01 -2.13761815185647074955e-01 -5.21918634599072197439e-04 -4.60535870040142212428e-03 -5.21918634599072197439e-04 -4.60535870040142212428e-03 9.99988755603882450984e-01 -9.92194454418497467571e-05
9.90121196057660341263e+08 9.75664799403413662837e-01 -2.14239826752132905829e-01 -5.24286003541701546918e-04 -4.61565714741215757377e-03 -5.24286003541701546918e-04 -4.61565714741215757377e-03 9.99988704600464739514e-01 -9.94413187567835810121e-05
9.90143750404560685158e+08 9.75554172339597180930e-01 -2.14719941021568883066e-01 -5.26669391381127385485e-04 -4.62600089578467984358e-03 -5.26669391381127385485e-04 -4.62600089578467984358e-03 9.99988653251930315058e-01 -9.96641680599708062365e-05
9.90166304751461029053e+08 9.75442795056643330298e-01 -2.15202171696030258863e-01 -5.29068942201900644165e-04 -4.63639024072125000703e-03 -5.29068942201900644165e-04 -4.63639024072125000703e-03 9.99988601555174994040e-01 -9.98879997113513408901e-05
9.90188859098361253738e+08 9.75330660791746129057e-01 -2.15686532594972224519e-01 -5.31484801704258788199e-04 -4.64682547995300641863e-03 -5.31484801704258788199e-04 -4.64682547995300641863e-03 9.99988549507059842902e-01 -1.00112820125348119297e-04
9.90211413445261597633e+08 9.75217762706095614433e-01 -2.16173037656483491009e-01 -5.33917117225894319842e-04 -4.65730691376696568501e-03 -5.33917117225894319842e-04 -4.65730691376696568501e-03 9.99988497104410511973e-01 -1.00338635771448793214e-04
9.90233967792161941528e+08 9.75104093883861433589e-01 -2.16661700938513834824e-01 -5.36366037763858698011e-04 -4.66783484503247546316e-03 -5.36366037763858698011e-04 -4.66783484503247546316e-03 9.99988444344016902399e-01 -1.00565453174775656258e-04
9.90256522139062285423e+08 9.74989647331152231580e-01 -2.17152536620150105051e-01 -5.38831713996971712992e-04 -4.67840957922870202129e-03 -5.38831713996971712992e-04 -4.67840957922870202129e-03 9.99988391222632722055e-01 -1.00793278916677808026e-04
9.90279076485962510109e+08 9.74874415974959163123e-01 -2.17645559002908717261e-01 -5.41314298308588322597e-04 -4.68903142447247515273e-03 -5.41314298308588322597e-04 -4.68903142447247515273e-03 9.99988337736975152481e-01 -1.01022119635331165130e-04
9.90301630832862854004e+08 9.74758392662086081693e-01 -2.18140782512029951512e-01 -5.43813944809650199816e-04 -4.69970069154617645785e-03 -5.43813944809650199816e-04 -4.69970069154617645785e-03 9.99988283883723738654e-01 -1.01251982026339136305e-04
9.90324185179763197899e+08 9.74641570158064185492e-01 -2.18638221697781104380e-01 -5.46330809362063625316e-04 -4.71041769392581150672e-03 -5.46330809362063625316e-04 -4.71041769392581150672e-03 9.99988229659520722059e-01 -1.01482872843337539460e-04
9.90346739526663541794e+08 9.74523941146043570782e-01 -2.19137891236801746198e-01 -5.48865049602576763471e-04 -4.72118274780999446633e-03 -5.48865049602576763471e-04 -4.72118274780999446633e-03 9.99988175060969930463e-01 -1.01714798898618993708e-04
9.90369293873563885689e+08 9.74405498225671573564e-01 -2.19639805933450282804e-01 -5.51416824966956937125e-04 -4.73199617214895874862e-03 -5.51416824966956937125e-04 -4.73199617214895874862e-03 9.99988120084636222806e-01 -1.01947767063758002576e-04
9.90391848220464110374e+08 9.74286233911953902798e-01 -2.20143980721161369729e-01 -5.53986296714518750180e-04 -4.74285828867380097884e-03 -5.53986296714518750180e-04 -4.74285828867380097884e-03 9.99988064727045600222e-01 -1.02181784270240889022e-04
9.90414402567364454269e+08 9.74166140634092125872e-01 -2.20650430663844987489e-01 -5.56573627953169483042e-04 -4.75376942192662355069e-03 -5.56573627953169483042e-04 -4.75376942192662355069e-03 9.99988008984683762748e-01 -1.02416857510115300294e-04
9.90436956914264798164e+08 9.74045210734311384115e-01 -2.21159170957266837387e-01 -5.59178983664666124330e-04 -4.76472989929027385819e-03 -5.59178983664666124330e-04 -4.76472989929027385819e-03 9.99987952853996553415e-01 -1.02652993836630876553e-04
9.90459511261165142059e+08 9.73923436466662462152e-01 -2.21670216930475533212e-01 -5.61802530730426863577e-04 -4.77574005101909313670e-03 -5.61802530730426863577e-04 -4.77574005101909313670e-03 9.99987896331388514959e-01 -1.02890200364901698393e-04
9.90482065608065485954e+08 9.73800809995807648001e-01 -2.22183584047234122805e-01 -5.64444437957685517075e-04 -4.78680021026975637682e-03 -5.64444437957685517075e-04 -4.78680021026975637682e-03 9.99987839413222667773e-01 -1.03128484272570767255e-04
