! File generated for n1 = 11, n2 = 3
! b1 = 0.046416
! b2 = 0.010000
! Q0 = 10000.000000
! f0 = 1000000000.000000
! n = 1001
! rel_span = 10.000000
# Hz S RI R 50
9.99471792055831909180e+08 9.99130412782721855081e-01 -8.69817000089507554039e-03 -4.03626631757084445521e-04 -4.03733287490202347181e-03 -4.03626631757084445521e-04 -4.03733287490202347181e-03 9.99812653113308802411e-01 -1.87396391897230122497e-03
9.99472848471720218658e+08 9.99126957718815544851e-01 -8.71525970308479475124e-03 -4.05230330361769429219e-04 -4.04526521198738091972e-03 -4.05230330361769429219e-04 -4.04526521198738091972e-03 9.99811908742355148760e-01 -1.87764578369628565291e-03
9.99473904887608528137e+08 9.99123482095430781591e-01 -8.73241597458188252567e-03 -4.06843571830993195465e-04 -4.05322844780811163828e-03 -4.06843571830993195465e-04 -4.05322844780811163828e-03 9.99811159941996208111e-01 -1.88134199034277862020e-03
9.99474961303496956825e+08 9.99119985749688077625e-01 -8.74963920083243230919e-03 -4.08466431766788733247e-04 -4.06122276127244500460e-03 -4.08466431766788733247e-04 -4.06122276127244500460e-03 9.99810406677140606213e-01 -1.88505262195362371068e-03
9.99476017719385266304e+08 9.99116468517099343138e-01 -8.76692977021776252700e-03 -4.10098986517706733806e-04 -4.06924833265102058044e-03 -4.10098986517706733806e-04 -4.06924833265102058044e-03 9.99809648912350357186e-01 -1.88877776220303951991e-03
9.99477074135273575783e+08 9.99112930231544460469e-01 -8.78428807410575572534e-03 -4.11741313189888872692e-04 -4.07730534360071800865e-03 -4.11741313189888872692e-04 -4.07730534360071800865e-03 9.99808886611836089564e-01 -1.89251749540868068576e-03
9.99478130551161885262e+08 9.99109370725256518142e-01 -8.80171450685542609838e-03 -4.13393489653819841412e-04 -4.08539397716677511047e-03 -4.13393489653819841412e-04 -4.08539397716677511047e-03 9.99808119739453493580e-01 -1.89627190653262039238e-03
9.99479186967050313950e+08 9.99105789828798163121e-01 -8.81920946586540674406e-03 -4.15055594555323759554e-04 -4.09351441780529852477e-03 -4.15055594555323759554e-04 -4.09351441780529852477e-03 9.99807348258698325161e-01 -1.90004108119179904342e-03
9.99480243382938623428e+08 9.99102187371045613595e-01 -8.83677335158534853210e-03 -4.16727707323145946366e-04 -4.10166685138855201254e-03 -4.16727707323145946366e-04 -4.10166685138855201254e-03 9.99806572132703186284e-01 -1.90382510566047889571e-03
9.99481299798826932907e+08 9.99098563179165011228e-01 -8.85440656755784837040e-03 -4.18409908179525030347e-04 -4.10985146522441571748e-03 -4.18409908179525030347e-04 -4.10985146522441571748e-03 9.99805791324232084882e-01 -1.90762406687927676442e-03
9.99482356214715242386e+08 9.99094917078593991455e-01 -8.87210952044238665426e-03 -4.20102278149158325435e-04 -4.11806844806750053933e-03 -4.20102278149158325435e-04 -4.11806844806750053933e-03 9.99805005795676771108e-01 -1.91143805246032178966e-03
9.99483412630603551865e+08 9.99091248893020589250e-01 -8.88988262004599370802e-03 -4.21804899068906904123e-04 -4.12631799013337893789e-03 -4.21804899068906904123e-04 -4.12631799013337893789e-03 9.99804215509051852351e-01 -1.91526715069386191392e-03
9.99484469046491980553e+08 9.99087558444361034660e-01 -8.90772627935616442829e-03 -4.23517853597818504444e-04 -4.13460028311386784683e-03 -4.23517853597818504444e-04 -4.13460028311386784683e-03 9.99803420425990463372e-01 -1.91911145055535629911e-03
9.99485525462380290031e+08 9.99083845552741212082e-01 -8.92564091456193517415e-03 -4.25241225226118384900e-04 -4.14291552018680297315e-03 -4.25241225226118384900e-04 -4.14291552018680297315e-03 9.99802620507739825406e-01 -1.92297104171001401358e-03
9.99486581878268599510e+08 9.99080110036472346380e-01 -8.94362694509493079409e-03 -4.26975098286220698576e-04 -4.15126389603509993870e-03 -4.26975098286220698576e-04 -4.15126389603509993870e-03 9.99801815715156361186e-01 -1.92684601452164003775e-03
9.99487638294156908989e+08 9.99076351712030019669e-01 -8.96168479365869359576e-03 -4.28719557962726300834e-04 -4.15964560686036318587e-03 -4.28719557962726300834e-04 -4.15964560686036318587e-03 9.99801006008700920979e-01 -1.93073646005895139220e-03
9.99488694710045337677e+08 9.99072570394031411745e-01 -8.97981488625827252437e-03 -4.30474690302552558639e-04 -4.16806085039662065073e-03 -4.30474690302552558639e-04 -4.16806085039662065073e-03 9.99800191348433897609e-01 -1.93464247010195376439e-03
9.99489751125933647156e+08 9.99068765895215205042e-01 -8.99801765222633595509e-03 -4.32240582224833309009e-04 -4.17650982592244340852e-03 -4.32240582224833309009e-04 -4.17650982592244340852e-03 9.99799371694011118628e-01 -1.93856413714756656633e-03
9.99490807541821956635e+08 9.99064938026415161332e-01 -9.01629352426777490315e-03 -4.34017321532723706484e-04 -4.18499273428165046579e-03 -4.34017321532723706484e-04 -4.18499273428165046579e-03 9.99798547004677962136e-01 -1.94250155441923221845e-03
9.99491863957710266113e+08 9.99061086596539804638e-01 -9.03464293848080420013e-03 -4.35804996923042954615e-04 -4.19350977789310387644e-03 -4.35804996923042954615e-04 -4.19350977789310387644e-03 9.99797717239264915889e-01 -1.94645481587146372722e-03
9.99492920373598575592e+08 9.99057211412547219176e-01 -9.05306633439662347684e-03 -4.37603697997831521654e-04 -4.20206116076911329049e-03 -4.37603697997831521654e-04 -4.20206116076911329049e-03 9.99796882356182581297e-01 -1.95042401619838689716e-03
9.99493976789487004280e+08 9.99053312279421179554e-01 -9.07156415501569717008e-03 -4.39413515275704526231e-04 -4.21064708853227925162e-03 -4.39413515275704526231e-04 -4.21064708853227925162e-03 9.99796042313415789238e-01 -1.95440925084155872962e-03
9.99495033205375313759e+08 9.99049389000149501427e-01 -9.09013684682591534270e-03 -4.41234540201550305260e-04 -4.21926776842392395328e-03 -4.41234540201550305260e-04 -4.21926776842392395328e-03 9.99795197068519603256e-01 -1.95841061599387944100e-03
9.99496089621263623238e+08 9.99045441375696618991e-01 -9.10878485985316781182e-03 -4.43066865159518668074e-04 -4.22792340932756031263e-03 -4.43066865159518668074e-04 -4.22792340932756031263e-03 9.99794346578613213339e-01 -1.96242820861048739359e-03
9.99497146037151932716e+08 9.99041469204978938023e-01 -9.12750864769398297105e-03 -4.44910583484386858849e-04 -4.23661422178404651478e-03 -4.44910583484386858849e-04 -4.23661422178404651478e-03 9.99793490800374273775e-01 -1.96646212641579231500e-03
9.99498202453040361404e+08 9.99037472284841410186e-01 -9.14630866754060495305e-03 -4.46765789472301018577e-04 -4.24534041800322427263e-03 -4.46765789472301018577e-04 -4.24534041800322427263e-03 9.99792629690034462264e-01 -1.97051246790887766083e-03
9.99499258868928670883e+08 9.99033450410030332556e-01 -9.16518538022608429683e-03 -4.48632578393615524034e-04 -4.25410221188484826554e-03 -4.48632578393615524034e-04 -4.25410221188484826554e-03 9.99791763203373373692e-01 -1.97457933237321333134e-03
9.99500315284816980362e+08 9.99029403373169477831e-01 -9.18413925024911224904e-03 -4.50511046503865005344e-04 -4.26289981903011164222e-03 -4.50511046503865005344e-04 -4.26289981903011164222e-03 9.99790891295712857989e-01 -1.97866281988201032915e-03
9.99501371700705289841e+08 9.99025330964730007288e-01 -9.20317074582800188909e-03 -4.52401291057752017680e-04 -4.27173345676670410120e-03 -4.52401291057752017680e-04 -4.27173345676670410120e-03 9.99790013921911469019e-01 -1.98276303130984514131e-03
9.99502428116593599319e+08 9.99021232973007933253e-01 -9.22228033891634053909e-03 -4.54303410319474066954e-04 -4.28060334415607604552e-03 -4.54303410319474066954e-04 -4.28060334415607604552e-03 9.99789131036358913462e-01 -1.98688006833603594478e-03
9.99503484532482028008e+08 9.99017109184093587970e-01 -9.24146850525893286121e-03 -4.56217503577182801038e-04 -4.28950970201940392362e-03 -4.56217503577182801038e-04 -4.28950970201940392362e-03 9.99788242592969722544e-01 -1.99101403345669416417e-03
9.99504540948370337486e+08 9.99012959381847864826e-01 -9.26073572440908564241e-03 -4.58143671153739295322e-04 -4.29845275294561592755e-03 -4.58143671153739295322e-04 -4.29845275294561592755e-03 9.99787348545178256032e-01 -1.99516502998844805564e-03
9.99505597364258646965e+08 9.99008783347870243929e-01 -9.28008247978659266131e-03 -4.60082014421665580137e-04 -4.30743272131830362559e-03 -4.60082014421665580137e-04 -4.30743272131830362559e-03 9.99786448845931485785e-01 -1.99933316208093445066e-03
9.99506653780146956444e+08 9.99004580861473368003e-01 -9.29950925870287950503e-03 -4.62032635814965371782e-04 -4.31644983332739404919e-03 -4.62032635814965371782e-04 -4.31644983332739404919e-03 9.99785543447683666685e-01 -2.00351853472221716479e-03
9.99507710196035385132e+08 9.99000351699652622273e-01 -9.31901655240787059331e-03 -4.63995638843263261478e-04 -4.32550431699090225796e-03 -4.63995638843263261478e-04 -4.32550431699090225796e-03 9.99784632302390008363e-01 -2.00772125374888438937e-03
9.99508766611923694611e+08 9.98996095637058822980e-01 -9.33860485611892783553e-03 -4.65971128104292013888e-04 -4.33459640216836850773e-03 -4.65971128104292013888e-04 -4.33459640216836850773e-03 9.99783715361500568974e-01 -2.01194142585228285397e-03
9.99509823027812004089e+08 9.98991812445967131140e-01 -9.35827466907071872648e-03 -4.67959209298634897737e-04 -4.34372632058399685967e-03 -4.67959209298634897737e-04 -4.34372632058399685967e-03 9.99782792575953371816e-01 -2.01617915858926010156e-03
9.99510879443700313568e+08 9.98987501896247631628e-01 -9.37802649455019531055e-03 -4.69959989243127617287e-04 -4.35289430584289739612e-03 -4.69959989243127617287e-04 -4.35289430584289739612e-03 9.99781863896168410122e-01 -2.02043456038970403038e-03
9.99511935859588623047e+08 9.98983163755334802048e-01 -9.39786083993820499372e-03 -4.71973575885081581167e-04 -4.36210059345039802975e-03 -4.71973575885081581167e-04 -4.36210059345039802975e-03 9.99780929272041096745e-01 -2.02470774056550447545e-03
9.99512992275477051735e+08 9.98978797788196648533e-01 -9.41777821675158360870e-03 -4.74000078316717723265e-04 -4.37134542083158095932e-03 -4.74000078316717723265e-04 -4.37134542083158095932e-03 9.99779988652935380777e-01 -2.02899880931962234287e-03
9.99514048691365361214e+08 9.98974403757304063589e-01 -9.43777914068049880725e-03 -4.76039606789279074513e-04 -4.38062902734862123083e-03 -4.76039606789279074513e-04 -4.38062902734862123083e-03 9.99779041987676975189e-01 -2.03330787775413699206e-03
9.99515105107253670692e+08 9.98969981422597741449e-01 -9.45786413163678812976e-03 -4.78092272728425945853e-04 -4.38995165432321324261e-03 -4.78092272728425945853e-04 -4.38995165432321324261e-03 9.99778089224546695490e-01 -2.03763505788065761234e-03
9.99516161523141980171e+08 9.98965530541456536717e-01 -9.47803371379334069768e-03 -4.80158188748889679532e-04 -4.39931354505486253703e-03 -4.80158188748889679532e-04 -4.39931354505486253703e-03 9.99777130311273576346e-01 -2.04198046262880992391e-03
9.99517217939030408859e+08 9.98961050868664934832e-01 -9.49828841562715478486e-03 -4.82237468669669910957e-04 -4.40871494484086114130e-03 -4.82237468669669910957e-04 -4.40871494484086114130e-03 9.99776165195027322063e-01 -2.04634420585551174421e-03
9.99518274354918718338e+08 9.98956542156380411512e-01 -9.51862876995859634455e-03 -4.84330227529014068540e-04 -4.41815610099451517440e-03 -4.84330227529014068540e-04 -4.41815610099451517440e-03 9.99775193822411978317e-01 -2.05072640235343149964e-03
9.99519330770807027817e+08 9.98952004154098460731e-01 -9.53905531400399062103e-03 -4.86436581600942024271e-04 -4.42763726286955587585e-03 -4.86436581600942024271e-04 -4.42763726286955587585e-03 9.99774216139458049568e-01 -2.05512716786231813826e-03
9.99520387186695337296e+08 9.98947436608618066778e-01 -9.55956858941707163235e-03 -4.88556648410811171154e-04 -4.43715868187937421963e-03 -4.88556648410811171154e-04 -4.43715868187937421963e-03 9.99773232091614949546e-01 -2.05954661907793018516e-03
9.99521443602583765984e+08 9.98942839264008952682e-01 -9.58016914232978286647e-03 -4.90690546750990191915e-04 -4.44672061151596235973e-03 -4.90690546750990191915e-04 -4.44672061151596235973e-03 9.99772241623744117867e-01 -2.06398487366082818845e-03
9.99522500018472075462e+08 9.98938211861574831829e-01 -9.60085752340225639934e-03 -4.92838396697669071586e-04 -4.45632330737311468938e-03 -4.92838396697669071586e-04 -4.45632330737311468938e-03 9.99771244680111248471e-01 -2.06844205024714171415e-03
9.99523556434360384941e+08 9.98933554139818213891e-01 -9.62163428786686446281e-03 -4.95000319627242422321e-04 -4.46596702716686722034e-03 -4.95000319627242422321e-04 -4.46596702716686722034e-03 9.99770241204378296018e-01 -2.07291826845805915100e-03
9.99524612850248694420e+08 9.98928865834403434398e-01 -9.64249999557717160648e-03 -4.97176438233396726478e-04 -4.47565203075822592993e-03 -4.97176438233396726478e-04 -4.47565203075822592993e-03 9.99769231139596037394e-01 -2.07741364891037396181e-03
9.99525669266137003899e+08 9.98924146678120794540e-01 -9.66345521105309301912e-03 -4.99366876543998737016e-04 -4.48537858017412482264e-03 -4.99366876543998737016e-04 -4.48537858017412482264e-03 9.99768214428195745036e-01 -2.08192831322621604850e-03
9.99526725682025432587e+08 9.98919396400845926998e-01 -9.68450050353875796505e-03 -5.01571759939510000877e-04 -4.49514693963428291906e-03 -5.01571759939510000877e-04 -4.49514693963428291906e-03 9.99767191011980971282e-01 -2.08646238404551443921e-03
9.99527782097913742065e+08 9.98914614729508598678e-01 -9.70563644702672652376e-03 -5.03791215168083181611e-04 -4.50495737556244526395e-03 -5.03791215168083181611e-04 -4.50495737556244526395e-03 9.99766160832120331925e-01 -2.09101598503121750491e-03
9.99528838513802051544e+08 9.98909801388047302595e-01 -9.72686362033129206517e-03 -5.06025370366001655577e-04 -4.51481015662040952724e-03 -5.06025370366001655577e-04 -4.51481015662040952724e-03 9.99765123829138402378e-01 -2.09558924088508544831e-03
9.99529894929690361023e+08 9.98904956097372731527e-01 -9.74818260713053615085e-03 -5.08274355075060356966e-04 -4.52470555372753990842e-03 -5.08274355075060356966e-04 -4.52470555372753990842e-03 9.99764079942907168963e-01 -2.10018227735674772871e-03
9.99530951345578789711e+08 9.98900078575328254082e-01 -9.76959399601434221039e-03 -5.10538300260783410069e-04 -4.53464384008306093526e-03 -5.10538300260783410069e-04 -4.53464384008306093526e-03 9.99763029112637813256e-01 -2.10479522125405112132e-03
9.99532007761467099190e+08 9.98895168536650057689e-01 -9.79109838053302504457e-03 -5.12817338330919425711e-04 -4.54462529118862448158e-03 -5.12817338330919425711e-04 -4.54462529118862448158e-03 9.99761971276872052350e-01 -2.10942820045353441119e-03
9.99533064177355408669e+08 9.98890225692925071144e-01 -9.81269635925331382142e-03 -5.15111603154935022639e-04 -4.55465018487429419008e-03 -5.15111603154935022639e-04 -4.55465018487429419008e-03 9.99760906373473146047e-01 -2.11408134391249035930e-03
9.99534120593243718147e+08 9.98885249752549442270e-01 -9.83438853581052041530e-03 -5.17421230083335201809e-04 -4.56471880132276307956e-03 -5.17421230083335201809e-04 -4.56471880132276307956e-03 9.99759834339617126098e-01 -2.11875478168020497591e-03
9.99535177009132027626e+08 9.98880240420685683311e-01 -9.85617551896479301976e-03 -5.19746355967648011355e-04 -4.57483142309546113313e-03 -5.19746355967648011355e-04 -4.57483142309546113313e-03 9.99758755111782915215e-01 -2.12344864491007543142e-03
9.99536233425020456314e+08 9.98875197399221703698e-01 -9.87805792264312074180e-03 -5.22087119179122046732e-04 -4.58498833515205532485e-03 -5.22087119179122046732e-04 -4.58498833515205532485e-03 9.99757668625744555513e-01 -2.12816306586866227715e-03
9.99537289840908765793e+08 9.98870120386726512152e-01 -9.90003636600021372227e-03 -5.24443659629669116720e-04 -4.59518982487870219361e-03 -5.24443659629669116720e-04 -4.59518982487870219361e-03 9.99756574816560439345e-01 -2.13289817794880482218e-03
9.99538346256797075272e+08 9.98865009078404586518e-01 -9.92211147347790700657e-03 -5.26816118792900692919e-04 -4.60543618211562821169e-03 -5.26816118792900692919e-04 -4.60543618211562821169e-03 9.99755473618564316496e-01 -2.13765411568241688739e-03
9.99539402672685384750e+08 9.98859863166052242001e-01 -9.94428387485368422971e-03 -5.29204639724243763171e-04 -4.61572769917964736280e-03 -5.29204639724243763171e-04 -4.61572769917964736280e-03 9.99754364965355968309e-01 -2.14243101475094545327e-03
9.99540459088573813438e+08 9.98854682338011556908e-01 -9.96655420530024975523e-03 -5.31609367082489241325e-04 -4.62606467089181176700e-03 -5.31609367082489241325e-04 -4.62606467089181176700e-03 9.99753248789790549544e-01 -2.14722901199820110849e-03
9.99541515504462122917e+08 9.98849466279125075552e-01 -9.98892310543766058506e-03 -5.34030447150795890658e-04 -4.63644739460161194045e-03 -5.34030447150795890658e-04 -4.63644739460161194045e-03 9.99752125023969595574e-01 -2.15204824544159081801e-03
9.99542571920350432396e+08 9.98844214670686958435e-01 -1.00113912213978459298e-02 -5.36468027859291493945e-04 -4.64687617021692332686e-03 -5.36468027859291493945e-04 -4.64687617021692332686e-03 9.99750993599229809128e-01 -2.15688885428601869604e-03
9.99543628336238741875e+08 9.98838927190396352884e-01 -1.00339592048781546529e-02 -5.38922258806754403242e-04 -4.65735130022885968071e-03 -5.38922258806754403242e-04 -4.65735130022885968071e-03 9.99749854446133734420e-01 -2.16175097893542321817e-03
9.99544684752127051353e+08 9.98833603512309320394e-01 -1.00566277131990868682e-02 -5.41393291283010879948e-04 -4.66787308973856934075e-03 -5.41393291283010879948e-04 -4.66787308973856934075e-03 9.99748707494458765943e-01 -2.16663476100521258660e-03
9.99545741168015480042e+08 9.98828243306786101030e-01 -1.00793974093771002837e-02 -5.43881278293257869501e-04 -4.67844184649103111279e-03 -5.43881278293257869501e-04 -4.67844184649103111279e-03 9.99747552673186268279e-01 -2.17154034333795226824e-03
9.99546797583903789520e+08 9.98822846240448258825e-01 -1.01022689621551812339e-02 -5.46386374578050593685e-04 -4.68905788088924430773e-03 -5.46386374578050593685e-04 -4.68905788088924430773e-03 9.99746389910492028186e-01 -2.17646787000995173972e-03
9.99547853999792098999e+08 9.98817411976119395867e-01 -1.01252430460998712330e-02 -5.48908736640831636418e-04 -4.69972150603925956092e-03 -5.48908736640831636418e-04 -4.69972150603925956092e-03 9.99745219133733487027e-01 -2.18141748635216617055e-03
9.99548910415680408478e+08 9.98811940172778411906e-01 -1.01483203416417155224e-02 -5.51448522769574112773e-04 -4.71043303776896068319e-03 -5.51448522769574112773e-04 -4.71043303776896068319e-03 9.99744040269440081836e-01 -2.18638933895891297496e-03
9.99549966831568837166e+08 9.98806430485506435701e-01 -1.01715015351403290783e-02 -5.54005893061401406656e-04 -4.72119279465825925773e-03 -5.54005893061401406656e-04 -4.72119279465825925773e-03 9.99742853243301032862e-01 -2.19138357570188837750e-03
9.99551023247457146645e+08 9.98800882565433423288e-01 -1.01947873189490723078e-02 -5.56581009447469285401e-04 -4.73200109806911749927e-03 -5.56581009447469285401e-04 -4.73200109806911749927e-03 9.99741657980154796448e-01 -2.19640034574410244680e-03
9.99552079663345456123e+08 9.98795296059682646828e-01 -1.02181783914842439637e-02 -5.59174035718655744985e-04 -4.74285827217766492447e-03 -5.59174035718655744985e-04 -4.74285827217766492447e-03 9.99740454403976186448e-01 -2.20143979955478470700e-03
9.99553136079233765602e+08 9.98789670611316737769e-01 -1.02416754572853454380e-02 -5.61785137550576589918e-04 -4.75376464400217076806e-03 -5.61785137550576589918e-04 -4.75376464400217076806e-03 9.99739242437865605062e-01 -2.20650208892237027769e-03
9.99554192495122075081e+08 9.98784005859281065476e-01 -1.02652792270847125627e-02 -5.64414482529954747957e-04 -4.76472054343536101373e-03 -5.64414482529954747957e-04 -4.76472054343536101373e-03 9.99738022004035942203e-01 -2.21158736696949872677e-03
