! File generated for n1 = 7, n2 = 1
! b1 = 1.000000
! b2 = 1.000000
! Q0 = 10000.000000
! f0 = 1000000000.000000
! n = 1001
! rel_span = 10.000000
# Hz S RI R 50
9.98500000000000000000e+08 9.93409146716295432533e-01 -6.59580384951602982646e-02 -6.59085328370455011959e-03 -6.59580384951602982646e-02 -6.59085328370455011959e-03 -6.59580384951602982646e-02 9.93409146716295432533e-01 -6.59580384951602982646e-02
9.98503000000000000000e+08 9.93382946761630525323e-01 -6.60876950121597750432e-02 -6.61705323836949722838e-03 -6.60876950121597750432e-02 -6.61705323836949722838e-03 -6.60876950121597750432e-02 9.93382946761630525323e-01 -6.60876950121597750432e-02
9.98506000000000000000e+08 9.93356590876580569649e-01 -6.62178565859076334599e-02 -6.64340912341944596353e-03 -6.62178565859076334599e-02 -6.64340912341944596353e-03 -6.62178565859076334599e-02 9.93356590876580569649e-01 -6.62178565859076334599e-02
9.98509000000000000000e+08 9.93330077825706592165e-01 -6.63485261407600335204e-02 -6.66992217429337400786e-03 -6.63485261407600335204e-02 -6.66992217429337400786e-03 -6.63485261407600335204e-02 9.93330077825706592165e-01 -6.63485261407600335204e-02
9.98512000000000000000e+08 9.93303406361351171050e-01 -6.64797066234350253477e-02 -6.69659363864877430622e-03 -6.64797066234350253477e-02 -6.69659363864877430622e-03 -6.64797066234350253477e-02 9.93303406361351171050e-01 -6.64797066234350253477e-02
9.98515000000000000000e+08 9.93276575223494107014e-01 -6.66114010032213404999e-02 -6.72342477650593722122e-03 -6.66114010032213404999e-02 -6.72342477650593722122e-03 -6.66114010032213404999e-02 9.93276575223494107014e-01 -6.66114010032213404999e-02
9.98518000000000000000e+08 9.93249583139610314753e-01 -6.67436122721676433622e-02 -6.75041686038972427869e-03 -6.67436122721676433622e-02 -6.75041686038972427869e-03 -6.67436122721676433622e-02 9.93249583139610314753e-01 -6.67436122721676433622e-02
9.98521000000000000000e+08 9.93222428824516723189e-01 -6.68763434453227556542e-02 -6.77757117548325946355e-03 -6.68763434453227556542e-02 -6.77757117548325946355e-03 -6.68763434453227556542e-02 9.93222428824516723189e-01 -6.68763434453227556542e-02
9.98524000000000000000e+08 9.93195110980221174124e-01 -6.70095975609539817874e-02 -6.80488901977877470167e-03 -6.70095975609539817874e-02 -6.80488901977877470167e-03 -6.70095975609539817874e-02 9.93195110980221174124e-01 -6.70095975609539817874e-02
9.98527000000000000000e+08 9.93167628295772431102e-01 -6.71433776807533466702e-02 -6.83237170422752466276e-03 -6.71433776807533466702e-02 -6.83237170422752466276e-03 -6.71433776807533466702e-02 9.93167628295772431102e-01 -6.71433776807533466702e-02
9.98530000000000000000e+08 9.93139979447104193078e-01 -6.72776868900656077610e-02 -6.86002055289578957509e-03 -6.72776868900656077610e-02 -6.86002055289578957509e-03 -6.72776868900656077610e-02 9.93139979447104193078e-01 -6.72776868900656077610e-02
9.98533000000000000000e+08 9.93112163096875888435e-01 -6.74125282981240803171e-02 -6.88783690312412804485e-03 -6.74125282981240803171e-02 -6.88783690312412804485e-03 -6.74125282981240803171e-02 9.93112163096875888435e-01 -6.74125282981240803171e-02
9.98536000000000000000e+08 9.93084177894316355584e-01 -6.75479050382639806260e-02 -6.91582210568368951908e-03 -6.75479050382639806260e-02 -6.91582210568368951908e-03 -6.75479050382639806260e-02 9.93084177894316355584e-01 -6.75479050382639806260e-02
9.98539000000000000000e+08 9.93056022475059640975e-01 -6.76838202681659117932e-02 -6.94397752494039805643e-03 -6.76838202681659117932e-02 -6.94397752494039805643e-03 -6.76838202681659117932e-02 9.93056022475059640975e-01 -6.76838202681659117932e-02
9.98542000000000000000e+08 9.93027695460981685294e-01 -6.78202771700869844196e-02 -6.97230453901835633967e-03 -6.78202771700869844196e-02 -6.97230453901835633967e-03 -6.78202771700869844196e-02 9.93027695460981685294e-01 -6.78202771700869844196e-02
9.98545000000000000000e+08 9.92999195460036121474e-01 -6.79572789510868024987e-02 -7.00080453996390628113e-03 -6.79572789510868024987e-02 -7.00080453996390628113e-03 -6.79572789510868024987e-02 9.92999195460036121474e-01 -6.79572789510868024987e-02
9.98548000000000000000e+08 9.92970521066083744444e-01 -6.80948288432765419520e-02 -7.02947893391625121956e-03 -6.80948288432765419520e-02 -7.02947893391625121956e-03 -6.80948288432765419520e-02 9.92970521066083744444e-01 -6.80948288432765419520e-02
9.98551000000000000000e+08 9.92941670858721647797e-01 -6.82329301040605767925e-02 -7.05832914127835480550e-03 -6.82329301040605767925e-02 -7.05832914127835480550e-03 -6.82329301040605767925e-02 9.92941670858721647797e-01 -6.82329301040605767925e-02
9.98554000000000000000e+08 9.92912643403109695939e-01 -6.83715860163808947236e-02 -7.08735659689028497932e-03 -6.83715860163808947236e-02 -7.08735659689028497932e-03 -6.83715860163808947236e-02 9.92912643403109695939e-01 -6.83715860163808947236e-02
9.98557000000000000000e+08 9.92883437249797218271e-01 -6.85107998889539354659e-02 -7.11656275020279907584e-03 -6.85107998889539354659e-02 -7.11656275020279907584e-03 -6.85107998889539354659e-02 9.92883437249797218271e-01 -6.85107998889539354659e-02
9.98560000000000000000e+08 9.92854050934543375107e-01 -6.86505750565257477636e-02 -7.14594906545666565950e-03 -6.86505750565257477636e-02 -7.14594906545666565950e-03 -6.86505750565257477636e-02 9.92854050934543375107e-01 -6.86505750565257477636e-02
9.98563000000000000000e+08 9.92824482978132194511e-01 -6.87909148801455205824e-02 -7.17551702186781069359e-03 -6.87909148801455205824e-02 -7.17551702186781069359e-03 -6.87909148801455205824e-02 9.92824482978132194511e-01 -6.87909148801455205824e-02
9.98566000000000000000e+08 9.92794731886197490134e-01 -6.89318227473825068108e-02 -7.20526811380251073352e-03 -6.89318227473825068108e-02 -7.20526811380251073352e-03 -6.89318227473825068108e-02 9.92794731886197490134e-01 -6.89318227473825068108e-02
9.98569000000000000000e+08 9.92764796149028461159e-01 -6.90733020726237989528e-02 -7.23520385097157440329e-03 -6.90733020726237989528e-02 -7.23520385097157440329e-03 -6.90733020726237989528e-02 9.92764796149028461159e-01 -6.90733020726237989528e-02
9.98572000000000000000e+08 9.92734674241388725946e-01 -6.92153562972993713354e-02 -7.26532575861126191097e-03 -6.92153562972993713354e-02 -7.26532575861126191097e-03 -6.92153562972993713354e-02 9.92734674241388725946e-01 -6.92153562972993713354e-02
9.98575000000000000000e+08 9.92704364622318702338e-01 -6.93579888901782598554e-02 -7.29563537768124908967e-03 -6.93579888901782598554e-02 -7.29563537768124908967e-03 -6.93579888901782598554e-02 9.92704364622318702338e-01 -6.93579888901782598554e-02
9.98578000000000000000e+08 9.92673865734944649297e-01 -6.95012033476205964844e-02 -7.32613426505539233613e-03 -6.95012033476205964844e-02 -7.32613426505539233613e-03 -6.95012033476205964844e-02 9.92673865734944649297e-01 -6.95012033476205964844e-02
9.98581000000000000000e+08 9.92643176006281380275e-01 -6.96450031938485314420e-02 -7.35682399371859110232e-03 -6.96450031938485314420e-02 -7.35682399371859110232e-03 -6.96450031938485314420e-02 9.92643176006281380275e-01 -6.96450031938485314420e-02
9.98584000000000000000e+08 9.92612293847033533289e-01 -6.97893919812201252162e-02 -7.38770615296645803693e-03 -6.97893919812201252162e-02 -7.38770615296645803693e-03 -6.97893919812201252162e-02 9.92612293847033533289e-01 -6.97893919812201252162e-02
9.98587000000000000000e+08 9.92581217651389846601e-01 -6.99343732905172571490e-02 -7.41878234861019850155e-03 -6.99343732905172571490e-02 -7.41878234861019850155e-03 -6.99343732905172571490e-02 9.92581217651389846601e-01 -6.99343732905172571490e-02
9.98590000000000000000e+08 9.92549945796820098920e-01 -7.00799507312154790206e-02 -7.45005420317986118139e-03 -7.00799507312154790206e-02 -7.45005420317986118139e-03 -7.00799507312154790206e-02 9.92549945796820098920e-01 -7.00799507312154790206e-02
9.98593000000000000000e+08 9.92518476643867719744e-01 -7.02261279417649153523e-02 -7.48152335613223081617e-03 -7.02261279417649153523e-02 -7.48152335613223081617e-03 -7.02261279417649153523e-02 9.92518476643867719744e-01 -7.02261279417649153523e-02
9.98596000000000000000e+08 9.92486808535934739162e-01 -7.03729085898907591456e-02 -7.51319146406523655224e-03 -7.03729085898907591456e-02 -7.51319146406523655224e-03 -7.03729085898907591456e-02 9.92486808535934739162e-01 -7.03729085898907591456e-02
9.98599000000000000000e+08 9.92454939799072066720e-01 -7.05202963728620429995e-02 -7.54506020092788991238e-03 -7.05202963728620429995e-02 -7.54506020092788991238e-03 -7.05202963728620429995e-02 9.92454939799072066720e-01 -7.05202963728620429995e-02
9.98602000000000000000e+08 9.92422868741753783084e-01 -7.06682950178234570160e-02 -7.57713125824623686538e-03 -7.06682950178234570160e-02 -7.57713125824623686538e-03 -7.06682950178234570160e-02 9.92422868741753783084e-01 -7.06682950178234570160e-02
9.98605000000000000000e+08 9.92390593654667529933e-01 -7.08169082820380296761e-02 -7.60940634533246052645e-03 -7.08169082820380296761e-02 -7.60940634533246052645e-03 -7.08169082820380296761e-02 9.92390593654667529933e-01 -7.08169082820380296761e-02
9.98608000000000000000e+08 9.92358112810477921428e-01 -7.09661399532480752228e-02 -7.64188718952206209184e-03 -7.09661399532480752228e-02 -7.64188718952206209184e-03 -7.09661399532480752228e-02 9.92358112810477921428e-01 -7.09661399532480752228e-02
9.98611000000000000000e+08 9.92325424463611827086e-01 -7.11159938499189708816e-02 -7.67457553638816337288e-03 -7.11159938499189708816e-02 -7.67457553638816337288e-03 -7.11159938499189708816e-02 9.92325424463611827086e-01 -7.11159938499189708816e-02
9.98614000000000000000e+08 9.92292526850015677020e-01 -7.12664738216022414230e-02 -7.70747314998427007077e-03 -7.12664738216022414230e-02 -7.70747314998427007077e-03 -7.12664738216022414230e-02 9.92292526850015677020e-01 -7.12664738216022414230e-02
9.98617000000000000000e+08 9.92259418186929975647e-01 -7.14175837492082160596e-02 -7.74058181307000093413e-03 -7.14175837492082160596e-02 -7.74058181307000093413e-03 -7.14175837492082160596e-02 9.92259418186929975647e-01 -7.14175837492082160596e-02
9.98620000000000000000e+08 9.92226096672647051022e-01 -7.15693275453407468101e-02 -7.77390332735294811023e-03 -7.15693275453407468101e-02 -7.77390332735294811023e-03 -7.15693275453407468101e-02 9.92226096672647051022e-01 -7.15693275453407468101e-02
9.98623000000000000000e+08 9.92192560486270802578e-01 -7.17217091546133167501e-02 -7.80743951372922777993e-03 -7.17217091546133167501e-02 -7.80743951372922777993e-03 -7.17217091546133167501e-02 9.92192560486270802578e-01 -7.17217091546133167501e-02
9.98626000000000000000e+08 9.92158807787475560680e-01 -7.18747325539549203333e-02 -7.84119221252445319781e-03 -7.18747325539549203333e-02 -7.84119221252445319781e-03 -7.18747325539549203333e-02 9.92158807787475560680e-01 -7.18747325539549203333e-02
9.98629000000000000000e+08 9.92124836716251734536e-01 -7.20284017529646269917e-02 -7.87516328374826199421e-03 -7.20284017529646269917e-02 -7.87516328374826199421e-03 -7.20284017529646269917e-02 9.92124836716251734536e-01 -7.20284017529646269917e-02
9.98632000000000000000e+08 9.92090645392657344281e-01 -7.21827207942252468964e-02 -7.90935460734265745331e-03 -7.21827207942252468964e-02 -7.90935460734265745331e-03 -7.21827207942252468964e-02 9.92090645392657344281e-01 -7.21827207942252468964e-02
9.98635000000000000000e+08 9.92056231916560893325e-01 -7.23376937536434894138e-02 -7.94376808343906677667e-03 -7.23376937536434894138e-02 -7.94376808343906677667e-03 -7.23376937536434894138e-02 9.92056231916560893325e-01 -7.23376937536434894138e-02
9.98638000000000000000e+08 9.92021594367385906033e-01 -7.24933247407708869492e-02 -7.97840563261408876328e-03 -7.24933247407708869492e-02 -7.97840563261408876328e-03 -7.24933247407708869492e-02 9.92021594367385906033e-01 -7.24933247407708869492e-02
9.98641000000000000000e+08 9.91986730803840588422e-01 -7.26496178991750674037e-02 -8.01326919615938382258e-03 -7.26496178991750674037e-02 -8.01326919615938382258e-03 -7.26496178991750674037e-02 9.91986730803840588422e-01 -7.26496178991750674037e-02
9.98644000000000000000e+08 9.91951639263654705303e-01 -7.28065774067690879567e-02 -8.04836073634530684007e-03 -7.28065774067690879567e-02 -8.04836073634530684007e-03 -7.28065774067690879567e-02 9.91951639263654705303e-01 -7.28065774067690879567e-02
9.98647000000000000000e+08 9.91916317763308352795e-01 -7.29642074761591291621e-02 -8.08368223669170098133e-03 -7.29642074761591291621e-02 -8.08368223669170098133e-03 -7.29642074761591291621e-02 9.91916317763308352795e-01 -7.29642074761591291621e-02
9.98650000000000000000e+08 9.91880764297751960079e-01 -7.31225123550199029854e-02 -8.11923570224804685980e-03 -7.31225123550199029854e-02 -8.11923570224804685980e-03 -7.31225123550199029854e-02 9.91880764297751960079e-01 -7.31225123550199029854e-02
9.98653000000000000000e+08 9.91844976840134728846e-01 -7.32814963264187685388e-02 -8.15502315986530064429e-03 -7.32814963264187685388e-02 -8.15502315986530064429e-03 -7.32814963264187685388e-02 9.91844976840134728846e-01 -7.32814963264187685388e-02
9.98656000000000000000e+08 9.91808953341513643842e-01 -7.34411637092084595979e-02 -8.19104665848638911763e-03 -7.34411637092084595979e-02 -8.19104665848638911763e-03 -7.34411637092084595979e-02 9.91808953341513643842e-01 -7.34411637092084595979e-02
9.98659000000000000000e+08 9.91772691730565481016e-01 -7.36015188583951929235e-02 -8.22730826943451377942e-03 -7.36015188583951929235e-02 -8.22730826943451377942e-03 -7.36015188583951929235e-02 9.91772691730565481016e-01 -7.36015188583951929235e-02
9.98662000000000000000e+08 9.91736189913298149534e-01 -7.37625661654933845179e-02 -8.26381008670179495468e-03 -7.37625661654933845179e-02 -8.26381008670179495468e-03 -7.37625661654933845179e-02 9.91736189913298149534e-01 -7.37625661654933845179e-02
9.98665000000000000000e+08 9.91699445772752374850e-01 -7.39243100589083435015e-02 -8.30055422724764423170e-03 -7.39243100589083435015e-02 -8.30055422724764423170e-03 -7.39243100589083435015e-02 9.91699445772752374850e-01 -7.39243100589083435015e-02
9.98668000000000000000e+08 9.91662457168696942489e-01 -7.40867550043298045415e-02 -8.33754283130310261396e-03 -7.40867550043298045415e-02 -8.33754283130310261396e-03 -7.40867550043298045415e-02 9.91662457168696942489e-01 -7.40867550043298045415e-02
9.98671000000000000000e+08 9.91625221937327050448e-01 -7.42499055051001055627e-02 -8.37477806267298771625e-03 -7.42499055051001055627e-02 -8.37477806267298771625e-03 -7.42499055051001055627e-02 9.91625221937327050448e-01 -7.42499055051001055627e-02
9.98674000000000000000e+08 9.91587737890949783015e-01 -7.44137661026200714076e-02 -8.41226210905021698494e-03 -7.44137661026200714076e-02 -8.41226210905021698494e-03 -7.44137661026200714076e-02 9.91587737890949783015e-01 -7.44137661026200714076e-02
9.98677000000000000000e+08 9.91550002817667808230e-01 -7.45783413767477920686e-02 -8.44999718233223340302e-03 -7.45783413767477920686e-02 -8.44999718233223340302e-03 -7.45783413767477920686e-02 9.91550002817667808230e-01 -7.45783413767477920686e-02
9.98680000000000000000e+08 9.91512014481068293392e-01 -7.47436359461564753248e-02 -8.48798551893175518002e-03 -7.47436359461564753248e-02 -8.48798551893175518002e-03 -7.47436359461564753248e-02 9.91512014481068293392e-01 -7.47436359461564753248e-02
9.98683000000000000000e+08 9.91473770619880956367e-01 -7.49096544688129389877e-02 -8.52622938011902802014e-03 -7.49096544688129389877e-02 -8.52622938011902802014e-03 -7.49096544688129389877e-02 9.91473770619880956367e-01 -7.49096544688129389877e-02
9.98686000000000000000e+08 9.91435268947660208738e-01 -7.50764016423332292138e-02 -8.56473105233977391459e-03 -7.50764016423332292138e-02 -8.56473105233977391459e-03 -7.50764016423332292138e-02 9.91435268947660208738e-01 -7.50764016423332292138e-02
9.98689000000000000000e+08 9.91396507152447870048e-01 -7.52438822044039085091e-02 -8.60349284755213862541e-03 -7.52438822044039085091e-02 -8.60349284755213862541e-03 -7.52438822044039085091e-02 9.91396507152447870048e-01 -7.52438822044039085091e-02
9.98692000000000000000e+08 9.91357482896429664798e-01 -7.54121009332149039306e-02 -8.64251710357034907961e-03 -7.54121009332149039306e-02 -8.64251710357034907961e-03 -7.54121009332149039306e-02 9.91357482896429664798e-01 -7.54121009332149039306e-02
9.98695000000000000000e+08 9.91318193815586279349e-01 -7.55810626478978231368e-02 -8.68180618441377095762e-03 -7.55810626478978231368e-02 -8.68180618441377095762e-03 -7.55810626478978231368e-02 9.91318193815586279349e-01 -7.55810626478978231368e-02
9.98698000000000000000e+08 9.91278637519348748697e-01 -7.57507722089258289655e-02 -8.72136248065122354767e-03 -7.57507722089258289655e-02 -8.72136248065122354767e-03 -7.57507722089258289655e-02 9.91278637519348748697e-01 -7.57507722089258289655e-02
9.98701000000000000000e+08 9.91238811590238411142e-01 -7.59212345185655140822e-02 -8.76118840976154375499e-03 -7.59212345185655140822e-02 -8.76118840976154375499e-03 -7.59212345185655140822e-02 9.91238811590238411142e-01 -7.59212345185655140822e-02
9.98704000000000000000e+08 9.91198713583500090607e-01 -7.60924545213343822558e-02 -8.80128641649990939300e-03 -7.60924545213343822558e-02 -8.80128641649990939300e-03 -7.60924545213343822558e-02 9.91198713583500090607e-01 -7.60924545213343822558e-02
9.98707000000000000000e+08 9.91158341026741274149e-01 -7.62644372044166962699e-02 -8.84165897325873799406e-03 -7.62644372044166962699e-02 -8.84165897325873799406e-03 -7.62644372044166962699e-02 9.91158341026741274149e-01 -7.62644372044166962699e-02
9.98710000000000000000e+08 9.91117691419555302268e-01 -7.64371875981287446367e-02 -8.88230858044465089451e-03 -7.64371875981287446367e-02 -8.88230858044465089451e-03 -7.64371875981287446367e-02 9.91117691419555302268e-01 -7.64371875981287446367e-02
9.98713000000000000000e+08 9.91076762233137009694e-01 -7.66107107763964317870e-02 -8.92323776686295040694e-03 -7.66107107763964317870e-02 -8.92323776686295040694e-03 -7.66107107763964317870e-02 9.91076762233137009694e-01 -7.66107107763964317870e-02
9.98716000000000000000e+08 9.91035550909902362982e-01 -7.67850118571940937207e-02 -8.96444909009758497676e-03 -7.67850118571940937207e-02 -8.96444909009758497676e-03 -7.67850118571940937207e-02 9.91035550909902362982e-01 -7.67850118571940937207e-02
9.98719000000000000000e+08 9.90994054863095330532e-01 -7.69600960030206726614e-02 -9.00594513690464518185e-03 -7.69600960030206726614e-02 -9.00594513690464518185e-03 -7.69600960030206726614e-02 9.90994054863095330532e-01 -7.69600960030206726614e-02
9.98722000000000000000e+08 9.90952271476384760618e-01 -7.71359684213951957155e-02 -9.04772852361527581133e-03 -7.71359684213951957155e-02 -9.04772852361527581133e-03 -7.71359684213951957155e-02 9.90952271476384760618e-01 -7.71359684213951957155e-02
9.98725000000000000000e+08 9.90910198103470585274e-01 -7.73126343652930231309e-02 -9.08980189652945809453e-03 -7.73126343652930231309e-02 -9.08980189652945809453e-03 -7.73126343652930231309e-02 9.90910198103470585274e-01 -7.73126343652930231309e-02
9.98728000000000000000e+08 9.90867832067656717498e-01 -7.74900991337023198335e-02 -9.13216793234329984874e-03 -7.74900991337023198335e-02 -9.13216793234329984874e-03 -7.74900991337023198335e-02 9.90867832067656717498e-01 -7.74900991337023198335e-02
9.98731000000000000000e+08 9.90825170661451259946e-01 -7.76683680720429148181e-02 -9.17482933854874699309e-03 -7.76683680720429148181e-02 -9.17482933854874699309e-03 -7.76683680720429148181e-02 9.90825170661451259946e-01 -7.76683680720429148181e-02
9.98734000000000000000e+08 9.90782211146129743184e-01 -7.78474465727189840480e-02 -9.21778885387030885723e-03 -7.78474465727189840480e-02 -9.21778885387030885723e-03 -7.78474465727189840480e-02 9.90782211146129743184e-01 -7.78474465727189840480e-02
