! File generated for n1 = 5, n2 = 8
! b1 = 4.641589
! b2 = 0.021544
! Q0 = 10000.000000
! f0 = 1000000000.000000
! n = 1001
! rel_span = 10.000000
# Hz S RI R 50
9.97168433409743428230e+08 9.83815535037623756232e-01 -1.62074437234022927790e-01 -1.10263476208133739433e-03 -1.10420028684572128080e-02 -1.10263476208133739433e-03 -1.10420028684572128080e-02 9.99924878368152691976e-01 -7.52282898079515652962e-04
9.97174096542923927307e+08 9.83751154589997400812e-01 -1.62393255689079807347e-01 -1.10702095091836012243e-03 -1.10637237169471693010e-02 -1.10702095091836012243e-03 -1.10637237169471693010e-02 9.99924579540585778403e-01 -7.53762722260457331512e-04
9.97179759676104426384e+08 9.83686390889025541462e-01 -1.62713316075289937679e-01 -1.11143325050186165398e-03 -1.10855291772216282137e-02 -1.11143325050186165398e-03 -1.10855291772216282137e-02 9.99924278934114618700e-01 -7.55248310975172075857e-04
9.97185422809284925461e+08 9.83621240897808224446e-01 -1.63034625583802383897e-01 -1.11587186773341165077e-03 -1.11074197392078740515e-02 -1.11587186773341165077e-03 -1.11074197392078740515e-02 9.99923976534642822145e-01 -7.56739697602017147293e-04
9.97191085942465424538e+08 9.83555701549415406504e-01 -1.63357191460723333298e-01 -1.12033701156054169880e-03 -1.11293958965773698983e-02 -1.12033701156054169880e-03 -1.11293958965773698983e-02 9.99923672327935220139e-01 -7.58236915774437858495e-04
9.97196749075646042824e+08 9.83489769746523689875e-01 -1.63681021007666599454e-01 -1.12482889300142153283e-03 -1.11514581467832777500e-02 -1.12482889300142153283e-03 -1.11514581467832777500e-02 9.99923366299615090647e-01 -7.59739999383523688554e-04
9.97202412208826541901e+08 9.83423442361069377604e-01 -1.64006121582215808052e-01 -1.12934772516856078012e-03 -1.11736069910919350728e-02 -1.12934772516856078012e-03 -1.11736069910919350728e-02 9.99923058435163381041e-01 -7.61248982580152401198e-04
9.97208075342007040977e+08 9.83356716233865335575e-01 -1.64332500598537462055e-01 -1.13389372329486494070e-03 -1.11958429346246217395e-02 -1.13389372329486494070e-03 -1.11958429346246217395e-02 9.99922748719916487659e-01 -7.62763899777836400749e-04
9.97213738475187540054e+08 9.83289588174243611718e-01 -1.64660165527854535084e-01 -1.13846710475801649216e-03 -1.12181664863898380297e-02 -1.13846710475801649216e-03 -1.12181664863898380297e-02 9.99922437139064479439e-01 -7.64284785654921060456e-04
9.97219401608368039131e+08 9.83222054959673408270e-01 -1.64989123899018125252e-01 -1.14306808910648424922e-03 -1.12405781593222370285e-02 -1.14306808910648424922e-03 -1.12405781593222370285e-02 9.99922123677649876683e-01 -7.65811675157237548364e-04
9.97225064741548538208e+08 9.83154113335380608341e-01 -1.65319383299053296321e-01 -1.14769689808544685453e-03 -1.12630784703198170982e-02 -1.14769689808544685453e-03 -1.12630784703198170982e-02 9.99921808320565208561e-01 -7.67344603500636390954e-04
9.97230727874729037285e+08 9.83085760013963971815e-01 -1.65650951373701504910e-01 -1.15235375566294200034e-03 -1.12856679402808801616e-02 -1.15235375566294200034e-03 -1.12856679402808801616e-02 9.99921491052551791867e-01 -7.68883606173505966368e-04
9.97236391007909536362e+08 9.83016991674997897555e-01 -1.65983835828007991742e-01 -1.15703888805692616318e-03 -1.13083470941440500379e-02 -1.15703888805692616318e-03 -1.13083470941440500379e-02 9.99921171858197510574e-01 -7.70428718939498297091e-04
9.97242054141090154648e+08 9.82947804964640070580e-01 -1.66318044426867289731e-01 -1.16175252376202902717e-03 -1.13311164609254319546e-02 -1.16175252376202902717e-03 -1.13311164609254319546e-02 9.99920850721935261518e-01 -7.71979977840060987287e-04
9.97247717274270653725e+08 9.82878196495231337693e-01 -1.66653584995580750228e-01 -1.16649489357676652487e-03 -1.13539765737566012566e-02 -1.16649489357676652487e-03 -1.13539765737566012566e-02 9.99920527628040956003e-01 -7.73537419197025538642e-04
9.97253380407451152802e+08 9.82808162844877153397e-01 -1.66990465420489897497e-01 -1.17126623063211498556e-03 -1.13769279699277477136e-02 -1.17126623063211498556e-03 -1.13769279699277477136e-02 9.99920202560631521393e-01 -7.75101079615546514033e-04
9.97259043540631651878e+08 9.82737700557039239868e-01 -1.67328693649531484722e-01 -1.17606677041928123911e-03 -1.13999711909255029008e-02 -1.17606677041928123911e-03 -1.13999711909255029008e-02 9.99919875503663124761e-01 -7.76670995986678577676e-04
9.97264706673812150955e+08 9.82666806140119253321e-01 -1.67668277692814698954e-01 -1.18089675081808681209e-03 -1.14231067824722525017e-02 -1.18089675081808681209e-03 -1.14231067824722525017e-02 9.99919546440929174480e-01 -7.78247205490055016588e-04
9.97270369806992650032e+08 9.82595476067024575784e-01 -1.68009225623262120619e-01 -1.18575641212656100916e-03 -1.14463352945698062374e-02 -1.18575641212656100916e-03 -1.14463352945698062374e-02 9.99919215356058321831e-01 -7.79829745596863116615e-04
9.97276032940173149109e+08 9.82523706774741434344e-01 -1.68351545577190758740e-01 -1.19064599709000512075e-03 -1.14696572815389946642e-02 -1.19064599709000512075e-03 -1.14696572815389946642e-02 9.99918882232512684638e-01 -7.81418654072541223748e-04
9.97281696073353648186e+08 9.82451494663896029991e-01 -1.68695245754930556181e-01 -1.19556575093089536947e-03 -1.14930733020617882600e-02 -1.19556575093089536947e-03 -1.14930733020617882600e-02 9.99918547053585293760e-01 -7.83013968979648844124e-04
9.97287359206534147263e+08 9.82378836098307450797e-01 -1.69040334421459104153e-01 -1.20051592137935419537e-03 -1.15165839192245562234e-02 -1.20051592137935419537e-03 -1.15165839192245562234e-02 9.99918209802398649799e-01 -7.84615728680814047621e-04
9.97293022339714765549e+08 9.82305727404540363068e-01 -1.69386819907014374298e-01 -1.20549675870362652842e-03 -1.15401897005598073898e-02 -1.20549675870362652842e-03 -1.15401897005598073898e-02 9.99917870461902058565e-01 -7.86223971841576354386e-04
9.97298685472895264626e+08 9.82232164871447599452e-01 -1.69734710607730515664e-01 -1.21050851574122262863e-03 -1.15638912180894993381e-02 -1.21050851574122262863e-03 -1.15638912180894993381e-02 9.99917529014869854720e-01 -7.87838737433338149978e-04
9.97304348606075763702e+08 9.82158144749704309362e-01 -1.70084014986291609528e-01 -1.21555144793066114035e-03 -1.15876890483695878242e-02 -1.21555144793066114035e-03 -1.15876890483695878242e-02 9.99917185443899292352e-01 -7.89460064736399367256e-04
9.97310011739256262779e+08 9.82083663251336447253e-01 -1.70434741572589532055e-01 -1.22062581334361720461e-03 -1.16115837725348433618e-02 -1.22062581334361720461e-03 -1.16115837725348433618e-02 9.99916839731408102487e-01 -7.91087993343010924957e-04
9.97315674872436761856e+08 9.82008716549248372729e-01 -1.70786898964358779818e-01 -1.22573187271708401551e-03 -1.16355759763420944092e-02 -1.22573187271708401551e-03 -1.16355759763420944092e-02 9.99916491859632605710e-01 -7.92722563160321263935e-04
9.97321338005617260933e+08 9.81933300776733020143e-01 -1.71140495827869637546e-01 -1.23086988948674261150e-03 -1.16596662502174673592e-02 -1.23086988948674261150e-03 -1.16596662502174673592e-02 9.99916141810625047626e-01 -7.94363814413593717113e-04
9.97327001138797760010e+08 9.81857412026985398867e-01 -1.71495540898581821931e-01 -1.23604012982011677788e-03 -1.16838551893008995436e-02 -1.23604012982011677788e-03 -1.16838551893008995436e-02 9.99915789566251600462e-01 -7.96011787649240649262e-04
9.97332664271978259087e+08 9.81781046352604769289e-01 -1.71852042981825853252e-01 -1.24124286265049925057e-03 -1.17081433934925812496e-02 -1.24124286265049925057e-03 -1.17081433934925812496e-02 9.99915435108190142621e-01 -7.97666523737985857893e-04
9.97338327405158877373e+08 9.81704199765083607154e-01 -1.72210010953517150822e-01 -1.24647835971173227138e-03 -1.17325314675015852234e-02 -1.24647835971173227138e-03 -1.17325314675015852234e-02 9.99915078417927594145e-01 -7.99328063878179196147e-04
9.97343990538339376450e+08 9.81626868234305338667e-01 -1.72569453760808344533e-01 -1.25174689557246620816e-03 -1.17570200208903276329e-02 -1.25174689557246620816e-03 -1.17570200208903276329e-02 9.99914719476757807293e-01 -8.00996449598824424194e-04
9.97349653671519875526e+08 9.81549047688011988555e-01 -1.72930380422850943356e-01 -1.25704874767240508404e-03 -1.17816096681264467078e-02 -1.25704874767240508404e-03 -1.17816096681264467078e-02 9.99914358265779124046e-01 -8.02671722763114575683e-04
9.97355316804700374603e+08 9.81470734011284262621e-01 -1.73292800031474736322e-01 -1.26238419635774502640e-03 -1.18063010286290938355e-02 -1.26238419635774502640e-03 -1.18063010286290938355e-02 9.99913994765891711580e-01 -8.04353925571585034494e-04
9.97360979937880873680e+08 9.81391923046006753317e-01 -1.73656721751906412132e-01 -1.26775352491758242640e-03 -1.18310947268178961317e-02 -1.26775352491758242640e-03 -1.18310947268178961317e-02 9.99913628957795341812e-01 -8.06043100565449841671e-04
9.97366643071061372757e+08 9.81312610590319822634e-01 -1.74022154823525232459e-01 -1.27315701962128291838e-03 -1.18559913921644360935e-02 -1.27315701962128291838e-03 -1.18559913921644360935e-02 9.99913260821986615845e-01 -8.07739290630108547342e-04
9.97372306204241871834e+08 9.81232792398076147933e-01 -1.74389108560567163142e-01 -1.27859496975549777678e-03 -1.18809916592402219082e-02 -1.27859496975549777678e-03 -1.18809916592402219082e-02 9.99912890338756854547e-01 -8.09442538998414971851e-04
9.97377969337422370911e+08 9.81152464178270733441e-01 -1.74757592352923069035e-01 -1.28406766766299721902e-03 -1.19060961677710692996e-02 -1.28406766766299721902e-03 -1.19060961677710692996e-02 9.99912517488188767878e-01 -8.11152889254381382483e-04
9.97383632470602869987e+08 9.81071621594484355455e-01 -1.75127615666845509734e-01 -1.28957540878057996814e-03 -1.19313055626852591862e-02 -1.28957540878057996814e-03 -1.19313055626852591862e-02 9.99912142250154567513e-01 -8.12870385336460156596e-04
9.97389295603783488274e+08 9.80990260264299251958e-01 -1.75499188045754650478e-01 -1.29511849167888710814e-03 -1.19566204941684399443e-02 -1.29511849167888710814e-03 -1.19566204941684399443e-02 9.99911764604312858218e-01 -8.14595071541283737016e-04
9.97394958736963987350e+08 9.80908375758727246740e-01 -1.75872319110958769128e-01 -1.30069721810138695835e-03 -1.19820416177127096746e-02 -1.30069721810138695835e-03 -1.19820416177127096746e-02 9.99911384530106195356e-01 -8.16326992527009178899e-04
9.97400621870144486427e+08 9.80825963601596906294e-01 -1.76247018562525725738e-01 -1.30631189300607088687e-03 -1.20075695941760027252e-02 -1.30631189300607088687e-03 -1.20075695941760027252e-02 9.99911002006757865246e-01 -8.18066193317363199618e-04
9.97406285003324985504e+08 9.80743019268973670322e-01 -1.76623296179981931209e-01 -1.31196282460502235308e-03 -1.20332050898296974428e-02 -1.31196282460502235308e-03 -1.20332050898296974428e-02 9.99910617013269775732e-01 -8.19812719304886436920e-04
9.97411948136505484581e+08 9.80659538188533352887e-01 -1.77001161823184927080e-01 -1.31765032440705641067e-03 -1.20589487764180668811e-02 -1.31765032440705641067e-03 -1.20589487764180668811e-02 9.99910229528419014500e-01 -8.21566616254983377726e-04
9.97417611269685983658e+08 9.80575515738950298505e-01 -1.77380625433102845356e-01 -1.32337470725943742202e-03 -1.20848013312113838902e-02 -1.32337470725943742202e-03 -1.20848013312113838902e-02 9.99909839530755184533e-01 -8.23327930309540666036e-04
9.97423274402866482735e+08 9.80490947249266220354e-01 -1.77761697032644105931e-01 -1.32913629139083601556e-03 -1.21107634370624522857e-02 -1.32913629139083601556e-03 -1.21107634370624522857e-02 9.99909446998597850609e-01 -8.25096707990778297469e-04
9.97428937536046981812e+08 9.80405827998252488165e-01 -1.78144386727489639766e-01 -1.33493539845481274872e-03 -1.21368357824633010811e-02 -1.33493539845481274872e-03 -1.21368357824633010811e-02 9.99909051910032764532e-01 -8.26872996205112197922e-04
9.97434600669227600098e+08 9.80320153213761535937e-01 -1.78528704706938712299e-01 -1.34077235357401040525e-03 -1.21630190616028050626e-02 -1.34077235357401040525e-03 -1.21630190616028050626e-02 9.99908654242909755716e-01 -8.28656842247079577536e-04
9.97440263802408099174e+08 9.80233918072072052396e-01 -1.78914661244746059365e-01 -1.34664748538472424551e-03 -1.21893139744237259670e-02 -1.34664748538472424551e-03 -1.21893139744237259670e-02 9.99908253974839067446e-01 -8.30448293803226012325e-04
9.97445926935588598251e+08 9.80147117697218850374e-01 -1.79302266699999407473e-01 -1.35256112608259809228e-03 -1.22157212266824962560e-02 -1.35256112608259809228e-03 -1.22157212266824962560e-02 9.99907851083188359276e-01 -8.32247398956177273852e-04
9.97451590068769097328e+08 9.80059747160314187475e-01 -1.79691531517996022638e-01 -1.35851361146883974941e-03 -1.22422415300089352380e-02 -1.35851361146883974941e-03 -1.22422415300089352380e-02 9.99907445545079931470e-01 -8.34054206188708665247e-04
9.97457253201949596405e+08 9.79971801478862980517e-01 -1.80082466231114901589e-01 -1.36450528099690262737e-03 -1.22688756019656685509e-02 -1.36450528099690262737e-03 -1.22688756019656685509e-02 9.99907037337386950249e-01 -8.35868764387792890017e-04
9.97462916335130095482e+08 9.79883275616062365820e-01 -1.80475081459718467158e-01 -1.37053647782016331698e-03 -1.22956241661095685980e-02 -1.37053647782016331698e-03 -1.22956241661095685980e-02 9.99906626436730672225e-01 -8.37691122848785614530e-04
9.97468579468310594559e+08 9.79794164480095153280e-01 -1.80869387913049545213e-01 -1.37660754884008336776e-03 -1.23224879520528515092e-02 -1.37660754884008336776e-03 -1.23224879520528515092e-02 9.99906212819477002718e-01 -8.39521331279588587521e-04
9.97474242601491093636e+08 9.79704462923411290021e-01 -1.81265396390143551653e-01 -1.38271884475516730444e-03 -1.23494676955252374873e-02 -1.38271884475516730444e-03 -1.23494676955252374873e-02 9.99905796461733165081e-01 -8.41359439804884100093e-04
9.97479905734671592712e+08 9.79614165741992226621e-01 -1.81663117780778232691e-01 -1.38887072011107618602e-03 -1.23765641384386507889e-02 -1.38887072011107618602e-03 -1.23765641384386507889e-02 9.99905377339344147991e-01 -8.43205498970543026495e-04
9.97485568867852210999e+08 9.79523267674615283340e-01 -1.82062563066385241228e-01 -1.39506353335073596082e-03 -1.24037780289493141522e-02 -1.39506353335073596082e-03 -1.24037780289493141522e-02 9.99904955427889596820e-01 -8.45059559747855706252e-04
9.97491232001032710075e+08 9.79431763402099364590e-01 -1.82463743321007121345e-01 -1.40129764686574361139e-03 -1.24311101215229674599e-02 -1.40129764686574361139e-03 -1.24311101215229674599e-02 9.99904530702680038878e-01 -8.46921673537974462574e-04
9.97496895134213209152e+08 9.79339647546534686207e-01 -1.82866669712282076121e-01 -1.40757342704881023045e-03 -1.24585611770019460270e-02 -1.40757342704881023045e-03 -1.24585611770019460270e-02 9.99904103138753441726e-01 -8.48791892176484381871e-04
9.97502558267393708229e+08 9.79246914670516388490e-01 -1.83271353502378109290e-01 -1.41389124434603300970e-03 -1.24861319626688206663e-02 -1.41389124434603300970e-03 -1.24861319626688206663e-02 9.99903672710871660456e-01 -8.50670267937738170880e-04
9.97508221400574207306e+08 9.79153559276350282659e-01 -1.83677806049000857946e-01 -1.42025147331094662127e-03 -1.25138232523150684516e-02 -1.42025147331094662127e-03 -1.25138232523150684516e-02 9.99903239393516551914e-01 -8.52556853539535790081e-04
9.97513884533754706383e+08 9.79059575805249493463e-01 -1.84086038806406976365e-01 -1.42665449265929494306e-03 -1.25416358263101129777e-02 -1.42665449265929494306e-03 -1.25416358263101129777e-02 9.99902803160886533007e-01 -8.54451702147826963780e-04
9.97519547666935205460e+08 9.78964958636534543501e-01 -1.84496063326357540024e-01 -1.43310068532351828942e-03 -1.25695704716662758765e-02 -1.43310068532351828942e-03 -1.25695704716662758765e-02 9.99902363986892805947e-01 -8.56354867381137001801e-04
9.97525210800115704536e+08 9.78869702086791471096e-01 -1.84907891259211254464e-01 -1.43959043851009361147e-03 -1.25976279821132519654e-02 -1.43959043851009361147e-03 -1.25976279821132519654e-02 9.99901921845155139401e-01 -8.58266403315640540386e-04
9.97530873933296322823e+08 9.78773800409047156634e-01 -1.85321534354903005859e-01 -1.44612414375574929552e-03 -1.26258091581647885482e-02 -1.44612414375574929552e-03 -1.26258091581647885482e-02 9.99901476708998648846e-01 -8.60186364489704349302e-04
9.97536537066476821899e+08 9.78677247791914339814e-01 -1.85737004464006566495e-01 -1.45270219698568660294e-03 -1.26541148071910806300e-02 -1.45270219698568660294e-03 -1.26541148071910806300e-02 9.99901028551449022608e-01 -8.62114805908819475944e-04
9.97542200199657320976e+08 9.78580038358723869329e-01 -1.86154313538810789463e-01 -1.45932499857271747758e-03 -1.26825457434920838007e-02 -1.45932499857271747758e-03 -1.26825457434920838007e-02 9.99900577345229413240e-01 -8.64051783050595947899e-04
9.97547863332837820053e+08 9.78482166166650513262e-01 -1.86573473634376568731e-01 -1.46599295339680849547e-03 -1.27111027883695382190e-02 -1.46599295339680849547e-03 -1.27111027883695382190e-02 9.99900123062755552539e-01 -8.65997351869670197247e-04
9.97553526466018319130e+08 9.78383625205822671234e-01 -1.86994496909618862501e-01 -1.47270647090574587947e-03 -1.27397867702006752783e-02 -1.47270647090574587947e-03 -1.27397867702006752783e-02 9.99899665676132198833e-01 -8.67951568802725783973e-04
9.97559189599198818207e+08 9.78284409398409104952e-01 -1.87417395628439703570e-01 -1.47946596517735005569e-03 -1.27685985245154162704e-02 -1.47946596517735005569e-03 -1.27685985245154162704e-02 9.99899205157148363021e-01 -8.69914490773753836493e-04
9.97564852732379317284e+08 9.78184512597713884396e-01 -1.87842182160779858080e-01 -1.48627185498114247099e-03 -1.27975388940680147309e-02 -1.48627185498114247099e-03 -1.27975388940680147309e-02 9.99898741477273755862e-01 -8.71886175198932937211e-04
9.97570515865559816360e+08 9.78083928587224593620e-01 -1.88268868983820586438e-01 -1.49312456384317654608e-03 -1.28266087289189336523e-02 -1.49312456384317654608e-03 -1.28266087289189336523e-02 9.99898274607653791968e-01 -8.73866679992208535317e-04
9.97576178998740315437e+08 9.77982651079677522965e-01 -1.88697468683067415274e-01 -1.50002452010975970663e-03 -1.28558088865086822539e-02 -1.50002452010975970663e-03 -1.28558088865086822539e-02 9.99897804519105704024e-01 -8.75856063570322452248e-04
9.97581842131920933723e+08 9.77880673716086112890e-01 -1.89127993953534773164e-01 -1.50697215701358386113e-03 -1.28851402317385274610e-02 -1.50697215701358386113e-03 -1.28851402317385274610e-02 9.99897331182113546788e-01 -8.77854384858311846684e-04
9.97587505265101432800e+08 9.77777990064769619849e-01 -1.89560457600887216634e-01 -1.51396791273996603362e-03 -1.29146036370482372724e-02 -1.51396791273996603362e-03 -1.29146036370482372724e-02 9.99896854566824200283e-01 -8.79861703294806301104e-04
9.97593168398281931877e+08 9.77674593620346032985e-01 -1.89994872542674525517e-01 -1.52101223049542675324e-03 -1.29441999825002339308e-02 -1.52101223049542675324e-03 -1.29441999825002339308e-02 9.99896374643042373798e-01 -8.81878078837760866031e-04
9.97598831531462430954e+08 9.77570477802733317496e-01 -1.90431251809481533188e-01 -1.52810555857572764361e-03 -1.29739301558579270962e-02 -1.52810555857572764361e-03 -1.29739301558579270962e-02 9.99895891380225942946e-01 -8.83903571969792394708e-04
9.97604494664642930031e+08 9.77465635956114131666e-01 -1.90869608546180846709e-01 -1.53524835043643173398e-03 -1.30037950526710639754e-02 -1.53524835043643173398e-03 -1.30037950526710639754e-02 9.99895404747481286734e-01 -8.85938243703994878289e-04
9.97610157797823429108e+08 9.77360061347900543893e-01 -1.91309956013129334185e-01 -1.54244106476341411374e-03 -1.30337955763572422435e-02 -1.54244106476341411374e-03 -1.30337955763572422435e-02 9.99894914713558735642e-01 -8.87982155589492620947e-04
