! File generated for n1 = 1, n2 = 10
! b1 = 100.000000
! b2 = 0.100000
! Q0 = 10000.000000
! f0 = 1000000000.000000
! n = 1001
! rel_span = 10.000000
# Hz S RI R 50
9.49450000000000000000e+08 9.81406651184218437045e-01 -1.90883163141425504783e-01 -5.87973315878640941969e-04 -6.03625562504405809711e-03 -5.87973315878640941969e-04 -6.03625562504405809711e-03 9.99981406651184179246e-01 -1.90883163141425372077e-04
9.49551100000000000000e+08 9.81330738006087610614e-01 -1.91268731592787566420e-01 -5.90373901351796742318e-04 -6.04844837004613750109e-03 -5.90373901351796742318e-04 -6.04844837004613750109e-03 9.99981330738006102266e-01 -1.91268731592787434798e-04
9.49652200000000000000e+08 9.81254369034841644748e-01 -1.91655802034695565972e-01 -5.92788900268807002376e-04 -6.06068861215970991485e-03 -5.92788900268807002376e-04 -6.06068861215970991485e-03 9.99981254369034844309e-01 -1.91655802034695459937e-04
9.49753300000000000000e+08 9.81177540642663492676e-01 -1.92044383170904442437e-01 -5.95218427351324797826e-04 -6.07297662662167198055e-03 -5.95218427351324797826e-04 -6.07297662662167198055e-03 9.99981177540642640622e-01 -1.92044383170904313851e-04
9.49854400000000000000e+08 9.81100249165758775405e-01 -1.92434483771747877334e-01 -5.97662598458698610983e-04 -6.08531269077432646758e-03 -5.97662598458698610983e-04 -6.08531269077432646758e-03 9.99981100249165755223e-01 -1.92434483771747766746e-04
9.49955500000000000000e+08 9.81022490903927790740e-01 -1.92826112674773952893e-01 -6.00121530601513799089e-04 -6.09769708408548251344e-03 -6.00121530601513799089e-04 -6.09769708408548251344e-03 9.99981022490903925792e-01 -1.92826112674773835149e-04
9.50056600000000000000e+08 9.80944262120133525507e-01 -1.93219278785377396312e-01 -6.02595341955260480581e-04 -6.11013008816844744447e-03 -6.02595341955260480581e-04 -6.11013008816844744447e-03 9.99980944262120141630e-01 -1.93219278785377278351e-04
9.50157700000000000000e+08 9.80865559040062340301e-01 -1.93613991077443564626e-01 -6.05084151874217286010e-04 -6.12261198680239503156e-03 -6.05084151874217286010e-04 -6.12261198680239503156e-03 9.99980865559040088542e-01 -1.93613991077443424764e-04
9.50258800000000000000e+08 9.80786377851678214945e-01 -1.94010258594002060750e-01 -6.07588080905542191577e-04 -6.13514306595302778141e-03 -6.07588080905542191577e-04 -6.13514306595302778141e-03 9.99980786377851704749e-01 -1.94010258594001945825e-04
9.50359900000000000000e+08 9.80706714704772442026e-01 -1.94408090447882875296e-01 -6.10107250803531078742e-04 -6.14772361379333463771e-03 -6.10107250803531078742e-04 -6.14772361379333463771e-03 9.99980706714704736804e-01 -1.94408090447882744107e-04
9.50461000000000000000e+08 9.80626565710505437856e-01 -1.94807495822382187312e-01 -6.12641784544087171158e-04 -6.16035392072463838103e-03 -6.12641784544087171158e-04 -6.16035392072463838103e-03 9.99980626565710517539e-01 -1.94807495822382060026e-04
9.50562100000000000000e+08 9.80545926940942891292e-01 -1.95208483971936325174e-01 -6.15191806339396795276e-04 -6.17303427939791104356e-03 -6.15191806339396795276e-04 -6.17303427939791104356e-03 9.99980545926940966872e-01 -1.95208483971936195070e-04
9.50663200000000000000e+08 9.80464794428585473263e-01 -1.95611064222803304746e-01 -6.17757441652811464632e-04 -6.18576498473532784828e-03 -6.17757441652811464632e-04 -6.18576498473532784828e-03 9.99980464794428591802e-01 -1.95611064222803176810e-04
9.50764300000000000000e+08 9.80383164165891551889e-01 -1.96015245973748947206e-01 -6.20338817213916121629e-04 -6.19854633395195905865e-03 -6.20338817213916121629e-04 -6.19854633395195905865e-03 9.99980383164165931298e-01 -1.96015245973748814933e-04
9.50865400000000000000e+08 9.80301032104793912403e-01 -1.96421038696746097507e-01 -6.22936061033844794277e-04 -6.21137862657788770299e-03 -6.22936061033844794277e-04 -6.21137862657788770299e-03 9.99980301032104779146e-01 -1.96421038696745984533e-04
9.50966500000000000000e+08 9.80218394156208483459e-01 -1.96828451937677534334e-01 -6.25549302420782952529e-04 -6.22426216448042964741e-03 -6.25549302420782952529e-04 -6.22426216448042964741e-03 9.99980218394156183948e-01 -1.96828451937677405964e-04
9.51067600000000000000e+08 9.80135246189537734374e-01 -1.97237495317047567545e-01 -6.28178671995693535535e-04 -6.23719725188664596977e-03 -6.28178671995693535535e-04 -6.23719725188664596977e-03 9.99980135246189560938e-01 -1.97237495317047423563e-04
9.51168700000000000000e+08 9.80051584032165856719e-01 -1.97648178530704238254e-01 -6.30824301708281069689e-04 -6.25018419540617278796e-03 -6.30824301708281069689e-04 -6.25018419540617278796e-03 9.99980051584032136880e-01 -1.97648178530704111402e-04
9.51269800000000000000e+08 9.79967403468946729461e-01 -1.98060511350567042266e-01 -6.33486324853162760876e-04 -6.26322330405423670363e-03 -6.33486324853162760876e-04 -6.26322330405423670363e-03 9.99979967403468950060e-01 -1.98060511350566908475e-04
9.51370900000000000000e+08 9.79882700241685777875e-01 -1.98474503625363868364e-01 -6.36164876086276268041e-04 -6.27631488927495994473e-03 -6.36164876086276268041e-04 -6.27631488927495994473e-03 9.99979882700241740068e-01 -1.98474503625363740645e-04
9.51472000000000000000e+08 9.79797470048613505789e-01 -1.98890165281376457562e-01 -6.38860091441519170781e-04 -6.28945926496493178809e-03 -6.38860091441519170781e-04 -6.28945926496493178809e-03 9.99979797470048614727e-01 -1.98890165281376328325e-04
9.51573100000000000000e+08 9.79711708543851478304e-01 -1.99307506323195354758e-01 -6.41572108347633249768e-04 -6.30265674749708442598e-03 -6.41572108347633249768e-04 -6.30265674749708442598e-03 9.99979711708543828053e-01 -1.99307506323195224871e-04
9.51674200000000000000e+08 9.79625411336871421142e-01 -1.99726536834481410709e-01 -6.44301065645313197038e-04 -6.31590765574477266270e-03 -6.44301065645313197038e-04 -6.31590765574477266270e-03 9.99979625411336892071e-01 -1.99726536834481278870e-04
9.51775300000000000000e+08 9.79538573991946104336e-01 -2.00147266978737414789e-01 -6.47047103604570872717e-04 -6.32921231110617453497e-03 -6.47047103604570872717e-04 -6.32921231110617453497e-03 9.99979538573991910688e-01 -2.00147266978737287937e-04
9.51876400000000000000e+08 9.79451192027592121292e-01 -2.00569707000089608728e-01 -6.49810363942353048233e-04 -6.34257103752900504995e-03 -6.49810363942353048233e-04 -6.34257103752900504995e-03 9.99979451192027579687e-01 -2.00569707000089464529e-04
9.51977500000000000000e+08 9.79363260916005451406e-01 -2.00993867224075667410e-01 -6.52590989840395071901e-04 -6.35598416153543722268e-03 -6.52590989840395071901e-04 -6.35598416153543722268e-03 9.99979363260915965483e-01 -2.00993867224075542510e-04
9.52078600000000000000e+08 9.79274776082488362938e-01 -2.01419758058443837401e-01 -6.55389125963344826124e-04 -6.36945201224736572143e-03 -6.55389125963344826124e-04 -6.36945201224736572143e-03 9.99979274776082505127e-01 -2.01419758058443698623e-04
9.52179700000000000000e+08 9.79185732904867656146e-01 -2.01847389993961151555e-01 -6.58204918477147218371e-04 -6.38297492141197582438e-03 -6.58204918477147218371e-04 -6.38297492141197582438e-03 9.99979185732904896078e-01 -2.01847389993961014946e-04
9.52280800000000000000e+08 9.79096126712905689971e-01 -2.02276773605230636432e-01 -6.61038515067688446994e-04 -6.39655322342757518689e-03 -6.61038515067688446994e-04 -6.39655322342757518689e-03 9.99979096126712874160e-01 -2.02276773605230506545e-04
9.52381900000000000000e+08 9.79005952787701971829e-01 -2.02707919551516430046e-01 -6.63890064959702969234e-04 -6.41018725536969275619e-03 -6.63890064959702969234e-04 -6.41018725536969275619e-03 9.99979005952787658451e-01 -2.02707919551516307748e-04
9.52483000000000000000e+08 9.78915206361086087661e-01 -2.03140838577582388824e-01 -6.66759718935976890102e-04 -6.42387735701759401974e-03 -6.66759718935976890102e-04 -6.42387735701759401974e-03 9.99978915206361063106e-01 -2.03140838577582248312e-04
9.52584100000000000000e+08 9.78823882615002416330e-01 -2.03575541514537189380e-01 -6.69647629356809499790e-04 -6.43762387088101222660e-03 -6.69647629356809499790e-04 -6.43762387088101222660e-03 9.99978823882615053265e-01 -2.03575541514537070335e-04
9.52685200000000000000e+08 9.78731976680885629172e-01 -2.04012039280688922682e-01 -6.72553950179755836297e-04 -6.45142714222716236877e-03 -6.72553950179755836297e-04 -6.45142714222716236877e-03 9.99978731976680856874e-01 -2.04012039280688779568e-04
9.52786300000000000000e+08 9.78639483639026308559e-01 -2.04450342882413593770e-01 -6.75478836979681064590e-04 -6.46528751910821486426e-03 -6.75478836979681064590e-04 -6.46528751910821486426e-03 9.99978639483639075713e-01 -2.04450342882413470822e-04
9.52887400000000000000e+08 9.78546398517929016947e-01 -2.04890463415029977501e-01 -6.78422446969083304223e-04 -6.47920535238895659025e-03 -6.78422446969083304223e-04 -6.47920535238895659025e-03 9.99978546398517909033e-01 -2.04890463415029845445e-04
9.52988500000000000000e+08 9.78452716293659041646e-01 -2.05332412063685632031e-01 -6.81384939018720467256e-04 -6.49318099577481100404e-03 -6.81384939018720467256e-04 -6.49318099577481100404e-03 9.99978452716293708669e-01 -2.05332412063685519491e-04
9.53089600000000000000e+08 9.78358431889181145991e-01 -2.05776200104255291290e-01 -6.84366473678549780066e-04 -6.50721480584024423999e-03 -6.84366473678549780066e-04 -6.50721480584024423999e-03 9.99978358431889202684e-01 -2.05776200104255176798e-04
9.53190700000000000000e+08 9.78263540173687329293e-01 -2.06221838904247056767e-01 -6.87367213198958521871e-04 -6.52130714205742621076e-03 -6.87367213198958521871e-04 -6.52130714205742621076e-03 9.99978263540173717416e-01 -2.06221838904246934903e-04
9.53291800000000000000e+08 9.78168035961916260135e-01 -2.06669339923720829511e-01 -6.90387321552317855498e-04 -6.53545836682527074568e-03 -6.90387321552317855498e-04 -6.53545836682527074568e-03 9.99978168035961956228e-01 -2.06669339923720691383e-04
9.53392900000000000000e+08 9.78071914013460497195e-01 -2.07118714716217428018e-01 -6.93426964454850859945e-04 -6.54966884549881833699e-03 -6.93426964454850859945e-04 -6.54966884549881833699e-03 9.99978071914013444399e-01 -2.07118714716217285120e-04
9.53494000000000000000e+08 9.77975169032065827501e-01 -2.07569974929699335719e-01 -6.96486309388829618293e-04 -6.56393894641898491271e-03 -6.96486309388829618293e-04 -6.56393894641898491271e-03 9.99977975169032085034e-01 -2.07569974929699177209e-04
9.53595100000000000000e+08 9.77877795664918170182e-01 -2.08023132307501440463e-01 -6.99565525625093988411e-04 -6.57826904094262632922e-03 -6.99565525625093988411e-04 -6.57826904094262632922e-03 9.99977877795664937821e-01 -2.08023132307501323369e-04
9.53696200000000000000e+08 9.77779788501921709454e-01 -2.08478198689292154588e-01 -7.02664784245894875371e-04 -6.59265950347293072653e-03 -7.02664784245894875371e-04 -6.59265950347293072653e-03 9.99977779788501885960e-01 -2.08478198689292021015e-04
9.53797300000000000000e+08 9.77681142074964593114e-01 -2.08935186012050994053e-01 -7.05784258168115781994e-04 -6.60711071149033477012e-03 -7.05784258168115781994e-04 -6.60711071149033477012e-03 9.99977681142074970033e-01 -2.08935186012050859612e-04
9.53898400000000000000e+08 9.77581850857174750047e-01 -2.09394106311051153568e-01 -7.08924122166791213957e-04 -6.62162304558359428308e-03 -7.08924122166791213957e-04 -6.62162304558359428308e-03 9.99977581850857166756e-01 -2.09394106311051007852e-04
9.53999500000000000000e+08 9.77481909262165271635e-01 -2.09854971720855959516e-01 -7.12084552898992087337e-04 -6.63619688948129636541e-03 -7.12084552898992087337e-04 -6.63619688948129636541e-03 9.99977481909262166937e-01 -2.09854971720855839386e-04
9.54100600000000000000e+08 9.77381311643266026401e-01 -2.10317794476332753373e-01 -7.15265728928106110998e-04 -6.65083263008391448179e-03 -7.15265728928106110998e-04 -6.65083263008391448179e-03 9.99977381311643265249e-01 -2.10317794476332634761e-04
9.54201700000000000000e+08 9.77280052292746170828e-01 -2.10782586913670799689e-01 -7.18467830748427166605e-04 -6.66553065749600666401e-03 -7.18467830748427166605e-04 -6.66553065749600666401e-03 9.99977280052292694101e-01 -2.10782586913670674355e-04
9.54302800000000000000e+08 9.77178125441024558739e-01 -2.11249361471414265345e-01 -7.21691040810132507753e-04 -6.68029136505887861930e-03 -7.21691040810132507753e-04 -6.68029136505887861930e-03 9.99977178125441068524e-01 -2.11249361471414130688e-04
9.54403900000000000000e+08 9.77075525255866716989e-01 -2.11718130691512351760e-01 -7.24935543544668269632e-04 -6.69511514938378547029e-03 -7.24935543544668269632e-04 -6.69511514938378547029e-03 9.99977075525255831856e-01 -2.11718130691512226643e-04
9.54505000000000000000e+08 9.76972245841571829139e-01 -2.12188907220374783913e-01 -7.28201525390469129803e-04 -6.71000241038531911042e-03 -7.28201525390469129803e-04 -6.71000241038531911042e-03 9.99976972245841588816e-01 -2.12188907220374652074e-04
9.54606100000000000000e+08 9.76868281238145952372e-01 -2.12661703809943258836e-01 -7.31489174819086821616e-04 -6.72495355131528041448e-03 -7.31489174819086821616e-04 -6.72495355131528041448e-03 9.99976868281238107095e-01 -2.12661703809943135020e-04
9.54707200000000000000e+08 9.76763625420463355020e-01 -2.13136533318777743329e-01 -7.34798682361729885507e-04 -6.73996897879704064127e-03 -7.34798682361729885507e-04 -6.73996897879704064127e-03 9.99976763625420428383e-01 -2.13136533318777622549e-04
9.54808300000000000000e+08 9.76658272297414531415e-01 -2.13613408713154401264e-01 -7.38130240636194058339e-04 -6.75504910286025411770e-03 -7.38130240636194058339e-04 -6.75504910286025411770e-03 9.99976658272297425079e-01 -2.13613408713154279400e-04
9.54909400000000000000e+08 9.76552215711042448376e-01 -2.14092343068173041054e-01 -7.41484044374175169274e-04 -6.77019433697587970367e-03 -7.41484044374175169274e-04 -6.77019433697587970367e-03 9.99976552215711023130e-01 -2.14092343068172919190e-04
9.55010500000000000000e+08 9.76445449435664025728e-01 -2.14573349568886628802e-01 -7.44860290449061578262e-04 -6.78540509809190221790e-03 -7.44860290449061578262e-04 -6.78540509809190221790e-03 9.99976445449435646928e-01 -2.14573349568886472026e-04
9.55111600000000000000e+08 9.76337967176979737438e-01 -2.15056441511435020297e-01 -7.48259177904080389696e-04 -6.80068180666918396804e-03 -7.48259177904080389696e-04 -6.80068180666918396804e-03 9.99976337967176998056e-01 -2.15056441511434870244e-04
9.55212700000000000000e+08 9.76229762571168113716e-01 -2.15541632304200370118e-01 -7.51680907980932858092e-04 -6.81602488671799715964e-03 -7.51680907980932858092e-04 -6.81602488671799715964e-03 9.99976229762571167115e-01 -2.15541632304200238713e-04
9.55313800000000000000e+08 9.76120829183968363729e-01 -2.16028935468969313094e-01 -7.55125684148814468703e-04 -6.83143476583477834985e-03 -7.55125684148814468703e-04 -6.83143476583477834985e-03 9.99976120829183967587e-01 -2.16028935468969186676e-04
9.55414900000000000000e+08 9.76011160509746233949e-01 -2.16518364642117960850e-01 -7.58593712133945243664e-04 -6.84691187523960541339e-03 -7.58593712133945243664e-04 -6.84691187523960541339e-03 9.99976011160509714593e-01 -2.16518364642117813615e-04
9.55516000000000000000e+08 9.75900749970547320977e-01 -2.17009933575804614403e-01 -7.62085199949502829254e-04 -6.86245664981390609410e-03 -7.62085199949502829254e-04 -6.86245664981390609410e-03 9.99975900749970558756e-01 -2.17009933575804467168e-04
9.55617100000000000000e+08 9.75789590915136284544e-01 -2.17503656139176909656e-01 -7.65600357926019838527e-04 -6.87806952813863840129e-03 -7.65600357926019838527e-04 -6.87806952813863840129e-03 9.99975789590915153937e-01 -2.17503656139176758302e-04
9.55718200000000000000e+08 9.75677676618018963062e-01 -2.17999546319600584487e-01 -7.69139398742296406808e-04 -6.89375095253314494614e-03 -7.69139398742296406808e-04 -6.89375095253314494614e-03 9.99975677676617991096e-01 -2.17999546319600450263e-04
9.55819300000000000000e+08 9.75565000278451277538e-01 -2.18497618223896156175e-01 -7.72702537456742199681e-04 -6.90950136909425881304e-03 -7.72702537456742199681e-04 -6.90950136909425881304e-03 9.99975565000278399097e-01 -2.18497618223896018265e-04
9.55920400000000000000e+08 9.75451555019432037241e-01 -2.18997886079593861997e-01 -7.76289991539227128628e-04 -6.92532122773599143062e-03 -7.76289991539227128628e-04 -6.92532122773599143062e-03 9.99975451555019434480e-01 -2.18997886079593721918e-04
9.56021500000000000000e+08 9.75337333886679869188e-01 -2.19500364236205752766e-01 -7.79901980903438063822e-04 -6.94121098222975473763e-03 -7.79901980903438063822e-04 -6.94121098222975473763e-03 9.99975337333886660218e-01 -2.19500364236205618325e-04
9.56122600000000000000e+08 9.75222329847595048591e-01 -2.20005067166509360455e-01 -7.83538727939711728519e-04 -6.95717109024496151853e-03 -7.83538727939711728519e-04 -6.95717109024496151853e-03 9.99975222329847590608e-01 -2.20005067166509230350e-04
9.56223700000000000000e+08 9.75106535790203565739e-01 -2.20512009467850683686e-01 -7.87200457548404381944e-04 -6.97320201339022161663e-03 -7.87200457548404381944e-04 -6.97320201339022161663e-03 9.99975106535790247975e-01 -2.20512009467850540788e-04
9.56324800000000000000e+08 9.74989944522086426915e-01 -2.21021205863462438801e-01 -7.90887397173779208709e-04 -6.98930421725503427804e-03 -7.90887397173779208709e-04 -6.98930421725503427804e-03 9.99974989944522052454e-01 -2.21021205863462300890e-04
9.56425900000000000000e+08 9.74872548769290747650e-01 -2.21532671203798742221e-01 -7.94599776838423449421e-04 -7.00547817145199310657e-03 -7.94599776838423449421e-04 -7.00547817145199310657e-03 9.99974872548769266878e-01 -2.21532671203798601925e-04
9.56527000000000000000e+08 9.74754341175224303662e-01 -2.22046420467886029826e-01 -7.98337829178206981849e-04 -7.02172434965950536395e-03 -7.98337829178206981849e-04 -7.02172434965950536395e-03 9.99974754341175220418e-01 -2.22046420467885899505e-04
9.56628100000000000000e+08 9.74635314299533206395e-01 -2.22562468764690213341e-01 -8.02101789477785605265e-04 -7.03804322966502301367e-03 -8.02101789477785605265e-04 -7.03804322966502301367e-03 9.99974635314299531430e-01 -2.22562468764690056999e-04
9.56729200000000000000e+08 9.74515460616959927620e-01 -2.23080831334504126051e-01 -8.05891895706690010795e-04 -7.05443529340892341861e-03 -8.05891895706690010795e-04 -7.05443529340892341861e-03 9.99974515460616997231e-01 -2.23080831334503988791e-04
9.56830300000000000000e+08 9.74394772516185780908e-01 -2.23601523550347680569e-01 -8.09708388555950889752e-04 -7.07090102702878035151e-03 -8.09708388555950889752e-04 -7.07090102702878035151e-03 9.99974394772516150809e-01 -2.23601523550347555018e-04
9.56931400000000000000e+08 9.74273242298653530113e-01 -2.24124560919388482461e-01 -8.13551511475326966788e-04 -7.08744092090428986358e-03 -8.13551511475326966788e-04 -7.08744092090428986358e-03 9.99974273242298705711e-01 -2.24124560919388354308e-04
9.57032500000000000000e+08 9.74150862177371013040e-01 -2.24649959084380956842e-01 -8.17421510711131078970e-04 -7.10405546970278075486e-03 -8.17421510711131078970e-04 -7.10405546970278075486e-03 9.99974150862177335597e-01 -2.24649959084380812426e-04
9.57133600000000000000e+08 9.74027624275696557454e-01 -2.25177733825121739741e-01 -8.21318635344644000854e-04 -7.12074517242523852278e-03 -8.21318635344644000854e-04 -7.12074517242523852278e-03 9.99974027624275674242e-01 -2.25177733825121615275e-04
9.57234700000000000000e+08 9.73903520626104968194e-01 -2.25707901059922028120e-01 -8.25243137331132603843e-04 -7.13751053245286100346e-03 -8.25243137331132603843e-04 -7.13751053245286100346e-03 9.99973903520626095087e-01 -2.25707901059921892811e-04
9.57335800000000000000e+08 9.73778543168932420038e-01 -2.26240476847105742575e-01 -8.29195271539545316654e-04 -7.15435205759443713924e-03 -8.29195271539545316654e-04 -7.15435205759443713924e-03 9.99973778543168934085e-01 -2.26240476847105613555e-04
