! File generated for n1 = 9, n2 = 3
! b1 = 0.215443
! b2 = 0.046416
! Q0 = 10000.000000
! f0 = 1000000000.000000
! n = 1001
! rel_span = 10.000000
# Hz S RI R 50
9.99369070321330308914e+08 9.96621222627829705942e-01 -3.37984393055451512455e-02 -1.56828953219290308241e-03 -1.56878458474157614355e-02 -1.56828953219290308241e-03 -1.56878458474157614355e-02 9.99272064481950161863e-01 -7.28165301088035989141e-03
9.99370332180687665939e+08 9.96607797287069718806e-01 -3.38648482353690882807e-02 -1.57452102336881876593e-03 -1.57186701421280564106e-02 -1.57452102336881876593e-03 -1.57186701421280564106e-02 9.99269172079964240751e-01 -7.29596038109441794722e-03
9.99371594040045022964e+08 9.96594292056906527755e-01 -3.39315158474941674926e-02 -1.58078959592091870985e-03 -1.57496145065283976727e-02 -1.58078959592091870985e-03 -1.57496145065283976727e-02 9.99266262466328214487e-01 -7.31032348272080481633e-03
9.99372855899402379990e+08 9.96580706304426633402e-01 -3.39984436397050213130e-02 -1.58709554362159279209e-03 -1.57806796358268205949e-02 -1.58709554362159279209e-03 -1.57806796358268205949e-02 9.99263335504684935273e-01 -7.32474263844743508217e-03
9.99374117758759617805e+08 9.96567039390456099746e-01 -3.40656331212460944391e-02 -1.59343916314913947724e-03 -1.58118662305525500833e-02 -1.59343916314913947724e-03 -1.58118662305525500833e-02 9.99260391057328556386e-01 -7.33921817343117025012e-03
9.99375379618116974831e+08 9.96553290669487945586e-01 -3.41330858129212030838e-02 -1.59982075412136719346e-03 -1.58431749966001823859e-02 -1.59982075412136719346e-03 -1.58431749966001823859e-02 9.99257428985188878023e-01 -7.35375041531925732752e-03
9.99376641477474331856e+08 9.96539459489609424914e-01 -3.42008032471908945960e-02 -1.60624061912935443656e-03 -1.58746066452748885167e-02 -1.60624061912935443656e-03 -1.58746066452748885167e-02 9.99254449147815360099e-01 -7.36833969427031464094e-03
9.99377903336831688881e+08 9.96525545192422868013e-01 -3.42687869682979373565e-02 -1.61269906377422243826e-03 -1.59061618933506801477e-02 -1.61269906377422243826e-03 -1.59061618933506801477e-02 9.99251451403360801962e-01 -7.38298634298136229742e-03
9.99379165196189045906e+08 9.96511547112970297313e-01 -3.43370385323701968194e-02 -1.61919639670214709007e-03 -1.59378414631181214434e-02 -1.61919639670214709007e-03 -1.59378414631181214434e-02 9.99248435608564133936e-01 -7.39769069670998240945e-03
9.99380427055546402931e+08 9.96497464579656155870e-01 -3.44055595075276263173e-02 -1.62573292964013479608e-03 -1.59696460824340184803e-02 -1.62573292964013479608e-03 -1.59696460824340184803e-02 9.99245401618734541138e-01 -7.41245309329738050891e-03
9.99381688914903759956e+08 9.96483296914161931213e-01 -3.44743514740267556484e-02 -1.63230897743575457948e-03 -1.60015764847884801869e-02 -1.63230897743575457948e-03 -1.60015764847884801869e-02 9.99242349287732811725e-01 -7.42727387319950388411e-03
9.99382950774260997772e+08 9.96469043431374212894e-01 -3.45434160243341531471e-02 -1.63892485809049377916e-03 -1.60336334093390125988e-02 -1.63892485809049377916e-03 -1.60336334093390125988e-02 9.99239278467955682750e-01 -7.44215337950287526836e-03
9.99384212633618354797e+08 9.96454703439295652601e-01 -3.46127547632796364607e-02 -1.64558089280111407432e-03 -1.60658176009816251739e-02 -1.64558089280111407432e-03 -1.60658176009816251739e-02 9.99236189010316744330e-01 -7.45709195795759595404e-03
9.99385474492975711823e+08 9.96440276238964917077e-01 -3.46823693081594955356e-02 -1.65227740599665010035e-03 -1.60981298103987681414e-02 -1.65227740599665010035e-03 -1.60981298103987681414e-02 9.99233080764229564252e-01 -7.47208995699959188652e-03
9.99386736352333068848e+08 9.96425761124375863886e-01 -3.47522612888438234280e-02 -1.65901472537618283574e-03 -1.61305707941091121260e-02 -1.65901472537618283574e-03 -1.61305707941091121260e-02 9.99229953577589480318e-01 -7.48714772777372711970e-03
9.99387998211690425873e+08 9.96411157382388723569e-01 -3.48224323479126435243e-02 -1.66579318194981203585e-03 -1.61631413145307753498e-02 -1.66579318194981203585e-03 -1.61631413145307753498e-02 9.99226807296755392684e-01 -7.50226562416314145948e-03
9.99389260071047782898e+08 9.96396464292644279404e-01 -3.48928841407784226525e-02 -1.67261311007873810300e-03 -1.61958421400381531730e-02 -1.67261311007873810300e-03 -1.61958421400381531730e-02 9.99223641766530445985e-01 -7.51744400281563820987e-03
9.99390521930405020714e+08 9.96381681127475715698e-01 -3.49636183358097638041e-02 -1.67947484751589863443e-03 -1.62286740450193617269e-02 -1.67947484751589863443e-03 -1.62286740450193617269e-02 9.99220456830143710647e-01 -7.53268322317033906660e-03
9.99391783789762377739e+08 9.96366807151820466082e-01 -3.50346366144567433754e-02 -1.68637873544719087311e-03 -1.62616378099343823760e-02 -1.68637873544719087311e-03 -1.62616378099343823760e-02 9.99217252329230642971e-01 -7.54798364748467988383e-03
9.99393045649119734764e+08 9.96351841623133505088e-01 -3.51059406713586097393e-02 -1.69332511853142672620e-03 -1.62947342213650842035e-02 -1.69332511853142672620e-03 -1.62947342213650842035e-02 9.99214028103814877468e-01 -7.56334564085761867219e-03
9.99394307508477091789e+08 9.96336783791289315459e-01 -3.51775322145063060186e-02 -1.70031434494606853262e-03 -1.63279640720906255025e-02 -1.70031434494606853262e-03 -1.63279640720906255025e-02 9.99210783992286688537e-01 -7.57876957126464925740e-03
9.99395569367834448814e+08 9.96321632898496178932e-01 -3.52494129653374080324e-02 -1.70734676642684841258e-03 -1.63613281611315608544e-02 -1.70734676642684841258e-03 -1.63613281611315608544e-02 9.99207519831384782805e-01 -7.59425580957825453743e-03
9.99396831227191805840e+08 9.96306388179195923094e-01 -3.53215846588987025800e-02 -1.71442273831444772468e-03 -1.63948272938252634368e-02 -1.71442273831444772468e-03 -1.63948272938252634368e-02 9.99204235456174760799e-01 -7.60980472960293662099e-03
9.99398093086549162865e+08 9.96291048859976213770e-01 -3.53940490439406466039e-02 -1.72154261959498898135e-03 -1.64284622818697961799e-02 -1.72154261959498898135e-03 -1.64284622818697961799e-02 9.99200930700029910092e-01 -7.62541670809555559296e-03
9.99399354945906400681e+08 9.96275614159467748365e-01 -3.54668078830829916481e-02 -1.72870677294797905205e-03 -1.64622339434007669556e-02 -1.72870677294797905205e-03 -1.64622339434007669556e-02 9.99197605394609333906e-01 -7.64109212480102665405e-03
9.99400616805263757706e+08 9.96260083288243447619e-01 -3.55398629529634843549e-02 -1.73591556479310679846e-03 -1.64961431030603775105e-02 -1.73591556479310679846e-03 -1.64961431030603775105e-02 9.99194259369836190743e-01 -7.65683136248435005505e-03
9.99401878664621114731e+08 9.96244455448728638558e-01 -3.56132160443269063510e-02 -1.74316936533165135759e-03 -1.65301905920387202931e-02 -1.74316936533165135759e-03 -1.65301905920387202931e-02 9.99190892453878043433e-01 -7.67263480694979453645e-03
9.99403140523978471756e+08 9.96228729835094028999e-01 -3.56868689621958334879e-02 -1.75046854859643632313e-03 -1.65643772481530622553e-02 -1.75046854859643632313e-03 -1.65643772481530622553e-02 9.99187504473124432636e-01 -7.68850284707768300702e-03
9.99404402383335828781e+08 9.96212905633156786678e-01 -3.57608235259947379592e-02 -1.75781349249770906147e-03 -1.65987039159054342030e-02 -1.75781349249770906147e-03 -1.65987039159054342030e-02 9.99184095252164894418e-01 -7.70443587485113677571e-03
9.99405664242693185806e+08 9.96196982020269516944e-01 -3.58350815697245292379e-02 -1.76520457887453948408e-03 -1.66331714465636423816e-02 -1.76520457887453948408e-03 -1.66331714465636423816e-02 9.99180664613765423532e-01 -7.72043428539367221353e-03
9.99406926102050542831e+08 9.96180958165224339496e-01 -3.59096449420638966221e-02 -1.77264219353949026119e-03 -1.66677806982083349940e-02 -1.77264219353949026119e-03 -1.66677806982083349940e-02 9.99177212378847601215e-01 -7.73649847699104178944e-03
9.99408187961407780647e+08 9.96164833228140755850e-01 -3.59845155065373761838e-02 -1.78012672633043995095e-03 -1.67025325358109745510e-02 -1.78012672633043995095e-03 -1.67025325358109745510e-02 9.99173738366464947447e-01 -7.75262885112743601462e-03
9.99409449820765137672e+08 9.96148606360354627043e-01 -3.60596951416788935596e-02 -1.78765857116254382221e-03 -1.67374278313097701876e-02 -1.78765857116254382221e-03 -1.67374278313097701876e-02 9.99170242393777940926e-01 -7.76882581252071914568e-03
9.99410711680122494698e+08 9.96132276704316921290e-01 -3.61351857411343693749e-02 -1.79523812607463987591e-03 -1.67724674636572958220e-02 -1.79523812607463987591e-03 -1.67724674636572958220e-02 9.99166724276033590968e-01 -7.78508976914453563328e-03
9.99411973539479851723e+08 9.96115843393476474432e-01 -3.62109892138450170651e-02 -1.80286579328429877669e-03 -1.68076523189055783425e-02 -1.80286579328429877669e-03 -1.68076523189055783425e-02 9.99163183826538903176e-01 -7.80142113226780717361e-03
9.99413235398837208748e+08 9.96099305552164859812e-01 -3.62871074842031210439e-02 -1.81054197924070776546e-03 -1.68429832902783904736e-02 -1.81054197924070776546e-03 -1.68429832902783904736e-02 9.99159620856636898623e-01 -7.81782031648827965831e-03
9.99414497258194565773e+08 9.96082662295487364368e-01 -3.63635424921825850531e-02 -1.81826709467560409215e-03 -1.68784612782318481361e-02 -1.81826709467560409215e-03 -1.68784612782318481361e-02 9.99156035175682855076e-01 -7.83428773976066125662e-03
9.99415759117551922798e+08 9.96065912729200642062e-01 -3.64402961935216332390e-02 -1.82604155466005511725e-03 -1.69140871905392245478e-02 -1.82604155466005511725e-03 -1.69140871905392245478e-02 9.99152426591017661650e-01 -7.85082382343598068897e-03
9.99417020976909160614e+08 9.96049055949599915216e-01 -3.65173705598535319750e-02 -1.83386577865660561730e-03 -1.69498619423516169724e-02 -1.83386577865660561730e-03 -1.69498619423516169724e-02 9.99148794907944282073e-01 -7.86742899228974786052e-03
9.99418282836266517639e+08 9.96032091043391965002e-01 -3.65947675788999768343e-02 -1.84174019057838458426e-03 -1.69857864562877082515e-02 -1.84174019057838458426e-03 -1.69857864562877082515e-02 9.99145139929699555026e-01 -7.88410367456362018435e-03
9.99419544695623874664e+08 9.96015017087583998112e-01 -3.66724892545850222891e-02 -1.84966521884077830101e-03 -1.70218616624866446452e-02 -1.84966521884077830101e-03 -1.70218616624866446452e-02 9.99141461457430657411e-01 -7.90084830198994718387e-03
9.99420806554981231689e+08 9.95997833149347644444e-01 -3.67505376072527895071e-02 -1.85764129642429628650e-03 -1.70580884987091042915e-02 -1.85764129642429628650e-03 -1.70580884987091042915e-02 9.99137759290165905490e-01 -7.91766330983867394622e-03
9.99422068414338588715e+08 9.95980538285906158436e-01 -3.68289146737781417085e-02 -1.86566886092718567554e-03 -1.70944679103886415517e-02 -1.86566886092718567554e-03 -1.70944679103886415517e-02 9.99134033224790107930e-01 -7.93454913694119010059e-03
9.99423330273695945740e+08 9.95963131544394753014e-01 -3.69076225077887981607e-02 -1.87374835463008479648e-03 -1.71310008507348163209e-02 -1.87374835463008479648e-03 -1.71310008507348163209e-02 9.99130283056014922849e-01 -7.95150622573817349170e-03
9.99424592133053183556e+08 9.95945611961743804130e-01 -3.69866631797794651049e-02 -1.88188022455030136773e-03 -1.71676882807861273805e-02 -1.88188022455030136773e-03 -1.71676882807861273805e-02 9.99126508576353100644e-01 -7.96853502230418508923e-03
9.99425853992410540581e+08 9.95927978564537186301e-01 -3.70660387773314170534e-02 -1.89006492250759277826e-03 -1.72045311695119759743e-02 -1.89006492250759277826e-03 -1.72045311695119759743e-02 9.99122709576088507966e-01 -7.98563597639497836644e-03
9.99427115851767897606e+08 9.95910230368883708785e-01 -3.71457514052652079672e-02 -1.89830290518377985988e-03 -1.72415304938835188542e-02 -1.89830290518377985988e-03 -1.72415304938835188542e-02 9.99118885843248372147e-01 -8.00280954148039486151e-03
9.99428377711125254631e+08 9.95892366380285443128e-01 -3.72258031858019450278e-02 -1.90659463418393708943e-03 -1.72786872389485320067e-02 -1.90659463418393708943e-03 -1.72786872389485320067e-02 9.99115037163574526424e-01 -8.02005617477911242341e-03
9.99429639570482611656e+08 9.95874385593494282354e-01 -3.73061962587687909187e-02 -1.91494057610287846810e-03 -1.73160023979268030969e-02 -1.91494057610287846810e-03 -1.73160023979268030969e-02 9.99111163320492878803e-01 -8.03737633730291535505e-03
9.99430901429839968681e+08 9.95856286992379380330e-01 -3.73869327817504260025e-02 -1.92334120258678639183e-03 -1.73534769722804294023e-02 -1.92334120258678639183e-03 -1.73534769722804294023e-02 9.99107264095084546263e-01 -8.05477049388933323548e-03
9.99432163289197325706e+08 9.95838069549780269263e-01 -3.74680149302955706192e-02 -1.93179699040129499409e-03 -1.73911119718096786324e-02 -1.93179699040129499409e-03 -1.73911119718096786324e-02 9.99103339266054657486e-01 -8.07223911324613137286e-03
9.99433425148554563522e+08 9.95819732227369303068e-01 -3.75494448980760037182e-02 -1.94030842149539887662e-03 -1.74289084147267910041e-02 -1.94030842149539887662e-03 -1.74289084147267910041e-02 9.99099388609702265818e-01 -8.08978266798556638895e-03
9.99434687007911920547e+08 9.95801273975494893875e-01 -3.76312248971229640349e-02 -1.94887598307421391723e-03 -1.74668673277657109100e-02 -1.94887598307421391723e-03 -1.74668673277657109100e-02 9.99095411899886709506e-01 -8.10740163467532116981e-03
9.99435948867269277573e+08 9.95782693733053281271e-01 -3.77133571579294502030e-02 -1.95750016765850257117e-03 -1.75049897462295871164e-02 -1.95750016765850257117e-03 -1.75049897462295871164e-02 9.99091408908000078171e-01 -8.12509649386054452758e-03
9.99437210726626634598e+08 9.95763990427316558751e-01 -3.77958439297380668909e-02 -1.96618147316441867559e-03 -1.75432767141243534104e-02 -1.96618147316441867559e-03 -1.75432767141243534104e-02 9.99087379402930353400e-01 -8.14286773012586756471e-03
9.99438472585983991623e+08 9.95745162973799557982e-01 -3.78786874806510687197e-02 -1.97492040296543512612e-03 -1.75817292842098127359e-02 -1.97492040296543512612e-03 -1.75817292842098127359e-02 9.99083323151032209886e-01 -8.16071583211910693556e-03
9.99439734445341348648e+08 9.95726210276090983875e-01 -3.79618900978873075047e-02 -1.98371746597052851444e-03 -1.76203485181189237196e-02 -1.98371746597052851444e-03 -1.76203485181189237196e-02 9.99079239916090822149e-01 -8.17864129260662681142e-03
9.99440996304698705673e+08 9.95707131225706865152e-01 -3.80454540879363936612e-02 -1.99257317669239257529e-03 -1.76591354864293198501e-02 -1.99257317669239257529e-03 -1.76591354864293198501e-02 9.99075129459290778300e-01 -8.19664460850655016144e-03
9.99442258164055943489e+08 9.95687924701927129512e-01 -3.81293817767769660509e-02 -2.00148805532326034759e-03 -1.76980912687646554926e-02 -2.00148805532326034759e-03 -1.76980912687646554926e-02 9.99070991539180219831e-01 -8.21472628093578363662e-03
9.99443520023413300514e+08 9.95668589571628404045e-01 -3.82136755101015954117e-02 -2.01046262781233572511e-03 -1.77372169538989668536e-02 -2.01046262781233572511e-03 -1.77372169538989668536e-02 9.99066825911635092439e-01 -8.23288681525847013121e-03
9.99444781882770657539e+08 9.95649124689128028898e-01 -3.82983376534887995368e-02 -2.01949742593850265632e-03 -1.77765136398365421189e-02 -2.01949742593850265632e-03 -1.77765136398365421189e-02 9.99062632329825395239e-01 -8.25112672112305461924e-03
9.99446043742128014565e+08 9.95629528896018300976e-01 -3.83833705926029736255e-02 -2.02859298738686634825e-03 -1.78159824339047048736e-02 -2.02859298738686634825e-03 -1.78159824339047048736e-02 9.99058410544179986701e-01 -8.26944651250535039955e-03
9.99447305601485371590e+08 9.95609801020986062703e-01 -3.84687767334568192501e-02 -2.03774985583292421801e-03 -1.78556244528756229151e-02 -2.03774985583292421801e-03 -1.78556244528756229151e-02 9.99054160302346949685e-01 -8.28784670776507720324e-03
9.99448567460842728615e+08 9.95589939879655605459e-01 -3.85545585025567905113e-02 -2.04696858101516797335e-03 -1.78954408230338202213e-02 -2.04696858101516797335e-03 -1.78954408230338202213e-02 9.99049881349160395771e-01 -8.30632782967720591227e-03
9.99449829320199966431e+08 9.95569944274404816653e-01 -3.86407183471595486179e-02 -2.05624971882049749350e-03 -1.79354326802952171449e-02 -2.05624971882049749350e-03 -1.79354326802952171449e-02 9.99045573426600386213e-01 -8.32489040548719909374e-03
9.99451091179557323456e+08 9.95549812994182659054e-01 -3.87272587355130190612e-02 -2.06559383136902235262e-03 -1.79756011703190166084e-02 -2.06559383136902235262e-03 -1.79756011703190166084e-02 9.99041236273753852082e-01 -8.34353496696295382495e-03
9.99452353038914680481e+08 9.95529544814342304271e-01 -3.88141821570203299219e-02 -2.07500148709151809034e-03 -1.80159474485837890756e-02 -2.07500148709151809034e-03 -1.80159474485837890756e-02 9.99036869626778623044e-01 -8.36226205043011545925e-03
9.99453614898272037506e+08 9.95509138496454393241e-01 -3.89014911224781489985e-02 -2.08447326081589003402e-03 -1.80564726804981201536e-02 -2.08447326081589003402e-03 -1.80564726804981201536e-02 9.99032473218863237285e-01 -8.38107219682342891032e-03
9.99454876757629394531e+08 9.95488592788110193688e-01 -3.89891881643528448453e-02 -2.09400973385880269373e-03 -1.80971780415287684940e-02 -2.09400973385880269373e-03 -1.80971780415287684940e-02 9.99028046780184419973e-01 -8.39996595174623099378e-03
9.99456138616986751556e+08 9.95467906422751513951e-01 -3.90772758369289444080e-02 -2.10361149410449518871e-03 -1.81380647172695828873e-02 -2.10361149410449518871e-03 -1.81380647172695828873e-02 9.99023590037870556912e-01 -8.41894386550244219758e-03
9.99457400476344108582e+08 9.95447078119462869239e-01 -3.91657567166102463241e-02 -2.11327913610123707677e-03 -1.81791339035812793412e-02 -2.11327913610123707677e-03 -1.81791339035812793412e-02 9.99019102715956508476e-01 -8.43800649316143493162e-03
9.99458662335701346397e+08 9.95426106582787073584e-01 -3.92546334021121323676e-02 -2.12301326114703583711e-03 -1.82203868066806856651e-02 -2.12301326114703583711e-03 -1.82203868066806856651e-02 9.99014584535344751792e-01 -8.45715439459946739797e-03
9.99459924195058703423e+08 9.95404990502516184847e-01 -3.93439085147462425107e-02 -2.13281447738654329413e-03 -1.82618246432728892348e-02 -2.13281447738654329413e-03 -1.82618246432728892348e-02 9.99010035213759528538e-01 -8.47638813456101126997e-03
9.99461186054416060448e+08 9.95383728553508428938e-01 -3.94335846985867100045e-02 -2.14268339989610390531e-03 -1.83034486406283801452e-02 -2.14268339989610390531e-03 -1.83034486406283801452e-02 9.99005454465707432021e-01 -8.49570828269456852777e-03
9.99462447913773417473e+08 9.95362319395469152816e-01 -3.95236646207764857897e-02 -2.15262065078530590717e-03 -1.83452600367252569025e-02 -2.15262065078530590717e-03 -1.83452600367252569025e-02 9.99000842002431110878e-01 -8.51511541361867074773e-03
9.99463709773130774498e+08 9.95340761672743878918e-01 -3.96141509717745504693e-02 -2.16262685929324675882e-03 -1.83872600803639540956e-02 -2.16262685929324675882e-03 -1.83872600803639540956e-02 9.98996197531863305841e-01 -8.53461010697513511314e-03
9.99464971632488131523e+08 9.95319054014122794882e-01 -3.97050464655421958549e-02 -2.17270266187922535261e-03 -1.84294500312537148923e-02 -2.17270266187922535261e-03 -1.84294500312537148923e-02 9.98991520758586104556e-01 -8.55419294746919203765e-03
9.99466233491845488548e+08 9.95297195032607384668e-01 -3.97963538398754812508e-02 -2.18284870233081181728e-03 -1.84718311601669051003e-02 -2.18284870233081181728e-03 -1.84718311601669051003e-02 9.98986811383779538254e-01 -8.57386452494112924483e-03
9.99467495351202726364e+08 9.95275183325206258544e-01 -3.98880758566097920470e-02 -2.19306563185899796795e-03 -1.85144047490339476447e-02 -2.19306563185899796795e-03 -1.85144047490339476447e-02 9.98982069105178283053e-01 -8.59362543441033813196e-03
