! File generated for n1 = 8, n2 = 5
! b1 = 0.464159
! b2 = 0.021544
! Q0 = 10000.000000
! f0 = 1000000000.000000
! n = 1001
! rel_span = 10.000000
# Hz S RI R 50
9.99257148384869217873e+08 9.93818076598220190299e-01 -6.18422123462005965400e-02 -1.33185502279144370695e-03 -1.33235007586972598048e-02 -1.33185502279144370695e-03 -1.33235007586972598048e-02 9.99713060533680475395e-01 -2.87046122272034990794e-03
9.99258634088099479675e+08 9.93793511742806390252e-01 -6.19637302228058031717e-02 -1.33714736045734161086e-03 -1.33496809915789865081e-02 -1.33714736045734161086e-03 -1.33496809915789865081e-02 9.99711920334094616969e-01 -2.87610158291170007680e-03
9.99260119791329741478e+08 9.93768800707845345599e-01 -6.20857214480510094523e-02 -1.34247119155199868407e-03 -1.33759632043337628460e-02 -1.34247119155199868407e-03 -1.33759632043337628460e-02 9.99710773349455239511e-01 -2.88176391400066927995e-03
9.99261605494560003281e+08 9.93743942335235330710e-01 -6.22081887626623475374e-02 -1.34782676558088416324e-03 -1.34023479874331354761e-02 -1.34782676558088416324e-03 -1.34023479874331354761e-02 9.99709619526007897683e-01 -2.88744834320049442375e-03
9.99263091197790265083e+08 9.93718935455420337988e-01 -6.23311349283279594879e-02 -1.35321433451717301234e-03 -1.34288359358647746422e-02 -1.35321433451717301234e-03 -1.34288359358647746422e-02 9.99708458809466793404e-01 -2.89315499869738455146e-03
9.99264576901020526886e+08 9.93693778887257517241e-01 -6.24545627278824122541e-02 -1.35863415283038707453e-03 -1.34554276491722166892e-02 -1.35863415283038707453e-03 -1.34554276491722166892e-02 9.99707291145008003497e-01 -2.89888400965907780046e-03
9.99266062604250788689e+08 9.93668471437880396202e-01 -6.25784749655020899883e-02 -1.36408647751581684968e-03 -1.34821237314969484544e-02 -1.36408647751581684968e-03 -1.34821237314969484544e-02 9.99706116477263706521e-01 -2.90463550624391270497e-03
9.99267548307481050491e+08 9.93643011902558548343e-01 -6.27028744669121673727e-02 -1.36957156812476314560e-03 -1.35089247916230018043e-02 -1.36957156812476314560e-03 -1.35089247916230018043e-02 9.99704934750315077352e-01 -2.91040961961043292625e-03
9.99269034010711312294e+08 9.93617399064556261479e-01 -6.28277640795912306615e-02 -1.37508968679499383493e-03 -1.35358314430210433660e-02 -1.37508968679499383493e-03 -1.35358314430210433660e-02 9.99703745907686402994e-01 -2.91620648192688659839e-03
9.99270519713941574097e+08 9.93591631694990096157e-01 -6.29531466729734701104e-02 -1.38064109828141181463e-03 -1.35628443038919299646e-02 -1.38064109828141181463e-03 -1.35628443038919299646e-02 9.99702549892337866133e-01 -2.92202622638061074861e-03
9.99272005417171835899e+08 9.93565708552678894527e-01 -6.30790251386814243562e-02 -1.38622606998840521356e-03 -1.35899639972168508051e-02 -1.38622606998840521356e-03 -1.35899639972168508051e-02 9.99701346646658994821e-01 -2.92786898718883428772e-03
9.99273491120402097702e+08 9.93539628384004891437e-01 -6.32054023906954698386e-02 -1.39184487199972323386e-03 -1.36171911507938468711e-02 -1.39184487199972323386e-03 -1.36171911507938468711e-02 9.99700136112462112159e-01 -2.93373489960654498104e-03
9.99274976823632359505e+08 9.93513389922756728900e-01 -6.33322813656052169273e-02 -1.39749777711232147336e-03 -1.36445263972919724610e-02 -1.39749777711232147336e-03 -1.36445263972919724610e-02 9.99698918230974675758e-01 -2.93962409993815849962e-03
9.99276462526862621307e+08 9.93486991889981019277e-01 -6.34596650228120146009e-02 -1.40318506086838405353e-03 -1.36719703742949182795e-02 -1.40318506086838405353e-03 -1.36719703742949182795e-02 9.99697692942833060492e-01 -2.94553672554691671828e-03
9.99277948230092883110e+08 9.93460432993831354942e-01 -6.35875563447335090395e-02 -1.40890700158777444108e-03 -1.36995237243450855569e-02 -1.40890700158777444108e-03 -1.36995237243450855569e-02 9.99696460188075008979e-01 -2.95147291486438402563e-03
9.99279433933323144913e+08 9.93433711929405771635e-01 -6.37159583370582038864e-02 -1.41466388040308141578e-03 -1.37271870949984414745e-02 -1.41466388040308141578e-03 -1.37271870949984414745e-02 9.99695219906132415133e-01 -2.95743280740226382672e-03
9.99280919636553406715e+08 9.93406827378596868350e-01 -6.38448740289313393381e-02 -1.42045598129194455828e-03 -1.37549611388645340315e-02 -1.42045598129194455828e-03 -1.37549611388645340315e-02 9.99693972035824107714e-01 -2.96341654376102141971e-03
9.99282405339783668518e+08 9.93379778009922387305e-01 -6.39743064732243849058e-02 -1.42628359111350295867e-03 -1.37828465136645879341e-02 -1.42628359111350295867e-03 -1.37828465136645879341e-02 9.99692716515348189787e-01 -2.96942426564239959214e-03
9.99283891043013930321e+08 9.93352562478374223609e-01 -6.41042587467111485422e-02 -1.43214699964100975263e-03 -1.38108438822694291198e-02 -1.43214699964100975263e-03 -1.38108438822694291198e-02 9.99691453282274822278e-01 -2.97545611585758700002e-03
9.99285376746244192123e+08 9.93325179425240012421e-01 -6.42347339503622355439e-02 -1.43804649960015931871e-03 -1.38389539127629166565e-02 -1.43804649960015931871e-03 -1.38389539127629166565e-02 9.99690182273538230362e-01 -2.98151223834088952361e-03
9.99286862449474453926e+08 9.93297627477950362263e-01 -6.43657352095114848600e-02 -1.44398238670201883513e-03 -1.38671772784778168236e-02 -1.44398238670201883513e-03 -1.38671772784778168236e-02 9.99688903425429375993e-01 -2.98759277815745325629e-03
9.99288348152704715729e+08 9.93269905249896778443e-01 -6.44972656741561178873e-02 -1.44995495968239435959e-03 -1.38955146580604562562e-02 -1.44995495968239435959e-03 -1.38955146580604562562e-02 9.99687616673587631233e-01 -2.99369788151719736988e-03
9.99289833855934977531e+08 9.93242011340272124009e-01 -6.46293285191329308637e-02 -1.45596452033597799358e-03 -1.39239667355086915723e-02 -1.45596452033597799358e-03 -1.39239667355086915723e-02 9.99686321952993228734e-01 -2.99982769578299246840e-03
9.99291319559165239334e+08 9.93213944333879661386e-01 -6.47619269444442979822e-02 -1.46201137355770195529e-03 -1.39525342002421344489e-02 -1.46201137355770195529e-03 -1.39525342002421344489e-02 9.99685019197958602000e-01 -3.00598236948579171368e-03
9.99292805262395501137e+08 9.93185702800978509330e-01 -6.48950641753949092339e-02 -1.46809582737588849473e-03 -1.39812177471316124305e-02 -1.46809582737588849473e-03 -1.39812177471316124305e-02 9.99683708342121057910e-01 -3.01216205233097644375e-03
9.99294290965625762939e+08 9.93157285297082692566e-01 -6.50287434629436555955e-02 -1.47421819299561971534e-03 -1.40100180765749867534e-02 -1.47421819299561971534e-03 -1.40100180765749867534e-02 9.99682389318433450853e-01 -3.01836689521469163019e-03
9.99295776668856024742e+08 9.93128690362788391077e-01 -6.51629680839102415346e-02 -1.48037878483591356545e-03 -1.40389358945416670849e-02 -1.48037878483591356545e-03 -1.40389358945416670849e-02 9.99681062059156189115e-01 -3.02459705023343586316e-03
9.99297262372086286545e+08 9.93099916523596970563e-01 -6.52977413411938434340e-02 -1.48657792056785761393e-03 -1.40679719126197057960e-02 -1.48657792056785761393e-03 -1.40679719126197057960e-02 9.99679726495849352297e-01 -3.03085267069420818270e-03
9.99298748075316548347e+08 9.93070962289714032067e-01 -6.54330665640950187578e-02 -1.49281592115792401121e-03 -1.40971268480851643495e-02 -1.49281592115792401121e-03 -1.40971268480851643495e-02 9.99678382559362588289e-01 -3.03713391112945055306e-03
9.99300233778546810150e+08 9.93041826155870221982e-01 -6.55689471085251912585e-02 -1.49909311090656925496e-03 -1.41264014239472438655e-02 -1.49909311090656925496e-03 -1.41264014239472438655e-02 9.99677030179827452727e-01 -3.04344092730677402356e-03
9.99301719481777071953e+08 9.93012506601118838390e-01 -6.57053863573150570554e-02 -1.50540981749183624787e-03 -1.41557963690147198266e-02 -1.50540981749183624787e-03 -1.41557963690147198266e-02 9.99675669286648083123e-01 -3.04977387624326932991e-03
9.99303205185007333755e+08 9.92983002088647870309e-01 -6.58423877204451363232e-02 -1.51176637200983255208e-03 -1.41853124179456314968e-02 -1.51176637200983255208e-03 -1.41853124179456314968e-02 9.99674299808491872987e-01 -3.05613291621621274013e-03
9.99304690888237595558e+08 9.92953311065585264572e-01 -6.59799546352990012865e-02 -1.51816310901670115628e-03 -1.42149503113018129546e-02 -1.51816310901670115628e-03 -1.42149503113018129546e-02 9.99672921673280812094e-01 -3.06251820677481490299e-03
9.99306176591467857361e+08 9.92923431962784319715e-01 -6.61180905669970647720e-02 -1.52460036657482418503e-03 -1.42447107956208320750e-02 -1.52460036657482418503e-03 -1.42447107956208320750e-02 9.99671534808181605491e-01 -3.06892990875571930118e-03
9.99307662294698119164e+08 9.92893363194629952062e-01 -6.62567990086257718740e-02 -1.53107848629464859957e-03 -1.42745946234653486168e-02 -1.53107848629464859957e-03 -1.42745946234653486168e-02 9.99670139139596569677e-01 -3.07536818429363567259e-03
9.99309147997928380966e+08 9.92863103158834636730e-01 -6.63960834815004730114e-02 -1.53759781337855518622e-03 -1.43046025534797529438e-02 -1.53759781337855518622e-03 -1.43046025534797529438e-02 9.99668734593153973655e-01 -3.08183319683354422364e-03
9.99310633701158642769e+08 9.92832650236211589068e-01 -6.65359475355250251649e-02 -1.54415869666976301317e-03 -1.43347353504676526537e-02 -1.54415869666976301317e-03 -1.43347353504676526537e-02 9.99667321093698046930e-01 -3.08832511114738627114e-03
9.99312119404388904572e+08 9.92802002790484028338e-01 -6.66763947493731329308e-02 -1.55076148869339250358e-03 -1.43649937854309212026e-02 -1.55076148869339250358e-03 -1.43649937854309212026e-02 9.99665898565279320565e-01 -3.09484409334247981965e-03
9.99313605107619166374e+08 9.92771159168052252930e-01 -6.68174287308547498743e-02 -1.55740654570671777264e-03 -1.43953786356486521103e-02 -1.55740654570671777264e-03 -1.43953786356486521103e-02 9.99664466931144635176e-01 -3.10139031087853025981e-03
9.99315090810849428177e+08 9.92740117697779478334e-01 -6.69590531171821989886e-02 -1.56409422774524175040e-03 -1.44258906847344846314e-02 -1.56409422774524175040e-03 -1.44258906847344846314e-02 9.99663026113726704835e-01 -3.10796393257997769638e-03
9.99316576514079689980e+08 9.92708876690770347651e-01 -6.71012715752601074382e-02 -1.57082489867043100136e-03 -1.44565307226990763523e-02 -1.57082489867043100136e-03 -1.44565307226990763523e-02 9.99661576034633903021e-01 -3.11456512864945840244e-03
9.99318062217309951782e+08 9.92677434440145112227e-01 -6.72440878019843063518e-02 -1.57759892621840008831e-03 -1.44872995460144822488e-02 -1.57759892621840008831e-03 -1.44872995460144822488e-02 9.99660116614639826516e-01 -3.12119407068167566827e-03
9.99319547920540213585e+08 9.92645789220804153352e-01 -6.73875055245708731722e-02 -1.58441668205059628914e-03 -1.45181979576850684471e-02 -1.58441668205059628914e-03 -1.45181979576850684471e-02 9.99658647773672526249e-01 -3.12785093167867577629e-03
9.99321033623770475388e+08 9.92613939289208158101e-01 -6.75315285008033783232e-02 -1.59127854180115494570e-03 -1.45492267673007630302e-02 -1.59127854180115494570e-03 -1.45492267673007630302e-02 9.99657169430804071197e-01 -3.13453588606132016112e-03
9.99322519327000737190e+08 9.92581882883124322348e-01 -6.76761605194229759475e-02 -1.59818488513161849687e-03 -1.45803867911211016556e-02 -1.59818488513161849687e-03 -1.45803867911211016556e-02 9.99655681504238780022e-01 -3.14124910968739592260e-03
9.99324005030230998993e+08 9.92549618221403306961e-01 -6.78214054003665745007e-02 -1.60513609577901217133e-03 -1.46116788521265458800e-02 -1.60513609577901217133e-03 -1.46116788521265458800e-02 9.99654183911303118037e-01 -3.14799077986266818280e-03
9.99325490733461260796e+08 9.92517143503724774689e-01 -6.79672669951323638049e-02 -1.61213256161057386269e-03 -1.46431037800972257273e-02 -1.61213256161057386269e-03 -1.46431037800972257273e-02 9.99652676568433595783e-01 -3.15476107535784654895e-03
9.99326976436691522598e+08 9.92484456910354362336e-01 -6.81137491870847100461e-02 -1.61917467467620522850e-03 -1.46746624116786319320e-02 -1.61917467467620522850e-03 -1.46746624116786319320e-02 9.99651159391165666790e-01 -3.16156017642273828860e-03
9.99328462139921784401e+08 9.92451556601898765564e-01 -6.82608558917513624786e-02 -1.62626283126114721915e-03 -1.47063555904456411128e-02 -1.62626283126114721915e-03 -1.47063555904456411128e-02 9.99649632294122181264e-01 -3.16838826480004111599e-03
9.99329947843152046204e+08 9.92418440719030847674e-01 -6.84085910572454769518e-02 -1.63339743194530328391e-03 -1.47381841669934534472e-02 -1.63339743194530328391e-03 -1.47381841669934534472e-02 9.99648095191000840565e-01 -3.17524552374493559265e-03
9.99331433546382308006e+08 9.92385107382265596598e-01 -6.85569586644443618173e-02 -1.64057888165145817835e-03 -1.47701489989760827160e-02 -1.64057888165145817835e-03 -1.47701489989760827160e-02 9.99646547994563650086e-01 -3.18213213803337710561e-03
9.99332919249612569809e+08 9.92351554691664583530e-01 -6.87059627274745204906e-02 -1.64780758970893082341e-03 -1.48022509512108716573e-02 -1.64780758970893082341e-03 -1.48022509512108716573e-02 9.99644990616623374535e-01 -3.18904829398461474657e-03
9.99334404952842831612e+08 9.92317780726580944695e-01 -6.88556072940035290841e-02 -1.65508396990856178690e-03 -1.48344908957413600809e-02 -1.65508396990856178690e-03 -1.48344908957413600809e-02 9.99643422968031325482e-01 -3.19599417947473343066e-03
9.99335890656073093414e+08 9.92283783545407804816e-01 -6.90058964455005918737e-02 -1.66240844055682451298e-03 -1.48668697118934326623e-02 -1.66240844055682451298e-03 -1.48668697118934326623e-02 9.99641844958666259124e-01 -3.20296998394875272534e-03
9.99337376359303355217e+08 9.92249561185271855557e-01 -6.91568342977308542219e-02 -1.66978142454197943552e-03 -1.48993882863818118828e-02 -1.66978142454197943552e-03 -1.48993882863818118828e-02 9.99640256497419610326e-01 -3.20997589844356770103e-03
9.99338862062533617020e+08 9.92215111661775894802e-01 -6.93084250010138347431e-02 -1.67720334938946239768e-03 -1.49320475133657287747e-02 -1.67720334938946239768e-03 -1.49320475133657287747e-02 9.99638657492183724251e-01 -3.21701211559994541128e-03
9.99340347765763878822e+08 9.92180432968714831610e-01 -6.94606727405861906766e-02 -1.68467464732303322077e-03 -1.49648482945270912964e-02 -1.68467464732303322077e-03 -1.49648482945270912964e-02 9.99637047849838977776e-01 -3.22407882967936341989e-03
9.99341833468994140625e+08 9.92145523077780033816e-01 -6.96135817370031745321e-02 -1.69219575532855433068e-03 -1.49977915391569602971e-02 -1.69219575532855433068e-03 -1.49977915391569602971e-02 9.99635427476239568634e-01 -3.23117623658264333311e-03
9.99343319172224402428e+08 9.92110379938280551038e-01 -6.97671562464481365140e-02 -1.69976711521398551885e-03 -1.50308781642222496350e-02 -1.69976711521398551885e-03 -1.50308781642222496350e-02 9.99633796276200747855e-01 -3.23830453386431691212e-03
9.99344804875454664230e+08 9.92075001476827811331e-01 -6.99214005611890343506e-02 -1.70738917367735105850e-03 -1.50641090944640468341e-02 -1.70738917367735105850e-03 -1.50641090944640468341e-02 9.99632154153484497883e-01 -3.24546392075381268452e-03
9.99346290578684926033e+08 9.92039385597054845789e-01 -7.00763190098679517037e-02 -1.71506238236724599215e-03 -1.50974852624600232309e-02 -1.71506238236724599215e-03 -1.50974852624600232309e-02 9.99630501010785876836e-01 -3.25265459816889918390e-03
9.99347776281915187836e+08 9.92003530179304426895e-01 -7.02319159579094243195e-02 -1.72278719794995583553e-03 -1.51310076087123879240e-02 -1.72278719794995583553e-03 -1.51310076087123879240e-02 9.99628836749719362764e-01 -3.25987676873463463542e-03
9.99349261985145449638e+08 9.91967433080311544735e-01 -7.03881958079399516759e-02 -1.73056408217793001626e-03 -1.51646770817382633978e-02 -1.73056408217793001626e-03 -1.51646770817382633978e-02 9.99627161270803310522e-01 -3.26713063680283835946e-03
9.99350747688375711441e+08 9.91931092132903535763e-01 -7.05451630001133617176e-02 -1.73839350195438297614e-03 -1.51984946381397926368e-02 -1.73839350195438297614e-03 -1.51984946381397926368e-02 9.99625474473446296031e-01 -3.27441640846719457525e-03
9.99352233391605973244e+08 9.91894505145662797041e-01 -7.07028220125808654073e-02 -1.74627592940590210639e-03 -1.52324612427054088132e-02 -1.74627592940590210639e-03 -1.52324612427054088132e-02 9.99623776255932017243e-01 -3.28173429158507088538e-03
9.99353719094836235046e+08 9.91857669902620364688e-01 -7.08611773618139650921e-02 -1.75421184194854396475e-03 -1.52665778684793976977e-02 -1.75421184194854396475e-03 -1.52665778684793976977e-02 9.99622066515404084086e-01 -3.28908449579250281719e-03
9.99355204798066496849e+08 9.91820584162918073012e-01 -7.10202336030432007652e-02 -1.76220172236055843719e-03 -1.53008454968564331505e-02 -1.76220172236055843719e-03 -1.53008454968564331505e-02 9.99620345147851252499e-01 -3.29646723252456294584e-03
9.99356690501296758652e+08 9.91783245660464163329e-01 -7.11799953307090671473e-02 -1.77024605885659066726e-03 -1.53352651176787094928e-02 -1.77024605885659066726e-03 -1.53352651176787094928e-02 9.99618612048090660060e-01 -3.30388271503628859829e-03
9.99358176204527020454e+08 9.91745652103614760975e-01 -7.13404671787866984101e-02 -1.77834534515641795593e-03 -1.53698377293059081083e-02 -1.77834534515641795593e-03 -1.53698377293059081083e-02 9.99616867109753837184e-01 -3.31133115841775226354e-03
9.99359661907757282257e+08 9.91707801174812275669e-01 -7.15016538212705221600e-02 -1.78650008056260465802e-03 -1.54045643387196000418e-02 -1.78650008056260465802e-03 -1.54045643387196000418e-02 9.99615110225269165589e-01 -3.31881277961655661926e-03
9.99361147610987544060e+08 9.91669690530237457615e-01 -7.16635599725927163739e-02 -1.79471077003575318551e-03 -1.54394459616134082508e-02 -1.79471077003575318551e-03 -1.54394459616134082508e-02 9.99613341285846113138e-01 -3.32632779745725996531e-03
9.99362633314217805862e+08 9.91631317799457900897e-01 -7.18261903880289959146e-02 -1.80297792427001912254e-03 -1.54744836224804307306e-02 -1.80297792427001912254e-03 -1.54744836224804307306e-02 9.99611560181459135599e-01 -3.33387643266020838179e-03
9.99364119017448067665e+08 9.91592680585068442234e-01 -7.19895498641271447404e-02 -1.81130205977071386328e-03 -1.55096783547055572933e-02 -1.81130205977071386328e-03 -1.55096783547055572933e-02 9.99609766800830357170e-01 -3.34145890786142823678e-03
9.99365604720678329468e+08 9.91553776462307356887e-01 -7.21536432392146653836e-02 -1.81968369893689631452e-03 -1.55450312006748542909e-02 -1.81968369893689631452e-03 -1.55450312006748542909e-02 9.99607961031412473041e-01 -3.34907544763618893538e-03
9.99367090423908591270e+08 9.91514602978707859648e-01 -7.23184753937409635638e-02 -1.82812337013650420305e-03 -1.55805432118492695470e-02 -1.82812337013650420305e-03 -1.55805432118492695470e-02 9.99606142759371985029e-01 -3.35672627851488474676e-03
9.99368576127138853073e+08 9.91475157653695760018e-01 -7.24840512508269085856e-02 -1.83662160779306162656e-03 -1.56162154488830411114e-02 -1.83662160779306162656e-03 -1.56162154488830411114e-02 9.99604311869570882898e-01 -3.36441162900854478027e-03
9.99370061830369114876e+08 9.91435437978217093402e-01 -7.26503757766669422402e-02 -1.84517895246585949057e-03 -1.56520489817103293506e-02 -1.84517895246585949057e-03 -1.56520489817103293506e-02 9.99602468245549102832e-01 -3.37213172962749514056e-03
9.99371547533599376678e+08 9.91395441414351430431e-01 -7.28174539809731541373e-02 -1.85379595093330181571e-03 -1.56880448896408834780e-02 -1.85379595093330181571e-03 -1.56880448896408834780e-02 9.99600611769506874893e-01 -3.37988681290197308035e-03
9.99373033236829638481e+08 9.91355165394897541731e-01 -7.29852909175124908714e-02 -1.86247315628209307581e-03 -1.57242042614757875085e-02 -1.86247315628209307581e-03 -1.57242042614757875085e-02 9.99598742322285294115e-01 -3.38767711340706104833e-03
