! File generated for n1 = 4, n2 = 12
! b1 = 10.000000
! b2 = 0.002154
! Q0 = 10000.000000
! f0 = 1000000000.000000
! n = 1001
! rel_span = 10.000000
# Hz S RI R 50
9.94498922782655000687e+08 9.82099894696027542196e-01 -1.79496125780477577827e-01 -2.62737614555286138219e-04 -2.63464281961583784639e-03 -2.62737614555286138219e-04 -2.63464281961583784639e-03 9.99996143539217841045e-01 -3.86712680107787002684e-05
9.94509924937089681625e+08 9.82028591484998991668e-01 -1.79849710123481471014e-01 -2.63784202564555658472e-04 -2.63983272801287518691e-03 -2.63784202564555658472e-04 -2.63983272801287518691e-03 9.99996128177406684578e-01 -3.87474454482206748652e-05
9.94520927091524362564e+08 9.81956863610046304380e-01 -1.80204671873889360478e-01 -2.64837023787791857755e-04 -2.64504285398570052404e-03 -2.64837023787791857755e-04 -2.64504285398570052404e-03 9.99996112724104491143e-01 -3.88239196390919878016e-05
9.94531929245959043503e+08 9.81884707705305892489e-01 -1.80561019007629747213e-01 -2.65896127629117184910e-04 -2.65027331460493441664e-03 -2.65896127629117184910e-04 -2.65027331460493441664e-03 9.99996097178586063059e-01 -3.89006923017543590829e-05
9.94542931400393724442e+08 9.81812120371620689063e-01 -1.80918759561611464104e-01 -2.66961563981335829251e-04 -2.65552422783626529759e-03 -2.66961563981335829251e-04 -2.65552422783626529759e-03 9.99996081540119097220e-01 -3.89777651677073082108e-05
9.94553933554828405380e+08 9.81739098176151570030e-01 -1.81277901634269239528e-01 -2.68033383231632395607e-04 -2.66079571254845869202e-03 -2.68033383231632395607e-04 -2.66079571254845869202e-03 9.99996065807963963046e-01 -3.90551399817056884753e-05
9.94564935709263086319e+08 9.81665637651970790500e-01 -1.81638453386182008309e-01 -2.69111636267549381944e-04 -2.66608788852243285689e-03 -2.69111636267549381944e-04 -2.66608788852243285689e-03 9.99996049981373813509e-01 -3.91328185018929557300e-05
9.94575937863697886467e+08 9.81591735297661749371e-01 -1.82000423040633158012e-01 -2.70196374482851899967e-04 -2.67140087645948093656e-03 -2.70196374482851899967e-04 -2.67140087645948093656e-03 9.99996034059594252064e-01 -3.92108024999217926604e-05
9.94586940018132567406e+08 9.81517387576905986357e-01 -1.82363818884218598093e-01 -2.71287649783598773610e-04 -2.67673479799019698247e-03 -2.71287649783598773610e-04 -2.67673479799019698247e-03 9.99996018041863332648e-01 -3.92890937610851888264e-05
9.94597942172567248344e+08 9.81442590918066293249e-01 -1.82728649267447501581e-01 -2.72385514594254782988e-04 -2.68208977568329398622e-03 -2.72385514594254782988e-04 -2.68208977568329398622e-03 9.99996001927411670707e-01 -3.93676940844457859815e-05
9.94608944327001929283e+08 9.81367341713763385869e-01 -1.83094922605354842871e-01 -2.73490021863903468111e-04 -2.68746593305459234927e-03 -2.73490021863903468111e-04 -2.68746593305459234927e-03 9.99995985715462110122e-01 -3.94466052829679135689e-05
9.94619946481436610222e+08 9.81291636320450355591e-01 -1.83462647378106274987e-01 -2.74601225072502866994e-04 -2.69286339457590296817e-03 -2.74601225072502866994e-04 -2.69286339457590296817e-03 9.99995969405229501170e-01 -3.95258291836478962695e-05
9.94630948635871291161e+08 9.81215471057973354085e-01 -1.83831832131641587091e-01 -2.75719178237323291319e-04 -2.69828228568446673238e-03 -2.75719178237323291319e-04 -2.69828228568446673238e-03 9.99995952995921144613e-01 -3.96053676276526285928e-05
9.94641950790305972099e+08 9.81138842209137052031e-01 -1.84202485478276611897e-01 -2.76843935919328940423e-04 -2.70372273279179250668e-03 -2.76843935919328940423e-04 -2.70372273279179250668e-03 9.99995936486736125559e-01 -3.96852224704493199950e-05
9.94652952944740653038e+08 9.81061746019252889361e-01 -1.84574616097366583922e-01 -2.77975553229813110174e-04 -2.70918486329339239932e-03 -2.77975553229813110174e-04 -2.70918486329339239932e-03 9.99995919876865535514e-01 -3.97653955819483656206e-05
9.94663955099175333977e+08 9.80984178695689990057e-01 -1.84948232735929724013e-01 -2.79114085836984124854e-04 -2.71466880557793633147e-03 -2.79114085836984124854e-04 -2.71466880557793633147e-03 9.99995903165492250331e-01 -3.98458888466377196091e-05
9.94674957253610014915e+08 9.80906136407413198341e-01 -1.85323344209312040887e-01 -2.80259589972746371231e-04 -2.72017468903700812208e-03 -2.80259589972746371231e-04 -2.72017468903700812208e-03 9.99995886351790930213e-01 -3.99267041637261046495e-05
9.94685959408044695854e+08 9.80827615284516229899e-01 -1.85699959401852299212e-01 -2.81412122439555925733e-04 -2.72570264407486764421e-03 -2.81412122439555925733e-04 -2.72570264407486764421e-03 9.99995869434927797670e-01 -4.00078434472862825210e-05
9.94696961562479376793e+08 9.80748611417754490027e-01 -1.86078087267523867299e-01 -2.82571740617278024769e-04 -2.73125280211786993986e-03 -2.82571740617278024769e-04 -2.73125280211786993986e-03 9.99995852414060748536e-01 -4.00893086263933305278e-05
9.94707963716914057732e+08 9.80669120858061016399e-01 -1.86457736830631715108e-01 -2.83738502470288480543e-04 -2.73682529562469748635e-03 -2.83738502470288480543e-04 -2.73682529562469748635e-03 9.99995835288338796865e-01 -4.01711016452748373808e-05
9.94718965871348857880e+08 9.80589139616061422622e-01 -1.86838917186490677258e-01 -2.84912466554593203031e-04 -2.74242025809631447333e-03 -2.84912466554593203031e-04 -2.74242025809631447333e-03 9.99995818056902519011e-01 -4.02532244634569655599e-05
9.94729968025783538818e+08 9.80508663661585067040e-01 -1.87221637502097887351e-01 -2.86093692025008057827e-04 -2.74803782408583781305e-03 -2.86093692025008057827e-04 -2.74803782408583781305e-03 9.99995800718883720570e-01 -4.03356790559093684860e-05
9.94740970180218219757e+08 9.80427688923159124101e-01 -1.87605907016859307923e-01 -2.87282238642583319984e-04 -2.75367812920920091921e-03 -2.87282238642583319984e-04 -2.75367812920920091921e-03 9.99995783273405214331e-01 -4.04184674132017493151e-05
9.94751972334652900696e+08 9.80346211287507540710e-01 -1.87991735043266494642e-01 -2.88478166781953480544e-04 -2.75934131015508629994e-03 -2.88478166781953480544e-04 -2.75934131015508629994e-03 9.99995765719580709252e-01 -4.05015915416495641578e-05
9.94762974489087581635e+08 9.80264226599030896736e-01 -1.88379130967639668581e-01 -2.89681537438975234000e-04 -2.76502750469583349902e-03 -2.89681537438975234000e-04 -2.76502750469583349902e-03 9.99995748056515032509e-01 -4.05850534634742197266e-05
9.94773976643522262573e+08 9.80181730659291261532e-01 -1.88768104250820634160e-01 -2.90892412238291143706e-04 -2.77073685169760934588e-03 -2.90892412238291143706e-04 -2.77073685169760934588e-03 9.99995730283303574382e-01 -4.06688552169522866595e-05
9.94784978797956943512e+08 9.80098719226479397904e-01 -1.89158664428920569867e-01 -2.92110853441147823740e-04 -2.77646949113138355111e-03 -2.92110853441147823740e-04 -2.77646949113138355111e-03 9.99995712399032510298e-01 -4.07529988565766322921e-05
9.94795980952391624451e+08 9.80015188014878191325e-01 -1.89550821114057077565e-01 -2.93336923953266216682e-04 -2.78222556408374817674e-03 -2.93336923953266216682e-04 -2.78222556408374817674e-03 9.99995694402778578791e-01 -4.08374864532152359467e-05
9.94806983106826305389e+08 9.79931132694318862697e-01 -1.89944583995102028728e-01 -2.94570687332832055211e-04 -2.78800521276789323166e-03 -2.94570687332832055211e-04 -2.78800521276789323166e-03 9.99995676293608748431e-01 -4.09223200942722471654e-05
9.94817985261260986328e+08 9.79846548889630075685e-01 -1.90339962838431325798e-01 -2.95812207798581082961e-04 -2.79380858053461349211e-03 -2.95812207798581082961e-04 -2.79380858053461349211e-03 9.99995658070580439869e-01 -4.10075018838495792672e-05
9.94828987415695667267e+08 9.79761432180076830001e-01 -1.90736967488692149564e-01 -2.97061550238027390070e-04 -2.79963581188356729068e-03 -2.97061550238027390070e-04 -2.79963581188356729068e-03 9.99995639732741192773e-01 -4.10930339429121688644e-05
9.94839989570130348206e+08 9.79675778098792249260e-01 -1.91135607869578727502e-01 -2.98318780215811010965e-04 -2.80548705247466671070e-03 -2.98318780215811010965e-04 -2.80548705247466671070e-03 9.99995621279128776848e-01 -4.11789184094551327328e-05
9.94850991724565029144e+08 9.79589582132197378428e-01 -1.91535893984631361286e-01 -2.99583963982210483516e-04 -2.81136244913980214849e-03 -2.99583963982210483516e-04 -2.81136244913980214849e-03 9.99995602708770747746e-01 -4.12651574386758781296e-05
9.94861993878999829292e+08 9.79502839719424978071e-01 -1.91937835917988464107e-01 -3.00857168481602390685e-04 -2.81726214989388339463e-03 -3.00857168481602390685e-04 -2.81726214989388339463e-03 9.99995584020684447069e-01 -4.13517532031361774664e-05
9.94872996033434510231e+08 9.79415546251718560633e-01 -1.92341443835222031256e-01 -3.02138461361278959968e-04 -2.82318630394710239420e-03 -3.02138461361278959968e-04 -2.82318630394710239420e-03 9.99995565213876891342e-01 -4.14387078929421255407e-05
9.94883998187869191170e+08 9.79327697071830982622e-01 -1.92746727984146409840e-01 -3.03427910980279865859e-04 -2.82913506171680265849e-03 -3.03427910980279865859e-04 -2.82913506171680265849e-03 9.99995546287344883041e-01 -4.15260237159184047062e-05
9.94895000342303872108e+08 9.79239287473418262842e-01 -1.93153698695616632408e-01 -3.04725586418289463939e-04 -2.83510857483919905681e-03 -3.04725586418289463939e-04 -2.83510857483919905681e-03 9.99995527240074344455e-01 -4.16137028977802461141e-05
9.94906002496738553047e+08 9.79150312700413749667e-01 -1.93562366384384343387e-01 -3.06031557484817923285e-04 -2.84110699618193981650e-03 -3.06031557484817923285e-04 -2.84110699618193981650e-03 9.99995508071040539733e-01 -4.17017476823178796070e-05
9.94917004651173233986e+08 9.79060767946403287532e-01 -1.93972741549919891479e-01 -3.07345894728377696820e-04 -2.84713047985617325950e-03 -3.07345894728377696820e-04 -2.84713047985617325950e-03 9.99995488779208074881e-01 -4.17901603315736110394e-05
9.94928006805607914925e+08 9.78970648353985617440e-01 -1.94384834777267562211e-01 -3.08668669445868700581e-04 -2.85317918122910242976e-03 -3.08668669445868700581e-04 -2.85317918122910242976e-03 9.99995469363530453677e-01 -4.18789431260261163178e-05
9.94939008960042595863e+08 9.78879949014125005924e-01 -1.94798656737903724823e-01 -3.09999953692080478396e-04 -2.85925325693657918572e-03 -3.09999953692080478396e-04 -2.85925325693657918572e-03 9.99995449822950077667e-01 -4.19680983647752639900e-05
9.94950011114477276802e+08 9.78788664965491994607e-01 -1.95214218190616711768e-01 -3.11339820289371091520e-04 -2.86535286489602008392e-03 -3.11339820289371091520e-04 -2.86535286489602008392e-03 9.99995430156398024124e-01 -4.20576283657317557575e-05
9.94961013268911957741e+08 9.78696791193798931729e-01 -1.95631529982375429455e-01 -3.12688342837419462963e-04 -2.87147816431915486185e-03 -3.12688342837419462963e-04 -2.87147816431915486185e-03 9.99995410362793935022e-01 -4.21475354658041920079e-05
9.94972015423346638680e+08 9.78604322631124290410e-01 -1.96050603049213012508e-01 -3.14045595723137858490e-04 -2.87762931572499826641e-03 -3.14045595723137858490e-04 -2.87762931572499826641e-03 9.99995390441046017038e-01 -4.22378220210894848212e-05
9.94983017577781319618e+08 9.78511254155220222550e-01 -1.96471448417155941657e-01 -3.15411654130845226646e-04 -2.88380648095348628146e-03 -3.15411654130845226646e-04 -2.88380648095348628146e-03 9.99995370390050708487e-01 -4.23284904070730355727e-05
9.94994019732216000557e+08 9.78417580588819890686e-01 -1.96894077203112999319e-01 -3.16786594052425522598e-04 -2.89000982317852385048e-03 -3.16786594052425522598e-04 -2.89000982317852385048e-03 9.99995350208692568295e-01 -4.24195430188202321411e-05
9.95005021886650800705e+08 9.78323296698928590587e-01 -1.97318500615804748310e-01 -3.18170492297735235838e-04 -2.89623950692162977771e-03 -3.18170492297735235838e-04 -2.89623950692162977771e-03 9.99995329895844276002e-01 -4.25109822711767078264e-05
9.95016024041085481644e+08 9.78228397196108212519e-01 -1.97744729956686904337e-01 -3.19563426505110068174e-04 -2.90249569806548838799e-03 -3.19563426505110068174e-04 -2.90249569806548838799e-03 9.99995309450366187676e-01 -4.26028105989673060009e-05
9.95027026195520162582e+08 9.78132876733741607467e-01 -1.98172776620923252189e-01 -3.20965475152155510063e-04 -2.90877856386823063772e-03 -3.20965475152155510063e-04 -2.90877856386823063772e-03 9.99995288871106446926e-01 -4.26950304572056292844e-05
9.95038028349954843521e+08 9.78036729907300284026e-01 -1.98602652098310489270e-01 -3.22376717566503535623e-04 -2.91508827297700745876e-03 -3.22376717566503535623e-04 -2.91508827297700745876e-03 9.99995268156900540824e-01 -4.27876443212933362317e-05
9.95049030504389524460e+08 9.77939951253585459945e-01 -1.99034367974278786351e-01 -3.23797233936943401611e-04 -2.92142499544267809572e-03 -3.23797233936943401611e-04 -2.92142499544267809572e-03 9.99995247306571743984e-01 -4.28806546872356942777e-05
9.95060032658824205399e+08 9.77842535249973665579e-01 -1.99467935930838974334e-01 -3.25227105324505229387e-04 -2.92778890273371261363e-03 -3.25227105324505229387e-04 -2.92778890273371261363e-03 9.99995226318929897324e-01 -4.29740640718456469145e-05
9.95071034813258886337e+08 9.77744476313637478349e-01 -1.99903367747593846415e-01 -3.26666413673885110570e-04 -2.93418016775103419197e-03 -3.26666413673885110570e-04 -2.93418016775103419197e-03 9.99995205192772518288e-01 -4.30678750129616773421e-05
9.95082036967693567276e+08 9.77645768800761261197e-01 -2.00340675302740023334e-01 -3.28115241824971097702e-04 -2.94059896484272567663e-03 -3.28115241824971097702e-04 -2.94059896484272567663e-03 9.99995183926883579595e-01 -4.31620900696636731206e-05
9.95093039122128248215e+08 9.77546407005743134278e-01 -2.00779870574081253931e-01 -3.29573673524542125161e-04 -2.94704546981890309898e-03 -3.29573673524542125161e-04 -2.94704546981890309898e-03 9.99995162520033731290e-01 -4.32567118224912235016e-05
9.95104041276562929153e+08 9.77446385160386066460e-01 -2.01220965640056981272e-01 -3.31041793438156069142e-04 -2.95351985996681167326e-03 -3.31041793438156069142e-04 -2.95351985996681167326e-03 9.99995140970980411765e-01 -4.33517428736652235760e-05
9.95115043430997610092e+08 9.77345697433076310290e-01 -2.01663972680776154567e-01 -3.32519687162193173808e-04 -2.96002231406600202490e-03 -3.32519687162193173808e-04 -2.96002231406600202490e-03 9.99995119278467181623e-01 -4.34471858473105965051e-05
9.95126045585432291031e+08 9.77244337927946071787e-01 -2.02108903979086290681e-01 -3.34007441236159740173e-04 -2.96655301240401946331e-03 -3.34007441236159740173e-04 -2.96655301240401946331e-03 9.99995097441223723678e-01 -4.35430433896866254961e-05
9.95137047739866971970e+08 9.77142300684029074809e-01 -2.02555771921624355736e-01 -3.35505143155076382758e-04 -2.97311213679183087774e-03 -3.35505143155076382758e-04 -2.97311213679183087774e-03 9.99995075457965953980e-01 -4.36393181694133487679e-05
9.95148049894301652908e+08 9.77039579674396252429e-01 -2.03004588999911306235e-01 -3.37012881382159725559e-04 -2.97969987057988957777e-03 -3.37012881382159725559e-04 -2.97969987057988957777e-03 9.99995053327395244658e-01 -4.37360128777073599716e-05
9.95159052048736453056e+08 9.76936168805285443106e-01 -2.03455367811433779357e-01 -3.38530745361610078785e-04 -2.98631639867401191615e-03 -3.38530745361610078785e-04 -2.98631639867401191615e-03 9.99995031048198868007e-01 -4.38331302286148981047e-05
9.95170054203171133995e+08 9.76832061915216987025e-01 -2.03908121060733915630e-01 -3.40058825531579797877e-04 -2.99296190755137447512e-03 -3.40058825531579797877e-04 -2.99296190755137447512e-03 9.99995008619049330356e-01 -4.39306729592465840576e-05
9.95181056357605814934e+08 9.76727252774084231390e-01 -2.04362861560567460328e-01 -3.41597213337526317469e-04 -2.99963658527751218796e-03 -3.41597213337526317469e-04 -2.99963658527751218796e-03 9.99994986038604372069e-01 -4.40286438300269700728e-05
9.95192058512040495872e+08 9.76621735082244923909e-01 -2.04819602233012015846e-01 -3.43146001245556349097e-04 -3.00634062152258527481e-03 -3.43146001245556349097e-04 -3.00634062152258527481e-03 9.99994963305506856521e-01 -4.41270456249332675104e-05
9.95203060666475176811e+08 9.76515502469590179757e-01 -2.05278356110618814823e-01 -3.44705282756077829691e-04 -3.01307420757828585758e-03 -3.44705282756077829691e-04 -3.01307420757828585758e-03 9.99994940418384214986e-01 -4.42258811517435410543e-05
9.95214062820909857750e+08 9.76408548494602013257e-01 -2.05739136337574290980e-01 -3.46275152417647948035e-04 -3.01983753637488595498e-03 -3.46275152417647948035e-04 -3.01983753637488595498e-03 9.99994917375848890728e-01 -4.43251532422869086924e-05
9.95225064975344538689e+08 9.76300866643395770517e-01 -2.06201956170868783147e-01 -3.47855705841014050794e-04 -3.02663080249839172922e-03 -3.47855705841014050794e-04 -3.02663080249839172922e-03 9.99994894176497228777e-01 -4.44248647526953476710e-05
9.95236067129779219627e+08 9.76192450328745353616e-01 -2.06666828981498296169e-01 -3.49447039713436007416e-04 -3.03345420220818605753e-03 -3.49447039713436007416e-04 -3.03345420220818605753e-03 9.99994870818910364108e-01 -4.45250185636626290785e-05
9.95247069284213900566e+08 9.76083292889092346556e-01 -2.07133768255676864456e-01 -3.51049251813218313959e-04 -3.04030793345481898868e-03 -3.51049251813218313959e-04 -3.04030793345481898868e-03 9.99994847301652889371e-01 -4.46256175807054953730e-05
9.95258071438648581505e+08 9.75973387587550700317e-01 -2.07602787596021520766e-01 -3.52662441024324271009e-04 -3.04719219589740355006e-03 -3.52662441024324271009e-04 -3.04719219589740355006e-03 9.99994823623273521029e-01 -4.47266647344189357833e-05
9.95269073593083262444e+08 9.75862727610877334072e-01 -2.08073900722829746579e-01 -3.54286707351487214091e-04 -3.05410719092236637370e-03 -3.54286707351487214091e-04 -3.05410719092236637370e-03 9.99994799782304211178e-01 -4.48281629807514381356e-05
9.95280075747517943382e+08 9.75751306068441071062e-01 -2.08547121475308794292e-01 -3.55922151935339145523e-04 -3.06105312166148925412e-03 -3.55922151935339145523e-04 -3.06105312166148925412e-03 9.99994775777260591632e-01 -4.49301153012698255632e-05
9.95291077901952624321e+08 9.75639115991173810905e-01 -2.09022463812830627816e-01 -3.57568877067812693638e-04 -3.06803019301033234531e-03 -3.57568877067812693638e-04 -3.06803019301033234531e-03 9.99994751606641196773e-01 -4.50325247034296090938e-05
9.95302080056387424469e+08 9.75526150330492503038e-01 -2.09499941816251422644e-01 -3.59226986207957020396e-04 -3.07503861164759931257e-03 -3.59226986207957020396e-04 -3.07503861164759931257e-03 9.99994727268927352526e-01 -4.51353942208592993413e-05
9.95313082210822105408e+08 9.75412401957226227189e-01 -2.09979569689157791190e-01 -3.60896583997691549998e-04 -3.08207858605343042527e-03 -3.60896583997691549998e-04 -3.08207858605343042527e-03 9.99994702762583176359e-01 -4.52387269136288752919e-05
9.95324084365256786346e+08 9.75297863660501196392e-01 -2.10461361759231468938e-01 -3.62577776278168205978e-04 -3.08915032652943297511e-03 -3.62577776278168205978e-04 -3.08915032652943297511e-03 9.99994678086055244215e-01 -4.53425258685437792758e-05
9.95335086519691467285e+08 9.75182528146626759202e-01 -2.10945332479553965266e-01 -3.64270670106125137293e-04 -3.09625404521783175599e-03 -3.64270670106125137293e-04 -3.09625404521783175599e-03 9.99994653237772035403e-01 -4.54467941994260234855e-05
9.95346088674126148224e+08 9.75066388037955977808e-01 -2.11431496429958953875e-01 -3.65975373770610807895e-04 -3.10338995612131863730e-03 -3.65975373770610807895e-04 -3.10338995612131863730e-03 9.99994628216144154642e-01 -4.55515350474055693100e-05
9.95357090828560829163e+08 9.74949435871730107905e-01 -2.11919868318392601303e-01 -3.67691996809942545001e-04 -3.11055827512302009857e-03 -3.67691996809942545001e-04 -3.11055827512302009857e-03 9.99994603019563665924e-01 -4.56567515812133532999e-05
