! File generated for n1 = 2, n2 = 5
! b1 = 46.415888
! b2 = 2.154435
! Q0 = 10000.000000
! f0 = 1000000000.000000
! n = 1001
! rel_span = 10.000000
# Hz S RI R 50
9.75214838486920118332e+08 9.81916074815269879217e-01 -1.83137273723124688329e-01 -3.89606357499238265679e-03 -3.94557295546964365007e-02 -3.89606357499238265679e-03 -3.94557295546964365007e-02 9.99160618547946688395e-01 -8.50047924731542337007e-03
9.75264408809946298599e+08 9.81843299548562642443e-01 -1.83501803672180552329e-01 -3.91174253090943030431e-03 -3.95342651514765802689e-02 -3.91174253090943030431e-03 -3.95342651514765802689e-02 9.99157240619293562922e-01 -8.51739922872597407522e-03
9.75313979132972478867e+08 9.81770089362306030978e-01 -1.83867753867229560827e-01 -3.92751518740292165227e-03 -3.96131067309803339138e-02 -3.92751518740292165227e-03 -3.96131067309803339138e-02 9.99153842503463174296e-01 -8.53438513211595209396e-03
9.75363549455998539925e+08 9.81696440803181191725e-01 -1.84235132534810858163e-01 -3.94338228846785512210e-03 -3.96922560655618220093e-02 -3.94338228846785512210e-03 -3.96922560655618220093e-02 9.99150424040166740269e-01 -8.55143733932748305315e-03
9.75413119779024720192e+08 9.81622350383673847318e-01 -1.84603947964371156720e-01 -3.95934458546642019383e-03 -3.97717149411281889471e-02 -3.95934458546642019383e-03 -3.97717149411281889471e-02 9.99146985067528081714e-01 -8.56855623512259301222e-03
9.75462690102050900459e+08 9.81547814581669952894e-01 -1.84974208508852683286e-01 -3.97540283721507878983e-03 -3.98514851572663031387e-02 -3.97540283721507878983e-03 -3.98514851572663031387e-02 9.99143525422065303943e-01 -8.58574220721052168426e-03
9.75512260425077080727e+08 9.81472829840044136418e-01 -1.85345922585297084861e-01 -3.99155781007325301257e-03 -3.99315685273728057658e-02 -3.99155781007325301257e-03 -3.99315685273728057658e-02 9.99140044938671034735e-01 -8.60299564627573301601e-03
9.75561830748103260994e+08 9.81397392566242476875e-01 -1.85719098675455718261e-01 -4.00781027803322024983e-03 -4.00119668787856236358e-02 -4.00781027803322024983e-03 -4.00119668787856236358e-02 9.99136543450593883620e-01 -8.62031694600624842639e-03
9.75611401071129441261e+08 9.81321499131860730536e-01 -1.86093745326400633600e-01 -4.02416102281099620497e-03 -4.00926820529156208162e-02 -4.02416102281099620497e-03 -4.00926820529156208162e-02 9.99133020789418235807e-01 -8.63770650312201127008e-03
9.75660971394155502319e+08 9.81245145872215673855e-01 -1.86469871151145882848e-01 -4.04061083393862045116e-03 -4.01737159053804221420e-02 -4.04061083393862045116e-03 -4.01737159053804221420e-02 9.99129476785044379206e-01 -8.65516471740372141108e-03
9.75710541717181682587e+08 9.81168329085909896037e-01 -1.86847484829282206586e-01 -4.05716050885800583875e-03 -4.02550703061411718764e-02 -4.05716050885800583875e-03 -4.02550703061411718764e-02 9.99125911265668853467e-01 -8.67269199172229256212e-03
9.75760112040207862854e+08 9.81091045034392483792e-01 -1.87226595107606058610e-01 -4.07381085301553990535e-03 -4.03367471396380156134e-02 -4.07381085301553990535e-03 -4.03367471396380156134e-02 9.99122324057763466776e-01 -8.69028873206804941542e-03
9.75809682363234043121e+08 9.81013289941511934522e-01 -1.87607210800764617753e-01 -4.09056267995839932528e-03 -4.04187483049291557125e-02 -4.09056267995839932528e-03 -4.04187483049291557125e-02 9.99118714986054756722e-01 -8.70795534758067590886e-03
9.75859252686260223389e+08 9.80935059993063296346e-01 -1.87989340791906378580e-01 -4.10741681143211943145e-03 -4.05010757158308920545e-02 -4.10741681143211943145e-03 -4.05010757158308920545e-02 9.99115083873503007084e-01 -8.72569225057939594492e-03
9.75908823009286403656e+08 9.80856351336328424750e-01 -1.88372994033341289999e-01 -4.12437407747965646687e-03 -4.05837313010599526342e-02 -4.12437407747965646687e-03 -4.05837313010599526342e-02 9.99111430541280931550e-01 -8.74349985659363289348e-03
9.75958393332312464714e+08 9.80777160079611798338e-01 -1.88758179547199089754e-01 -4.14143531654139699510e-03 -4.06667170043752482234e-02 -4.14143531654139699510e-03 -4.06667170043752482234e-02 9.99107754808752024367e-01 -8.76137858439354939855e-03
9.76007963655338644981e+08 9.80697482291766564622e-01 -1.89144906426110426256e-01 -4.15860137555728367337e-03 -4.07500347847246785493e-02 -4.15860137555728367337e-03 -4.07500347847246785493e-02 9.99104056493448466902e-01 -8.77932885602167832617e-03
9.76057533978364825249e+08 9.80617314001716366967e-01 -1.89533183833881874181e-01 -4.17587311006974420263e-03 -4.08336866163905298777e-02 -4.17587311006974420263e-03 -4.08336866163905298777e-02 9.99100335411049478296e-01 -8.79735109682423972732e-03
9.76107104301391005516e+08 9.80536651197970732241e-01 -1.89923021006182191073e-01 -4.19325138432824050944e-03 -4.09176744891373012081e-02 -4.19325138432824050944e-03 -4.09176744891373012081e-02 9.99096591375357889753e-01 -8.81544573548300250398e-03
9.76156674624417185783e+08 9.80455489828130799523e-01 -1.90314427251243395434e-01 -4.21073707139561249913e-03 -4.10020004083627986891e-02 -4.21073707139561249913e-03 -4.10020004083627986891e-02 9.99092824198278162129e-01 -8.83361320404782608684e-03
9.76206244947443366051e+08 9.80373825798390829966e-01 -1.90707411950561678271e-01 -4.22833105325555545090e-03 -4.10866663952491051326e-02 -4.22833105325555545090e-03 -4.10866663952491051326e-02 9.99089033689792738180e-01 -8.85185393796918996989e-03
9.76255815270469427109e+08 9.80291654973031501008e-01 -1.91101984559610527104e-01 -4.24603422092181825853e-03 -4.11716744869162279419e-02 -4.24603422092181825853e-03 -4.11716744869162279419e-02 9.99085219657938394811e-01 -8.87016837613129570383e-03
9.76305385593495607376e+08 9.80208973173905762089e-01 -1.91498154608560788859e-01 -4.26384747454890220691e-03 -4.12570267365772319623e-02 -4.26384747454890220691e-03 -4.12570267365772319623e-02 9.99081381908782706347e-01 -8.88855696088548981326e-03
9.76354955916521787643e+08 9.80125776179918029030e-01 -1.91895931703007477376e-01 -4.28177172354426462120e-03 -4.13427252136948364392e-02 -4.28177172354426462120e-03 -4.13427252136948364392e-02 9.99077520246399841675e-01 -8.90702013808399722938e-03
9.76404526239547967911e+08 9.80042059726495273786e-01 -1.92295325524708599074e-01 -4.29980788668229193389e-03 -4.14287720041405724269e-02 -4.29980788668229193389e-03 -4.14287720041405724269e-02 9.99073634472845917287e-01 -8.92555835711421503842e-03
9.76454096562574148178e+08 9.79957819505051452857e-01 -1.92696345832329113401e-01 -4.31795689221975594052e-03 -4.15151692103550642998e-02 -4.31795689221975594052e-03 -4.15151692103550642998e-02 9.99069724388133906245e-01 -8.94417207093324909128e-03
9.76503666885600328445e+08 9.79873051162442609829e-01 -1.93099002462196550622e-01 -4.33621967801306289203e-03 -4.16019189515108300803e-02 -4.33621967801306289203e-03 -4.16019189515108300803e-02 9.99065789790208991228e-01 -8.96286173610297623449e-03
9.76553237208626389503e+08 9.79787750300415982707e-01 -1.93503305329061819906e-01 -4.35459719163703261324e-03 -4.16890233636762197467e-02 -4.35459719163703261324e-03 -4.16890233636762197467e-02 9.99061830474922141221e-01 -8.98162781282537195371e-03
9.76602807531652569771e+08 9.79701912475050118445e-01 -1.93909264426872701703e-01 -4.37309039050555199007e-03 -4.17764845999819972588e-02 -4.37309039050555199007e-03 -4.17764845999819972588e-02 9.99057846236005020479e-01 -9.00047076497839659837e-03
9.76652377854678750038e+08 9.79615533196186882847e-01 -1.94316889829552974511e-01 -4.39170024199383047386e-03 -4.18643048307892617910e-02 -4.39170024199383047386e-03 -4.18643048307892617910e-02 9.99053836865042677040e-01 -9.01939106015217303969e-03
9.76701948177704930305e+08 9.79528607926855920951e-01 -1.94726191691793032446e-01 -4.41042772356253342386e-03 -4.19524862438597212488e-02 -4.41042772356253342386e-03 -4.19524862438597212488e-02 9.99049802151447896570e-01 -9.03838916968567780696e-03
9.76751518500731110573e+08 9.79441132082690235627e-01 -1.95137180249846720059e-01 -4.42927382288356777384e-03 -4.20410310445274298941e-02 -4.42927382288356777384e-03 -4.20410310445274298941e-02 9.99045741882433002701e-01 -9.05746556870372365733e-03
9.76801088823757171631e+08 9.79353101031333328486e-01 -1.95549865822341711885e-01 -4.44823953796790860088e-03 -4.21299414558733154035e-02 -4.44823953796790860088e-03 -4.21299414558733154035e-02 9.99041655842983100655e-01 -9.07662073615458225850e-03
9.76850659146783351898e+08 9.79264510091837014905e-01 -1.95964258811098940294e-01 -4.46732587729524281694e-03 -4.22192197189017737191e-02 -4.46732587729524281694e-03 -4.22192197189017737191e-02 9.99037543815827766558e-01 -9.09585515484801106212e-03
9.76900229469809532166e+08 9.79175354534052799771e-01 -1.96380369701954049511e-01 -4.48653385994517150959e-03 -4.23088680927176039037e-02 -4.48653385994517150959e-03 -4.23088680927176039037e-02 9.99033405581413180840e-01 -9.11516931149338946461e-03
9.76949799792835712433e+08 9.79085629578011595875e-01 -1.96798209065599805090e-01 -4.50586451573085217115e-03 -4.23988888547075365443e-02 -4.50586451573085217115e-03 -4.23988888547075365443e-02 9.99029240917872596306e-01 -9.13456369673880906601e-03
9.76999370115861892700e+08 9.78995330393295781768e-01 -1.97217787558430002193e-01 -4.52531888533419524023e-03 -4.24892843007219980778e-02 -4.52531888533419524023e-03 -4.24892843007219980778e-02 9.99025049600997916421e-01 -9.15403880521025586914e-03
9.77048940438888072968e+08 9.78904452098401933746e-01 -1.97639115923396474495e-01 -4.54489802044321170027e-03 -4.25800567452598172080e-02 -4.54489802044321170027e-03 -4.25800567452598172080e-02 9.99020831404209941340e-01 -9.17359513555138401941e-03
9.77098510761914134026e+08 9.78812989760094342984e-01 -1.98062204990876122856e-01 -4.56460298389135040592e-03 -4.26712085216549574795e-02 -4.56460298389135040592e-03 -4.26712085216549574795e-02 9.99016586098528169835e-01 -9.19323319046375445063e-03
9.77148081084940314293e+08 9.78720938392747208390e-01 -1.98487065679552265873e-01 -4.58443484979910616250e-03 -4.27627419822664278648e-02 -4.58443484979910616250e-03 -4.27627419822664278648e-02 9.99012313452540157144e-01 -9.21295347674775701174e-03
9.77197651407966494560e+08 9.78628292957680612218e-01 -1.98913708997295185510e-01 -4.60439470371717084196e-03 -4.28546594986679921235e-02 -4.60439470371717084196e-03 -4.28546594986679921235e-02 9.99008013232371316903e-01 -9.23275650534346840892e-03
9.77247221730992674828e+08 9.78535048362483728113e-01 -1.99342146042062795530e-01 -4.62448364277217010415e-03 -4.29469634618422010930e-02 -4.62448364277217010415e-03 -4.29469634618422010930e-02 9.99003685201652613657e-01 -9.25264279137246077600e-03
9.77296792054018855095e+08 9.78441199460328814297e-01 -1.99772388002812162355e-01 -4.64470277581456158361e-03 -4.30396562823767772632e-02 -4.64470277581456158361e-03 -4.30396562823767772632e-02 9.98999329121489809680e-01 -9.27261285418012025372e-03
9.77346362377045035362e+08 9.78346741049275325786e-01 -2.00204446160416132949e-01 -4.66505322356845861936e-03 -4.31327403906621026364e-02 -4.66505322356845861936e-03 -4.31327403906621026364e-02 9.98994944750429936242e-01 -9.29266721737818067461e-03
9.77395932700071096420e+08 9.78251667871563812540e-01 -2.00638331888593063335e-01 -4.68553611878379239197e-03 -4.32262182370915168383e-02 -4.68553611878379239197e-03 -4.32262182370915168383e-02 9.98990531844429430208e-01 -9.31280640888788001364e-03
9.77445503023097276688e+08 9.78155974612897605169e-01 -2.01074056654854532722e-01 -4.70615260639106400276e-03 -4.33200922922654871328e-02 -4.70615260639106400276e-03 -4.33200922922654871328e-02 9.98986090156820716324e-01 -9.33303096098395817970e-03
9.77495073346123456955e+08 9.78059655901717173165e-01 -2.01511632021448727770e-01 -4.72690384365767168190e-03 -4.34143650471948902569e-02 -4.72690384365767168190e-03 -4.34143650471948902569e-02 9.98981619438277901324e-01 -9.35334141033843449731e-03
9.77544643669149637222e+08 9.77962706308460383298e-01 -2.01951069646331970997e-01 -4.74779100034737524400e-03 -4.35090390135102547675e-02 -4.74779100034737524400e-03 -4.35090390135102547675e-02 9.98977119436783023154e-01 -9.37373829806570878220e-03
9.77594213992175817490e+08 9.77865120344812210895e-01 -2.02392381284143607623e-01 -4.76881525888176154709e-03 -4.36041167236718707478e-02 -4.76881525888176154709e-03 -4.36041167236718707478e-02 9.98972589897591189967e-01 -9.39422216976780639908e-03
9.77643784315201997757e+08 9.77766892462945014231e-01 -2.02835578787190773387e-01 -4.78997781450405356318e-03 -4.36996007311819048557e-02 -4.78997781450405356318e-03 -4.36996007311819048557e-02 9.98968030563194941962e-01 -9.41479357558009516405e-03
9.77693354638228058815e+08 9.77668017054745930317e-01 -2.03280674106448955296e-01 -4.81127987544556663668e-03 -4.37954936107999709405e-02 -4.81127987544556663668e-03 -4.37954936107999709405e-02 9.98963441173288724251e-01 -9.43545307021771521849e-03
9.77742924961254239082e+08 9.77568488451031836206e-01 -2.03727679292576846493e-01 -4.83272266309479458374e-03 -4.38917979587617745896e-02 -4.83272266309479458374e-03 -4.38917979587617745896e-02 9.98958821464732582562e-01 -9.45620121302269758812e-03
9.77792495284280419350e+08 9.77468300920753985217e-01 -2.04176606496936391411e-01 -4.85430741216871623755e-03 -4.39885163929988956544e-02 -4.85430741216871623755e-03 -4.39885163929988956544e-02 9.98954171171514526684e-01 -9.47703856801129958243e-03
9.77842065607306599617e+08 9.77367448670190652749e-01 -2.04627467972628457327e-01 -4.87603537088684719364e-03 -4.40856515533618945057e-02 -4.87603537088684719364e-03 -4.40856515533618945057e-02 9.98949490024713893099e-01 -9.49796570392208439060e-03
9.77891635930332779884e+08 9.77265925842125349199e-01 -2.05080276075547407455e-01 -4.89790780114825446273e-03 -4.41832061018475052983e-02 -4.89790780114825446273e-03 -4.41832061018475052983e-02 9.98944777752462820253e-01 -9.51898319426486456962e-03
9.77941206253358840942e+08 9.77163726515016151097e-01 -2.05535043265431982551e-01 -4.91992597871046023761e-03 -4.42811827228250728949e-02 -4.91992597871046023761e-03 -4.42811827228250728949e-02 9.98940034079907723807e-01 -9.54009161736948246846e-03
9.77990776576385021210e+08 9.77060844702147046625e-01 -2.05991782106954290921e-01 -4.94209119337231297248e-03 -4.43795841232711360536e-02 -4.94209119337231297248e-03 -4.43795841232711360536e-02 9.98935258729169772707e-01 -9.56129155643635313122e-03
9.78040346899411201477e+08 9.76957274350772619798e-01 -2.06450505270794254509e-01 -4.96440474915829394603e-03 -4.44784130330009366827e-02 -4.96440474915829394603e-03 -4.44784130330009366827e-02 9.98930451419305476257e-01 -9.58258359958634453601e-03
9.78089917222437381744e+08 9.76853009341245193120e-01 -2.06911225534745002452e-01 -4.98686796450652225499e-03 -4.45776722049065488029e-02 -4.98686796450652225499e-03 -4.45776722049065488029e-02 9.98925611866265827921e-01 -9.60396833991207336811e-03
9.78139487545463562012e+08 9.76748043486129202684e-01 -2.07373955784830976690e-01 -5.00948217245961256033e-03 -4.46773644151977830652e-02 -5.00948217245961256033e-03 -4.46773644151977830652e-02 9.98920739782855671152e-01 -9.62544637552981315054e-03
9.78189057868489742279e+08 9.76642370529303471827e-01 -2.07838709016429673548e-01 -5.03224872085796144650e-03 -4.47774924636438476089e-02 -5.03224872085796144650e-03 -4.47774924636438476089e-02 9.98915834878691510923e-01 -9.64701830963155329557e-03
9.78238628191515803337e+08 9.76535984145048940874e-01 -2.08305498335415784084e-01 -5.05516897253646332877e-03 -4.48780591738198522678e-02 -5.05516897253646332877e-03 -4.48780591738198522678e-02 9.98910896860159436272e-01 -9.66868475053810939868e-03
9.78288198514541983604e+08 9.76428877937120742736e-01 -2.08774336959320794271e-01 -5.07824430552430636232e-03 -4.49790673933566295672e-02 -5.07824430552430636232e-03 -4.49790673933566295672e-02 9.98905925430372154672e-01 -9.69044631175294823855e-03
9.78337768837568163872e+08 9.76321045437808177070e-01 -2.09245238218498191829e-01 -5.10147611324747018297e-03 -4.50805199941917769668e-02 -5.10147611324747018297e-03 -4.50805199941917769668e-02 9.98900920289125027196e-01 -9.71230361201626778145e-03
9.78387339160594344139e+08 9.76212480106980251549e-01 -2.09718215557306963959e-01 -5.12486580473453003093e-03 -4.51824198728246334555e-02 -5.12486580473453003093e-03 -4.51824198728246334555e-02 9.98895881132852214712e-01 -9.73425727535993413897e-03
9.78436909483620524406e+08 9.76103175331113570579e-01 -2.10193282535313691328e-01 -5.14841480482586873885e-03 -4.52847699505752668281e-02 -5.14841480482586873885e-03 -4.52847699505752668281e-02 9.98890807654580936692e-01 -9.75630793116327721393e-03
9.78486479806646704674e+08 9.75993124422306790322e-01 -2.10670452828509074950e-01 -5.17212455438613872422e-03 -4.53875731738465487686e-02 -5.17212455438613872422e-03 -4.53875731738465487686e-02 9.98885699543886507179e-01 -9.77845621420955074532e-03
9.78536050129672765732e+08 9.75882320617281640018e-01 -2.11149740230529292528e-01 -5.19599651051952035608e-03 -4.54908325143873054630e-02 -5.19599651051952035608e-03 -4.54908325143873054630e-02 9.98880556486845261333e-01 -9.80070276474263347988e-03
9.78585620452698945999e+08 9.75770757076364181337e-01 -2.11631158653906414902e-01 -5.22003214678905085033e-03 -4.55945509695617201551e-02 -5.22003214678905085033e-03 -4.55945509695617201551e-02 9.98875378165987592993e-01 -9.82304822852506087649e-03
9.78635190775725126266e+08 9.75658426882453189144e-01 -2.12114722131327232413e-01 -5.24423295343902882981e-03 -4.56987315626205120589e-02 -5.24423295343902882981e-03 -4.56987315626205120589e-02 9.98870164260250215094e-01 -9.84549325689645579707e-03
9.78684761098751306534e+08 9.75545323039971989942e-01 -2.12600444816904904366e-01 -5.26860043762078251312e-03 -4.58033773429749116457e-02 -5.26860043762078251312e-03 -4.58033773429749116457e-02 9.98864914444927309845e-01 -9.86803850683255420750e-03
9.78734331421777486801e+08 9.75431438473801759592e-01 -2.13088340987474783583e-01 -5.29313612362240868553e-03 -4.59084913864758539792e-02 -5.29313612362240868553e-03 -4.59084913864758539792e-02 9.98859628391620679722e-01 -9.89068464100534977534e-03
9.78783901744803667068e+08 9.75316766028200832217e-01 -2.13578425043899094993e-01 -5.31784155310176687853e-03 -4.60140767956950594297e-02 -5.31784155310176687853e-03 -4.60140767956950594297e-02 9.98854305768190453563e-01 -9.91343232784365653576e-03
9.78833472067829728127e+08 9.75201298465704469187e-01 -2.14070711512391154141e-01 -5.34271828532332463541e-03 -4.61201367002103193582e-02 -5.34271828532332463541e-03 -4.61201367002103193582e-02 9.98848946238703128131e-01 -9.93628224159457014431e-03
9.78883042390855908394e+08 9.75085028466008418846e-01 -2.14565215045857515808e-01 -5.36776789739882870950e-03 -4.62266742568946467640e-02 -5.36776789739882870950e-03 -4.62266742568946467640e-02 9.98843549463380497855e-01 -9.95923506238576526639e-03
9.78932612713882088661e+08 9.74967948624834823690e-01 -2.15061950425253528563e-01 -5.39299198453161918176e-03 -4.63336926502083343293e-02 -5.39299198453161918176e-03 -4.63336926502083343293e-02 9.98838115098546142079e-01 -9.98229147628841399775e-03
9.78982183036908268929e+08 9.74850051452779253758e-01 -2.15560932560957624338e-01 -5.41839216026493170758e-03 -4.64411950924950439612e-02 -5.41839216026493170758e-03 -4.64411950924950439612e-02 9.98832642796572800492e-01 -1.00054521753809785856e-02
9.79031753359934449196e+08 9.74731329374140642585e-01 -2.16062176494161983786e-01 -5.44397005673410289139e-03 -4.65491848242813935355e-02 -5.44397005673410289139e-03 -4.65491848242813935355e-02 9.98827132205827750155e-01 -1.00287178578137535501e-02
9.79081323682960629463e+08 9.74611774725730684032e-01 -2.16565697398284212616e-01 -5.46972732492299450885e-03 -4.66576651145811163723e-02 -5.46972732492299450885e-03 -4.66576651145811163723e-02 9.98821582970617072306e-01 -1.00520892278743983334e-02
