! File generated for n1 = 14, n2 = 1
! b1 = 0.004642
! b2 = 0.004642
! Q0 = 10000.000000
! f0 = 1000000000.000000
! n = 1001
! rel_span = 10.000000
# Hz S RI R 50
9.99495358411166429520e+08 9.99908978250632407558e-01 -9.10447276435093666609e-04 -9.10217493676197364049e-05 -9.10447276435093666609e-04 -9.10217493676197364049e-05 -9.10447276435093666609e-04 9.99908978250632407558e-01 -9.10447276435093666609e-04
9.99496367694344043732e+08 9.99908616605282740686e-01 -9.12236052912221016993e-04 -9.13833947172513859488e-05 -9.12236052912221016993e-04 -9.13833947172513859488e-05 -9.12236052912221016993e-04 9.99908616605282740686e-01 -9.12236052912221016993e-04
9.99497376977521777153e+08 9.99908252807958697339e-01 -9.14031797186428242655e-04 -9.17471920413491325410e-05 -9.14031797186428242655e-04 -9.17471920413491325410e-05 -9.14031797186428242655e-04 9.99908252807958697339e-01 -9.14031797186428242655e-04
9.99498386260699391365e+08 9.99907886841611581730e-01 -9.15834549601305357436e-04 -9.21131583884018717481e-05 -9.15834549601305357436e-04 -9.21131583884018717481e-05 -9.15834549601305357436e-04 9.99907886841611581730e-01 -9.15834549601305357436e-04
9.99499395543877124786e+08 9.99907518689024388259e-01 -9.17644350809494854966e-04 -9.24813109756121749794e-05 -9.17644350809494854966e-04 -9.24813109756121749794e-05 -9.17644350809494854966e-04 9.99907518689024388259e-01 -9.17644350809494854966e-04
9.99500404827054738998e+08 9.99907148332809359026e-01 -9.19461241774618335924e-04 -9.28516671906934494551e-05 -9.19461241774618335924e-04 -9.28516671906934494551e-05 -9.19461241774618335924e-04 9.99907148332809359026e-01 -9.19461241774618335924e-04
9.99501414110232472420e+08 9.99906775755405874406e-01 -9.21285263775119679479e-04 -9.32242445940772789621e-05 -9.21285263775119679479e-04 -9.32242445940772789621e-05 -9.21285263775119679479e-04 9.99906775755405874406e-01 -9.21285263775119679479e-04
9.99502423393410086632e+08 9.99906400939079453849e-01 -9.23116458405340246582e-04 -9.35990609205774031377e-05 -9.23116458405340246582e-04 -9.35990609205774031377e-05 -9.23116458405340246582e-04 9.99906400939079453849e-01 -9.23116458405340246582e-04
9.99503432676587820053e+08 9.99906023865917981119e-01 -9.24954867581340286695e-04 -9.39761340820445626723e-05 -9.24954867581340286695e-04 -9.39761340820445626723e-05 -9.24954867581340286695e-04 9.99906023865917981119e-01 -9.24954867581340286695e-04
9.99504441959765434265e+08 9.99905644517831149187e-01 -9.26800533541126837084e-04 -9.43554821689000084144e-05 -9.26800533541126837084e-04 -9.43554821689000084144e-05 -9.26800533541126837084e-04 9.99905644517831149187e-01 -9.26800533541126837084e-04
9.99505451242943048477e+08 9.99905262876547240580e-01 -9.28653498850261975399e-04 -9.47371234527929080007e-05 -9.28653498850261975399e-04 -9.47371234527929080007e-05 -9.28653498850261975399e-04 9.99905262876547240580e-01 -9.28653498850261975399e-04
9.99506460526120781898e+08 9.99904878923611684094e-01 -9.30513806402848467868e-04 -9.51210763883321284333e-05 -9.30513806402848467868e-04 -9.51210763883321284333e-05 -9.30513806402848467868e-04 9.99904878923611684094e-01 -9.30513806402848467868e-04
9.99507469809298396111e+08 9.99904492640384501279e-01 -9.32381499425793285919e-04 -9.55073596155139951372e-05 -9.32381499425793285919e-04 -9.55073596155139951372e-05 -9.32381499425793285919e-04 9.99904492640384501279e-01 -9.32381499425793285919e-04
9.99508479092476129532e+08 9.99904104008037974971e-01 -9.34256621482102388165e-04 -9.58959919619753724945e-05 -9.34256621482102388165e-04 -9.58959919619753724945e-05 -9.34256621482102388165e-04 9.99904104008037974971e-01 -9.34256621482102388165e-04
9.99509488375653743744e+08 9.99903713007554872938e-01 -9.36139216473484540339e-04 -9.62869924451272517479e-05 -9.36139216473484540339e-04 -9.62869924451272517479e-05 -9.36139216473484540339e-04 9.99903713007554872938e-01 -9.36139216473484540339e-04
9.99510497658831477165e+08 9.99903319619725339251e-01 -9.38029328644439082743e-04 -9.66803802746194406934e-05 -9.38029328644439082743e-04 -9.66803802746194406934e-05 -9.38029328644439082743e-04 9.99903319619725339251e-01 -9.38029328644439082743e-04
9.99511506942009091377e+08 9.99902923825145673042e-01 -9.39927002583677752984e-04 -9.70761748542763660023e-05 -9.39927002583677752984e-04 -9.70761748542763660023e-05 -9.39927002583677752984e-04 9.99902923825145673042e-01 -9.39927002583677752984e-04
9.99512516225186824799e+08 9.99902525604214886812e-01 -9.41832283230791553544e-04 -9.74743957851491294418e-05 -9.41832283230791553544e-04 -9.74743957851491294418e-05 -9.41832283230791553544e-04 9.99902525604214886812e-01 -9.41832283230791553544e-04
9.99513525508364439011e+08 9.99902124937132819049e-01 -9.43745215876077604700e-04 -9.78750628671683876392e-05 -9.43745215876077604700e-04 -9.78750628671683876392e-05 -9.43745215876077604700e-04 9.99902124937132819049e-01 -9.43745215876077604700e-04
9.99514534791542053223e+08 9.99901721803898024810e-01 -9.45665846165927737738e-04 -9.82781961019817498250e-05 -9.45665846165927737738e-04 -9.82781961019817498250e-05 -9.45665846165927737738e-04 9.99901721803898024810e-01 -9.45665846165927737738e-04
9.99515544074719786644e+08 9.99901316184304556067e-01 -9.47594220106392809595e-04 -9.86838156954385523718e-05 -9.47594220106392809595e-04 -9.86838156954385523718e-05 -9.47594220106392809595e-04 9.99901316184304556067e-01 -9.47594220106392809595e-04
9.99516553357897400856e+08 9.99900908057940185358e-01 -9.49530384065293861333e-04 -9.90919420597952208809e-05 -9.49530384065293861333e-04 -9.90919420597952208809e-05 -9.49530384065293861333e-04 9.99900908057940185358e-01 -9.49530384065293861333e-04
9.99517562641075134277e+08 9.99900497404183408179e-01 -9.51474384777340745009e-04 -9.95025958165792444310e-05 -9.51474384777340745009e-04 -9.95025958165792444310e-05 -9.51474384777340745009e-04 9.99900497404183408179e-01 -9.51474384777340745009e-04
9.99518571924252748489e+08 9.99900084202201111516e-01 -9.53426269346426295478e-04 -9.99157977988871285301e-05 -9.53426269346426295478e-04 -9.99157977988871285301e-05 -9.53426269346426295478e-04 9.99900084202201111516e-01 -9.53426269346426295478e-04
9.99519581207430481911e+08 9.99899668430945798292e-01 -9.55386085250303470143e-04 -1.00331569054212387405e-04 -9.55386085250303470143e-04 -1.00331569054212387405e-04 -9.55386085250303470143e-04 9.99899668430945798292e-01 -9.55386085250303470143e-04
9.99520590490608096123e+08 9.99899250069153144871e-01 -9.57353880342949126528e-04 -1.00749930846812709708e-04 -9.57353880342949126528e-04 -1.00749930846812709708e-04 -9.57353880342949126528e-04 9.99899250069153144871e-01 -9.57353880342949126528e-04
9.99521599773785829544e+08 9.99898829095339225503e-01 -9.59329702859984057364e-04 -1.01170904660754167829e-04 -9.59329702859984057364e-04 -1.01170904660754167829e-04 -9.59329702859984057364e-04 9.99898829095339225503e-01 -9.59329702859984057364e-04
9.99522609056963443756e+08 9.99898405487797847790e-01 -9.61313601420242481652e-04 -1.01594512202166764982e-04 -9.61313601420242481652e-04 -1.01594512202166764982e-04 -9.61313601420242481652e-04 9.99898405487797847790e-01 -9.61313601420242481652e-04
9.99523618340141057968e+08 9.99897979224597555081e-01 -9.63305625031833927426e-04 -1.02020775402485820238e-04 -9.63305625031833927426e-04 -1.02020775402485820238e-04 -9.63305625031833927426e-04 9.99897979224597555081e-01 -9.63305625031833927426e-04
9.99524627623318791389e+08 9.99897550283579072961e-01 -9.65305823094666712314e-04 -1.02449716420970529510e-04 -9.65305823094666712314e-04 -1.02449716420970529510e-04 -9.65305823094666712314e-04 9.99897550283579072961e-01 -9.65305823094666712314e-04
9.99525636906496405602e+08 9.99897118642352644713e-01 -9.67314245403648074670e-04 -1.02881357647395456790e-04 -9.67314245403648074670e-04 -1.02881357647395456790e-04 -9.67314245403648074670e-04 9.99897118642352644713e-01 -9.67314245403648074670e-04
9.99526646189674139023e+08 9.99896684278294589632e-01 -9.69330942154692063069e-04 -1.03315721705376636018e-04 -9.69330942154692063069e-04 -1.03315721705376636018e-04 -9.69330942154692063069e-04 9.99896684278294589632e-01 -9.69330942154692063069e-04
9.99527655472851753235e+08 9.99896247168545082573e-01 -9.71355963946693976886e-04 -1.03752831454864124778e-04 -9.71355963946693976886e-04 -1.03752831454864124778e-04 -9.71355963946693976886e-04 9.99896247168545082573e-01 -9.71355963946693976886e-04
9.99528664756029486656e+08 9.99895807290004601242e-01 -9.73389361786866050448e-04 -1.04192709995389271114e-04 -9.73389361786866050448e-04 -1.04192709995389271114e-04 -9.73389361786866050448e-04 9.99895807290004601242e-01 -9.73389361786866050448e-04
9.99529674039207100868e+08 9.99895364619331261657e-01 -9.75431187093226781219e-04 -1.04635380668730604043e-04 -9.75431187093226781219e-04 -1.04635380668730604043e-04 -9.75431187093226781219e-04 9.99895364619331261657e-01 -9.75431187093226781219e-04
9.99530683322384834290e+08 9.99894919132937598505e-01 -9.77481491700938525183e-04 -1.05080867062446516600e-04 -9.77481491700938525183e-04 -1.05080867062446516600e-04 -9.77481491700938525183e-04 9.99894919132937598505e-01 -9.77481491700938525183e-04
9.99531692605562448502e+08 9.99894470806987456513e-01 -9.79540327864440773034e-04 -1.05529193012531222347e-04 -9.79540327864440773034e-04 -1.05529193012531222347e-04 -9.79540327864440773034e-04 9.99894470806987456513e-01 -9.79540327864440773034e-04
9.99532701888740062714e+08 9.99894019617393214894e-01 -9.81607748262884388310e-04 -1.05980382606821359258e-04 -9.81607748262884388310e-04 -1.05980382606821359258e-04 -9.81607748262884388310e-04 9.99894019617393214894e-01 -9.81607748262884388310e-04
9.99533711171917796135e+08 9.99893565539812012588e-01 -9.83683806003586526032e-04 -1.06434460188007456115e-04 -9.83683806003586526032e-04 -1.06434460188007456115e-04 -9.83683806003586526032e-04 9.99893565539812012588e-01 -9.83683806003586526032e-04
9.99534720455095410347e+08 9.99893108549643083727e-01 -9.85768554626665271731e-04 -1.06891450356938729816e-04 -9.85768554626665271731e-04 -1.06891450356938729816e-04 -9.85768554626665271731e-04 9.99893108549643083727e-01 -9.85768554626665271731e-04
9.99535729738273143768e+08 9.99892648622023982874e-01 -9.87862048109735754742e-04 -1.07351377975977701758e-04 -9.87862048109735754742e-04 -1.07351377975977701758e-04 -9.87862048109735754742e-04 9.99892648622023982874e-01 -9.87862048109735754742e-04
9.99536739021450757980e+08 9.99892185731827809470e-01 -9.89964340871618336468e-04 -1.07814268172176313892e-04 -9.89964340871618336468e-04 -1.07814268172176313892e-04 -9.89964340871618336468e-04 9.99892185731827809470e-01 -9.89964340871618336468e-04
9.99537748304628491402e+08 9.99891719853659211026e-01 -9.92075487777251347268e-04 -1.08280146340753181933e-04 -9.92075487777251347268e-04 -1.08280146340753181933e-04 -9.92075487777251347268e-04 9.99891719853659211026e-01 -9.92075487777251347268e-04
9.99538757587806105614e+08 9.99891250961851496548e-01 -9.94195544141963493540e-04 -1.08749038148468960669e-04 -9.94195544141963493540e-04 -1.08749038148468960669e-04 -9.94195544141963493540e-04 9.99891250961851496548e-01 -9.94195544141963493540e-04
9.99539766870983839035e+08 9.99890779030462750754e-01 -9.96324565736617095979e-04 -1.09220969537233457479e-04 -9.96324565736617095979e-04 -1.09220969537233457479e-04 -9.96324565736617095979e-04 9.99890779030462750754e-01 -9.96324565736617095979e-04
9.99540776154161453247e+08 9.99890304033272614426e-01 -9.98462608790933771330e-04 -1.09695966727349931156e-04 -9.98462608790933771330e-04 -1.09695966727349931156e-04 -9.98462608790933771330e-04 9.99890304033272614426e-01 -9.98462608790933771330e-04
9.99541785437339067459e+08 9.99889825943778620676e-01 -1.00060972999968479311e-03 -1.10174056221434374337e-04 -1.00060972999968479311e-03 -1.10174056221434374337e-04 -1.00060972999968479311e-03 9.99889825943778620676e-01 -1.00060972999968479311e-03
9.99542794720516800880e+08 9.99889344735192087121e-01 -1.00276598652659660466e-03 -1.10655264807870283073e-04 -1.00276598652659660466e-03 -1.10655264807870283073e-04 -1.00276598652659660466e-03 9.99889344735192087121e-01 -1.00276598652659660466e-03
9.99543804003694415092e+08 9.99888860380435451347e-01 -1.00493143600924924458e-03 -1.11139619564525071477e-04 -1.00493143600924924458e-03 -1.11139619564525071477e-04 -1.00493143600924924458e-03 9.99888860380435451347e-01 -1.00493143600924924458e-03
9.99544813286872148514e+08 9.99888372852137607971e-01 -1.00710613656355540274e-03 -1.11627147862414946122e-04 -1.00710613656355540274e-03 -1.11627147862414946122e-04 -1.00710613656355540274e-03 9.99888372852137607971e-01 -1.00710613656355540274e-03
9.99545822570049762726e+08 9.99887882122630355930e-01 -1.00929014678912917259e-03 -1.12117877369612777244e-04 -1.00929014678912917259e-03 -1.12117877369612777244e-04 -1.00929014678912917259e-03 9.99887882122630355930e-01 -1.00929014678912917259e-03
9.99546831853227496147e+08 9.99887388163944734742e-01 -1.01148352577472852923e-03 -1.12611836055217444212e-04 -1.01148352577472852923e-03 -1.12611836055217444212e-04 -1.01148352577472852923e-03 9.99887388163944734742e-01 -1.01148352577472852923e-03
9.99547841136405110359e+08 9.99886890947807138730e-01 -1.01368633310158361323e-03 -1.13109052192892224186e-04 -1.01368633310158361323e-03 -1.13109052192892224186e-04 -1.01368633310158361323e-03 9.99886890947807138730e-01 -1.01368633310158361323e-03
9.99548850419582843781e+08 9.99886390445634654078e-01 -1.01589862885064375481e-03 -1.13609554365331081650e-04 -1.01589862885064375481e-03 -1.13609554365331081650e-04 -1.01589862885064375481e-03 9.99886390445634654078e-01 -1.01589862885064375481e-03
9.99549859702760457993e+08 9.99885886628532061238e-01 -1.01812047360602393568e-03 -1.14113371467914977609e-04 -1.01812047360602393568e-03 -1.14113371467914977609e-04 -1.01812047360602393568e-03 9.99885886628532061238e-01 -1.01812047360602393568e-03
9.99550868985938072205e+08 9.99885379467287060962e-01 -1.02035192846056132522e-03 -1.14620532712891103045e-04 -1.02035192846056132522e-03 -1.14620532712891103045e-04 -1.02035192846056132522e-03 9.99885379467287060962e-01 -1.02035192846056132522e-03
9.99551878269115805626e+08 9.99884868932366055461e-01 -1.02259305502267654545e-03 -1.15131067633897864449e-04 -1.02259305502267654545e-03 -1.15131067633897864449e-04 -1.02259305502267654545e-03 9.99884868932366055461e-01 -1.02259305502267654545e-03
9.99552887552293419838e+08 9.99884354993910595688e-01 -1.02484391541813506590e-03 -1.15645006089378982249e-04 -1.02484391541813506590e-03 -1.15645006089378982249e-04 -1.02484391541813506590e-03 9.99884354993910595688e-01 -1.02484391541813506590e-03
9.99553896835471153259e+08 9.99883837621732163292e-01 -1.02710457229975059626e-03 -1.16162378267855071509e-04 -1.02710457229975059626e-03 -1.16162378267855071509e-04 -1.02710457229975059626e-03 9.99883837621732163292e-01 -1.02710457229975059626e-03
9.99554906118648767471e+08 9.99883316785308506880e-01 -1.02937508884963480581e-03 -1.16683214691548536369e-04 -1.02937508884963480581e-03 -1.16683214691548536369e-04 -1.02937508884963480581e-03 9.99883316785308506880e-01 -1.02937508884963480581e-03
9.99555915401826500893e+08 9.99882792453778868058e-01 -1.03165552878620712419e-03 -1.17207546221144925198e-04 -1.03165552878620712419e-03 -1.17207546221144925198e-04 -1.03165552878620712419e-03 9.99882792453778868058e-01 -1.03165552878620712419e-03
9.99556924685004115105e+08 9.99882264595939873608e-01 -1.03394595636903787253e-03 -1.17735404060111999028e-04 -1.03394595636903787253e-03 -1.17735404060111999028e-04 -1.03394595636903787253e-03 9.99882264595939873608e-01 -1.03394595636903787253e-03
9.99557933968181848526e+08 9.99881733180240539482e-01 -1.03624643640526066871e-03 -1.18266819759432992320e-04 -1.03624643640526066871e-03 -1.18266819759432992320e-04 -1.03624643640526066871e-03 9.99881733180240539482e-01 -1.03624643640526066871e-03
9.99558943251359462738e+08 9.99881198174777829912e-01 -1.03855703425480435341e-03 -1.18801825222122477642e-04 -1.03855703425480435341e-03 -1.18801825222122477642e-04 -1.03855703425480435341e-03 9.99881198174777829912e-01 -1.03855703425480435341e-03
9.99559952534537076950e+08 9.99880659547291994471e-01 -1.04087781583657315934e-03 -1.19340452708017062049e-04 -1.04087781583657315934e-03 -1.19340452708017062049e-04 -1.04087781583657315934e-03 9.99880659547291994471e-01 -1.04087781583657315934e-03
9.99560961817714810371e+08 9.99880117265161683093e-01 -1.04320884763342862020e-03 -1.19882734838343984638e-04 -1.04320884763342862020e-03 -1.19882734838343984638e-04 -1.04320884763342862020e-03 9.99880117265161683093e-01 -1.04320884763342862020e-03
9.99561971100892424583e+08 9.99879571295399172115e-01 -1.04555019669928068657e-03 -1.20428704600837222665e-04 -1.04555019669928068657e-03 -1.20428704600837222665e-04 -1.04555019669928068657e-03 9.99879571295399172115e-01 -1.04555019669928068657e-03
9.99562980384070158005e+08 9.99879021604645368271e-01 -1.04790193066485958460e-03 -1.20978395354606833227e-04 -1.04790193066485958460e-03 -1.20978395354606833227e-04 -1.04790193066485958460e-03 9.99879021604645368271e-01 -1.04790193066485958460e-03
9.99563989667247772217e+08 9.99878468159165145757e-01 -1.05026411774238482427e-03 -1.21531840834808205448e-04 -1.05026411774238482427e-03 -1.21531840834808205448e-04 -1.05026411774238482427e-03 9.99878468159165145757e-01 -1.05026411774238482427e-03
9.99564998950425505638e+08 9.99877910924841684093e-01 -1.05263682673432295081e-03 -1.22089075158328863504e-04 -1.05263682673432295081e-03 -1.22089075158328863504e-04 -1.05263682673432295081e-03 9.99877910924841684093e-01 -1.05263682673432295081e-03
9.99566008233603119850e+08 9.99877349867171583142e-01 -1.05502012703730259878e-03 -1.22650132828404145663e-04 -1.05502012703730259878e-03 -1.22650132828404145663e-04 -1.05502012703730259878e-03 9.99877349867171583142e-01 -1.05502012703730259878e-03
9.99567017516780853271e+08 9.99876784951259756085e-01 -1.05741408865000141235e-03 -1.23215048740226270014e-04 -1.05741408865000141235e-03 -1.23215048740226270014e-04 -1.05741408865000141235e-03 9.99876784951259756085e-01 -1.05741408865000141235e-03
9.99568026799958467484e+08 9.99876216141814100347e-01 -1.05981878217797486491e-03 -1.23783858185898406560e-04 -1.05981878217797486491e-03 -1.23783858185898406560e-04 -1.05981878217797486491e-03 9.99876216141814100347e-01 -1.05981878217797486491e-03
9.99569036083136081696e+08 9.99875643403139835463e-01 -1.06223427884158221068e-03 -1.24356596860184025156e-04 -1.06223427884158221068e-03 -1.24356596860184025156e-04 -1.06223427884158221068e-03 9.99875643403139835463e-01 -1.06223427884158221068e-03
9.99570045366313815117e+08 9.99875066699133951964e-01 -1.06466065048269856348e-03 -1.24933300866038386571e-04 -1.06466065048269856348e-03 -1.24933300866038386571e-04 -1.06466065048269856348e-03 9.99875066699133951964e-01 -1.06466065048269856348e-03
9.99571054649491429329e+08 9.99874485993280326390e-01 -1.06709796956936091988e-03 -1.25514006719715676824e-04 -1.06709796956936091988e-03 -1.25514006719715676824e-04 -1.06709796956936091988e-03 9.99874485993280326390e-01 -1.06709796956936091988e-03
9.99572063932669162750e+08 9.99873901248642948936e-01 -1.06954630920503310047e-03 -1.26098751357042309371e-04 -1.06954630920503310047e-03 -1.26098751357042309371e-04 -1.06954630920503310047e-03 9.99873901248642948936e-01 -1.06954630920503310047e-03
9.99573073215846776962e+08 9.99873312427861371532e-01 -1.07200574313300999590e-03 -1.26687572138604209087e-04 -1.07200574313300999590e-03 -1.26687572138604209087e-04 -1.07200574313300999590e-03 9.99873312427861371532e-01 -1.07200574313300999590e-03
9.99574082499024510384e+08 9.99872719493143713443e-01 -1.07447634574601297297e-03 -1.27280506856244435884e-04 -1.07447634574601297297e-03 -1.27280506856244435884e-04 -1.07447634574601297297e-03 9.99872719493143713443e-01 -1.07447634574601297297e-03
