! File generated for n1 = 9, n2 = 6
! b1 = 0.215443
! b2 = 0.004642
! Q0 = 10000.000000
! f0 = 1000000000.000000
! n = 1001
! rel_span = 10.000000
# Hz S RI R 50
9.99389957471081614494e+08 9.96505464868081336505e-01 -3.49560169008931997947e-02 -5.12927610730972457879e-04 -5.13084160061157146249e-03 -5.12927610730972457879e-04 -5.13084160061157146249e-03 9.99924712522862635389e-01 -7.53104554366251137745e-04
9.99391177556139469147e+08 9.96491579720040432377e-01 -3.50246995521769285964e-02 -5.14965671743505370821e-04 -5.14092283513683124402e-03 -5.14965671743505370821e-04 -5.14092283513683124402e-03 9.99924413376416465482e-01 -7.54584277231541418300e-04
9.99392397641197323799e+08 9.96477611946752106498e-01 -3.50936497424850224469e-02 -5.17015860483804553550e-04 -5.15104333902049321692e-03 -5.17015860483804553550e-04 -5.15104333902049321692e-03 9.99924112449863233820e-01 -7.56069764050381937399e-04
9.99393617726255178452e+08 9.96463560893628530479e-01 -3.51628690208884778223e-02 -5.19078273032212689740e-04 -5.16120333963508530484e-03 -5.19078273032212689740e-04 -5.16120333963508530484e-03 9.99923809729100443455e-01 -7.57561048196495859415e-04
9.99394837811312913895e+08 9.96449425899608276502e-01 -3.52323589483046553661e-02 -5.21153006419293593141e-04 -5.17140306609194331383e-03 -5.21153006419293593141e-04 -5.17140306609194331383e-03 9.99923505199885820360e-01 -7.59058163298827865383e-04
9.99396057896370768547e+08 9.96435206297079156812e-01 -3.53021210976092944533e-02 -5.23240158637095441850e-04 -5.18164274925765264146e-03 -5.23240158637095441850e-04 -5.18164274925765264146e-03 9.99923198847836203207e-01 -7.60561143243958888080e-04
9.99397277981428623199e+08 9.96420901411804948999e-01 -3.53721570537305768367e-02 -5.25339828649989655854e-04 -5.19192262176785494093e-03 -5.25339828649989655854e-04 -5.19192262176785494093e-03 9.99922890658425433941e-01 -7.62070022178131293265e-04
9.99398498066486477852e+08 9.96406510562844016654e-01 -3.54424684137728054911e-02 -5.27452116406516239439e-04 -5.20224291804540460438e-03 -5.27452116406516239439e-04 -5.20224291804540460438e-03 9.99922580616983247559e-01 -7.63584834509914282298e-04
9.99399718151544332504e+08 9.96392033062466708770e-01 -3.55130567871481950259e-02 -5.29577122851595692363e-04 -5.21260387431970746014e-03 -5.29577122851595692363e-04 -5.21260387431970746014e-03 9.99922268708692940642e-01 -7.65105614913042875527e-04
9.99400938236602187157e+08 9.96377468216079975605e-01 -3.55839237956648984929e-02 -5.31714949937550467041e-04 -5.22300572863964619741e-03 -5.31714949937550467041e-04 -5.22300572863964619741e-03 9.99921954918589817041e-01 -7.66632398328314615572e-04
9.99402158321660041809e+08 9.96362815322137218566e-01 -3.56550710736839235326e-02 -5.33865700637326271935e-04 -5.23344872089660968772e-03 -5.33865700637326271935e-04 -5.23344872089660968772e-03 9.99921639231559633565e-01 -7.68165219966970001277e-04
9.99403378406717777252e+08 9.96348073672063794248e-01 -3.57265002681968826814e-02 -5.36029478955452054478e-04 -5.24393309283590486336e-03 -5.36029478955452054478e-04 -5.24393309283590486336e-03 9.99921321632336490559e-01 -7.69704115312367471644e-04
9.99404598491775631905e+08 9.96333242550167308416e-01 -3.57982130389726815878e-02 -5.38206389941211973266e-04 -5.25445908807829157455e-03 -5.38206389941211973266e-04 -5.25445908807829157455e-03 9.99921002105501499635e-01 -7.71249120123144288851e-04
9.99405818576833486557e+08 9.96318321233551240645e-01 -3.58702110586832656480e-02 -5.40396539701319070931e-04 -5.26502695213843484312e-03 -5.40396539701319070931e-04 -5.26502695213843484312e-03 9.99920680635480119136e-01 -7.72800270435925200536e-04
9.99407038661891341209e+08 9.96303308992035341340e-01 -3.59424960129913068085e-02 -5.42600035411562424403e-04 -5.27563693243777911274e-03 -5.42600035411562424403e-04 -5.27563693243777911274e-03 9.99920357206541154937e-01 -7.74357602567211336826e-04
9.99408258746949195862e+08 9.96288205088056377789e-01 -3.60150696007309825686e-02 -5.44816985331424683860e-04 -5.28628927833107910977e-03 -5.44816985331424683860e-04 -5.28628927833107910977e-03 9.99920031802794206932e-01 -7.75921153117275640317e-04
9.99409478832007050514e+08 9.96273008776588087088e-01 -3.60879335339886753165e-02 -5.47047498815790914084e-04 -5.29698424111824887200e-03 -5.47047498815790914084e-04 -5.29698424111824887200e-03 9.99919704408188336764e-01 -7.77490958971900950579e-04
9.99410698917064785957e+08 9.96257719305047584335e-01 -3.61610895382472666282e-02 -5.49291686328734116672e-04 -5.30772207406554098752e-03 -5.49291686328734116672e-04 -5.30772207406554098752e-03 9.99919375006509625337e-01 -7.79067057305489387570e-04
9.99411919002122640610e+08 9.96242335913201215725e-01 -3.62345393525256298517e-02 -5.51549659457300318552e-04 -5.31850303242601719911e-03 -5.51549659457300318552e-04 -5.31850303242601719911e-03 9.99919043581379174412e-01 -7.80649485584066350589e-04
9.99413139087180495262e+08 9.96226857833074186388e-01 -3.63082847294962929308e-02 -5.53821530924772592944e-04 -5.32932737345682191327e-03 -5.53821530924772592944e-04 -5.32932737345682191327e-03 9.99918710116251552300e-01 -7.82238281567817117686e-04
9.99414359172238349915e+08 9.96211284288859633129e-01 -3.63823274356009501718e-02 -5.56107414604007288181e-04 -5.34019535643613912218e-03 -5.56107414604007288181e-04 -5.34019535643613912218e-03 9.99918374594412462386e-01 -7.83833483313574113857e-04
9.99415579257296204567e+08 9.96195614496811154837e-01 -3.64566692512415801986e-02 -5.58407425533257633157e-04 -5.35110724269124114760e-03 -5.58407425533257633157e-04 -5.35110724269124114760e-03 9.99918036998976744734e-01 -7.85435129178935469846e-04
9.99416799342354059219e+08 9.96179847665159545755e-01 -3.65313119708486414017e-02 -5.60721679928355073996e-04 -5.36206329560849712795e-03 -5.60721679928355073996e-04 -5.36206329560849712795e-03 9.99917697312886155636e-01 -7.87043257823733248719e-04
9.99418019427411913872e+08 9.96163982994004326699e-01 -3.66062574030653273272e-02 -5.63050295198630891373e-04 -5.37306378066042342884e-03 -5.63050295198630891373e-04 -5.37306378066042342884e-03 9.99917355518907258194e-01 -7.88657908214003794227e-04
9.99419239512469649315e+08 9.96148019675222373692e-01 -3.66815073708453148749e-02 -5.65393389960316505687e-04 -5.38410896542002893883e-03 -5.65393389960316505687e-04 -5.38410896542002893883e-03 9.99917011599629756979e-01 -7.90279119624093685098e-04
9.99420459597527503967e+08 9.96131956892353231936e-01 -3.67570637116580167802e-02 -5.67751084053444020523e-04 -5.39519911959093767528e-03 -5.67751084053444020523e-04 -5.39519911959093767528e-03 9.99916665537463500435e-01 -7.91906931641081328344e-04
9.99421679682585358620e+08 9.96115793820513184542e-01 -3.68329282775482214074e-02 -5.70123498554379708192e-04 -5.40633451501614827051e-03 -5.70123498554379708192e-04 -5.40633451501614827051e-03 9.99916317314636815539e-01 -7.93541384166061955670e-04
9.99422899767643213272e+08 9.96099529626275126404e-01 -3.69091029353551189351e-02 -5.72510755793489674662e-04 -5.41751542571018099986e-03 -5.72510755793489674662e-04 -5.41751542571018099986e-03 9.99915966913194065313e-01 -7.95182517418866830275e-04
9.99424119852701067924e+08 9.96083163467578303063e-01 -3.69855895667849446373e-02 -5.74912979368400194231e-04 -5.42874212786973939227e-03 -5.74912979368400194231e-04 -5.42874212786973939227e-03 9.99915614314993650424e-01 -7.96830371939627859004e-04
9.99425339937758922577e+08 9.96066694493603632665e-01 -3.70623900686375545854e-02 -5.77330294162251120467e-04 -5.44001489990696574656e-03 -5.77330294162251120467e-04 -5.44001489990696574656e-03 9.99915259501705233625e-01 -7.98484988593659104211e-04
9.99426560022816777229e+08 9.96050121844681557448e-01 -3.71395063528785138174e-02 -5.79762826357277578394e-04 -5.45133402246002814889e-03 -5.79762826357277578394e-04 -5.45133402246002814889e-03 9.99914902454807852372e-01 -8.00146408573009903370e-04
9.99427780107874512672e+08 9.96033444652172694767e-01 -3.72169403468309775707e-02 -5.82210703452327419001e-04 -5.46269977842127590212e-03 -5.82210703452327419001e-04 -5.46269977842127590212e-03 9.99914543155587143275e-01 -8.01814673400598931959e-04
9.99429000192932367325e+08 9.96016662038349265273e-01 -3.72946939933562343628e-02 -5.84674054280215176049e-04 -5.47411245296374696784e-03 -5.84674054280215176049e-04 -5.47411245296374696784e-03 9.99914181585133010621e-01 -8.03489824934103887173e-04
9.99430220277990221977e+08 9.95999773116298281472e-01 -3.73727692509299297408e-02 -5.87153009021957423760e-04 -5.48557233355235433075e-03 -5.87153009021957423760e-04 -5.48557233355235433075e-03 9.99913817724337516957e-01 -8.05171905367603186858e-04
9.99431440363048076630e+08 9.95982776989795648426e-01 -3.74511680938468954905e-02 -5.89647699225255171249e-04 -5.49707970997394788915e-03 -5.89647699225255171249e-04 -5.49707970997394788915e-03 9.99913451553892218548e-01 -8.06860957235989864969e-04
9.99432660448105931282e+08 9.95965672753187591937e-01 -3.75298925123858512221e-02 -5.92158257821906799934e-04 -5.50863487436149303067e-03 -5.92158257821906799934e-04 -5.50863487436149303067e-03 9.99913083054285278806e-01 -8.08557023418519081083e-04
9.99433880533163785934e+08 9.95948459491277193756e-01 -3.76089445129437621729e-02 -5.94684819144445037456e-04 -5.52023812121378923412e-03 -5.94684819144445037456e-04 -5.52023812121378923412e-03 9.99912712205799358856e-01 -8.10260147141702940198e-04
9.99435100618221521378e+08 9.95931136279200268646e-01 -3.76883261182149528756e-02 -5.97227518944392862278e-04 -5.53188974742176153843e-03 -5.97227518944392862278e-04 -5.53188974742176153843e-03 9.99912338988508953008e-01 -8.11970371983169710364e-04
9.99436320703279376030e+08 9.95913702182304017008e-01 -3.77680393673469824711e-02 -5.99786494409980776646e-04 -5.54359005229133807585e-03 -5.99786494409980776646e-04 -5.54359005229133807585e-03 9.99911963382277502177e-01 -8.13687741875021596817e-04
9.99437540788337230682e+08 9.95896156256023901143e-01 -3.78480863161056446664e-02 -6.02361884184356415756e-04 -5.55533933756767288326e-03 -6.02361884184356415756e-04 -5.55533933756767288326e-03 9.99911585366755062410e-01 -8.15412301107390274577e-04
9.99438760873395085335e+08 9.95878497545760854592e-01 -3.79284690370236543533e-02 -6.04953828383471715197e-04 -5.56713790745696525397e-03 -6.04953828383471715197e-04 -5.56713790745696525397e-03 9.99911204921375307286e-01 -8.17144094331639404827e-04
9.99439980958452939987e+08 9.95860725086743947543e-01 -3.80091896196169815036e-02 -6.07562468616361611544e-04 -5.57898606865821645312e-03 -6.07562468616361611544e-04 -5.57898606865821645312e-03 9.99910822025352974407e-01 -8.18883166565025836896e-04
9.99441201043510794640e+08 9.95842837903912037056e-01 -3.80902501705010013144e-02 -6.10187948002408227233e-04 -5.59088413038027684521e-03 -6.10187948002408227233e-04 -5.59088413038027684521e-03 9.99910436657680978811e-01 -8.20629563193202163709e-04
9.99442421128568649292e+08 9.95824835011771547499e-01 -3.81716528136148286476e-02 -6.12830411192310750036e-04 -5.60283240437477441515e-03 -6.12830411192310750036e-04 -5.60283240437477441515e-03 9.99910048797127526399e-01 -8.22383329975049336136e-04
9.99443641213626384735e+08 9.95806715414276011344e-01 -3.82533996903336170892e-02 -6.15490004385650592462e-04 -5.61483120495259724336e-03 -6.15490004385650592462e-04 -5.61483120495259724336e-03 9.99909658422233449393e-01 -8.24144513045096493813e-04
9.99444861298684239388e+08 9.95788478104673635549e-01 -3.83354929597271298913e-02 -6.18166875353428268633e-04 -5.62688084902184752073e-03 -6.18166875353428268633e-04 -5.62688084902184752073e-03 9.99909265511308764651e-01 -8.25913158919091595911e-04
9.99446081383742094040e+08 9.95770122065384288845e-01 -3.84179347986686181571e-02 -6.20861173455964873193e-04 -5.63898165610382008650e-03 -6.20861173455964873193e-04 -5.63898165610382008650e-03 9.99908870042430675262e-01 -8.27689314496347200954e-04
9.99447301468799948692e+08 9.95751646267856393990e-01 -3.85007274020344597565e-02 -6.23573049663981790469e-04 -5.65113394836231144880e-03 -6.23573049663981790469e-04 -5.65113394836231144880e-03 9.99908471993439462722e-01 -8.29473027064041388418e-04
9.99448521553857803345e+08 9.95733049672417713793e-01 -3.85838729829216589562e-02 -6.26302656580510794075e-04 -5.66333805063553609449e-03 -6.26302656580510794075e-04 -5.66333805063553609449e-03 9.99908071341936155463e-01 -8.31264344301903897357e-04
9.99449741638915657997e+08 9.95714331228142790486e-01 -3.86673737727809690989e-02 -6.29050148460278280710e-04 -5.67559429045567248595e-03 -6.29050148460278280710e-04 -5.67559429045567248595e-03 9.99907668065279198188e-01 -8.33063314285083515894e-04
9.99450961723973512650e+08 9.95695489872697625522e-01 -3.87512320216501018888e-02 -6.31815681232618365192e-04 -5.68790299808309002261e-03 -6.31815681232618365192e-04 -5.68790299808309002261e-03 9.99907262140581454268e-01 -8.34869985489173358287e-04
9.99452181809031248093e+08 9.95676524532199347384e-01 -3.88354499983060916235e-02 -6.34599412521975035119e-04 -5.70026450652871656544e-03 -6.34599412521975035119e-04 -5.70026450652871656544e-03 9.99906853544706653025e-01 -8.36684406793492853327e-04
9.99453401894089102745e+08 9.95657434121055784360e-01 -3.89200299905036462000e-02 -6.37401501671494932245e-04 -5.71267915158902260531e-03 -6.37401501671494932245e-04 -5.71267915158902260531e-03 9.99906442254266503156e-01 -8.38506627486223176347e-04
9.99454621979146957397e+08 9.95638217541821912704e-01 -3.90049743051281080919e-02 -6.40222109764056754658e-04 -5.72514727186846685003e-03 -6.40222109764056754658e-04 -5.72514727186846685003e-03 9.99906028245617251038e-01 -8.40336697267702464886e-04
9.99455842064204812050e+08 9.95618873685043648258e-01 -3.90902852684001239636e-02 -6.43061399645269461678e-04 -5.73766920880954683915e-03 -6.43061399645269461678e-04 -5.73766920880954683915e-03 9.99905611494856461086e-01 -8.42174666254835160503e-04
9.99457062149262666702e+08 9.95599401429095642868e-01 -3.91759652260946153457e-02 -6.45919535947215759340e-04 -5.75024530672493296157e-03 -6.45919535947215759340e-04 -5.75024530672493296157e-03 9.99905191977819352012e-01 -8.44020584985809914531e-04
9.99458282234320521355e+08 9.95579799640025076002e-01 -3.92620165437275042697e-02 -6.48796685111395336244e-04 -5.76287591282487968863e-03 -6.48796685111395336244e-04 -5.76287591282487968863e-03 9.99904769670075799226e-01 -8.45874504424122411819e-04
9.99459502319378256798e+08 9.95560067171391560592e-01 -3.93484416067522504989e-02 -6.51693015412268096889e-04 -5.77556137724607142336e-03 -6.51693015412268096889e-04 -5.77556137724607142336e-03 9.99904344546926338033e-01 -8.47736475962809505474e-04
9.99460722404436111450e+08 9.95540202864091949841e-01 -3.94352428208101443707e-02 -6.54608696982881231585e-04 -5.78830205308835960692e-03 -6.54608696982881231585e-04 -5.78830205308835960692e-03 9.99903916583398943985e-01 -8.49606551429841496369e-04
9.99461942489493966103e+08 9.95520205546206349290e-01 -3.95224226118849816802e-02 -6.57543901837578806738e-04 -5.80109829643746851419e-03 -6.57543901837578806738e-04 -5.80109829643746851419e-03 9.99903485754245369144e-01 -8.51484783091455079036e-04
9.99463162574551820755e+08 9.95500074032822257486e-01 -3.96099834265385350451e-02 -6.60498803897708198357e-04 -5.81395046639955701689e-03 -6.60498803897708198357e-04 -5.81395046639955701689e-03 9.99903052033937367327e-01 -8.53371223657225889958e-04
9.99464382659609675407e+08 9.95479807125859816885e-01 -3.96979277321374279808e-02 -6.63473579017337909691e-04 -5.82685892513451573343e-03 -6.63473579017337909691e-04 -5.82685892513451573343e-03 9.99902615396663141389e-01 -8.55265926284956090955e-04
9.99465602744667530060e+08 9.95459403613905169372e-01 -3.97862580170344620756e-02 -6.66468405007743084668e-04 -5.83982403788258722793e-03 -6.66468405007743084668e-04 -5.83982403788258722793e-03 9.99902175816323679491e-01 -8.57168944584581833819e-04
9.99466822829725384712e+08 9.95438862272018942789e-01 -3.98749767908447641518e-02 -6.69483461665400258513e-04 -5.85284617300489522218e-03 -6.69483461665400258513e-04 -5.85284617300489522218e-03 9.99901733266528203181e-01 -8.59080332624121735530e-04
9.99468042914783120155e+08 9.95418181861571271796e-01 -3.99640865846042775411e-02 -6.72518930796314360829e-04 -5.86592570200671244163e-03 -6.72518930796314360829e-04 -5.86592570200671244163e-03 9.99901287720591502861e-01 -8.61000144933092657201e-04
9.99469262999840974808e+08 9.95397361130041402610e-01 -4.00535899510679818669e-02 -6.75574996245403413403e-04 -5.87906299958122595395e-03 -6.75574996245403413403e-04 -5.87906299958122595395e-03 9.99900839151528719739e-01 -8.62928436508933059852e-04
9.99470483084898829460e+08 9.95376398810850049337e-01 -4.01434894648571710674e-02 -6.78651843921076634511e-04 -5.89225844363116136454e-03 -6.78651843921076634511e-04 -5.89225844363116136454e-03 9.99900387532052237205e-01 -8.64865262820177331526e-04
9.99471703169956684113e+08 9.95355293623155445992e-01 -4.02337877227554527315e-02 -6.81749661825205147993e-04 -5.90551241531222549652e-03 -6.81749661825205147993e-04 -5.90551241531222549652e-03 9.99899932834567128914e-01 -8.66810679812832413950e-04
9.99472923255014538765e+08 9.95334044271670381754e-01 -4.03244873439020379280e-02 -6.84868640079926496722e-04 -5.91882529906148126264e-03 -6.84868640079926496722e-04 -5.91882529906148126264e-03 9.99899475031167384032e-01 -8.68764743914541897815e-04
9.99474143340072393417e+08 9.95312649446460806502e-01 -4.04155909700572926746e-02 -6.88008970957265371220e-04 -5.93219748263632169760e-03 -6.88008970957265371220e-04 -5.93219748263632169760e-03 9.99899014093631133271e-01 -8.70727512040307682906e-04
9.99475363425130248070e+08 9.95291107822751541789e-01 -4.05071012658261772610e-02 -6.91170848907656908827e-04 -5.94562935714726577274e-03 -6.91170848907656908827e-04 -5.94562935714726577274e-03 9.99898549993417207205e-01 -8.72699041597303293641e-04
9.99476583510187983513e+08 9.95269418060723443098e-01 -4.05990209189052084215e-02 -6.94354470589634534435e-04 -5.95912131709421324932e-03 -6.94354470589634534435e-04 -5.95912131709421324932e-03 9.99898082701659807192e-01 -8.74679390490194818078e-04
9.99477803595245838165e+08 9.95247578805309451866e-01 -4.06913526403283321020e-02 -6.97560034899840785035e-04 -5.97267376040252779418e-03 -6.97560034899840785035e-04 -5.97267376040252779418e-03 9.99897612189165174712e-01 -8.76668617126438211307e-04
9.99479023680303692818e+08 9.95225588685983764137e-01 -4.07840991647285336374e-02 -7.00787743003955369316e-04 -5.98628708846143855332e-03 -7.00787743003955369316e-04 -5.98628708846143855332e-03 9.99897138426406040246e-01 -8.78666780421915086761e-04
9.99480243765361547470e+08 9.95203446316558770768e-01 -4.08772632505562463767e-02 -7.04037798366493271750e-04 -5.99996170615609870913e-03 -7.04037798366493271750e-04 -5.99996170615609870913e-03 9.99896661383517959543e-01 -8.80673939805638370491e-04
9.99481463850419402122e+08 9.95181150294966898606e-01 -4.09708476803511967290e-02 -7.07310406782839674183e-04 -6.01369802190748412030e-03 -7.07310406782839674183e-04 -6.01369802190748412030e-03 9.99896181030294317615e-01 -8.82690155225609378135e-04
9.99482683935477256775e+08 9.95158699203034569081e-01 -4.10648552610349618086e-02 -7.10605776412406701416e-04 -6.02749644771533987092e-03 -7.10605776412406701416e-04 -6.02749644771533987092e-03 9.99895697336181332737e-01 -8.84715487155120065312e-04
9.99483904020534992218e+08 9.95136091606274031385e-01 -4.11592888241174570396e-02 -7.13924117809175721658e-04 -6.04135739918848242019e-03 -7.13924117809175721658e-04 -6.04135739918848242019e-03 9.99895210270274170661e-01 -8.86749996597202484912e-04
9.99485124105592846870e+08 9.95113326053648994396e-01 -4.12541512260045581395e-02 -7.17265643956180613469e-04 -6.05528129558995879128e-03 -7.17265643956180613469e-04 -6.05528129558995879128e-03 9.99894719801311060436e-01 -8.88793745091255756041e-04
