! File generated for n1 = 8, n2 = 9
! b1 = 0.464159
! b2 = 0.001000
! Q0 = 10000.000000
! f0 = 1000000000.000000
! n = 1001
! rel_span = 10.000000
# Hz S RI R 50
9.99267420558319330215e+08 9.93731330310402172223e-01 -6.27096752221399655891e-02 -2.90965872328444088296e-04 -2.91072528270568771022e-03 -2.90965872328444088296e-04 -2.91072528270568771022e-03 9.99986494560560323919e-01 -1.35103899699211152472e-04
9.99268885717202663422e+08 9.93706420885663965770e-01 -6.28328969748404575490e-02 -2.92122065405604942629e-04 -2.91644472981961557292e-03 -2.92122065405604942629e-04 -2.91644472981961557292e-03 9.99986440894831574155e-01 -1.35369372917795640233e-04
9.99270350876085996628e+08 9.93681363231197711805e-01 -6.29565987132130189252e-02 -2.93285138697276111762e-04 -2.92218645589490105124e-03 -2.93285138697276111762e-04 -2.92218645589490105124e-03 9.99986386909751612251e-01 -1.35635880234162738145e-04
9.99271816034969449043e+08 9.93656156172657345493e-01 -6.30807832164262533015e-02 -2.94455146711770823342e-04 -2.92795058992912455784e-03 -2.94455146711770823342e-04 -2.92795058992912455784e-03 9.99986332602790239932e-01 -1.35903427635849707996e-04
9.99273281193852782249e+08 9.93630798524088643120e-01 -6.32054532848720374005e-02 -2.95632144496201290911e-04 -2.93373726190496132357e-03 -2.95632144496201290911e-04 -2.93373726190496132357e-03 9.99986277971392500952e-01 -1.36172021156117951110e-04
9.99274746352736115456e+08 9.93605289087782450608e-01 -6.33306117404133228632e-02 -2.96816187643309079176e-04 -2.93954660280168781836e-03 -2.96816187643309079176e-04 -2.93954660280168781836e-03 9.99986223012978014957e-01 -1.36441666874486896600e-04
9.99276211511619448662e+08 9.93579626654144232312e-01 -6.34562614265399421720e-02 -2.98007332297493051244e-04 -2.94537874460241077754e-03 -2.98007332297493051244e-04 -2.94537874460241077754e-03 9.99986167724940755441e-01 -1.36712370917069724573e-04
9.99277676670502901077e+08 9.93553810001545412156e-01 -6.35824052086116642268e-02 -2.99205635161730915290e-04 -2.95123382030534854234e-03 -2.99205635161730915290e-04 -2.95123382030534854234e-03 9.99986112104648827703e-01 -1.36984139457096873145e-04
9.99279141829386234283e+08 9.93527837896192589362e-01 -6.37090459740037168279e-02 -3.00411153503643655206e-04 -2.95711196393058737414e-03 -3.00411153503643655206e-04 -2.95711196393058737414e-03 9.99986056149444024754e-01 -1.37256978715229671032e-04
9.99280606988269567490e+08 9.93501709091962337261e-01 -6.38361866324120980076e-02 -3.01623945163149455827e-04 -2.96301331053425284420e-03 -3.01623945163149455827e-04 -2.96301331053425284420e-03 9.99985999856641827321e-01 -1.37530894960218204315e-04
9.99282072147152900696e+08 9.93475422330270085958e-01 -6.39638301159894395731e-02 -3.02844068558577627411e-04 -2.96893799621481338513e-03 -3.02844068558577627411e-04 -2.96893799621481338513e-03 9.99985943223530515667e-01 -1.37805894509193752875e-04
9.99283537306036353111e+08 9.93448976339916134393e-01 -6.40919793795785147639e-02 -3.04071582693783302922e-04 -2.97488615812392057786e-03 -3.04071582693783302922e-04 -2.97488615812392057786e-03 9.99985886247371502655e-01 -1.38081983728172077042e-04
9.99285002464919686317e+08 9.93422369836932883658e-01 -6.42206374009389180380e-02 -3.05306547165271079981e-04 -2.98085793447693198424e-03 -3.05306547165271079981e-04 -2.98085793447693198424e-03 9.99985828925398445577e-01 -1.38359169032541796463e-04
9.99286467623803019524e+08 9.93395601524430515994e-01 -6.43498071809666394305e-02 -3.06549022169327228023e-04 -2.98685346456310091279e-03 -3.06549022169327228023e-04 -2.98685346456310091279e-03 9.99985771254817468190e-01 -1.38637456887537291982e-04
9.99287932782686352730e+08 9.93368670092443784014e-01 -6.44794917439062142961e-02 -3.07799068509155256471e-04 -2.99287288875542401012e-03 -3.07799068509155256471e-04 -2.99287288875542401012e-03 9.99985713232806161521e-01 -1.38916853808695940804e-04
9.99289397941569805145e+08 9.93341574217771694499e-01 -6.46096941375851330225e-02 -3.09056747602302699617e-04 -2.99891634852152101295e-03 -3.09056747602302699617e-04 -2.99891634852152101295e-03 9.99985654856513805910e-01 -1.39197366362362975238e-04
9.99290863100453138351e+08 9.93314312563823742508e-01 -6.47404174336110166399e-02 -3.10322121487808068926e-04 -3.00498398643278931755e-03 -3.10322121487808068926e-04 -3.00498398643278931755e-03 9.99985596123060815898e-01 -1.39479001166116462840e-04
9.99292328259336471558e+08 9.93286883780442941827e-01 -6.48716647276705582481e-02 -3.11595252834409835573e-04 -3.01107594617827569600e-03 -3.11595252834409835573e-04 -3.01107594617827569600e-03 9.99985537029538407161e-01 -1.39761764889411159874e-04
9.99293793418219804764e+08 9.93259286503757388154e-01 -6.50034391396826644050e-02 -3.12876204947427807423e-04 -3.01719237257178909614e-03 -3.12876204947427807423e-04 -3.01719237257178909614e-03 9.99985477573008152419e-01 -1.40045664253908596665e-04
9.99295258577103137970e+08 9.93231519356004288746e-01 -6.51357438140778149949e-02 -3.14165041776947229126e-04 -3.02333341156486162804e-03 -3.14165041776947229126e-04 -3.02333341156486162804e-03 9.99985417750501759393e-01 -1.40330706034078891119e-04
9.99296723735986590385e+08 9.93203580945359321142e-01 -6.52685819200408134932e-02 -3.15461827925734650604e-04 -3.02949921025802296551e-03 -3.15461827925734650604e-04 -3.02949921025802296551e-03 9.99985357559020737739e-01 -1.40616897057723713640e-04
9.99298188894869923592e+08 9.93175469865772986289e-01 -6.54019566517110018111e-02 -3.16766628656822083875e-04 -3.03568991691008762193e-03 -3.16766628656822083875e-04 -3.03568991691008762193e-03 9.99985296995535621889e-01 -1.40904244206407636966e-04
9.99299654053753256798e+08 9.93147184696792528769e-01 -6.55358712284450778407e-02 -3.18079509901788139246e-04 -3.04190568095035612783e-03 -3.18079509901788139246e-04 -3.04190568095035612783e-03 9.99985236056986415143e-01 -1.41192754416024496278e-04
9.99301119212636590004e+08 9.93118724003374087062e-01 -6.56703288951139274587e-02 -3.19400538269462650875e-04 -3.04814665299239393945e-03 -3.19400538269462650875e-04 -3.04814665299239393945e-03 9.99985174740281146377e-01 -1.41482434677436580590e-04
9.99302584371520042419e+08 9.93090086335722155297e-01 -6.58053329222651056662e-02 -3.20729781053404364947e-04 -3.05441298484157011325e-03 -3.20729781053404364947e-04 -3.05441298484157011325e-03 9.99985113042296536179e-01 -1.41773292036825073999e-04
9.99304049530403375626e+08 9.93061270229098402851e-01 -6.59408866064147142216e-02 -3.22067306240735561074e-04 -3.06070482950860896579e-03 -3.22067306240735561074e-04 -3.06070482950860896579e-03 9.99985050959876775600e-01 -1.42065333596318621890e-04
9.99305514689286708832e+08 9.93032274203633380516e-01 -6.60769932703226259285e-02 -3.23413182520909290533e-04 -3.06702234122236154154e-03 -3.23413182520909290533e-04 -3.06702234122236154154e-03 9.99984988489833637182e-01 -1.42358566514586335318e-04
9.99306979848170042038e+08 9.93003096764145998243e-01 -6.62136562632190950328e-02 -3.24767479294091234842e-04 -3.07336567544032540980e-03 -3.24767479294091234842e-04 -3.07336567544032540980e-03 9.99984925628945919840e-01 -1.42652998007326088561e-04
9.99308445007053494453e+08 9.92973736399949902243e-01 -6.63508789610806754000e-02 -3.26130266680122913540e-04 -3.07973498886145082704e-03 -3.26130266680122913540e-04 -3.07973498886145082704e-03 9.99984862373958782733e-01 -1.42948635347858851643e-04
9.99309910165936827660e+08 9.92944191584666069339e-01 -6.64886647668728042460e-02 -3.27501615527252330599e-04 -3.08613043943740169434e-03 -3.27501615527252330599e-04 -3.08613043943740169434e-03 9.99984798721583745262e-01 -1.43245485867651384205e-04
9.99311375324820160866e+08 9.92914460776019969224e-01 -6.66270171108474251742e-02 -3.28881597421509233245e-04 -3.09255218638636916045e-03 -3.28881597421509233245e-04 -3.09255218638636916045e-03 9.99984734668498242982e-01 -1.43543556956957541089e-04
9.99312840483703494072e+08 9.92884542415646498270e-01 -6.67659394508025305637e-02 -3.30270284695804170264e-04 -3.09900039020511840898e-03 -3.30270284695804170264e-04 -3.09900039020511840898e-03 9.99984670211344850443e-01 -1.43842856065377205661e-04
9.99314305642586946487e+08 9.92854434928890472456e-01 -6.69054352723442297135e-02 -3.31667750439153588820e-04 -3.10547521268115470777e-03 -3.31667750439153588820e-04 -3.10547521268115470777e-03 9.99984605346730948128e-01 -1.44143390702421159144e-04
9.99315770801470279694e+08 9.92824136724609895843e-01 -6.70455080891309423974e-02 -3.33074068505826868716e-04 -3.11197681690405375532e-03 -3.33074068505826868716e-04 -3.11197681690405375532e-03 9.99984540071228611424e-01 -1.44445168438036945779e-04
9.99317235960353612900e+08 9.92793646194948364858e-01 -6.71861614432477244341e-02 -3.34489313525906614179e-04 -3.11850536728284014054e-03 -3.34489313525906614179e-04 -3.11850536728284014054e-03 9.99984474381373722451e-01 -1.44748196903415465029e-04
9.99318701119236946106e+08 9.92762961715143332775e-01 -6.73273989054041926972e-02 -3.35913560914186809514e-04 -3.12506102955517270359e-03 -3.35913560914186809514e-04 -3.12506102955517270359e-03 9.99984408273665970057e-01 -1.45052483791417415396e-04
9.99320166278120279312e+08 9.92732081643307617824e-01 -6.74692240752467198295e-02 -3.37346886880325288246e-04 -3.13164397080183598207e-03 -3.37346886880325288246e-04 -3.13164397080183598207e-03 9.99984341744568072663e-01 -1.45358036857245852139e-04
9.99321631437003731728e+08 9.92701004320214019927e-01 -6.76116405816422072483e-02 -3.38789368438822567284e-04 -3.13825435945990979802e-03 -3.38789368438822567284e-04 -3.13825435945990979802e-03 9.99984274790505112129e-01 -1.45664863919057406246e-04
9.99323096595887064934e+08 9.92669728069071721777e-01 -6.77546520829921117279e-02 -3.40241083419420755219e-04 -3.14489236533734917503e-03 -3.40241083419420755219e-04 -3.14489236533734917503e-03 9.99984207407864644779e-01 -1.45972972858639178954e-04
9.99324561754770398140e+08 9.92638251195312570907e-01 -6.78982622674853958378e-02 -3.41702110476995867157e-04 -3.15155815962472017622e-03 -3.41702110476995867157e-04 -3.15155815962472017622e-03 9.99984139592995924239e-01 -1.46282371621953390713e-04
9.99326026913653731346e+08 9.92606571986354047077e-01 -6.80424748534520090759e-02 -3.43172529102589907082e-04 -3.15825191491161082202e-03 -3.43172529102589907082e-04 -3.15825191491161082202e-03 9.99984071342209124289e-01 -1.46593068219899060316e-04
9.99327492072537183762e+08 9.92574688711370778371e-01 -6.81872935896611492845e-02 -3.44652419634002059410e-04 -3.16497380520047374985e-03 -3.44652419634002059410e-04 -3.16497380520047374985e-03 9.99984002651775449877e-01 -1.46905070728954638632e-04
9.99328957231420516968e+08 9.92542599621088594830e-01 -6.83327222555070445953e-02 -3.46141863265347232183e-04 -3.17172400591524822344e-03 -3.46141863265347232183e-04 -3.17172400591524822344e-03 9.99983933517926248946e-01 -1.47218387291578052100e-04
9.99330422390303850174e+08 9.92510302947500200332e-01 -6.84787646615386824678e-02 -3.47640942060256110096e-04 -3.17850269392595244020e-03 -3.47640942060256110096e-04 -3.17850269392595244020e-03 9.99983863936852235277e-01 -1.47533026117348340517e-04
9.99331887549187183380e+08 9.92477796903671549700e-01 -6.86254246495651004656e-02 -3.49149738960857118977e-04 -3.18531004755356460939e-03 -3.49149738960857118977e-04 -3.18531004755356460939e-03 9.99983793904703821553e-01 -1.47848995483192146867e-04
9.99333352708070635796e+08 9.92445079683463404763e-01 -6.87727060931332540017e-02 -3.50668337800703910391e-04 -3.19214624659220789701e-03 -3.50668337800703910391e-04 -3.19214624659220789701e-03 9.99983723417589676075e-01 -1.48166303734413329915e-04
9.99334817866953969002e+08 9.92412149461316839272e-01 -6.89206128977052079332e-02 -3.52196823314743407991e-04 -3.19901147231737301505e-03 -3.52196823314743407991e-04 -3.19901147231737301505e-03 9.99983652471576722753e-01 -1.48484959285074928637e-04
9.99336283025837302208e+08 9.92379004391977681543e-01 -6.90691490010947456435e-02 -3.53735281152084510715e-04 -3.20590590750618542951e-03 -3.53735281152084510715e-04 -3.20590590750618542951e-03 9.99983581062689474983e-01 -1.48804970618939517860e-04
9.99337748184720635414e+08 9.92345642610247269388e-01 -6.92183183737749563313e-02 -3.55283797887575962526e-04 -3.21282973645168039994e-03 -3.55283797887575962526e-04 -3.21282973645168039994e-03 9.99983509186909591548e-01 -1.49126346290132035270e-04
9.99339213343604087830e+08 9.92312062230737312873e-01 -6.93681250191548609552e-02 -3.56842461033194486772e-04 -3.21978314497564383628e-03 -3.56842461033194486772e-04 -3.21978314497564383628e-03 9.99983436840175099469e-01 -1.49449094923735794445e-04
9.99340678502487421036e+08 9.92278261347595114117e-01 -6.95185729739731528287e-02 -3.58411359050786059062e-04 -3.22676632044688847800e-03 -3.58411359050786059062e-04 -3.22676632044688847800e-03 9.99983364018379949911e-01 -1.49773225216640683321e-04
9.99342143661370754242e+08 9.92244238034240222390e-01 -6.96696663086283085597e-02 -3.59990581364290178346e-04 -3.23377945179657540556e-03 -3.59990581364290178346e-04 -3.23377945179657540556e-03 9.99983290717373352052e-01 -1.50098745938254346608e-04
9.99343608820254087448e+08 9.92209990343094760945e-01 -6.98214091275242837442e-02 -3.61580218372269557737e-04 -3.24082272953426023254e-03 -3.61580218372269557737e-04 -3.24082272953426023254e-03 9.99983216932959440015e-01 -1.50425665931247059788e-04
9.99345073979137420654e+08 9.92175516305318194732e-01 -6.99738055693797794676e-02 -3.63180361460203134007e-04 -3.24789634576224794243e-03 -3.63180361460203134007e-04 -3.24789634576224794243e-03 9.99983142660896606735e-01 -1.50753994112217971349e-04
9.99346539138020873070e+08 9.92140813930509901652e-01 -7.01268598076684873677e-02 -3.64791103014301080088e-04 -3.25500049419602793116e-03 -3.64791103014301080088e-04 -3.25500049419602793116e-03 9.99983067896896504756e-01 -1.51083739472643562842e-04
9.99348004296904206276e+08 9.92105881206450490595e-01 -7.02805760508735249958e-02 -3.66412536433521234588e-04 -3.26213537017608183610e-03 -3.66412536433521234588e-04 -3.26213537017608183610e-03 9.99982992636623935212e-01 -1.51414911079425875719e-04
9.99349469455787539482e+08 9.92070716098793714544e-01 -7.04349585429424607241e-02 -3.68044756143848423875e-04 -3.26930117068900683019e-03 -3.68044756143848423875e-04 -3.26930117068900683019e-03 9.99982916875696181691e-01 -1.51747518075872765610e-04
9.99350934614670872688e+08 9.92035316550791468337e-01 -7.05900115635846592266e-02 -3.69687857611069453645e-04 -3.27649809438131404613e-03 -3.69687857611069453645e-04 -3.27649809438131404613e-03 9.99982840609681900013e-01 -1.52081569682338530293e-04
9.99352399773554325104e+08 9.91999680482985146668e-01 -7.07457394287011320788e-02 -3.71341937355107616896e-04 -3.28372634157938396784e-03 -3.71341937355107616896e-04 -3.28372634157938396784e-03 9.99982763834101229250e-01 -1.52417075197150089392e-04
9.99353864932437658310e+08 9.91963805792918651427e-01 -7.09021464907018533763e-02 -3.73007092963326721945e-04 -3.29098611430419119711e-03 -3.73007092963326721945e-04 -3.29098611430419119711e-03 9.99982686544424459463e-01 -1.52754043997290411220e-04
9.99355330091320991516e+08 9.91927690354825974950e-01 -7.10592371389214411126e-02 -3.74683423105044927440e-04 -3.29827761629060195112e-03 -3.74683423105044927440e-04 -3.29827761629060195112e-03 9.99982608736071809652e-01 -1.53092485539294307717e-04
9.99356795250204324722e+08 9.91891332019317673030e-01 -7.12170158000225289596e-02 -3.76371027546087066548e-04 -3.30560105300609346352e-03 -3.76371027546087066548e-04 -3.30560105300609346352e-03 9.99982530404412428560e-01 -1.53432409360117259865e-04
9.99358260409087777138e+08 9.91854728613074554389e-01 -7.13754869383501494573e-02 -3.78070007162986990688e-04 -3.31295663166720740292e-03 -3.78070007162986990688e-04 -3.31295663166720740292e-03 9.99982451544764283646e-01 -1.53773825077899102586e-04
9.99359725567971110344e+08 9.91817877938534930848e-01 -7.15346550563021738034e-02 -3.79780463957530461157e-04 -3.32034456125674054885e-03 -3.79780463957530461157e-04 -3.32034456125674054885e-03 9.99982372152392717801e-01 -1.54116742392762051759e-04
9.99361190726854443550e+08 9.91780777773550670240e-01 -7.16945246948130360254e-02 -3.81502501072692975278e-04 -3.32776505254619775140e-03 -3.81502501072692975278e-04 -3.32776505254619775140e-03 9.99982292222510227298e-01 -1.54461171087852703818e-04
9.99362655885737776756e+08 9.91743425871070893862e-01 -7.18551004337045634562e-02 -3.83236222807334880013e-04 -3.33521831811207794885e-03 -3.83236222807334880013e-04 -3.33521831811207794885e-03 9.99982211750275795659e-01 -1.54807121030098104137e-04
9.99364121044621229172e+08 9.91705819958810907977e-01 -7.20163868920831728992e-02 -3.84981734631574274569e-04 -3.34270457235430907411e-03 -3.84981734631574274569e-04 -3.34270457235430907411e-03 9.99982130730793894458e-01 -1.55154602171061372284e-04
9.99365586203504562378e+08 9.91667957738909700005e-01 -7.21783887287665293364e-02 -3.86739143202664012802e-04 -3.35022403151605079052e-03 -3.86739143202664012802e-04 -3.35022403151605079052e-03 9.99982049159113928205e-01 -1.55503624547860861511e-04
9.99367051362387895584e+08 9.91629836887577331694e-01 -7.23411106427400835139e-02 -3.88508556381387821620e-04 -3.35777691370488890962e-03 -3.88508556381387821620e-04 -3.35777691370488890962e-03 9.99981967030229346172e-01 -1.55854198284153882496e-04
9.99368516521271228790e+08 9.91591455054755543941e-01 -7.25045573735333126475e-02 -3.90290083247777979877e-04 -3.36536343891029278083e-03 -3.90290083247777979877e-04 -3.36536343891029278083e-03 9.99981884339077309320e-01 -1.56206333590947144463e-04
9.99369981680154561996e+08 9.91552809863764594844e-01 -7.26687337016433398951e-02 -3.92083834117542011279e-04 -3.37298382902328271887e-03 -3.92083834117542011279e-04 -3.37298382902328271887e-03 9.99981801080537247017e-01 -1.56560040767509409468e-04
9.99371446839038014412e+08 9.91513898910916680052e-01 -7.28336444490764040038e-02 -3.93889920559982161050e-04 -3.38063830786156354485e-03 -3.93889920559982161050e-04 -3.38063830786156354485e-03 9.99981717249430523964e-01 -1.56915330202538310777e-04
9.99372911997921347618e+08 9.91474719765196410570e-01 -7.29992944795897630295e-02 -3.95708455412841864172e-04 -3.38832710118074737979e-03 -3.95708455412841864172e-04 -3.38832710118074737979e-03 9.99981632840519885086e-01 -1.57272212374681122273e-04
9.99374377156804680824e+08 9.91435269967834820193e-01 -7.31656886993628241544e-02 -3.97539552802059908965e-04 -3.39605043670551101295e-03 -3.97539552802059908965e-04 -3.39605043670551101295e-03 9.99981547848507901222e-01 -1.57630697853980975736e-04
9.99375842315688014030e+08 9.91395547031972634855e-01 -7.33328320572743247441e-02 -3.99383328157420244928e-04 -3.40380854414245627437e-03 -3.99383328157420244928e-04 -3.40380854414245627437e-03 9.99981462268036969121e-01 -1.57990797302473930976e-04
9.99377307474571466446e+08 9.91355548442245826379e-01 -7.35007295454860321016e-02 -4.01239898231785132969e-04 -3.41160165520720771656e-03 -4.01239898231785132969e-04 -3.41160165520720771656e-03 9.99981376093687646112e-01 -1.58352521475446460621e-04
9.99378772633454799652e+08 9.91315271654421570346e-01 -7.36693861997925608653e-02 -4.03109381117970914845e-04 -3.41943000364064442209e-03 -4.03109381117970914845e-04 -3.41943000364064442209e-03 9.99981289319978761121e-01 -1.58715881222189187467e-04
9.99380237792338132858e+08 9.91274714094981024282e-01 -7.38388071001795792681e-02 -4.04991896268150624195e-04 -3.42729382523481460390e-03 -4.04991896268150624195e-04 -3.42729382523481460390e-03 9.99981201941365749342e-01 -1.59080887487199400211e-04
9.99381702951221466064e+08 9.91233873160724421325e-01 -7.40089973712611814971e-02 -4.06887564512149410307e-04 -3.43519335785323317103e-03 -4.06887564512149410307e-04 -3.43519335785323317103e-03 9.99981113952240208143e-01 -1.59447551311123523294e-04
