! File generated for n1 = 11, n2 = 5
! b1 = 0.046416
! b2 = 0.002154
! Q0 = 10000.000000
! f0 = 1000000000.000000
! n = 1001
! rel_span = 10.000000
# Hz S RI R 50
9.99475714838486909866e+08 9.99123902991277290653e-01 -8.76326791525194187527e-03 -1.88749378742531577664e-04 -1.88798883946621697504e-03 -1.88749378742531577664e-04 -1.88798883946621697504e-03 9.99959335179071540090e-01 -4.06754865013905504527e-04
9.99476763408809900284e+08 9.99120422069497249318e-01 -8.78048548319478906754e-03 -1.89499320606166434932e-04 -1.89169825203162195182e-03 -1.89499320606166434932e-04 -1.89169825203162195182e-03 9.99959173608994889015e-01 -4.07554033724960346110e-04
9.99477811979133009911e+08 9.99116920434384048200e-01 -8.79777011851838250389e-03 -1.90253725022118929788e-04 -1.89542211382619186708e-03 -1.90253725022118929788e-04 -1.89542211382619186708e-03 9.99959011077490411701e-01 -4.08356315428070942505e-04
9.99478860549456000328e+08 9.99113397921840951099e-01 -8.81512220954541389495e-03 -1.91012627344014796621e-04 -1.89916050851151457790e-03 -1.91012627344014796621e-04 -1.89916050851151457790e-03 9.99958847576941645130e-01 -4.09161728147579945806e-04
9.99479909119778990746e+08 9.99109854366147520643e-01 -8.83254214757032800331e-03 -1.91776063275212138538e-04 -1.90291352038942274301e-03 -1.91776063275212138538e-04 -1.90291352038942274301e-03 9.99958683099656187032e-01 -4.09970290045766653717e-04
9.99480957690101981163e+08 9.99106289599941854718e-01 -8.85003032688278651330e-03 -1.92544068872743559355e-04 -1.90668123440704880694e-03 -1.92544068872743559355e-04 -1.90668123440704880694e-03 9.99958517637866028949e-01 -4.10782019423935928007e-04
9.99482006260425090790e+08 9.99102703454200380406e-01 -8.86758714479881152148e-03 -1.93316680551636627941e-04 -1.91046373616353425996e-03 -1.93316680551636627941e-04 -1.91046373616353425996e-03 9.99958351183725779876e-01 -4.11596934723863815478e-04
9.99483054830748081207e+08 9.99099095758219646335e-01 -8.88521300168200293956e-03 -1.94093935088842538999e-04 -1.91426111191460280279e-03 -1.94093935088842538999e-04 -1.91426111191460280279e-03 9.99958183729312000132e-01 -4.12415054528782599845e-04
9.99484103401071071625e+08 9.99095466339593563099e-01 -8.90290830098555870109e-03 -1.94875869628124970398e-04 -1.91807344858161083270e-03 -1.94875869628124970398e-04 -1.91807344858161083270e-03 9.99958015266622313177e-01 -4.13236397565330847766e-04
9.99485151971394181252e+08 9.99091815024195528672e-01 -8.92067344926950923922e-03 -1.95662521683902983563e-04 -1.92190083375526083592e-03 -1.95662521683902983563e-04 -1.92190083375526083592e-03 9.99957845787574517438e-01 -4.14060982704353387415e-04
9.99486200541717171669e+08 9.99088141636157223147e-01 -8.93850885623403111635e-03 -1.96453929145848393053e-04 -1.92574335570278119129e-03 -1.96453929145848393053e-04 -1.92574335570278119129e-03 9.99957675284005476080e-01 -4.14888828962448085510e-04
9.99487249112040162086e+08 9.99084445997846959386e-01 -8.95641493475418486170e-03 -1.97250130283593941597e-04 -1.92960110337540651469e-03 -1.97250130283593941597e-04 -1.92960110337540651469e-03 9.99957503747670339855e-01 -4.15719955503577459632e-04
9.99488297682363271713e+08 9.99080727929848921853e-01 -8.97439210090552469401e-03 -1.98051163751086290506e-04 -1.93347416641389776605e-03 -1.98051163751086290506e-04 -1.93347416641389776605e-03 9.99957331170241325857e-01 -4.16554381640258048012e-04
9.99489346252686262131e+08 9.99076987250942627483e-01 -8.99244077399188879163e-03 -1.98857068591081257401e-04 -1.93736263515452877999e-03 -1.98857068591081257401e-04 -1.93736263515452877999e-03 9.99957157543306940362e-01 -4.17392126834850013799e-04
9.99490394823009252548e+08 9.99073223778079277935e-01 -9.01056137658593631068e-03 -1.99667884240257699708e-04 -1.94126660063781843017e-03 -1.99667884240257699708e-04 -1.94126660063781843017e-03 9.99956982858370757583e-01 -4.18233210701438669517e-04
9.99491443393332242966e+08 9.99069437326361775575e-01 -9.02875433455001957794e-03 -2.00483650533504721095e-04 -1.94518615461302963460e-03 -2.00483650533504721095e-04 -1.94518615461302963460e-03 9.99956807106850642519e-01 -4.19077653006803428539e-04
9.99492491963655352592e+08 9.99065627709020298575e-01 -9.04702007707651988111e-03 -2.01304407709128552412e-04 -1.94912138954685815184e-03 -2.01304407709128552412e-04 -1.94912138954685815184e-03 9.99956630280077529704e-01 -4.19925473672289951196e-04
9.99493540533978343010e+08 9.99061794737391650756e-01 -9.06535903671224461975e-03 -2.02130196413397852451e-04 -1.95307239862868792582e-03 -2.02130196413397852451e-04 -1.95307239862868792582e-03 9.99956452369294424010e-01 -4.20776692774942485519e-04
9.99494589104301333427e+08 9.99057938220894281578e-01 -9.08377164939858268433e-03 -2.02961057705849169967e-04 -1.95703927577924475384e-03 -2.02961057705849169967e-04 -1.95703927577924475384e-03 9.99956273365655290419e-01 -4.21631330549367881830e-04
9.99495637674624443054e+08 9.99054057967006636787e-01 -9.10225835449757041118e-03 -2.03797033064012086479e-04 -1.96102211565620963493e-03 -2.03797033064012086479e-04 -1.96102211565620963493e-03 9.99956093260224165853e-01 -4.22489407388945399733e-04
9.99496686244947433472e+08 9.99050153781242511464e-01 -9.12081959482894354119e-03 -2.04638164388683100898e-04 -1.96502101366220240097e-03 -2.04638164388683100898e-04 -1.96502101366220240097e-03 9.99955912043973604852e-01 -4.23350943847546469598e-04
9.99497734815270423889e+08 9.99046225467127402275e-01 -9.13945581670077937531e-03 -2.05484494008965705956e-04 -1.96903606595138407423e-03 -2.05484494008965705956e-04 -1.96903606595138407423e-03 9.99955729707784346516e-01 -4.24215960640956948977e-04
9.99498783385593533516e+08 9.99042272826172972344e-01 -9.15816746995234791384e-03 -2.06336064687920924671e-04 -1.97306736943868689729e-03 -2.06336064687920924671e-04 -1.97306736943868689729e-03 9.99955546242443205074e-01 -4.25084478648866091483e-04
9.99499831955916523933e+08 9.99038295657854735765e-01 -9.17695500797365872059e-03 -2.07192919627215854260e-04 -1.97711502180402710904e-03 -2.07192919627215854260e-04 -1.97711502180402710904e-03 9.99955361638642625799e-01 -4.25956518915774024012e-04
9.99500880526239514351e+08 9.99034293759585301231e-01 -9.19581888775005892867e-03 -2.08055102472968003746e-04 -1.98117912150191401166e-03 -2.08055102472968003746e-04 -1.98117912150191401166e-03 9.99955175886979463762e-01 -4.26832102653061542900e-04
9.99501929096562504768e+08 9.99030266926688836904e-01 -9.21475956989841436806e-03 -2.08922657321268246929e-04 -1.98525976776924234848e-03 -2.08922657321268246929e-04 -1.98525976776924234848e-03 9.99954988977953318496e-01 -4.27711251240669705718e-04
9.99502977666885614395e+08 9.99026214952375757328e-01 -9.23377751869971889753e-03 -2.09795628723599691945e-04 -1.98935706063232010249e-03 -2.09795628723599691945e-04 -1.98935706063232010249e-03 9.99954800901966089910e-01 -4.28593986228613214873e-04
9.99504026237208604813e+08 9.99022137627718076480e-01 -9.25287320212695059418e-03 -2.10674061692097633900e-04 -1.99347110091287020583e-03 -2.10674061692097633900e-04 -1.99347110091287020583e-03 9.99954611649320090905e-01 -4.29480329338273708172e-04
9.99505074807531595230e+08 9.99018034741619098682e-01 -9.27204709190163414712e-03 -2.11558001706190266069e-04 -1.99760199024021263547e-03 -2.11558001706190266069e-04 -1.99760199024021263547e-03 9.99954421210217048177e-01 -4.30370302465024558072e-04
9.99506123377854704857e+08 9.99013906080790214936e-01 -9.29129966351149340353e-03 -2.12447494717515889115e-04 -2.00174983105507299855e-03 -2.12447494717515889115e-04 -2.00174983105507299855e-03 9.99954229574756991994e-01 -4.31263927679051124828e-04
9.99507171948177695274e+08 9.99009751429722703264e-01 -9.31063139625165799018e-03 -2.13342587155983330182e-04 -2.00591472661845651032e-03 -2.13342587155983330182e-04 -2.00591472661845651032e-03 9.99954036732937034948e-01 -4.32161227227262421773e-04
9.99508220518500685692e+08 9.99005570570658640861e-01 -9.33004277327151472499e-03 -2.14243325936162908128e-04 -2.01009678102174321745e-03 -2.14243325936162908128e-04 -2.01009678102174321745e-03 9.99953842674649484579e-01 -4.33062223535466566966e-04
9.99509269088823795319e+08 9.99001363283562704432e-01 -9.34953428160986525775e-03 -2.15149758463203846347e-04 -2.01429609919426180070e-03 -2.15149758463203846347e-04 -2.01429609919426180070e-03 9.99953647389681510305e-01 -4.33966939210002182210e-04
9.99510317659146785736e+08 9.98997129346097523239e-01 -9.36910641221796666733e-03 -2.16061932638252329189e-04 -2.01851278690825478718e-03 -2.16061932638252329189e-04 -2.01851278690825478718e-03 9.99953450867712922978e-01 -4.34875397038807958491e-04
9.99511366229469776154e+08 9.98992868533589595259e-01 -9.38875966002121996323e-03 -2.16979896865735524510e-04 -2.02274695079216739954e-03 -2.16979896865735524510e-04 -2.02274695079216739954e-03 9.99953253098315286707e-01 -4.35787619994286033916e-04
9.99512414799792766571e+08 9.98988580619002974892e-01 -9.40849452394524471410e-03 -2.17903700059059797934e-04 -2.02699869833626459062e-03 -2.17903700059059797934e-04 -2.02699869833626459062e-03 9.99953054070950697607e-01 -4.36703631234512180178e-04
9.99513463370115876198e+08 9.98984265372908186720e-01 -9.42831150696204524364e-03 -2.18833391647315690133e-04 -2.03126813790258141726e-03 -2.18833391647315690133e-04 -2.03126813790258141726e-03 9.99952853774969785405e-01 -4.37623454105378944991e-04
9.99514511940438866615e+08 9.98979922563454914020e-01 -9.44821111611676700548e-03 -2.19769021581144263734e-04 -2.03555537873068232227e-03 -2.19769021581144263734e-04 -2.03555537873068232227e-03 9.99952652199611158323e-01 -4.38547112141837117788e-04
9.99515560510761857033e+08 9.98975551956335916515e-01 -9.46819386259379128234e-03 -2.20710640340524005950e-04 -2.03986053095190364784e-03 -2.20710640340524005950e-04 -2.03986053095190364784e-03 9.99952449333999071612e-01 -4.39474629070963805026e-04
9.99516609081084966660e+08 9.98971153314760940134e-01 -9.48826026173391588736e-03 -2.21658298940336200965e-04 -2.04418370559305466808e-03 -2.21658298940336200965e-04 -2.04418370559305466808e-03 9.99952245167142983462e-01 -4.40406028812760023516e-04
9.99517657651407957077e+08 9.98966726399423521343e-01 -9.50841083308564226362e-03 -2.22612048937605096514e-04 -2.04852501458746691018e-03 -2.22612048937605096514e-04 -2.04852501458746691018e-03 9.99952039687935001488e-01 -4.41341335482530903664e-04
9.99518706221730947495e+08 9.98962270968468124543e-01 -9.52864610045072932265e-03 -2.23571942438550720330e-04 -2.05288457078480835252e-03 -2.23571942438550720330e-04 -2.05288457078480835252e-03 9.99951832885149216601e-01 -4.42280573393000425806e-04
9.99519754792054057121e+08 9.98957786777457723559e-01 -9.54896659192495597668e-03 -2.24538032105492564583e-04 -2.05726248795986546222e-03 -2.24538032105492564583e-04 -2.05726248795986546222e-03 9.99951624747440037666e-01 -4.43223767056203407210e-04
9.99520803362377047539e+08 9.98953273579342715394e-01 -9.56937283993610117439e-03 -2.25510371163699168632e-04 -2.06165888082072588580e-03 -2.25510371163699168632e-04 -2.06165888082072588580e-03 9.99951415263340304129e-01 -4.44170941185248035338e-04
9.99521851932700037956e+08 9.98948731124425282069e-01 -9.58986538129424567756e-03 -2.26489013408904811368e-04 -2.06607386501961613409e-03 -2.26489013408904811368e-04 -2.06607386501961613409e-03 9.99951204421260064770e-01 -4.45122120696651239324e-04
9.99522900503023028374e+08 9.98944159160326417002e-01 -9.61044475723404033329e-03 -2.27474013214526801134e-04 -2.07050755716200627840e-03 -2.27474013214526801134e-04 -2.07050755716200627840e-03 9.99950992209485023388e-01 -4.46077330712299903286e-04
9.99523949073346138000e+08 9.98939557431949953781e-01 -9.63111151346510326043e-03 -2.28465425539357049880e-04 -2.07496007481746931947e-03 -2.28465425539357049880e-04 -2.07496007481746931947e-03 9.99950778616174540403e-01 -4.47036596561790845663e-04
9.99524997643669128418e+08 9.98934925681452368096e-01 -9.65186620019671190351e-03 -2.29463305934103878022e-04 -2.07943153652500201806e-03 -2.29463305934103878022e-04 -2.07943153652500201806e-03 9.99950563629360633655e-01 -4.47999943783576604073e-04
9.99526046213992118835e+08 9.98930263648199923132e-01 -9.67270937221664101058e-03 -2.30467710550619686236e-04 -2.08392206181000566936e-03 -2.30467710550619686236e-04 -2.08392206181000566936e-03 9.99950347236945757956e-01 -4.48967398128624292381e-04
9.99527094784315228462e+08 9.98925571068738027414e-01 -9.69364158891257779449e-03 -2.31478696148462059117e-04 -2.08843177118890437061e-03 -2.31478696148462059117e-04 -2.08843177118890437061e-03 9.99950129426701472823e-01 -4.49938985561410518827e-04
9.99528143354638218880e+08 9.98920847676754708466e-01 -9.71466341432019632463e-03 -2.32496320102820042000e-04 -2.09296078617950132017e-03 -2.32496320102820042000e-04 -2.09296078617950132017e-03 9.99949910186266555101e-01 -4.50914732262152131992e-04
9.99529191924961209297e+08 9.98916093203038424342e-01 -9.73577541719199482384e-03 -2.33520640413540259573e-04 -2.09750922931580680020e-03 -2.33520640413540259573e-04 -2.09750922931580680020e-03 9.99949689503145444647e-01 -4.51894664630001473022e-04
9.99530240495284318924e+08 9.98911307375446644308e-01 -9.75697817101887909796e-03 -2.34551715711960967426e-04 -2.10207722415269157232e-03 -2.34551715711960967426e-04 -2.10207722415269157232e-03 9.99949467364706356953e-01 -4.52878809284048612117e-04
9.99531289065607309341e+08 9.98906489918863216282e-01 -9.77827225409797114175e-03 -2.35589605270076948547e-04 -2.10666489528049324931e-03 -2.35589605270076948547e-04 -2.10666489528049324931e-03 9.99949243758179506791e-01 -4.53867193066467974286e-04
9.99532337635930299759e+08 9.98901640555161729473e-01 -9.79965824957084070956e-03 -2.36634369008368157733e-04 -2.11127236833325493057e-03 -2.36634369008368157733e-04 -2.11127236833325493057e-03 9.99949018670655442875e-01 -4.54859843044293611983e-04
9.99533386206253290176e+08 9.98896759003164658175e-01 -9.82113674548258652752e-03 -2.37686067504739835868e-04 -2.11589977000145200089e-03 -2.37686067504739835868e-04 -2.11589977000145200089e-03 9.99948792089083049461e-01 -4.55856786512161152401e-04
9.99534434776576399803e+08 9.98891844978603948846e-01 -9.84270833482686451077e-03 -2.38744762002878916848e-04 -2.12054722804169530626e-03 -2.38744762002878916848e-04 -2.12054722804169530626e-03 9.99948564000267769991e-01 -4.56858050994397976632e-04
9.99535483346899390221e+08 9.98886898194081829239e-01 -9.86437361559139996858e-03 -2.39810514420731350164e-04 -2.12521487128653494350e-03 -2.39810514420731350164e-04 -2.12521487128653494350e-03 9.99948334390869719712e-01 -4.57863664247135516549e-04
9.99536531917222380638e+08 9.98881918359025622323e-01 -9.88613319082819706762e-03 -2.40883387360297704892e-04 -2.12990282965958618172e-03 -2.40883387360297704892e-04 -2.12990282965958618172e-03 9.99948103247401909321e-01 -4.58873654261568258116e-04
9.99537580487545490265e+08 9.98876905179648999500e-01 -9.90798766869125518975e-03 -2.41963444115939730434e-04 -2.13461123418365707541e-03 -2.41963444115939730434e-04 -2.13461123418365707541e-03 9.99947870556227691452e-01 -4.59888049265704348424e-04
9.99538629057868480682e+08 9.98871858358911124398e-01 -9.92993766248153122977e-03 -2.43050748683142173743e-04 -2.13934021699043255826e-03 -2.43050748683142173743e-04 -2.13934021699043255826e-03 9.99947636303559872495e-01 -4.60906877726452468037e-04
9.99539677628191471100e+08 9.98866777596467136924e-01 -9.95198379072973968174e-03 -2.44145365769259147307e-04 -2.14408991133831564047e-03 -2.44145365769259147307e-04 -2.14408991133831564047e-03 9.99947400475457603974e-01 -4.61930168353465273479e-04
9.99540726198514580727e+08 9.98861662588630294657e-01 -9.97412667722304656370e-03 -2.45247360801595880569e-04 -2.14886045161817758331e-03 -2.45247360801595880569e-04 -2.14886045161817758331e-03 9.99947163057825050281e-01 -4.62957950100378206638e-04
9.99541774768837571144e+08 9.98856513028325454506e-01 -9.99636695107061247489e-03 -2.46356799937524244878e-04 -2.15365197336747811463e-03 -2.46356799937524244878e-04 -2.15365197336747811463e-03 9.99946924036408946179e-01 -4.63990252167851711853e-04
9.99542823339160561562e+08 9.98851328605041555164e-01 -1.00187052467665439759e-02 -2.47473750074590716132e-04 -2.15846461328382836428e-03 -2.47473750074590716132e-04 -2.15846461328382836428e-03 9.99946683396796709431e-01 -4.65027104006493431816e-04
9.99543871909483551979e+08 9.98846109004789983743e-01 -1.00411422042299188634e-02 -2.48598278859595944561e-04 -2.16329850923361504192e-03 -2.48598278859595944561e-04 -2.16329850923361504192e-03 9.99946441124414220347e-01 -4.66068535318715879579e-04
9.99544920479806661606e+08 9.98840853910053061426e-01 -1.00636784688821392247e-02 -2.49730454699659146309e-04 -2.16815380026866332333e-03 -2.49730454699659146309e-04 -2.16815380026866332333e-03 9.99946197204523712365e-01 -4.67114576062326828255e-04
9.99545969050129652023e+08 9.98835562999742299084e-01 -1.00863146916798773062e-02 -2.50870346771179305451e-04 -2.17303062663333707363e-03 -2.50870346771179305451e-04 -2.17303062663333707363e-03 9.99945951622221551602e-01 -4.68165256452058361342e-04
9.99547017620452642441e+08 9.98830235949143441232e-01 -1.01090515292047728596e-02 -2.52018025031770125707e-04 -2.17792912978386236575e-03 -2.52018025031770125707e-04 -2.17792912978386236575e-03 9.99945704362435794366e-01 -4.69220606963730534327e-04
9.99548066190775752068e+08 9.98824872429873167334e-01 -1.01318896436953485851e-02 -2.53173560229415575695e-04 -2.18284945239520392427e-03 -2.53173560229415575695e-04 -2.18284945239520392427e-03 9.99945455409924299772e-01 -4.70280658335732828536e-04
9.99549114761098742485e+08 9.98819472109827799500e-01 -1.01548297031178267474e-02 -2.54337023913709379171e-04 -2.18779173837632201841e-03 -2.54337023913709379171e-04 -2.18779173837632201841e-03 9.99945204749272065214e-01 -4.71345441572310693175e-04
9.99550163331421732903e+08 9.98814034653131566088e-01 -1.01778723812306851754e-02 -2.55508488446913660345e-04 -2.19275613288407974014e-03 -2.55508488446913660345e-04 -2.19275613288407974014e-03 9.99944952364889227958e-01 -4.72414987946562442769e-04
9.99551211901744842529e+08 9.98808559720085864519e-01 -1.02010183576426802926e-02 -2.56688027014819884937e-04 -2.19774278233574645730e-03 -2.56688027014819884937e-04 -2.19774278233574645730e-03 9.99944698241008289585e-01 -4.73489329003132306938e-04
9.99552260472067832947e+08 9.98803046967118635102e-01 -1.02242683178728008958e-02 -2.57875713637840465239e-04 -2.20275183442190979413e-03 -2.57875713637840465239e-04 -2.20275183442190979413e-03 9.99944442361682228615e-01 -4.74568496560992981060e-04
9.99553309042390823364e+08 9.98797496046729404995e-01 -1.02476229534183508468e-02 -2.59071623182654392492e-04 -2.20778343812114835609e-03 -2.59071623182654392492e-04 -2.20778343812114835609e-03 9.99944184710781280856e-01 -4.75652522716606184026e-04
9.99554357612713813782e+08 9.98791906607437329768e-01 -1.02710829618140025293e-02 -2.60275831373530915427e-04 -2.21283774371275115608e-03 -2.60275831373530915427e-04 -2.21283774371275115608e-03 9.99943925271991163051e-01 -4.76741439846663358701e-04
9.99555406183036923409e+08 9.98786278293725016120e-01 -1.02946490467015500797e-02 -2.61488414804345102420e-04 -2.21791490279174812600e-03 -2.61488414804345102420e-04 -2.21791490279174812600e-03 9.99943664028810408340e-01 -4.77835280611323479083e-04
9.99556454753359913826e+08 9.98780610745984342991e-01 -1.03183219178917748304e-02 -2.62709450950334170907e-04 -2.22301506828223582879e-03 -2.62709450950334170907e-04 -2.22301506828223582879e-03 9.99943400964547368659e-01 -4.78934077957084505545e-04
9.99557503323682904243e+08 9.98774903600460173259e-01 -1.03421022914296101974e-02 -2.63939018180170295418e-04 -2.22813839445141831028e-03 -2.63939018180170295418e-04 -2.22813839445141831028e-03 9.99943136062317994295e-01 -4.80037865119808037848e-04
