! File generated for n1 = 1, n2 = 15
! b1 = 100.000000
! b2 = 0.002154
! Q0 = 10000.000000
! f0 = 1000000000.000000
! n = 1001
! rel_span = 10.000000
# Hz S RI R 50
9.49498922782655000687e+08 9.81387664322900143965e-01 -1.91073035905282073710e-01 -8.63908094462794719746e-05 -8.86882469862450457943e-04 -8.63908094462794719746e-05 -8.86882469862450457943e-04 9.99999599009383510761e-01 -4.11654376884047082190e-06
9.49599924937089681625e+08 9.81311675774549141416e-01 -1.91458976781898743136e-01 -8.67435170437876599311e-05 -8.88673848725789064865e-04 -8.67435170437876599311e-05 -8.88673848725789064865e-04 9.99999597372259851902e-01 -4.12485861296931347525e-06
9.49700927091524362564e+08 9.81235230984632944562e-01 -1.91846421100861808107e-01 -8.70983423270508871688e-05 -8.90472205950334702584e-04 -8.70983423270508871688e-05 -8.90472205950334702584e-04 9.99999595725306833494e-01 -4.13320584778161088880e-06
9.49801929245959043503e+08 9.81158326321781459889e-01 -1.92235377574332039208e-01 -8.74553021513949367964e-05 -8.92277581974355664916e-04 -8.74553021513949367964e-05 -8.92277581974355664916e-04 9.99999594068446073791e-01 -4.14158566097517923490e-06
9.49902931400393724442e+08 9.81080958118612844743e-01 -1.92625854981113286968e-01 -8.78144135392993312314e-05 -8.94090017545449630698e-04 -8.78144135392993312314e-05 -8.94090017545449630698e-04 9.99999592401598635938e-01 -4.14999824168361058858e-06
9.50003933554828405380e+08 9.81003122671304073066e-01 -1.93017862167288029029e-01 -8.81756936823867076619e-05 -8.95909553723494211583e-04 -8.81756936823867076619e-05 -8.95909553723494211583e-04 9.99999590724684805920e-01 -4.15844378048997707372e-06
9.50104935709263086319e+08 9.80924816239158947617e-01 -1.93411408046851057696e-01 -8.85391599434313838861e-05 -8.97736231883588284113e-04 -8.85391599434313838861e-05 -8.97736231883588284113e-04 9.99999589037623870524e-01 -4.16692246944047402262e-06
9.50205937863697886467e+08 9.80846035044168118588e-01 -1.93806501602354852576e-01 -8.89048298583998539060e-05 -8.99570093719047098220e-04 -8.89048298583998539060e-05 -8.99570093719047098220e-04 9.99999587340334450403e-01 -4.17543450205832825708e-06
9.50306940018132567406e+08 9.80766775270563329059e-01 -1.94203151885560809653e-01 -8.92727211385185376530e-05 -9.01411181244425141305e-04 -8.92727211385185376530e-05 -9.01411181244425141305e-04 9.99999585632734389051e-01 -4.18398007335782749506e-06
9.50407942172567248344e+08 9.80687033064365887292e-01 -1.94601368018099990520e-01 -8.96428516723722000831e-05 -9.03259536798583454603e-04 -8.96428516723722000831e-05 -9.03259536798583454603e-04 9.99999583914740641788e-01 -4.19255937985855473937e-06
9.50508944327001929283e+08 9.80606804532928921780e-01 -1.95001159192136702680e-01 -9.00152395280271849483e-05 -9.05115203047769309452e-04 -9.00152395280271849483e-05 -9.05115203047769309452e-04 9.99999582186269386774e-01 -4.20117261959968788789e-06
9.50609946481436610222e+08 9.80526085744472641892e-01 -1.95402534671044209036e-01 -9.03899029551886518596e-05 -9.06978222988752262081e-04 -9.03899029551886518596e-05 -9.06978222988752262081e-04 9.99999580447235802971e-01 -4.20981999215455175961e-06
9.50710948635871291161e+08 9.80444872727613270236e-01 -1.95805503790086654625e-01 -9.07668603873869241777e-05 -9.08848639951990457629e-04 -9.07668603873869241777e-05 -9.08848639951990457629e-04 9.99999578697554403206e-01 -4.21850169864531835139e-06
9.50811950790305972099e+08 9.80363161470886090854e-01 -1.96210075957106766520e-01 -9.11461304441921210283e-05 -9.10726497604821653986e-04 -9.11461304441921210283e-05 -9.10726497604821653986e-04 9.99999576937138701105e-01 -4.22721794175781382096e-06
9.50912952944740653038e+08 9.80280947922260947891e-01 -1.96616260653223656751e-01 -9.15277319334624402418e-05 -9.12611839954702167357e-04 -9.15277319334624402418e-05 -9.12611839954702167357e-04 9.99999575165901544160e-01 -4.23596892575655670985e-06
9.51013955099175333977e+08 9.80198227988650971909e-01 -1.97024067433538174754e-01 -9.19116838536235307910e-05 -9.14504711352481488087e-04 -9.19116838536235307910e-05 -9.14504711352481488087e-04 9.99999573383754558620e-01 -4.24475485649995456150e-06
9.51114957253610014915e+08 9.80114997535415199970e-01 -1.97433505927845420747e-01 -9.22980053959791986711e-05 -9.16405156495709314127e-04 -9.22980053959791986711e-05 -9.16405156495709314127e-04 9.99999571590608815619e-01 -4.25357594145565385228e-06
9.51215959408044695854e+08 9.80031252385853313136e-01 -1.97844585841355974365e-01 -9.26867159470552351560e-05 -9.18313220431982374717e-04 -9.26867159470552351560e-05 -9.18313220431982374717e-04 9.99999569786374276070e-01 -4.26243238971607881101e-06
9.51316961562479376793e+08 9.79946988320693268548e-01 -1.98257316955425505478e-01 -9.30778350909765029566e-05 -9.20228948562332128500e-04 -9.30778350909765029566e-05 -9.20228948562332128500e-04 9.99999567970960012708e-01 -4.27132441201414811519e-06
9.51417963716914057732e+08 9.79862201077572825270e-01 -1.98671709128292239832e-01 -9.34713826118774971210e-05 -9.22152386644646830834e-04 -9.34713826118774971210e-05 -9.22152386644646830834e-04 9.99999566144274210089e-01 -4.28025222073916522916e-06
9.51518965871348857880e+08 9.79776886350511411194e-01 -1.99087772295824250168e-01 -9.38673784963481153999e-05 -9.24083580797140980746e-04 -9.38673784963481153999e-05 -9.24083580797140980746e-04 9.99999564306224164589e-01 -4.28921602995292050039e-06
9.51619968025783538818e+08 9.79691039789377771108e-01 -1.99505516472270966188e-01 -9.42658429359103283750e-05 -9.26022577501842874062e-04 -9.42658429359103283750e-05 -9.26022577501842874062e-04 9.99999562456716062364e-01 -4.29821605540587711210e-06
9.51720970180218219757e+08 9.79604656999346290469e-01 -1.99924951751030782754e-01 -9.46667963295368353150e-05 -9.27969423608157725422e-04 -9.46667963295368353150e-05 -9.27969423608157725422e-04 9.99999560595655201389e-01 -4.30725251455371024856e-06
9.51821972334652900696e+08 9.79517733540348323196e-01 -2.00346088305421332620e-01 -9.50702592862005249272e-05 -9.29924166336442933369e-04 -9.50702592862005249272e-05 -9.29924166336442933369e-04 9.99999558722946102485e-01 -4.31632562657390470571e-06
9.51922974489087581635e+08 9.79430264926515081747e-01 -2.00768936389459751179e-01 -9.54762526274608531920e-05 -9.31886853281630291382e-04 -9.54762526274608531920e-05 -9.31886853281630291382e-04 9.99999556838491954203e-01 -4.32543561238256341295e-06
9.52023976643522262573e+08 9.79342246625611090316e-01 -2.01193506338654709564e-01 -9.58847973900901333908e-05 -9.33857532416901107986e-04 -9.58847973900901333908e-05 -9.33857532416901107986e-04 9.99999554942195167939e-01 -4.33458269465147091187e-06
9.52124978797956943512e+08 9.79253674058461864860e-01 -2.01619808570804415204e-01 -9.62959148287345883654e-05 -9.35836252097391467671e-04 -9.62959148287345883654e-05 -9.35836252097391467671e-04 9.99999553033957044867e-01 -4.34376709782528388994e-06
9.52225980952391624451e+08 9.79164542598371268056e-01 -2.02047853586804854187e-01 -9.67096264186145018185e-05 -9.37823061063942594630e-04 -9.67096264186145018185e-05 -9.37823061063942594630e-04 9.99999551113677886960e-01 -4.35298904813894956597e-06
9.52326983106826305389e+08 9.79074847570531536789e-01 -2.02477651971469885250e-01 -9.71259538582658945574e-05 -9.39818008446908679208e-04 -9.71259538582658945574e-05 -9.39818008446908679208e-04 9.99999549181257108010e-01 -4.36224877363536971527e-06
9.52427985261260986328e+08 9.78984584251424649892e-01 -2.02909214394356274269e-01 -9.75449190723172204678e-05 -9.41821143769985087355e-04 -9.75449190723172204678e-05 -9.41821143769985087355e-04 9.99999547236592900568e-01 -4.37154650418317735006e-06
9.52528987415695667267e+08 9.78893747868214592067e-01 -2.03342551610603050616e-01 -9.79665442143107993798e-05 -9.43832516954104983227e-04 -9.79665442143107993798e-05 -9.43832516954104983227e-04 9.99999545279582346957e-01 -4.38088247149481579073e-06
9.52629989570130348206e+08 9.78802333598131735215e-01 -2.03777674461775498704e-01 -9.83908516695604216289e-05 -9.45852178321356768485e-04 -9.83908516695604216289e-05 -9.45852178321356768485e-04 9.99999543310121530304e-01 -4.39025690914473123945e-06
9.52730991724565029144e+08 9.78710336567846672651e-01 -2.04214593876725775123e-01 -9.88178640580569014580e-05 -9.47880178598978499933e-04 -9.88178640580569014580e-05 -9.47880178598978499933e-04 9.99999541328105645555e-01 -4.39967005258790416701e-06
9.52831993878999829292e+08 9.78617751852836947890e-01 -2.04653320872456856439e-01 -9.92476042374093142236e-05 -9.49916568923368461776e-04 -9.92476042374093142236e-05 -9.49916568923368461776e-04 9.99999539333428444365e-01 -4.40912213917846879108e-06
9.52932996033434510231e+08 9.78524574476743236318e-01 -2.05093866554998838225e-01 -9.96800953058314990422e-05 -9.51961400844151574285e-04 -9.96800953058314990422e-05 -9.51961400844151574285e-04 9.99999537325982679192e-01 -4.41861340818859089945e-06
9.53033998187869191170e+08 9.78430799410715534847e-01 -2.05536242120300527425e-01 -1.00115360605177147247e-04 -9.54014726328319094539e-04 -1.00115360605177147247e-04 -9.54014726328319094539e-04 9.99999535305660103290e-01 -4.42814410082767601626e-06
9.53135000342303872108e+08 9.78336421572751580022e-01 -2.05980458855123366169e-01 -1.00553423724011130303e-04 -9.56076597764376665510e-04 -1.00553423724011130303e-04 -9.56076597764376665510e-04 9.99999533272351248669e-01 -4.43771446026162584895e-06
9.53236002496738553047e+08 9.78241435827024385929e-01 -2.06426528137950204833e-01 -1.00994308500730606152e-04 -9.58147067966563380399e-04 -1.00994308500730606152e-04 -9.58147067966563380399e-04 9.99999531225945426094e-01 -4.44732473163242338407e-06
9.53337004651173233986e+08 9.78145836983199679082e-01 -2.06874461439906898175e-01 -1.01438039026733681377e-04 -9.60226190179128851789e-04 -1.01438039026733681377e-04 -9.60226190179128851789e-04 9.99999529166330725083e-01 -4.45697516207798310448e-06
9.53438006805607914925e+08 9.78049619795744118456e-01 -2.07324270325688730932e-01 -1.01884639649629015552e-04 -9.62314018080633699556e-04 -1.01884639649629015552e-04 -9.62314018080633699556e-04 9.99999527093394235955e-01 -4.46666600075211386173e-06
9.53539008960042595863e+08 9.77952778963222524311e-01 -2.07775966454504384950e-01 -1.02334134976499310440e-04 -9.64410605788330378176e-04 -1.02334134976499310440e-04 -9.64410605788330378176e-04 9.99999525007021827783e-01 -4.47639749884484851393e-06
9.53640011114477276802e+08 9.77855309127584892970e-01 -2.08229561581026317851e-01 -1.02786549877208600954e-04 -9.66516007862575879557e-04 -1.02786549877208600954e-04 -9.66516007862575879557e-04 9.99999522907097815327e-01 -4.48616990960293111158e-06
9.53741013268911957741e+08 9.77757204873443641624e-01 -2.08685067556355213769e-01 -1.03241909487760855990e-04 -9.68630279311306343834e-04 -1.03241909487760855990e-04 -9.68630279311306343834e-04 9.99999520793505736194e-01 -4.49598348835058529845e-06
9.53842015423346638680e+08 9.77658460727338307628e-01 -2.09142496328994592636e-01 -1.03700239213707720728e-04 -9.70753475594562410811e-04 -1.03700239213707720728e-04 -9.70753475594562410811e-04 9.99999518666127573674e-01 -4.50583849251051479941e-06
9.53943017577781319618e+08 9.77559071156991699070e-01 -2.09601859945836327404e-01 -1.04161564733606023798e-04 -9.72885652629063143668e-04 -1.04161564733606023798e-04 -9.72885652629063143668e-04 9.99999516524844200838e-01 -4.51573518162513853642e-06
9.54044019732216000557e+08 9.77459030570552611650e-01 -2.10063170553160899479e-01 -1.04625912002529846941e-04 -9.75026866792847932142e-04 -1.04625912002529846941e-04 -9.75026866792847932142e-04 9.99999514369535158487e-01 -4.52567381737813575858e-06
9.54145021886650800705e+08 9.77358333315828331500e-01 -2.10526440397648034741e-01 -1.05093307255633850307e-04 -9.77177174929968811110e-04 -1.05093307255633850307e-04 -9.77177174929968811110e-04 9.99999512200078544133e-01 -4.53565466361622325923e-06
9.54246024041085481644e+08 9.77256973679506479868e-01 -2.10991681827394306215e-01 -1.05563777011764397531e-04 -9.79336634355213245251e-04 -1.05563777011764397531e-04 -9.79336634355213245251e-04 9.99999510016351345065e-01 -4.54567798637107743561e-06
9.54347026195520162582e+08 9.77154945886362868990e-01 -2.11458907292955383683e-01 -1.06037348077137792918e-04 -9.81505302858940971780e-04 -1.06037348077137792918e-04 -9.81505302858940971780e-04 9.99999507818229216305e-01 -4.55574405388178828530e-06
9.54448028349954843521e+08 9.77052244098459921062e-01 -2.11928129348387145336e-01 -1.06514047549059880939e-04 -9.83683238711918024252e-04 -1.06514047549059880939e-04 -9.83683238711918024252e-04 9.99999505605586258561e-01 -4.56585313661729053270e-06
9.54549030504389524460e+08 9.76948862414331320458e-01 -2.12399360652308855091e-01 -1.06993902819711497461e-04 -9.85870500670249852448e-04 -1.06993902819711497461e-04 -9.85870500670249852448e-04 9.99999503378295462319e-01 -4.57600550729926909403e-06
9.54650032658824205399e+08 9.76844794868155008594e-01 -2.12872613968972917986e-01 -1.07476941579984756501e-04 -9.88067147980347835687e-04 -1.07476941579984756501e-04 -9.88067147980347835687e-04 9.99999501136228041709e-01 -4.58620144092520684375e-06
9.54751034813258886337e+08 9.76740035428913522253e-01 -2.13347902169353981217e-01 -1.07963191823383833465e-04 -9.90273240383984483873e-04 -1.07963191823383833465e-04 -9.90273240383984483873e-04 9.99999498879254433703e-01 -4.59644121479184488620e-06
9.54852036967693567276e+08 9.76634577999541453330e-01 -2.13825238232244668746e-01 -1.08452681849978616784e-04 -9.92488838123378779368e-04 -1.08452681849978616784e-04 -9.92488838123378779368e-04 9.99999496607242965851e-01 -4.60672510851879444594e-06
9.54953039122128248215e+08 9.76528416416060585092e-01 -2.14304635245368579888e-01 -1.08945440270422151305e-04 -9.94714001946361966663e-04 -1.08945440270422151305e-04 -9.94714001946361966663e-04 9.99999494320060966501e-01 -4.61705340407251213540e-06
9.55054041276562929153e+08 9.76421544446700817588e-01 -2.14786106406505750144e-01 -1.09441496010028498846e-04 -9.96948793111602756326e-04 -1.09441496010028498846e-04 -9.96948793111602756326e-04 9.99999492017574209690e-01 -4.62742638579055050812e-06
9.55155043430997610092e+08 9.76313955791008325491e-01 -2.15269665024633127803e-01 -1.09940878312914105887e-04 -9.99193273393899966325e-04 -1.09940878312914105887e-04 -9.99193273393899966325e-04 9.99999489699646915142e-01 -4.63784434040612540234e-06
9.55256045585432291031e+08 9.76205644078940171227e-01 -2.15755324521076013999e-01 -1.10443616746199574884e-04 -1.00144750508952742191e-03 -1.10443616746199574884e-04 -1.00144750508952742191e-03 9.99999487366141748268e-01 -4.64830755707292468903e-06
9.55357047739866971970e+08 9.76096602869944596215e-01 -2.16243098430674685062e-01 -1.10949741204277043359e-04 -1.00371155102164824439e-03 -1.10949741204277043359e-04 -1.00371155102164824439e-03 9.99999485016920153235e-01 -4.65881632739024397459e-06
9.55458049894301652908e+08 9.75986825652026990241e-01 -2.16733000402970166220e-01 -1.11459281913148117453e-04 -1.00598547454581977931e-03 -1.11459281913148117453e-04 -1.00598547454581977931e-03 9.99999482651841686831e-01 -4.66937094542852803230e-06
9.55559052048736453056e+08 9.75876305840802982239e-01 -2.17225044203394695996e-01 -1.11972269434818549904e-04 -1.00826933955551869063e-03 -1.11972269434818549904e-04 -1.00826933955551869063e-03 9.99999480270764462553e-01 -4.67997170775502488926e-06
9.55660054203171133995e+08 9.75765036778534655681e-01 -2.17719243714485422014e-01 -1.12488734671769733753e-04 -1.01056321048777425844e-03 -1.12488734671769733753e-04 -1.01056321048777425844e-03 9.99999477873545261630e-01 -4.69061891345993203935e-06
9.55761056357605814934e+08 9.75653011733153663343e-01 -2.18215612937109615377e-01 -1.13008708871495505677e-04 -1.01286715232885588672e-03 -1.13008708871495505677e-04 -1.01286715232885588672e-03 9.99999475460038755870e-01 -4.70131286418278914287e-06
9.55862058512040495872e+08 9.75540223897267799735e-01 -2.18714165991705539183e-01 -1.13532223631110316931e-04 -1.01518123062003173471e-03 -1.13532223631110316931e-04 -1.01518123062003173471e-03 9.99999473030098506854e-01 -4.71205386413921716260e-06
9.55963060666475176811e+08 9.75426666387153806781e-01 -2.19214917119538499346e-01 -1.14059310902028365319e-04 -1.01750551146340020674e-03 -1.14059310902028365319e-04 -1.01750551146340020674e-03 9.99999470583576188787e-01 -4.72284222014797598426e-06
9.56064062820909857750e+08 9.75312332241733082050e-01 -2.19717880683970467892e-01 -1.14590002994714094779e-04 -1.01984006152778172369e-03 -1.14590002994714094779e-04 -1.01984006152778172369e-03 9.99999468120321699516e-01 -4.73367824165832019260e-06
9.56165064975344538689e+08 9.75197214421531399786e-01 -2.20223071171750633956e-01 -1.15124332583511651985e-04 -1.02218494805470959050e-03 -1.15124332583511651985e-04 -1.02218494805470959050e-03 9.99999465640183382575e-01 -4.74456224077779699865e-06
9.56266067129779219627e+08 9.75081305807624199034e-01 -2.20730503194314808812e-01 -1.15662332711542837423e-04 -1.02454023886446097917e-03 -1.15662332711542837423e-04 -1.02454023886446097917e-03 9.99999463143008027188e-01 -4.75549453230024999598e-06
9.56367069284213900566e+08 9.74964599200562553882e-01 -2.21240191489108228851e-01 -1.16204036795689149902e-04 -1.02690600236219719936e-03 -1.16204036795689149902e-04 -1.02690600236219719936e-03 9.99999460628640424176e-01 -4.76647543373431165499e-06
9.56468071438648581505e+08 9.74847087319284377749e-01 -2.21752150920919710586e-01 -1.16749478631646797866e-04 -1.02928230754415622750e-03 -1.16749478631646797866e-04 -1.02928230754415622750e-03 9.99999458096923699024e-01 -4.77750526533214823300e-06
9.56569073593083262444e+08 9.74728762800007864087e-01 -2.22266396483234651704e-01 -1.17298692399063432448e-04 -1.03166922400393218893e-03 -1.17298692399063432448e-04 -1.03166922400393218893e-03 9.99999455547699200864e-01 -4.78858435011861041316e-06
9.56670075747517943382e+08 9.74609618195107607619e-01 -2.22782943299602215204e-01 -1.17851712666753390309e-04 -1.03406682193882206063e-03 -1.17851712666753390309e-04 -1.03406682193882206063e-03 9.99999452980806502467e-01 -4.79971301392068887514e-06
9.56771077901952624321e+08 9.74489645971972406890e-01 -2.23301806625026105779e-01 -1.18408574398001624223e-04 -1.03647517215628079401e-03 -1.18408574398001624223e-04 -1.03647517215628079401e-03 9.99999450396083289228e-01 -4.81089158539747385052e-06
9.56872080056387424469e+08 9.74368838511845414274e-01 -2.23823001847365199435e-01 -1.18969312955944300303e-04 -1.03889434608042219126e-03 -1.18969312955944300303e-04 -1.03889434608042219126e-03 9.99999447793365470183e-01 -4.82212039607033575369e-06
9.56973082210822105408e+08 9.74247188108646522409e-01 -2.24346544488754184865e-01 -1.19533964109036700604e-04 -1.04132441575861345653e-03 -1.19533964109036700604e-04 -1.04132441575861345653e-03 9.99999445172486955968e-01 -4.83339978035352932931e-06
9.57074084365256786346e+08 9.74124686967774322532e-01 -2.24872450207046631343e-01 -1.20102564036613675938e-04 -1.04376545386817296338e-03 -1.20102564036613675938e-04 -1.04376545386817296338e-03 9.99999442533279880863e-01 -4.84473007558528399663e-06
9.57175086519691467285e+08 9.74001327204890965383e-01 -2.25400734797269131082e-01 -1.20675149334530438074e-04 -1.04621753372311919635e-03 -1.20675149334530438074e-04 -1.04621753372311919635e-03 9.99999439875574380743e-01 -4.85611162205912966894e-06
9.57276088674126148224e+08 9.73877100844685594794e-01 -2.25931414193099505683e-01 -1.21251757020900157629e-04 -1.04868072928103396764e-03 -1.21251757020900157629e-04 -1.04868072928103396764e-03 9.99999437199198593085e-01 -4.86754476305575112168e-06
9.57377090828560829163e+08 9.73751999819620128740e-01 -2.26464504468358307498e-01 -1.21832424541917417227e-04 -1.05115511514998287955e-03 -1.21832424541917417227e-04 -1.05115511514998287955e-03 9.99999434503978656963e-01 -4.87902984487511341097e-06
