! File generated for n1 = 2, n2 = 8
! b1 = 46.415888
! b2 = 0.215443
! Q0 = 10000.000000
! f0 = 1000000000.000000
! n = 1001
! rel_span = 10.000000
# Hz S RI R 50
9.76184334097434520721e+08 9.81161151822776633757e-01 -1.90686509401372938921e-01 -1.28347578533292831261e-03 -1.29913206531501734808e-02 -1.28347578533292831261e-03 -1.29913206531501734808e-02 9.99912557812662528001e-01 -8.85088372758010459920e-04
9.76231965429239630699e+08 9.81085378334777047371e-01 -1.91065862981211226357e-01 -1.28863817297482688949e-03 -1.30171657116814314809e-02 -1.28863817297482688949e-03 -1.30171657116814314809e-02 9.99912206103286682612e-01 -8.86849176098178891559e-04
9.76279596761044740677e+08 9.81009152087867764003e-01 -1.91446694558305485767e-01 -1.29383140672216664056e-03 -1.30431114649935467331e-02 -1.29383140672216664056e-03 -1.30431114649935467331e-02 9.99911852292390213037e-01 -8.88616839693906696365e-04
9.76327228092849969864e+08 9.80932469487406755171e-01 -1.91829012693578632165e-01 -1.29905573147504342819e-03 -1.30691584963354093946e-02 -1.29905573147504342819e-03 -1.30691584963354093946e-02 9.99911496363288132549e-01 -8.90391403281478124344e-04
9.76374859424655079842e+08 9.80855326903161350849e-01 -1.92212826013408583092e-01 -1.30431139455834850527e-03 -1.30953073934153042812e-02 -1.30431139455834850527e-03 -1.30953073934153042812e-02 9.99911138299130586304e-01 -8.92172906900992666694e-04
9.76422490756460189819e+08 9.80777720668883579158e-01 -1.92598143210255562385e-01 -1.30959864575064212008e-03 -1.31215587484436527199e-02 -1.30959864575064212008e-03 -1.31215587484436527199e-02 9.99910778082900075781e-01 -8.93961390899276680741e-04
9.76470122088265299797e+08 9.80699647081883729705e-01 -1.92984973043281993199e-01 -1.31491773731322726497e-03 -1.31479131581752443914e-02 -1.31491773731322726497e-03 -1.31479131581752443914e-02 9.99910415697410459579e-01 -8.95756895932760320404e-04
9.76517753420070409775e+08 9.80621102402596589442e-01 -1.93373324338986907200e-01 -1.32026892401972844628e-03 -1.31743712239524597002e-02 -1.32026892401972844628e-03 -1.31743712239524597002e-02 9.99910051125304177866e-01 -8.97559462970423421919e-04
9.76565384751875519753e+08 9.80542082854141128223e-01 -1.93763205991845488541e-01 -1.32565246318605599665e-03 -1.32009335517488356204e-02 -1.32565246318605599665e-03 -1.32009335517488356204e-02 9.99909684349050364993e-01 -8.99369133296762314662e-04
9.76613016083680748940e+08 9.80462584621874411184e-01 -1.94154626964957138791e-01 -1.33106861470080016507e-03 -1.32276007522132282856e-02 -1.33106861470080016507e-03 -1.32276007522132282856e-02 9.99909315350943184164e-01 -9.01185948514799241120e-04
9.76660647415485858917e+08 9.80382603852940626155e-01 -1.94547596290695262722e-01 -1.33651764105597518732e-03 -1.32543734407140709891e-02 -1.33651764105597518732e-03 -1.32543734407140709891e-02 9.99908944113099273920e-01 -9.03009950549097523131e-04
9.76708278747290968895e+08 9.80302136655810896215e-01 -1.94942123071376260945e-01 -1.34199980737835554770e-03 -1.32812522373849644514e-02 -1.34199980737835554770e-03 -1.32812522373849644514e-02 9.99908570617455527696e-01 -9.04841181648867801113e-04
9.76755910079096078873e+08 9.80221179099820205671e-01 -1.95338216479920862012e-01 -1.34751538146103645374e-03 -1.33082377671697223848e-02 -1.34751538146103645374e-03 -1.33082377671697223848e-02 9.99908194845767650527e-01 -9.06679684391036000944e-04
9.76803541410901188850e+08 9.80139727214694778112e-01 -1.95735885760535299749e-01 -1.35306463379560970410e-03 -1.33353306598687805506e-02 -1.35306463379560970410e-03 -1.33353306598687805506e-02 9.99907816779607272473e-01 -9.08525501683406710648e-04
9.76851172742706298828e+08 9.80057776990074569490e-01 -1.96135140229396320866e-01 -1.35864783760473680808e-03 -1.33625315501858764333e-02 -1.35864783760473680808e-03 -1.33625315501858764333e-02 9.99907436400359728168e-01 -9.10378676767842061161e-04
9.76898804074511528015e+08 9.79975324375028655766e-01 -1.96535989275339800786e-01 -1.36426526887512174213e-03 -1.33898410777749526934e-02 -1.36426526887512174213e-03 -1.33898410777749526934e-02 9.99907053689222391490e-01 -9.12239253223457737495e-04
9.76946435406316637993e+08 9.79892365277564181270e-01 -1.96938442360561238864e-01 -1.36991720639099956967e-03 -1.34172598872878794107e-02 -1.36991720639099956967e-03 -1.34172598872878794107e-02 9.99906668627202011024e-01 -9.14107274969874501053e-04
9.76994066738121747971e+08 9.79808895564126980382e-01 -1.97342509021326023566e-01 -1.37560393176813094973e-03 -1.34447886284228563386e-02 -1.37560393176813094973e-03 -1.34447886284228563386e-02 9.99906281195112156546e-01 -9.15982786270515465278e-04
9.77041698069926857948e+08 9.79724911059096426058e-01 -1.97748198868685359786e-01 -1.38132572948823639791e-03 -1.34724279559731829198e-02 -1.38132572948823639791e-03 -1.34724279559731829198e-02 9.99905891373571442671e-01 -9.17865831735928741630e-04
9.77089329401731967926e+08 9.79640407544273505991e-01 -1.98155521589197580745e-01 -1.38708288693387853975e-03 -1.35001785298763925941e-02 -1.38708288693387853975e-03 -1.35001785298763925941e-02 9.99905499143000642270e-01 -9.19756456327135022213e-04
9.77136960733537197113e+08 9.79555380758359794946e-01 -1.98564486945663726258e-01 -1.39287569442392918269e-03 -1.35280410152643776334e-02 -1.39287569442392918269e-03 -1.35280410152643776334e-02 9.99905104483620577049e-01 -9.21654705359042816619e-04
9.77184592065342307091e+08 9.79469826396431431093e-01 -1.98975104777864536532e-01 -1.39870444524943385659e-03 -1.35560160825135937734e-02 -1.39870444524943385659e-03 -1.35560160825135937734e-02 9.99904707375449564033e-01 -9.23560624503868242419e-04
9.77232223397147417068e+08 9.79383740109403433394e-01 -1.99387385003314654419e-01 -1.40456943571011971979e-03 -1.35841044072964531320e-02 -1.40456943571011971979e-03 -1.35841044072964531320e-02 9.99904307798300973076e-01 -9.25474259794636889762e-04
9.77279854728952527046e+08 9.79297117503487135615e-01 -1.99801337618018076681e-01 -1.41047096515130982418e-03 -1.36123066706327778413e-02 -1.41047096515130982418e-03 -1.36123066706327778413e-02 9.99903905731780562327e-01 -9.27395657628689046997e-04
9.77327486060757637024e+08 9.79209954139640847970e-01 -2.00216972697234402156e-01 -1.41640933600140094852e-03 -1.36406235589420134907e-02 -1.41640933600140094852e-03 -1.36406235589420134907e-02 9.99903501155284257784e-01 -9.29324864771237293265e-04
9.77375117392562747002e+08 9.79122245533010637786e-01 -2.00634300396257403420e-01 -1.42238485380992776830e-03 -1.36690557640962717656e-02 -1.42238485380992776830e-03 -1.36690557640962717656e-02 9.99903094047995155691e-01 -9.31261928358979819073e-04
9.77422748724367976189e+08 9.79033987152365892115e-01 -2.01053330951194098031e-01 -1.42839782728604704556e-03 -1.36976039834734060474e-02 -1.42839782728604704556e-03 -1.36976039834734060474e-02 9.99902684388881080046e-01 -9.33206895903716565806e-04
9.77470380056173086166e+08 9.78945174419523223008e-01 -2.01474074679764553197e-01 -1.43444856833774996886e-03 -1.37262689200114973431e-02 -1.43444856833774996886e-03 -1.37262689200114973431e-02 9.99902272156692029093e-01 -9.35159815296061750801e-04
9.77518011387978196144e+08 9.78855802708765598830e-01 -2.01896541982100191648e-01 -1.44053739211147890063e-03 -1.37550512822632569482e-02 -1.44053739211147890063e-03 -1.37550512822632569482e-02 9.99901857329957288734e-01 -9.37120734809149453538e-04
9.77565642719783306122e+08 9.78765867346250262315e-01 -2.02320743341559555750e-01 -1.44666461703243649610e-03 -1.37839517844515827005e-02 -1.44666461703243649610e-03 -1.37839517844515827005e-02 9.99901439886982879024e-01 -9.39089703102419324360e-04
9.77613274051588416100e+08 9.78675363609409543209e-01 -2.02746689325548484772e-01 -1.45283056484540613190e-03 -1.38129711465254587099e-02 -1.45283056484540613190e-03 -1.38129711465254587099e-02 9.99901019805848556565e-01 -9.41066769225424627765e-04
9.77660905383393526077e+08 9.78584286726343233198e-01 -2.03174390586350173127e-01 -1.45903556065616452596e-03 -1.38421100942164847919e-02 -1.45903556065616452596e-03 -1.38421100942164847919e-02 9.99900597064405149972e-01 -9.43051982621683762206e-04
9.77708536715198755264e+08 9.78492631875201190894e-01 -2.03603857861967746379e-01 -1.46527993297354357759e-03 -1.38713693590963044883e-02 -1.46527993297354357759e-03 -1.38713693590963044883e-02 9.99900171640271562268e-01 -9.45045393132592495208e-04
9.77756168047003865242e+08 9.78400394183557065020e-01 -2.04035101976975469240e-01 -1.47156401375207637576e-03 -1.39007496786345725870e-02 -1.47156401375207637576e-03 -1.39007496786345725870e-02 9.99899743510831995330e-01 -9.47047051001373495042e-04
9.77803799378808975220e+08 9.78307568727774135020e-01 -2.04468133843376947967e-01 -1.47788813843523583226e-03 -1.39302517962574430588e-02 -1.47788813843523583226e-03 -1.39302517962574430588e-02 9.99899312653232952286e-01 -9.49057006877061098971e-04
9.77851430710614085197e+08 9.78214150532359938417e-01 -2.04902964461479514258e-01 -1.48425264599937847994e-03 -1.39598764614071255835e-02 -1.48425264599937847994e-03 -1.39598764614071255835e-02 9.99898879044380239911e-01 -9.51075311818558939876e-04
9.77899062042419195175e+08 9.78120134569312571493e-01 -2.05339604920774077002e-01 -1.49065787899827677590e-03 -1.39896244296018480019e-02 -1.49065787899827677590e-03 -1.39896244296018480019e-02 9.99898442660935971027e-01 -9.53102017298724135848e-04
9.77946693374224424362e+08 9.78025515757457442056e-01 -2.05778066400828463234e-01 -1.49710418360833857204e-03 -1.40194964624966948025e-02 -1.49710418360833857204e-03 -1.40194964624966948025e-02 9.99898003479315455877e-01 -9.55137175208513929808e-04
9.77994324706029534340e+08 9.77930288961775584511e-01 -2.06218360172179315803e-01 -1.50359190967432141545e-03 -1.40494933279443900975e-02 -1.50359190967432141545e-03 -1.40494933279443900975e-02 9.99897561475683871457e-01 -9.57180837861125173409e-04
9.78041956037834644318e+08 9.77834448992717431004e-01 -2.06660497597262515779e-01 -1.51012141075613343620e-03 -1.40796158000586792147e-02 -1.51012141075613343620e-03 -1.40796158000586792147e-02 9.99897116625953708002e-01 -9.59233057996313680064e-04
9.78089587369639754295e+08 9.77737990605511808617e-01 -2.07104490131323620838e-01 -1.51669304417586213451e-03 -1.41098646592763572044e-02 -1.51669304417586213451e-03 -1.41098646592763572044e-02 9.99896668905780772185e-01 -9.61293888784619252399e-04
9.78137218701444864273e+08 9.77640908499462613079e-01 -2.07550349323355060038e-01 -1.52330717106574143639e-03 -1.41402406924211170719e-02 -1.52330717106574143639e-03 -1.41402406924211170719e-02 9.99896218290561411557e-01 -9.63363383831715935045e-04
9.78184850033249974251e+08 9.77543197317233714116e-01 -2.07998086817044042229e-01 -1.52996415641681892707e-03 -1.41707446927681370019e-02 -1.52996415641681892707e-03 -1.41707446927681370019e-02 9.99895764755429072856e-01 -9.65441597182812465995e-04
9.78232481365055203438e+08 9.77444851644125312085e-01 -2.08447714351729235238e-01 -1.53666436912831263703e-03 -1.42013774601092469807e-02 -1.53666436912831263703e-03 -1.42013774601092469807e-02 9.99895308275250860319e-01 -9.67528583327092084505e-04
9.78280112696860313416e+08 9.77345866007338970327e-01 -2.08899243763364717008e-01 -1.54340818205763569658e-03 -1.42321398008186141004e-02 -1.54340818205763569658e-03 -1.42321398008186141004e-02 9.99894848824624538075e-01 -9.69624397202187141877e-04
9.78327744028665423393e+08 9.77246234875230213035e-01 -2.09352686985505798134e-01 -1.55019597207132760024e-03 -1.42630325279198937050e-02 -1.55019597207132760024e-03 -1.42630325279198937050e-02 9.99894386377874200278e-01 -9.71729094198754543045e-04
9.78375375360470533371e+08 9.77145952656552352344e-01 -2.09808056050297619954e-01 -1.55702812009660802005e-03 -1.42940564611535939066e-02 -1.55702812009660802005e-03 -1.42940564611535939066e-02 9.99893920909047828616e-01 -9.73842730165064957536e-04
9.78423006692275643349e+08 9.77045013699686770714e-01 -2.10265363089479073722e-01 -1.56390501117375678095e-03 -1.43252124270454653243e-02 -1.56390501117375678095e-03 -1.43252124270454653243e-02 9.99893452391912740396e-01 -9.75965361411662178301e-04
9.78470638024080753326e+08 9.76943412291863655383e-01 -2.10724620335397405668e-01 -1.57082703450925906599e-03 -1.43565012589756228756e-02 -1.57082703450925906599e-03 -1.43565012589756228756e-02 9.99892980799952701965e-01 -9.78097044716072462275e-04
9.78518269355885982513e+08 9.76841142658368633001e-01 -2.11185840122039586442e-01 -1.57779458352981733285e-03 -1.43879237972488142200e-02 -1.57779458352981733285e-03 -1.43879237972488142200e-02 9.99892506106363820884e-01 -9.80237837327592150330e-04
9.78565900687691092491e+08 9.76738198961741077575e-01 -2.11649034886064318917e-01 -1.58480805593700269270e-03 -1.44194808891647367755e-02 -1.58480805593700269270e-03 -1.44194808891647367755e-02 9.99892028284051104237e-01 -9.82387796972077238788e-04
9.78613532019496202469e+08 9.76634575300955654065e-01 -2.12114217167864022029e-01 -1.59186785376299244285e-03 -1.44511733890903791566e-02 -1.59186785376299244285e-03 -1.44511733890903791566e-02 9.99891547305624350805e-01 -9.84546981856873138286e-04
9.78661163351301312447e+08 9.76530265710594758133e-01 -2.12581399612625704387e-01 -1.59897438342694380928e-03 -1.44830021585323036326e-02 -1.59897438342694380928e-03 -1.44830021585323036326e-02 9.99891063143394487334e-01 -9.86715450675738903197e-04
9.78708794683106422424e+08 9.76425264160007966296e-01 -2.13050594971410323097e-01 -1.60612805579230725865e-03 -1.45149680662101793205e-02 -1.60612805579230725865e-03 -1.45149680662101793205e-02 9.99890575769369682746e-01 -9.88893262613856462509e-04
9.78756426014911651611e+08 9.76319564552457608286e-01 -2.13521816102242162350e-01 -1.61332928622496141885e-03 -1.45470719881310057986e-02 -1.61332928622496141885e-03 -1.45470719881310057986e-02 9.99890085155251573390e-01 -9.91080477352887989281e-04
9.78804057346716761589e+08 9.76213160724253237177e-01 -2.13995075971213394306e-01 -1.62057849465226610185e-03 -1.45793148076643550026e-02 -1.62057849465226610185e-03 -1.45793148076643550026e-02 9.99889591272430711122e-01 -9.93277155076101791673e-04
9.78851688678521871567e+08 9.76106046443869668217e-01 -2.14470387653606819889e-01 -1.62787610562308937383e-03 -1.46116974156188794698e-02 -1.62787610562308937383e-03 -1.46116974156188794698e-02 9.99889094091983010593e-01 -9.95483356473584940147e-04
9.78899320010326981544e+08 9.75998215411054914625e-01 -2.14947764335021690441e-01 -1.63522254836858814582e-03 -1.46442207103189957901e-02 -1.63522254836858814582e-03 -1.46442207103189957901e-02 9.99888593584665197334e-01 -9.97699142747467387221e-04
9.78946951342132091522e+08 9.75889661255922469252e-01 -2.15427219312524120820e-01 -1.64261825686408727797e-03 -1.46768855976832715560e-02 -1.64261825686408727797e-03 -1.46768855976832715560e-02 9.99888089720910921976e-01 -9.99924575617262530527e-04
9.78994582673937201500e+08 9.75780377538030707640e-01 -2.15908765995802803817e-01 -1.65006366989177660591e-03 -1.47096929913031661957e-02 -1.65006366989177660591e-03 -1.47096929913031661957e-02 9.99887582470826208336e-01 -1.00215971732523227884e-03
9.79042214005742430687e+08 9.75670357745446747977e-01 -2.16392417908344680821e-01 -1.65755923110445790858e-03 -1.47426438125231162174e-02 -1.65755923110445790858e-03 -1.47426438125231162174e-02 9.99887071804185456614e-01 -1.00440463064184210690e-03
9.79089845337547540665e+08 9.75559595293798098581e-01 -2.16878188688621187374e-01 -1.66510538909021930248e-03 -1.47757389905213646492e-02 -1.66510538909021930248e-03 -1.47757389905213646492e-02 9.99886557690426669431e-01 -1.00665937887126880242e-03
9.79137476669352650642e+08 9.75448083525307096942e-01 -2.17366092091293261479e-01 -1.67270259743817410573e-03 -1.48089794623920516237e-02 -1.67270259743817410573e-03 -1.48089794623920516237e-02 9.99886040098647232988e-01 -1.00892402585699321460e-03
9.79185108001157760620e+08 9.75335815707811804032e-01 -2.17856141988428758660e-01 -1.68035131480517570084e-03 -1.48423661732281601811e-02 -1.68035131480517570084e-03 -1.48423661732281601811e-02 9.99885518997599254121e-01 -1.01119863598745046533e-03
9.79232739332962870598e+08 9.75222785033771910612e-01 -2.18348352370732912142e-01 -1.68805200498354439180e-03 -1.48759000762053415767e-02 -1.68805200498354439180e-03 -1.48759000762053415767e-02 9.99884994355684786349e-01 -1.01348327420174174306e-03
9.79280370664767980576e+08 9.75108984619258323256e-01 -2.18842737348798166419e-01 -1.69580513696990513479e-03 -1.49095821326670659179e-02 -1.69580513696990513479e-03 -1.49095821326670659179e-02 9.99884466140951500002e-01 -1.01577800599543521809e-03
9.79328001996573209763e+08 9.74994407502927873388e-01 -2.19339311154365723677e-01 -1.70361118503504702093e-03 -1.49434133122105759772e-02 -1.70361118503504702093e-03 -1.49434133122105759772e-02 9.99883934321087686214e-01 -1.01808289742642225223e-03
9.79375633328378319740e+08 9.74879046644982150127e-01 -2.19838088141602522319e-01 -1.71147062879486500965e-03 -1.49773945927738818401e-02 -1.71147062879486500965e-03 -1.49773945927738818401e-02 9.99883398863417593994e-01 -1.02039801512084364783e-03
9.79423264660183429718e+08 9.74762894926106904236e-01 -2.20339082788404333479e-01 -1.71938395328257603335e-03 -1.50115269607245388483e-02 -1.71938395328257603335e-03 -1.50115269607245388483e-02 9.99882859734896323189e-01 -1.02272342627913862857e-03
9.79470895991988539696e+08 9.74645945146400793924e-01 -2.20842309697695776682e-01 -1.72735164902176668508e-03 -1.50458114109482208459e-02 -1.72735164902176668508e-03 -1.50458114109482208459e-02 9.99882316902104717471e-01 -1.02505919868207929189e-03
9.79518527323793649673e+08 9.74528190024281149029e-01 -2.21347783598764752400e-01 -1.73537421210087010152e-03 -1.50802489469396266281e-02 -1.73537421210087010152e-03 -1.50802489469396266281e-02 9.99881770331244812411e-01 -1.02740540069696378866e-03
9.79566158655598878860e+08 9.74409622195376634579e-01 -2.21855519348604035557e-01 -1.74345214424867609067e-03 -1.51148405808938981337e-02 -1.74345214424867609067e-03 -1.51148405808938981337e-02 9.99881219988134173349e-01 -1.02976210128384376360e-03
9.79613789987403988838e+08 9.74290234211400929532e-01 -2.22365531933269883202e-01 -1.75158595291102737665e-03 -1.51495873337991575347e-02 -1.75158595291102737665e-03 -1.51495873337991575347e-02 9.99880665838200788365e-01 -1.03212937000183094249e-03
9.79661421319209098816e+08 9.74170018539008197855e-01 -2.22877836469260959262e-01 -1.75977615132878891478e-03 -1.51844902355304720021e-02 -1.75977615132878891478e-03 -1.51844902355304720021e-02 9.99880107846478183298e-01 -1.03450727701549609339e-03
9.79709052651014208794e+08 9.74048967558630685026e-01 -2.23392448204916355126e-01 -1.76802325861708095264e-03 -1.52195503249450882904e-02 -1.76802325861708095264e-03 -1.52195503249450882904e-02 9.99879545977599426543e-01 -1.03689589310136036186e-03
9.79756683982819318771e+08 9.73927073563298550951e-01 -2.23909382521822630796e-01 -1.77632779984563358988e-03 -1.52547686499783039654e-02 -1.77632779984563358988e-03 -1.52547686499783039654e-02 9.99878980195791799979e-01 -1.03929528965442368599e-03
9.79804315314624428749e+08 9.73804328757440162967e-01 -2.24428654936247834462e-01 -1.78469030612056923230e-03 -1.52901462677411496827e-02 -1.78469030612056923230e-03 -1.52901462677411496827e-02 9.99878410464871580920e-01 -1.04170553869482288185e-03
9.79851946646429657936e+08 9.73680725255663737094e-01 -2.24950281100586180205e-01 -1.79311131466737615041e-03 -1.53256842446188347451e-02 -1.79311131466737615041e-03 -1.53256842446188347451e-02 9.99877836748237935893e-01 -1.04412671287453613297e-03
9.79899577978234767914e+08 9.73556255081518884253e-01 -2.25474276804826623266e-01 -1.80159136891529258508e-03 -1.53613836563707799321e-02 -1.80159136891529258508e-03 -1.53613836563707799321e-02 9.99877259008867480539e-01 -1.04655888548419958618e-03
