! File generated for n1 = 7, n2 = 3
! b1 = 1.000000
! b2 = 0.215443
! Q0 = 10000.000000
! f0 = 1000000000.000000
! n = 1001
! rel_span = 10.000000
# Hz S RI R 50
9.98892278265498399734e+08 9.91071649393318376831e-01 -8.93330115452106443552e-02 -4.14417324785535008680e-03 -4.14647108861251195711e-02 -4.14417324785535008680e-03 -4.14647108861251195711e-02 9.98076445172819792795e-01 -1.92462139038020556281e-02
9.98894493708967447281e+08 9.91036164549744635899e-01 -8.95085813066347213418e-02 -4.16064385322475679962e-03 -4.15462031505397233477e-02 -4.16064385322475679962e-03 -4.15462031505397233477e-02 9.98068800195023198008e-01 -1.92840392622553209734e-02
9.98896709152436375618e+08 9.91000468530860212368e-01 -8.96848349687284912557e-02 -4.17721247749060914378e-03 -4.16280128535255061761e-02 -4.17721247749060914378e-03 -4.16280128535255061761e-02 9.98061109720885131225e-01 -1.93220119626413174008e-02
9.98898924595905423164e+08 9.90964559663570110359e-01 -8.98617764914056149639e-02 -4.19387989723474328280e-03 -4.17101418331115650351e-02 -4.19387989723474328280e-03 -4.17101418331115650351e-02 9.98053373389948261796e-01 -1.93601328580975846905e-02
9.98901140039374470711e+08 9.90928436258251887914e-01 -9.00394098647671892177e-02 -4.21064689671047948788e-03 -4.17925919413387747525e-02 -4.21064689671047948788e-03 -4.17925919413387747525e-02 9.98045590838194218719e-01 -1.93984028082653421621e-02
9.98903355482843399048e+08 9.90892096608529504564e-01 -9.02177391095335401427e-02 -4.22751426794732744485e-03 -4.18753650444601763225e-02 -4.22751426794732744485e-03 -4.18753650444601763225e-02 9.98037761697995740029e-01 -1.94368226793825218945e-02
9.98905570926312446594e+08 9.90855538991093243162e-01 -9.03967682772448821726e-02 -4.24448281083488962451e-03 -4.19584630230341731894e-02 -4.24448281083488962451e-03 -4.19584630230341731894e-02 9.98029885598076704767e-01 -1.94753933443270084436e-02
9.98907786369781374931e+08 9.90818761665497760305e-01 -9.05765014505533622158e-02 -4.26155333321629869320e-03 -4.20418877720600131509e-02 -4.26155333321629869320e-03 -4.20418877720600131509e-02 9.98021962163469833484e-01 -1.95141156826795364454e-02
9.98910001813250422478e+08 9.90781762873945370806e-01 -9.07569427435814535254e-02 -4.27872665098898239538e-03 -4.21256412011442038512e-02 -4.27872665098898239538e-03 -4.21256412011442038512e-02 9.98013991015468837631e-01 -1.95529905808009309143e-02
9.98912217256719470024e+08 9.90744540841092535821e-01 -9.09380963021537563895e-02 -4.29600358819438952335e-03 -4.22097252346080448193e-02 -4.29600358819438952335e-03 -4.22097252346080448193e-02 9.98005971771587674368e-01 -1.95920189318820221758e-02
9.98914432700188398361e+08 9.90707093773833702421e-01 -9.11199663041306617828e-02 -4.31338497711842086546e-03 -4.22941418116425521534e-02 -4.31338497711842086546e-03 -4.22941418116425521534e-02 9.97997904045513362092e-01 -1.96312016360155397465e-02
9.98916648143657445908e+08 9.90669419861085365220e-01 -9.13025569597278041645e-02 -4.33087165839154877162e-03 -4.23788928864567288057e-02 -4.33087165839154877162e-03 -4.23788928864567288057e-02 9.97989787447060017200e-01 -1.96705396002649565701e-02
9.98918863587126493454e+08 9.90631517273581563288e-01 -9.14858725117707466401e-02 -4.34846448108377765102e-03 -4.24639804283957408848e-02 -4.34846448108377765102e-03 -4.24639804283957408848e-02 9.97981621582124001080e-01 -1.97100337387193236260e-02
9.98921079030595421791e+08 9.90593384163642287632e-01 -9.16699172360713049335e-02 -4.36616430281232346250e-03 -4.25494064221156181871e-02 -4.36616430281232346250e-03 -4.25494064221156181871e-02 9.97973406052634737229e-01 -1.97496849725743682524e-02
9.98923294474064469337e+08 9.90555018664956210550e-01 -9.18546954417167327289e-02 -4.38397198984204292810e-03 -4.26351728677175009774e-02 -4.38397198984204292810e-03 -4.26351728677175009774e-02 9.97965140456507748823e-01 -1.97894942301948054131e-02
9.98925509917533397675e+08 9.90516418892359529202e-01 -9.20402114713754493369e-02 -4.40188841718851687351e-03 -4.27212817808895126137e-02 -4.40188841718851687351e-03 -4.27212817808895126137e-02 9.97956824387596808101e-01 -1.98294624471801773924e-02
9.98927725361002445221e+08 9.90477582941600376287e-01 -9.22264697016531576068e-02 -4.41991446872712877292e-03 -4.28077351930720578777e-02 -4.41991446872712877292e-03 -4.28077351930720578777e-02 9.97948457435643310198e-01 -1.98695905664416014313e-02
9.98929940804471492767e+08 9.90438508889115665212e-01 -9.24134745433826398919e-02 -4.43805103729687580594e-03 -4.28945351515923681274e-02 -4.43805103729687580594e-03 -4.28945351515923681274e-02 9.97940039186227867418e-01 -1.99098795382641920171e-02
9.98932156247940421104e+08 9.90399194791794723614e-01 -9.26012304419591147919e-02 -4.45629902480971541723e-03 -4.29816837198201198711e-02 -4.45629902480971541723e-03 -4.29816837198201198711e-02 9.97931569220720349200e-01 -1.99503303203793190546e-02
9.98934371691409468651e+08 9.90359638686725274326e-01 -9.27897418777550303526e-02 -4.47465934236883355890e-03 -4.30691829773599751952e-02 -4.47465934236883355890e-03 -4.30691829773599751952e-02 9.97923047116223926878e-01 -1.99909438780539634728e-02
9.98936587134878516197e+08 9.90319838590981493809e-01 -9.29790133663174478418e-02 -4.49313291036697922548e-03 -4.31570350201432376136e-02 -4.49313291036697922548e-03 -4.31570350201432376136e-02 9.97914472445530220668e-01 -2.00317211841332491751e-02
9.98938802578347444534e+08 9.90279792501355893286e-01 -9.31690494588185286196e-02 -4.51172065861059085751e-03 -4.32452419606368793081e-02 -4.51172065861059085751e-03 -4.32452419606368793081e-02 9.97905844777061346029e-01 -2.00726632191374904091e-02
9.98941018021816492081e+08 9.90239498394116512969e-01 -9.33598547423786645494e-02 -4.53042352643281444335e-03 -4.33338059279935877699e-02 -4.53042352643281444335e-03 -4.33338059279935877699e-02 9.97897163674817289092e-01 -2.01137709713318235671e-02
9.98943233465285420418e+08 9.90198954224761229703e-01 -9.35514338403880957307e-02 -4.54924246280758240446e-03 -4.34227290682010075296e-02 -4.54924246280758240446e-03 -4.34227290682010075296e-02 9.97888428698323504129e-01 -2.01550454367954781643e-02
9.98945448908754467964e+08 9.90158157927754634109e-01 -9.37437914128947252790e-02 -4.56817842647146404172e-03 -4.35120135442617697596e-02 -4.56817842647146404172e-03 -4.35120135442617697596e-02 9.97879639402573959117e-01 -2.01964876195053384678e-02
9.98947664352223515511e+08 9.90117107416274344622e-01 -9.39369321569385601345e-02 -4.58723238604156081238e-03 -4.36016615363487222701e-02 -4.58723238604156081238e-03 -4.36016615363487222701e-02 9.97870795337976290718e-01 -2.02380985314080004411e-02
9.98949879795692443848e+08 9.90075800581948328727e-01 -9.41308608069141711239e-02 -4.60640532013748688067e-03 -4.36916752419731560519e-02 -4.60640532013748688067e-03 -4.36916752419731560519e-02 9.97861896050295515970e-01 -2.02798791924978481782e-02
9.98952095239161491394e+08 9.90034235294580122755e-01 -9.43255821349762990646e-02 -4.62569821750894328433e-03 -4.37820568761731060414e-02 -4.62569821750894328433e-03 -4.37820568761731060414e-02 9.97852941080594746381e-01 -2.03218306309044631497e-02
9.98954310682630538940e+08 9.89992409401888040499e-01 -9.45211009513625133316e-02 -4.64511207715645729061e-03 -4.38728086716630438779e-02 -4.64511207715645729061e-03 -4.38728086716630438779e-02 9.97843929965179121666e-01 -2.03639538829621068172e-02
9.98956526126099467278e+08 9.89950320729230948125e-01 -9.47174221047731162981e-02 -4.66464790845916733170e-03 -4.39639328790103131595e-02 -4.66464790845916733170e-03 -4.39639328790103131595e-02 9.97834862235536079744e-01 -2.04062499932915926426e-02
9.98958741569568514824e+08 9.89907967079313055869e-01 -9.49145504828246139306e-02 -4.68430673131132839504e-03 -4.40554317668455167056e-02 -4.68430673131132839504e-03 -4.40554317668455167056e-02 9.97825737418272851187e-01 -2.04487200148979822445e-02
9.98960957013037443161e+08 9.89865346231935117061e-01 -9.51124910122813083113e-02 -4.70408957623817680638e-03 -4.41473076219700694134e-02 -4.70408957623817680638e-03 -4.41473076219700694134e-02 9.97816555035061836243e-01 -2.04913650092204586983e-02
9.98963172456506490707e+08 9.89822455943669576861e-01 -9.53112486596214281143e-02 -4.72399748454656494279e-03 -4.42395627496189741690e-02 -4.72399748454656494279e-03 -4.42395627496189741690e-02 9.97807314602571326922e-01 -2.05341860462543261689e-02
9.98965387899975538254e+08 9.89779293947593119540e-01 -9.55108284313219702000e-02 -4.74403150844905467654e-03 -4.43321994735930008380e-02 -4.74403150844905467654e-03 -4.43321994735930008380e-02 9.97798015632407553355e-01 -2.05771842046123566716e-02
9.98967603343444466591e+08 9.89735857952994346753e-01 -9.57112353742458482619e-02 -4.76419271119967509959e-03 -4.44252201364383966786e-02 -4.76419271119967509959e-03 -4.44252201364383966786e-02 9.97788657631051623120e-01 -2.06203605716082025157e-02
9.98969818786913514137e+08 9.89692145645056364778e-01 -9.59124745761295582902e-02 -4.78448216724132371208e-03 -4.45186270996732469385e-02 -4.78448216724132371208e-03 -4.45186270996732469385e-02 9.97779240099791353558e-01 -2.06637162433614580970e-02
9.98972034230382561684e+08 9.89648154684569014705e-01 -9.61145511659152740336e-02 -4.80490096233911982010e-03 -4.46124227439416431995e-02 -4.80490096233911982010e-03 -4.46124227439416431995e-02 9.97769762534659099273e-01 -2.07072523248692276499e-02
9.98974249673851490021e+08 9.89603882707621451686e-01 -9.63174703141624066749e-02 -4.82545019372327289170e-03 -4.47066094692046556158e-02 -4.82545019372327289170e-03 -4.47066094692046556158e-02 9.97760224426365915917e-01 -2.07509699300947626777e-02
9.98976465117320537567e+08 9.89559327325268633935e-01 -9.65212372335610968577e-02 -4.84613097024392310702e-03 -4.48011896949787186140e-02 -4.84613097024392310702e-03 -4.48011896949787186140e-02 9.97750625260229062619e-01 -2.07948701820781095551e-02
9.98978680560789465904e+08 9.89514486123243552917e-01 -9.67258571792167648473e-02 -4.86694441250443924490e-03 -4.48961658604676988604e-02 -4.86694441250443924490e-03 -4.48961658604676988604e-02 9.97740964516110495630e-01 -2.08389542129974111861e-02
9.98980896004258513451e+08 9.89469356661614063420e-01 -9.69313354491786322020e-02 -4.88789165302107916217e-03 -4.49915404248082059779e-02 -4.88789165302107916217e-03 -4.49915404248082059779e-02 9.97731241668342816453e-01 -2.08832231642827673146e-02
9.98983111447727560997e+08 9.89423936474470355762e-01 -9.71376773848051378035e-02 -4.90897383636780450938e-03 -4.50873158672392068680e-02 -4.90897383636780450938e-03 -4.50873158672392068680e-02 9.97721456185661770277e-01 -2.09276781866949736222e-02
9.98985326891196489334e+08 9.89378223069581008708e-01 -9.73448883712573348470e-02 -4.93019211933584233093e-03 -4.51834946873310508431e-02 -4.93019211933584233093e-03 -4.51834946873310508431e-02 9.97711607531132527171e-01 -2.09723204404318117056e-02
9.98987542334665536880e+08 9.89332213928059700514e-01 -9.75529738379311561758e-02 -4.95154767108879189513e-03 -4.52800794051860799883e-02 -4.95154767108879189513e-03 -4.52800794051860799883e-02 9.97701695162077295542e-01 -2.10171510952211655632e-02
9.98989757778134584427e+08 9.89285906504037915177e-01 -9.77619392588370550445e-02 -4.97304167331407819680e-03 -4.53770725616148840054e-02 -4.97304167331407819680e-03 -4.53770725616148840054e-02 9.97691718530005489107e-01 -2.10621713304028450320e-02
9.98991973221603512764e+08 9.89239298224302010532e-01 -9.79717901531307333585e-02 -4.99467532039171366320e-03 -4.54744767183826031909e-02 -4.99467532039171366320e-03 -4.54744767183826031909e-02 9.97681677080534901059e-01 -2.11073823350428936563e-02
9.98994188665072560310e+08 9.89192386487938613016e-01 -9.81825320855822802901e-02 -5.01644981955864932566e-03 -4.55722944584267125601e-02 -5.01644981955864932566e-03 -4.55722944584267125601e-02 9.97671570253315764809e-01 -2.11527853080346918413e-02
9.98996404108541607857e+08 9.89145168666003216096e-01 -9.83941706669292787124e-02 -5.03836639106296224622e-03 -4.56705283860208977043e-02 -5.03836639106296224622e-03 -4.56705283860208977043e-02 9.97661397481959255629e-01 -2.11983814581750036610e-02
9.98998619552010536194e+08 9.89097642101127716430e-01 -9.86067115544778105551e-02 -5.06042626834558167959e-03 -4.57691811270540399592e-02 -5.06042626834558167959e-03 -4.57691811270540399592e-02 9.97651158193952669606e-01 -2.12441720042934739654e-02
9.99000834995479583740e+08 9.89049804107166252720e-01 -9.88201604525194982065e-02 -5.08263069820495769907e-03 -4.58682553292237629727e-02 -5.08263069820495769907e-03 -4.58682553292237629727e-02 9.97640851810583484394e-01 -2.12901581753424835874e-02
9.99003050438948512077e+08 9.89001651968832939943e-01 -9.90345231127638947477e-02 -5.10498094096523743340e-03 -4.59677536622371540886e-02 -5.10498094096523743340e-03 -4.59677536622371540886e-02 9.97630477746860977462e-01 -2.13363412104902866462e-02
9.99005265882417559624e+08 9.88953182941300967812e-01 -9.92498053349209902185e-02 -5.12747827066207910451e-03 -4.60676788180811314088e-02 -5.12747827066207910451e-03 -4.60676788180811314088e-02 9.97620035411430294836e-01 -2.13827223592465281987e-02
9.99007481325886607170e+08 9.88904394249834228781e-01 -9.94660129671239567895e-02 -5.15012397521389699018e-03 -4.61680335112186410185e-02 -5.15012397521389699018e-03 -4.61680335112186410185e-02 9.97609524206492626064e-01 -2.14293028815532998754e-02
9.99009696769355535507e+08 9.88855283089394632157e-01 -9.96831519064379223405e-02 -5.17291935660412535020e-03 -4.62688204788248638732e-02 -5.17291935660412535020e-03 -4.62688204788248638732e-02 9.97598943527720716240e-01 -2.14760840478947744037e-02
9.99011912212824583054e+08 9.88805846624235540432e-01 -9.99012280994076296015e-02 -5.19586573106971000985e-03 -4.63700424810413597276e-02 -5.19586573106971000985e-03 -4.63700424810413597276e-02 9.97588292764171602478e-01 -2.15230671394151772124e-02
9.99014127656293630600e+08 9.88756081987512081000e-01 -1.00120247542513737815e-01 -5.21896442928216752061e-03 -4.64717023011879046268e-02 -5.21896442928216752061e-03 -4.64717023011879046268e-02 9.97577571298202125938e-01 -2.15702534480171036202e-02
9.99016343099762558937e+08 9.88705986280868920346e-01 -1.00340216282705299577e-01 -5.24221679653882714767e-03 -4.65738027460096057353e-02 -5.24221679653882714767e-03 -4.65738027460096057353e-02 9.97566778505380780118e-01 -2.16176442764762326287e-02
9.99018558543231606483e+08 9.88655556574019600546e-01 -1.00561140417950486969e-01 -5.26562419295824746951e-03 -4.66763466459325718216e-02 -5.26562419295824746951e-03 -4.66763466459325718216e-02 9.97555913754396339499e-01 -2.16652409385599854785e-02
9.99020773986700534821e+08 9.88604789904338976392e-01 -1.00783026097704841995e-01 -5.28918799366918761240e-03 -4.67793368552812116601e-02 -5.28918799366918761240e-03 -4.67793368552812116601e-02 9.97544976406970596017e-01 -2.17130447591283963493e-02
9.99022989430169582367e+08 9.88553683276415684489e-01 -1.01005879523535832543e-01 -5.31290958901844273532e-03 -4.68827762525681548955e-02 -5.31290958901844273532e-03 -4.68827762525681548955e-02 9.97533965817761769657e-01 -2.17610570742686679213e-02
9.99025204873638629913e+08 9.88502233661633034068e-01 -1.01229706949598693977e-01 -5.33679038476529785801e-03 -4.69866677407151239754e-02 -5.33679038476529785801e-03 -4.69866677407151239754e-02 9.97522881334274136300e-01 -2.18092792313977074103e-02
9.99027420317107558250e+08 9.88450437997736575113e-01 -1.01454514683151350574e-01 -5.36083180228242878879e-03 -4.70910142472919027168e-02 -5.36083180228242878879e-03 -4.70910142472919027168e-02 9.97511722296764991036e-01 -2.18577125893730343786e-02
9.99029635760576605797e+08 9.88398293188353704863e-01 -1.01680309085250344947e-01 -5.38503527877865189460e-03 -4.71958187248394042679e-02 -5.38503527877865189460e-03 -4.71958187248394042679e-02 9.97500488038141064351e-01 -2.19063585186427441098e-02
9.99031851204045653343e+08 9.88345796102577112130e-01 -1.01907096571150532216e-01 -5.40940226749246026033e-03 -4.73010841510551477418e-02 -5.40940226749246026033e-03 -4.73010841510551477418e-02 9.97489177883868705088e-01 -2.19552184013315915267e-02
9.99034066647514581680e+08 9.88292943574479498814e-01 -1.02134883610975807366e-01 -5.43393423791709191673e-03 -4.74068135291046133251e-02 -5.43393423791709191673e-03 -4.74068135291046133251e-02 9.97477791151869741526e-01 -2.20042936313855144737e-02
9.99036282090983629227e+08 9.88239732402648840548e-01 -1.02363676730278796434e-01 -5.45863267601630949150e-03 -4.75130098878810344654e-02 -5.45863267601630949150e-03 -4.75130098878810344654e-02 9.97466327152420895175e-01 -2.20535856146922143450e-02
9.99038497534452557564e+08 9.88186159349724868584e-01 -1.02593482510573097422e-01 -5.48349908443978521083e-03 -4.76196762822524016778e-02 -5.48349908443978521083e-03 -4.76196762822524016778e-02 9.97454785188053860701e-01 -2.21030957691958004907e-02
9.99040712977921605110e+08 9.88132221141893252181e-01 -1.02824307590015609493e-01 -5.50853498275740132567e-03 -4.77268157933782161129e-02 -5.50853498275740132567e-03 -4.77268157933782161129e-02 9.97443164553446837139e-01 -2.21528255250438323165e-02
9.99042928421390652657e+08 9.88077914468415641203e-01 -1.03056158663918817631e-01 -5.53374190767785909678e-03 -4.78344315289472438169e-02 -5.53374190767785909678e-03 -4.78344315289472438169e-02 9.97431464535322720444e-01 -2.22027763246976546363e-02
9.99045143864859580994e+08 9.88023235981120850902e-01 -1.03289042485396401205e-01 -5.55912141328448843047e-03 -4.79425266234771857432e-02 -5.55912141328448843047e-03 -4.79425266234771857432e-02 9.97419684412340079582e-01 -2.22529496230715051475e-02
9.99047359308328628540e+08 9.87968182293896046708e-01 -1.03522965865988386680e-01 -5.58467507127168114739e-03 -4.80511042386048622954e-02 -5.58467507127168114739e-03 -4.80511042386048622954e-02 9.97407823454983022415e-01 -2.23033468876671948922e-02
9.99049574751797676086e+08 9.87912749982184257291e-01 -1.03757935676229026689e-01 -5.61040447117793893844e-03 -4.81601675633497594564e-02 -5.61040447117793893844e-03 -4.81601675633497594564e-02 9.97395880925452948951e-01 -2.23539695986964583041e-02
9.99051790195266604424e+08 9.87856935582446915589e-01 -1.03993958846339940028e-01 -5.63631122063550961399e-03 -4.82697198144358338712e-02 -5.63631122063550961399e-03 -4.82697198144358338712e-02 9.97383856077553199171e-01 -2.24048192492302851442e-02
9.99054005638735651970e+08 9.87800735591637946165e-01 -1.04231042366843315583e-01 -5.66239694561429009190e-03 -4.83797642365760421912e-02 -5.66239694561429009190e-03 -4.83797642365760421912e-02 9.97371748156575366195e-01 -2.24558973453310196933e-02
9.99056221082204580307e+08 9.87744146466676298246e-01 -1.04469193289158532312e-01 -5.68866329066689945665e-03 -4.84903041027493278414e-02 -5.68866329066689945665e-03 -4.84903041027493278414e-02 9.97359556399185720466e-01 -2.25072054061809176395e-02
9.99058436525673627853e+08 9.87687164623877733582e-01 -1.04708418726337848526e-01 -5.71511191919213054624e-03 -4.86013427145420978670e-02 -5.71511191919213054624e-03 -4.86013427145420978670e-02 9.97347280033303085212e-01 -2.25587449642406338846e-02
9.99060651969142675400e+08 9.87629786438408596716e-01 -1.04948725853685795317e-01 -5.74174451368878336482e-03 -4.87128834024356735521e-02 -5.74174451368878336482e-03 -4.87128834024356735521e-02 9.97334918277980486678e-01 -2.26105175653826678817e-02
9.99062867412611603737e+08 9.87572008243730037336e-01 -1.05190121909385675414e-01 -5.76856277601341289885e-03 -4.88249295260971480359e-02 -5.76856277601341289885e-03 -4.88249295260971480359e-02 9.97322470343286138217e-01 -2.26625247690263355305e-02
9.99065082856080651283e+08 9.87513826330999267000e-01 -1.05432614195279689140e-01 -5.79556842765838100412e-03 -4.89374844747414369794e-02 -5.79556842765838100412e-03 -4.89374844747414369794e-02 9.97309935430174210325e-01 -2.27147681483058534735e-02
