! File generated for n1 = 5, n2 = 2
! b1 = 4.641589
! b2 = 2.154435
! Q0 = 10000.000000
! f0 = 1000000000.000000
! n = 1001
! rel_span = 10.000000
# Hz S RI R 50
9.96101988238177657127e+08 9.88255863878131801670e-01 -1.17671150845027550069e-01 -8.00118679776590062402e-03 -8.01684218276402793535e-02 -8.00118679776590062402e-03 -8.01684218276402793535e-02 9.94548854891630806918e-01 -5.46181099800644720421e-02
9.96109784261701345444e+08 9.88209121038863158581e-01 -1.17902752551821976557e-01 -8.03303232344486882466e-03 -8.03262102336596145458e-02 -8.03303232344486882466e-03 -8.03262102336596145458e-02 9.94527158787550713548e-01 -5.47256099696747447259e-02
9.96117580285224914551e+08 9.88162099889716927237e-01 -1.18135256457185575107e-01 -8.06506745943620477479e-03 -8.04846133004088332141e-02 -8.06506745943620477479e-03 -8.04846133004088332141e-02 9.94505333503468702538e-01 -5.48335287227654441522e-02
9.96125376308748602867e+08 9.88114798225146584443e-01 -1.18368667785214848331e-01 -8.09729370836125700306e-03 -8.06436345870234633226e-02 -8.09729370836125700306e-03 -8.06436345870234633226e-02 9.94483378015660557381e-01 -5.49418686641473807963e-02
9.96133172332272291183e+08 9.88067213817796718978e-01 -1.18602991799919968430e-01 -8.12971258769953561418e-03 -8.08032776798318919109e-02 -8.12971258769953561418e-03 -8.08032776798318919109e-02 9.94461291290279603139e-01 -5.50506322371576498065e-02
9.96140968355795860291e+08 9.88019344418240574868e-01 -1.18838233805623263994e-01 -8.16232562996771320030e-03 -8.09635461926268285016e-02 -8.16232562996771320030e-03 -8.09635461926268285016e-02 9.94439072283234470895e-01 -5.51598219038445594653e-02
9.96148764379319548607e+08 9.87971187754717372620e-01 -1.19074399147342413485e-01 -8.19513438289836554373e-03 -8.11244437669264434332e-02 -8.19513438289836554373e-03 -8.11244437669264434332e-02 9.94416719940067084238e-01 -5.52694401451455513685e-02
9.96156560402843117714e+08 9.87922741532869186365e-01 -1.19311493211164618145e-01 -8.22814040961934896334e-03 -8.12859740722292334336e-02 -8.22814040961934896334e-03 -8.12859740722292334336e-02 9.94394233195830978822e-01 -5.53794894610608531837e-02
9.96164356426366806030e+08 9.87874003435468939216e-01 -1.19549521424649890511e-01 -8.26134528883909306785e-03 -8.14481408062887879407e-02 -8.26134528883909306785e-03 -8.14481408062887879407e-02 9.94371610974964625917e-01 -5.54899723708406553135e-02
9.96172152449890494347e+08 9.87824971122149064762e-01 -1.19788489257217356521e-01 -8.29475061503150493114e-03 -8.16109476953769813479e-02 -8.29475061503150493114e-03 -8.16109476953769813479e-02 9.94348852191165422099e-01 -5.56008914131644396694e-02
9.96179948473414063454e+08 9.87775642229126282778e-01 -1.20028402220535498901e-01 -8.32835799862335392219e-03 -8.17743984945498297856e-02 -8.32835799862335392219e-03 -8.17743984945498297856e-02 9.94325955747262457685e-01 -5.57122491463220848029e-02
9.96187744496937751770e+08 9.87726014368915383734e-01 -1.20269265868952812681e-01 -8.36216906618933268625e-03 -8.19384969879408953108e-02 -8.36216906618933268625e-03 -8.19384969879408953108e-02 9.94302920535083400999e-01 -5.58240481484137823776e-02
9.96195540520461440086e+08 9.87676085130050007699e-01 -1.20511085799880235392e-01 -8.39618546064238753524e-03 -8.21032469890218968844e-02 -8.39618546064238753524e-03 -8.21032469890218968844e-02 9.94279745435324602276e-01 -5.59362910175275548919e-02
9.96203336543985009193e+08 9.87625852076794652490e-01 -1.20753867654200222614e-01 -8.43040884142982373251e-03 -8.22686523408812930835e-02 -8.43040884142982373251e-03 -8.22686523408812930835e-02 9.94256429317417755875e-01 -5.60489803719291038164e-02
9.96211132567508697510e+08 9.87575312748843470168e-01 -1.20997617116725242337e-01 -8.46484088473850766754e-03 -8.24347169165367266164e-02 -8.46484088473850766754e-03 -8.24347169165367266164e-02 9.94232971039390123202e-01 -5.61621188502746254700e-02
9.96218928591032385826e+08 9.87524464661034828694e-01 -1.21242339916564800806e-01 -8.49948328368928252008e-03 -8.26014446191850743029e-02 -8.49948328368928252008e-03 -8.26014446191850743029e-02 9.94209369447731750036e-01 -5.62757091117812094372e-02
9.96226724614555954933e+08 9.87473305303043891179e-01 -1.21488041827584908328e-01 -8.53433774854658530606e-03 -8.27688393825154605787e-02 -8.53433774854658530606e-03 -8.27688393825154605787e-02 9.94185623377253246957e-01 -5.63897538364400291444e-02
9.96234520638079643250e+08 9.87421832139077637613e-01 -1.21734728668837985377e-01 -8.56940600692613144163e-03 -8.29369051710021343293e-02 -8.56940600692613144163e-03 -8.29369051710021343293e-02 9.94161731650943569782e-01 -5.65042557252159738379e-02
9.96242316661603212357e+08 9.87370042607568554338e-01 -1.21982406304983859169e-01 -8.60468980400352738414e-03 -8.31056459801913505192e-02 -8.60468980400352738414e-03 -8.31056459801913505192e-02 9.94137693079828466125e-01 -5.66192175002430062025e-02
9.96250112685126900673e+08 9.87317934120854223679e-01 -1.22231080646762899078e-01 -8.64019090273258905111e-03 -8.32750658370236263028e-02 -8.64019090273258905111e-03 -8.32750658370236263028e-02 9.94113506462821594489e-01 -5.67346419050437714149e-02
9.96257908708650588989e+08 9.87265504064869237055e-01 -1.22480757651395238961e-01 -8.67591108405545673177e-03 -8.34451688001057734212e-02 -8.67591108405545673177e-03 -8.34451688001057734212e-02 9.94089170586580972433e-01 -5.68505317047149003051e-02
9.96265704732174158096e+08 9.87212749798813349322e-01 -1.22731443323072772489e-01 -8.71185214712826873351e-03 -8.36159589600461439218e-02 -8.71185214712826873351e-03 -8.36159589600461439218e-02 9.94064684225355987834e-01 -5.69668896861554169275e-02
9.96273500755697846413e+08 9.87159668654826516487e-01 -1.22983143713407669373e-01 -8.74801590954302904501e-03 -8.37874404397601080241e-02 -8.74801590954302904501e-03 -8.37874404397601080241e-02 9.94040046140835520383e-01 -5.70837186582748637442e-02
9.96281296779221534729e+08 9.87106257937660713786e-01 -1.23235864921873064515e-01 -8.78440420755077604198e-03 -8.39596173947703278140e-02 -8.78440420755077604198e-03 -8.39596173947703278140e-02 9.94015255081996285114e-01 -5.72010214521978740954e-02
9.96289092802745103836e+08 9.87052514924337098812e-01 -1.23489613096300965278e-01 -8.82101889629542668114e-03 -8.41324940135459858892e-02 -8.82101889629542668114e-03 -8.41324940135459858892e-02 9.93990309784943515403e-01 -5.73188009214952859383e-02
9.96296888826268792152e+08 9.86998436863808392694e-01 -1.23744394433335375139e-01 -8.85786185004370889284e-03 -8.43060745178115245047e-02 -8.85786185004370889284e-03 -8.43060745178115245047e-02 9.93965208972754088457e-01 -5.74370599423944805384e-02
9.96304684849792361259e+08 9.86944020976612490514e-01 -1.24000215178908981817e-01 -8.89493496242100938065e-03 -8.44803631628713164181e-02 -8.89493496242100938065e-03 -8.44803631628713164181e-02 9.93939951355316209103e-01 -5.75558014140005735904e-02
9.96312480873316049576e+08 9.86889264454515968694e-01 -1.24257081628752569236e-01 -8.93224014665456624018e-03 -8.46553642379568177523e-02 -8.93224014665456624018e-03 -8.46553642379568177523e-02 9.93914535629163098385e-01 -5.76750282585329412943e-02
9.96320276896839737892e+08 9.86834164460163698607e-01 -1.24515000128853386974e-01 -8.96977933581193098700e-03 -8.48310820665388320982e-02 -8.96977933581193098700e-03 -8.48310820665388320982e-02 9.93888960477311345088e-01 -5.77947434215379529654e-02
9.96328072920363306999e+08 9.86778718126716691827e-01 -1.24773977075952530180e-01 -9.00755448304768786827e-03 -8.50075210066663228270e-02 -9.00755448304768786827e-03 -8.50075210066663228270e-02 9.93863224569092151839e-01 -5.79149498721198072171e-02
9.96335868943886995316e+08 9.86722922557476511685e-01 -1.25034018918087797001e-01 -9.04556756185961353955e-03 -8.51846854513362977679e-02 -9.04556756185961353955e-03 -8.51846854513362977679e-02 9.93837326559977141116e-01 -5.80356506031925178934e-02
9.96343664967410683632e+08 9.86666774825525783044e-01 -1.25295132155038346777e-01 -9.08382056633324184991e-03 -8.53625798287967613165e-02 -9.08382056633324184991e-03 -8.53625798287967613165e-02 9.93811265091411599748e-01 -5.81568486316863322849e-02
9.96351460990934252739e+08 9.86610271973341057539e-01 -1.25557323338883253250e-01 -9.12231551140588008131e-03 -8.55412086029272156207e-02 -9.12231551140588008131e-03 -8.55412086029272156207e-02 9.93785038790634733807e-01 -5.82785469988069612657e-02
9.96359257014457941055e+08 9.86553411012412007075e-01 -1.25820599074507738502e-01 -9.16105443312584602489e-03 -8.57205762735835791188e-02 -9.16105443312584602489e-03 -8.57205762735835791188e-02 9.93758646270503032127e-01 -5.84007487702705441190e-02
9.96367053037981629372e+08 9.86496188922853733949e-01 -1.26084966020124006336e-01 -9.20003938891677912337e-03 -8.59006873769530276963e-02 -9.20003938891677912337e-03 -8.59006873769530276963e-02 9.93732086129310188127e-01 -5.85234570365454273566e-02
9.96374849061505198479e+08 9.86438602653014307009e-01 -1.26350430887793019341e-01 -9.23927245784501513515e-03 -8.60815464859094464645e-02 -9.23927245784501513515e-03 -8.60815464859094464645e-02 9.93705356950604579147e-01 -5.86466749130943182378e-02
9.96382645085028886795e+08 9.86380649119067309805e-01 -1.26617000443993654724e-01 -9.27875574089697015279e-03 -8.62631582104012445411e-02 -9.27875574089697015279e-03 -8.62631582104012445411e-02 9.93678457303000861600e-01 -5.87704055406385178495e-02
9.96390441108552455902e+08 9.86322325204615490968e-01 -1.26884681510122998560e-01 -9.31849136124943827619e-03 -8.64455271977921241300e-02 -9.31849136124943827619e-03 -8.64455271977921241300e-02 9.93651385739995673951e-01 -5.88946520853900687409e-02
9.96398237132076144218e+08 9.86263627760269656619e-01 -1.27153480963085901978e-01 -9.35848146455619742112e-03 -8.66286581332628841112e-02 -9.35848146455619742112e-03 -8.66286581332628841112e-02 9.93624140799771904398e-01 -5.90194177393254595931e-02
9.96406033155599832535e+08 9.86204553603234224113e-01 -1.27423405735836853259e-01 -9.39872821923071546935e-03 -8.68125557401803749080e-02 -9.39872821923071546935e-03 -8.68125557401803749080e-02 9.93596721005006844329e-01 -5.91447057204370768568e-02
9.96413829179123401642e+08 9.86145099516888556934e-01 -1.27694462817915577180e-01 -9.43923381673116533574e-03 -8.69972247804625953282e-02 -9.43923381673116533574e-03 -8.69972247804625953282e-02 9.93569124862677344190e-01 -5.92705192729819085873e-02
9.96421625202647089958e+08 9.86085262250343430601e-01 -1.27966659256074866136e-01 -9.48000047186242124353e-03 -8.71826700550063504735e-02 -9.48000047186242124353e-03 -8.71826700550063504735e-02 9.93541350863854422215e-01 -5.93968616677728322717e-02
9.96429421226170778275e+08 9.86025038518016705424e-01 -1.28240002154803023338e-01 -9.52103042306571244191e-03 -8.73688964040431614855e-02 -9.52103042306571244191e-03 -8.73688964040431614855e-02 9.93513397483505755758e-01 -5.95237362024212401934e-02
9.96437217249694347382e+08 9.85964424999183464138e-01 -1.28514498676932487076e-01 -9.56232593272450179245e-03 -8.75559087075539477230e-02 -9.56232593272450179245e-03 -8.75559087075539477230e-02 9.93485263180287514473e-01 -5.96511462016194038416e-02
9.96445013273218035698e+08 9.85903418337526926685e-01 -1.28790156044228137899e-01 -9.60388928747083099602e-03 -8.77437118856698866631e-02 -9.60388928747083099602e-03 -8.77437118856698866631e-02 9.93456946396335416338e-01 -5.97790950174136651030e-02
9.96452809296741724014e+08 9.85842015140680483221e-01 -1.29066981537988650919e-01 -9.64572279849709550426e-03 -8.79323108990819751751e-02 -9.64572279849709550426e-03 -8.79323108990819751751e-02 9.93428445557052341996e-01 -5.99075860294834838804e-02
9.96460605320265293121e+08 9.85780211979769172004e-01 -1.29344982499629584938e-01 -9.68782880186865903716e-03 -8.81217107494384199740e-02 -9.68782880186865903716e-03 -8.81217107494384199740e-02 9.93399759070895616020e-01 -6.00366226454120896494e-02
9.96468401343788981438e+08 9.85718005388930729183e-01 -1.29624166331332391078e-01 -9.73020965885006486329e-03 -8.83119164797867700623e-02 -9.73020965885006486329e-03 -8.83119164797867700623e-02 9.93370885329154296173e-01 -6.01662083009877959872e-02
9.96476197367312550545e+08 9.85655391864847740813e-01 -1.29904540496618342571e-01 -9.77286775622354664250e-03 -8.85029331749648262573e-02 -9.77286775622354664250e-03 -8.85029331749648262573e-02 9.93341822705732679921e-01 -6.02963464604702667482e-02
9.96483993390836238861e+08 9.85592367866253815656e-01 -1.30186112521018387822e-01 -9.81580550662589264299e-03 -8.86947659620571787764e-02 -9.81580550662589264299e-03 -8.86947659620571787764e-02 9.93312569556920266223e-01 -6.04270406169015728004e-02
9.96491789414359927177e+08 9.85528929813447640562e-01 -1.30468889992677805623e-01 -9.85902534887920373174e-03 -8.88874200108070028348e-02 -9.85902534887920373174e-03 -8.88874200108070028348e-02 9.93283124221167157408e-01 -6.05582942923867315055e-02
9.96499585437883496284e+08 9.85465074087791492730e-01 -1.30752880563007600756e-01 -9.90252974833268767574e-03 -8.90809005340599396883e-02 -9.90252974833268767574e-03 -8.90809005340599396883e-02 9.93253485018850357235e-01 -6.06901110383961453487e-02
9.96507381461407184601e+08 9.85400797031202646536e-01 -1.31038091947340423760e-01 -9.94632119720905566451e-03 -8.92752127882109197676e-02 -9.94632119720905566451e-03 -8.92752127882109197676e-02 9.93223650252038403607e-01 -6.08224944360699834589e-02
9.96515177484930872917e+08 9.85336094945641560727e-01 -1.31324531925575443969e-01 -9.99040221495335438451e-03 -8.94703620736435889516e-02 -9.99040221495335438451e-03 -8.94703620736435889516e-02 9.93193618204253225734e-01 -6.09554480965175810026e-02
9.96522973508454442024e+08 9.85270964092589629502e-01 -1.31612208342841846553e-01 -1.00347753485886450470e-02 -8.96663537351821970933e-02 -1.00347753485886450470e-02 -8.96663537351821970933e-02 9.93163387140228226535e-01 -6.10889756611253317842e-02
9.96530769531978130341e+08 9.85205400692509836169e-01 -1.31901129110210985074e-01 -1.00794431730834369021e-02 -8.98631931625769320160e-02 -1.00794431730834369021e-02 -8.98631931625769320160e-02 9.93132955305657816325e-01 -6.12230808018872710297e-02
9.96538565555501699448e+08 9.85139400924324837305e-01 -1.32191302205306338013e-01 -1.01244082917075865768e-02 -9.00608857909193927238e-02 -1.01244082917075865768e-02 -9.00608857909193927238e-02 9.93102320926954940106e-01 -6.13577672216882169520e-02
9.96546361579025387764e+08 9.85072960924851526165e-01 -1.32482735673071561067e-01 -1.01696733364169226987e-02 -9.02594371011659069026e-02 -1.01696733364169226987e-02 -9.02594371011659069026e-02 9.93071482210988953909e-01 -6.14930386546602356090e-02
9.96554157602549076080e+08 9.85006076788261353272e-01 -1.32775437626404785307e-01 -1.02152409682215884051e-02 -9.04588526205696019655e-02 -1.02152409682215884051e-02 -9.04588526205696019655e-02 9.93040437344834714395e-01 -6.16288988664770442938e-02
9.96561953626072645187e+08 9.84938744565507007245e-01 -1.33069416246904798085e-01 -1.02611138775762309600e-02 -9.06591379231888594425e-02 -1.02611138775762309600e-02 -9.06591379231888594425e-02 9.93009184495506680435e-01 -6.17653516547004149961e-02
9.96569749649596333504e+08 9.84870960263753203456e-01 -1.33364679785572037840e-01 -1.03072947847677141853e-02 -9.08602986303648357813e-02 -1.03072947847677141853e-02 -9.08602986303648357813e-02 9.92977721809695235144e-01 -6.19024008491055044434e-02
9.96577545673120021820e+08 9.84802719845794150011e-01 -1.33661236563541396816e-01 -1.03537864403124256485e-02 -9.10623404112207296413e-02 -1.03537864403124256485e-02 -9.10623404112207296413e-02 9.92946047413495236356e-01 -6.20400503120209709240e-02
9.96585341696643590927e+08 9.84734019229468016121e-01 -1.33959094972792097655e-01 -1.04005916253547634615e-02 -9.12652689831454505542e-02 -1.04005916253547634615e-02 -9.12652689831454505542e-02 9.92914159412135122196e-01 -6.21783039386585439923e-02
9.96593137720167279243e+08 9.84664854287049973181e-01 -1.34258263476925820967e-01 -1.04477131520810655879e-02 -9.14690901123236949077e-02 -1.04477131520810655879e-02 -9.14690901123236949077e-02 9.92882055889694581374e-01 -6.23171656574741175683e-02
9.96600933743690967560e+08 9.84595220844650564906e-01 -1.34558750611884270221e-01 -1.04951538641289768283e-02 -9.16738096142248326537e-02 -1.04951538641289768283e-02 -9.16738096142248326537e-02 9.92849734908825887203e-01 -6.24566394305008654175e-02
9.96608729767214536667e+08 9.84525114681594426536e-01 -1.34860564986726549908e-01 -1.05429166370111966622e-02 -9.18794333541325808357e-02 -1.05429166370111966622e-02 -9.18794333541325808357e-02 9.92817194510465017565e-01 -6.25967292537100428174e-02
9.96616525790738224983e+08 9.84454531529787235655e-01 -1.35163715284421004359e-01 -1.05910043785465875221e-02 -9.20859672476843638123e-02 -1.05910043785465875221e-02 -9.20859672476843638123e-02 9.92784432713538111948e-01 -6.27374391573785328280e-02
9.96624321814261794090e+08 9.84383467073093876287e-01 -1.35468210262555815993e-01 -1.06394200292836277333e-02 -9.22934172613555925402e-02 -1.06394200292836277333e-02 -9.22934172613555925402e-02 9.92751447514672591410e-01 -6.28787732064187004921e-02
9.96632117837785482407e+08 9.84311916946669196449e-01 -1.35774058754225296353e-01 -1.06881665629569092002e-02 -9.25017894130633483440e-02 -1.06881665629569092002e-02 -9.25017894130633483440e-02 9.92718236887886962272e-01 -6.30207355007897512822e-02
9.96639913861309170723e+08 9.84239876736321850359e-01 -1.36081269668731685840e-01 -1.07372469869197687681e-02 -9.27110897726445976064e-02 -1.07372469869197687681e-02 -9.27110897726445976064e-02 9.92684798784295052698e-01 -6.31633301758234289025e-02
9.96647709884832739830e+08 9.84167341977830845146e-01 -1.36389851992465616082e-01 -1.07866643426107449572e-02 -9.29213244624560036344e-02 -1.07866643426107449572e-02 -9.29213244624560036344e-02 9.92651131131789044026e-01 -6.33065614026327994068e-02
9.96655505908356428146e+08 9.84094308156273633870e-01 -1.36699814789692786210e-01 -1.08364217060106758639e-02 -9.31324996579098868255e-02 -1.08364217060106758639e-02 -9.31324996579098868255e-02 9.92617231834727387074e-01 -6.34504333884772925289e-02
9.96663301931880116463e+08 9.84020770705335445783e-01 -1.37011167203391792668e-01 -1.08865221881136366860e-02 -9.33446215880450874680e-02 -1.08865221881136366860e-02 -9.33446215880450874680e-02 9.92583098773614613819e-01 -6.35949503771516683193e-02
9.96671097955403685570e+08 9.83946725006611400133e-01 -1.37323918456083049477e-01 -1.09369689354021689537e-02 -9.35576965360915696612e-02 -1.09369689354021689537e-02 -9.35576965360915696612e-02 9.92548729804777263297e-01 -6.37401166493706816674e-02
9.96678893978927373886e+08 9.83872166388889857203e-01 -1.37638077850703255400e-01 -1.09877651303357404960e-02 -9.37717308400663751566e-02 -1.09877651303357404960e-02 -9.37717308400663751566e-02 9.92514122760030592652e-01 -6.38859365231750631065e-02
9.96686690002451062202e+08 9.83797090127437212637e-01 -1.37953654771435174631e-01 -1.10389139918379702854e-02 -9.39867308933387546332e-02 -1.10389139918379702854e-02 -9.39867308933387546332e-02 9.92479275446347841694e-01 -6.40324143543165719139e-02
9.96694486025974631310e+08 9.83721491443258821974e-01 -1.38270658684599451194e-01 -1.10904187757999445757e-02 -9.42027031452379176590e-02 -1.10904187757999445757e-02 -9.42027031452379176590e-02 9.92444185645515952743e-01 -6.41795545366720537883e-02
9.96702282049498319626e+08 9.83645365502353041798e-01 -1.38589099139539567718e-01 -1.11422827755886383327e-02 -9.44196541016558144044e-02 -1.11422827755886383327e-02 -9.44196541016558144044e-02 9.92408851113790291265e-01 -6.43273615026541123463e-02
9.96710078073021888733e+08 9.83568707414956056034e-01 -1.38908985769504556007e-01 -1.11945093225612989085e-02 -9.46375903256486544768e-02 -1.11945093225612989085e-02 -9.46375903256486544768e-02 9.92373269581543593354e-01 -6.44758397236208785630e-02
