! File generated for n1 = 1, n2 = 9
! b1 = 100.000000
! b2 = 0.215443
! Q0 = 10000.000000
! f0 = 1000000000.000000
! n = 1001
! rel_span = 10.000000
# Hz S RI R 50
9.49392278265498399734e+08 9.81429005730357517656e-01 -1.90659612774045500450e-01 -8.61989196310591876925e-04 -8.84963529672945677096e-03 -8.61989196310591876925e-04 -8.84963529672945677096e-03 9.99959990005717114236e-01 -4.10763683748449431009e-04
9.49493493708967447281e+08 9.81353181290684162263e-01 -1.91044742744691381509e-01 -8.65508655035624016767e-04 -8.86751144644185203270e-03 -8.65508655035624016767e-04 -8.86751144644185203270e-03 9.99959826646913962911e-01 -4.11593421117379873724e-04
9.49594709152436375618e+08 9.81276901585886429658e-01 -1.91431372996580306811e-01 -8.69049245295827805548e-04 -8.88545723304089846151e-03 -8.69049245295827805548e-04 -8.88545723304089846151e-03 9.99959662307271734960e-01 -4.12426390744265202772e-04
9.49695924595905423164e+08 9.81200162992330149336e-01 -1.91819512223569327292e-01 -8.72611135285405840889e-04 -8.90347306005969188480e-03 -8.72611135285405840889e-04 -8.90347306005969188480e-03 9.99959496978983786164e-01 -4.13262611359452498340e-04
9.49797140039374470711e+08 9.81122961850444785803e-01 -1.92209169186022044151e-01 -8.76194494866579416670e-04 -8.92155933411829110691e-03 -8.76194494866579416670e-04 -8.92155933411829110691e-03 9.99959330654165534646e-01 -4.14102101836573096606e-04
9.49898355482843399048e+08 9.81045294464296890879e-01 -1.92600352711436328956e-01 -8.79799495589378682120e-04 -8.93971646495285258982e-03 -8.79799495589378682120e-04 -8.93971646495285258982e-03 9.99959163324854571897e-01 -4.14944881193894589844e-04
9.49999570926312446594e+08 9.80967157101157560817e-01 -1.92993071695081785943e-01 -8.83426310711735076481e-04 -8.95794486544521789684e-03 -8.83426310711735076481e-04 -8.95794486544521789684e-03 9.99958994983008775392e-01 -4.15790968595694402157e-04
9.50100786369781374931e+08 9.80888545991064009222e-01 -1.93387335100640656016e-01 -8.87075115219812504984e-04 -8.97624495165265899599e-03 -8.87075115219812504984e-04 -8.97624495165265899599e-03 9.99958825620506197573e-01 -4.16640383353640520944e-04
9.50202001813250422478e+08 9.80809457326375033759e-01 -1.93783151960860960950e-01 -8.90746085848672774360e-04 -8.99461714283820296112e-03 -8.90746085848672774360e-04 -8.99461714283820296112e-03 9.99958655229143400511e-01 -4.17493144928198682900e-04
9.50303217256719470024e+08 9.80729887261320043557e-01 -1.94180531378210396998e-01 -8.94439401103162747692e-04 -9.01306186150096881604e-03 -8.94439401103162747692e-04 -9.01306186150096881604e-03 9.99958483800635011818e-01 -4.18349272930040915267e-04
9.50404432700188398361e+08 9.80649831911542424479e-01 -1.94579482525543745464e-01 -8.98155241279152130249e-04 -9.03157953340716357360e-03 -8.98155241279152130249e-04 -9.03157953340716357360e-03 9.99958311326612281356e-01 -4.19208787121483946857e-04
9.50505648143657445908e+08 9.80569287353635132831e-01 -1.94980014646777194409e-01 -9.01893788485059869943e-04 -9.05017058762136797356e-03 -9.01893788485059869943e-04 -9.05017058762136797356e-03 9.99958137798622637149e-01 -4.20071707417941334235e-04
9.50606863587126493454e+08 9.80488249624672181248e-01 -1.95382137057562965676e-01 -9.05655226663615829652e-04 -9.06883545653785518026e-03 -9.05655226663615829652e-04 -9.06883545653785518026e-03 9.99957963208128131072e-01 -4.20938053889377485246e-04
9.50708079030595421791e+08 9.80406714721731353812e-01 -1.95785859145981511187e-01 -9.09439741614016024934e-04 -9.08757457591271959607e-03 -9.09439741614016024934e-04 -9.08757457591271959607e-03 9.99957787546504772713e-01 -4.21807846761798491218e-04
9.50809294474064469337e+08 9.80324678601410592904e-01 -1.96191190373236984401e-01 -9.13247521014350321748e-04 -9.10638838489615486116e-03 -9.13247521014350321748e-04 -9.10638838489615486116e-03 9.99957610805041308133e-01 -4.22681106418750873830e-04
9.50910509917533397675e+08 9.80242137179339390052e-01 -1.96598140274357513491e-01 -9.17078754444313219360e-04 -9.12527732606496257139e-03 -9.17078754444313219360e-04 -9.12527732606496257139e-03 9.99957432974938331682e-01 -4.23557853402829981391e-04
9.51011725361002445221e+08 9.80159086329680295790e-01 -1.97006718458911322944e-01 -9.20933633408309824941e-04 -9.14424184545578958017e-03 -9.20933633408309824941e-04 -9.14424184545578958017e-03 9.99957254047306731692e-01 -4.24438108417222971155e-04
9.51112940804471492767e+08 9.80075521884626321700e-01 -1.97416934611722133530e-01 -9.24812351358804689457e-04 -9.16328239259833234043e-03 -9.24812351358804689457e-04 -9.16328239259833234043e-03 9.99957074013167468429e-01 -4.25321892327249948505e-04
9.51214156247940421104e+08 9.79991439633889460659e-01 -1.97828798493598773112e-01 -9.28715103720057378461e-04 -9.18239942054920217640e-03 -9.28715103720057378461e-04 -9.18239942054920217640e-03 9.99956892863449686715e-01 -4.26209226161936222729e-04
9.51315371691409468651e+08 9.79906835324182101665e-01 -1.98242319942073030870e-01 -9.32642087912192952956e-04 -9.20159338592617739860e-03 -9.32642087912192952956e-04 -9.20159338592617739860e-03 9.99956710588989938771e-01 -4.27100131115601367934e-04
9.51416587134878516197e+08 9.79821704658691672307e-01 -1.98657508872141452816e-01 -9.36593503375572123716e-04 -9.22086474894263062596e-03 -9.36593503375572123716e-04 -9.22086474894263062596e-03 9.99956527180530962973e-01 -4.27994628549458041786e-04
9.51517802578347444534e+08 9.79736043296548397841e-01 -1.99074375277018739139e-01 -9.40569551595537190099e-04 -9.24021397344249734163e-03 -9.40569551595537190099e-04 -9.24021397344249734163e-03 9.99956342628720795673e-01 -4.28892739993234548262e-04
9.51619018021816492081e+08 9.79649846852282735199e-01 -1.99492929228903354000e-01 -9.44570436127545255862e-04 -9.25964152693581864229e-03 -9.44570436127545255862e-04 -9.25964152693581864229e-03 9.99956156924111105866e-01 -4.29794487146824722313e-04
9.51720233465285420418e+08 9.79563110895278810197e-01 -1.99913180879742330420e-01 -9.48596362622566857681e-04 -9.27914788063423368047e-03 -9.48596362622566857681e-04 -9.27914788063423368047e-03 9.99955970057156418029e-01 -4.30699891881935320852e-04
9.51821448908754467964e+08 9.79475830949216863530e-01 -2.00335140462016142449e-01 -9.52647538852958281584e-04 -9.29873350948741579647e-03 -9.52647538852958281584e-04 -9.29873350948741579647e-03 9.99955782018212890883e-01 -4.31608976243777432355e-04
9.51922664352223515511e+08 9.79388002491510034631e-01 -2.00758818289523521816e-01 -9.56724174738613928823e-04 -9.31839889221948956821e-03 -9.56724174738613928823e-04 -9.31839889221948956821e-03 9.99955592797536874095e-01 -4.32521762452756639624e-04
9.52023879795692443848e+08 9.79299620952731264545e-01 -2.01184224758180152381e-01 -9.60826482373544122663e-04 -9.33814451136612266868e-03 -9.60826482373544122663e-04 -9.33814451136612266868e-03 9.99955402385283798061e-01 -4.33438272906194461791e-04
9.52125095239161491394e+08 9.79210681716032760313e-01 -2.01611370346827523115e-01 -9.64954676052840734299e-04 -9.35797085331204793468e-03 -9.64954676052840734299e-04 -9.35797085331204793468e-03 9.99955210771506952661e-01 -4.34358530180070450365e-04
9.52226310682630538940e+08 9.79121180116557576767e-01 -2.02040265618046110951e-01 -9.69108972299986826116e-04 -9.37787840832882309272e-03 -9.69108972299986826116e-04 -9.37787840832882309272e-03 9.99955017946156154984e-01 -4.35282557030774368365e-04
9.52327526126099467278e+08 9.79031111440841650406e-01 -2.02470921218982746748e-01 -9.73289589894602794745e-04 -9.39786767061322712846e-03 -9.73289589894602794745e-04 -9.39786767061322712846e-03 9.99954823899076750138e-01 -4.36210376396888781323e-04
9.52428741569568514824e+08 9.78940470926207728652e-01 -2.02903347882185641771e-01 -9.77496749900578056416e-04 -9.41793913832601747860e-03 -9.77496749900578056416e-04 -9.41793913832601747860e-03 9.99954628620007723860e-01 -4.37142011400987857105e-04
9.52529957013037443161e+08 9.78849253760150639359e-01 -2.03337556426450655200e-01 -9.81730675694622752225e-04 -9.43809331363121457870e-03 -9.81730675694622752225e-04 -9.43809331363121457870e-03 9.99954432098580814348e-01 -4.38077485351460668705e-04
9.52631172456506490707e+08 9.78757455079713123425e-01 -2.03773557757674861346e-01 -9.85991592995213344056e-04 -9.45833070273571947795e-03 -9.85991592995213344056e-04 -9.45833070273571947795e-03 9.99954234324319179983e-01 -4.39016821744350109556e-04
9.52732387899975538254e+08 9.78665069970853562786e-01 -2.04211362869720580715e-01 -9.90279729891961049346e-04 -9.47865181592942064592e-03 -9.90279729891961049346e-04 -9.47865181592942064592e-03 9.99954035286635845026e-01 -4.39960044265214739699e-04
9.52833603343444466591e+08 9.78572093467802606170e-01 -2.04650982845294482360e-01 -9.94595316875456457451e-04 -9.49905716762598946457e-03 -9.94595316875456457451e-04 -9.49905716762598946457e-03 9.99953834974832256322e-01 -4.40907176791022128049e-04
9.52934818786913514137e+08 9.78478520552412689426e-01 -2.05092428856829184225e-01 -9.98938586867479738976e-04 -9.51954727640381449805e-03 -9.98938586867479738976e-04 -9.51954727640381449805e-03 9.99953633378097284101e-01 -4.41858243392048699854e-04
9.53036034230382561684e+08 9.78384346153496453624e-01 -2.05535712167380313353e-01 -1.00330977525169679453e-03 -9.54012266504762444785e-03 -1.00330977525169679453e-03 -9.54012266504762444785e-03 9.99953430485505334602e-01 -4.42813268333812272860e-04
9.53137249673851490021e+08 9.78289565146155837283e-01 -2.05980844131533946673e-01 -1.00770911990480859996e-03 -9.56078386059061938185e-03 -1.00770911990480859996e-03 -9.56078386059061938185e-03 9.99953226286015239843e-01 -4.43772276079026873827e-04
9.53238465117320537567e+08 9.78194172351101065566e-01 -2.06427836196323266638e-01 -1.01213686122814268929e-03 -9.58153139435701656224e-03 -1.01213686122814268929e-03 -9.58153139435701656224e-03 9.99953020768468370250e-01 -4.44735291289577938049e-04
9.53339680560789465904e+08 9.78098162533960757692e-01 -2.06876699902154653765e-01 -1.01659324217969674990e-03 -9.60236580200502648497e-03 -1.01659324217969674990e-03 -9.60236580200502648497e-03 9.99952813921587746471e-01 -4.45702338828517349769e-04
9.53440896004258513451e+08 9.78001530404579932920e-01 -2.07327446883751181916e-01 -1.02107850830671976518e-03 -9.62328762357065638222e-03 -1.02107850830671976518e-03 -9.62328762357065638222e-03 9.99952605733976040980e-01 -4.46673443762096050204e-04
9.53542111447727560997e+08 9.77904270616309467812e-01 -2.07780088871097362579e-01 -1.02559290777867674789e-03 -9.64429740351156056244e-03 -1.02559290777867674789e-03 -9.64429740351156056244e-03 9.99952396194114245809e-01 -4.47648631361799627121e-04
9.53643326891196489334e+08 9.77806377765283896153e-01 -2.08234637690403234789e-01 -1.03013669142078289655e-03 -9.66539569075178066349e-03 -1.03013669142078289655e-03 -9.66539569075178066349e-03 9.99952185290360118231e-01 -4.48627927106425212524e-04
9.53744542334665536880e+08 9.77707846389688106647e-01 -2.08691105265080556475e-01 -1.03471011274804277312e-03 -9.68658303872706530346e-03 -1.03471011274804277312e-03 -9.68658303872706530346e-03 9.99951973010946404408e-01 -4.49611356684184780650e-04
9.53845757778134584427e+08 9.77608670969015047802e-01 -2.09149503616720050525e-01 -1.03931342799969171978e-03 -9.70786000543023136489e-03 -1.03931342799969171978e-03 -9.70786000543023136489e-03 9.99951759343979729167e-01 -4.50598945994810397547e-04
9.53946973221603512764e+08 9.77508845923310332182e-01 -2.09609844866092548399e-01 -1.04394689617427131705e-03 -9.72922715345761815464e-03 -1.04394689617427131705e-03 -9.72922715345761815464e-03 9.99951544277438375552e-01 -4.51590721151711132868e-04
9.54048188665072560310e+08 9.77408365612405627409e-01 -2.10072141234159293077e-01 -1.04861077906520465917e-03 -9.75068505005600126567e-03 -1.04861077906520465917e-03 -9.75068505005600126567e-03 9.99951327799170841537e-01 -4.52586708484149866788e-04
9.54149404108541607857e+08 9.77307224335142721294e-01 -2.10536405043085517175e-01 -1.05330534129681333347e-03 -9.77223426716962613459e-03 -1.05330534129681333347e-03 -9.77223426716962613459e-03 9.99951109896894507756e-01 -4.53586934539426764757e-04
9.54250619552010536194e+08 9.77205416328583487129e-01 -2.11002648717277196955e-01 -1.05803085036098817352e-03 -9.79387538148833274032e-03 -1.05803085036098817352e-03 -9.79387538148833274032e-03 9.99950890558193417057e-01 -4.54591426085113330287e-04
9.54351834995479583740e+08 9.77102935767208635731e-01 -2.11470884784428464487e-01 -1.06278757665439040417e-03 -9.81560897449617296429e-03 -1.06278757665439040417e-03 -9.81560897449617296429e-03 9.99950669770516942236e-01 -4.55600210111308033360e-04
9.54453050438948512077e+08 9.76999776762105476280e-01 -2.11941125876572239450e-01 -1.06757579351612528172e-03 -9.83743563252017887144e-03 -1.06757579351612528172e-03 -9.83743563252017887144e-03 9.99950447521177787635e-01 -4.56613313832901100350e-04
9.54554265882417559624e+08 9.76895933360141466295e-01 -2.12413384731158366714e-01 -1.07239577726612675401e-03 -9.85935594678039560479e-03 -1.07239577726612675401e-03 -9.85935594678039560479e-03 9.99950223797350323807e-01 -4.57630764691896170342e-04
9.54655481325886607170e+08 9.76791399543127658589e-01 -2.12887674192130643691e-01 -1.07724780724398902856e-03 -9.88137051343988652430e-03 -1.07724780724398902856e-03 -9.88137051343988652430e-03 9.99949998586068589113e-01 -4.58652590359731409352e-04
9.54756696769355535507e+08 9.76686169226967271229e-01 -2.13364007211025441535e-01 -1.08213216584846579245e-03 -9.90347993365571846458e-03 -1.08213216584846579245e-03 -9.90347993365571846458e-03 9.99949771874225068480e-01 -4.59678818739645998412e-04
9.54857912212824583054e+08 9.76580236260791823000e-01 -2.13842396848084287386e-01 -1.08704913857758352427e-03 -9.92568481363060098333e-03 -1.08704913857758352427e-03 -9.92568481363060098333e-03 9.99949543648567917842e-01 -4.60709477969077250362e-04
9.54959127656293630600e+08 9.76473594426085389486e-01 -2.14322856273371414870e-01 -1.09199901406927609056e-03 -9.94798576466476847102e-03 -1.09199901406927609056e-03 -9.94798576466476847102e-03 9.99949313895699853916e-01 -4.61744596422068622876e-04
9.55060343099762558937e+08 9.76366237435793982158e-01 -2.14805398767915045610e-01 -1.09698208414274315549e-03 -9.97038340320894299340e-03 -1.09698208414274315549e-03 -9.97038340320894299340e-03 9.99949082602075711712e-01 -4.62784202711727984253e-04
9.55161558543231606483e+08 9.76258158933421826831e-01 -2.15290037724857163948e-01 -1.10199864384038538623e-03 -9.99287835091770652862e-03 -1.10199864384038538623e-03 -9.99287835091770652862e-03 9.99948849754000890222e-01 -4.63828325692704961179e-04
9.55262773986700534821e+08 9.76149352492114097402e-01 -2.15776786650616253516e-01 -1.10704899147037608489e-03 -1.00154712347034716841e-02 -1.10704899147037608489e-03 -1.00154712347034716841e-02 9.99948615337629242994e-01 -4.64876994463696096259e-04
9.55363989430169582367e+08 9.76039811613724661576e-01 -2.16265659166070184360e-01 -1.11213342864994102141e-03 -1.00381626867913822249e-02 -1.11213342864994102141e-03 -1.00381626867913822249e-02 9.99948379338960857687e-01 -4.65930238369993156809e-04
9.55465204873638629913e+08 9.75929529727870836986e-01 -2.16756669007745428335e-01 -1.11725226034922980704e-03 -1.00609533447745206486e-02 -1.11725226034922980704e-03 -1.00609533447745206486e-02 9.99948141743840390738e-01 -4.66988087006045375638e-04
9.55566420317107558250e+08 9.75818500190972271113e-01 -2.17249830029028173639e-01 -1.12240579493592864541e-03 -1.00838438516701097564e-02 -1.12240579493592864541e-03 -1.00838438516701097564e-02 9.99947902537954402824e-01 -4.68050570218068475153e-04
9.55667635760576605797e+08 9.75706716285275277301e-01 -2.17745156201386291794e-01 -1.12759434422053336257e-03 -1.01068348559762467842e-02 -1.12759434422053336257e-03 -1.01068348559762467842e-02 9.99947661706830248640e-01 -4.69117718106677489710e-04
9.55768851204045653343e+08 9.75594171217862959899e-01 -2.18242661615607458359e-01 -1.13281822350232608439e-03 -1.01299270117293557097e-02 -1.13281822350232608439e-03 -1.01299270117293557097e-02 9.99947419235832746232e-01 -4.70189561029554282424e-04
9.55870066647514581680e+08 9.75480858119648575055e-01 -2.18742360483052067366e-01 -1.13807775161606510202e-03 -1.01531209785623542652e-02 -1.13807775161606510202e-03 -1.01531209785623542652e-02 9.99947175110163177791e-01 -4.71266129604146612273e-04
9.55971282090983629227e+08 9.75366770044354014502e-01 -2.19244267136923298711e-01 -1.14337325097942001800e-03 -1.01764174217635998410e-02 -1.14337325097942001800e-03 -1.01764174217635998410e-02 9.99946929314856070015e-01 -4.72347454710404606164e-04
9.56072497534452557564e+08 9.75251899967472413167e-01 -2.19748396033550313922e-01 -1.14870504764111812900e-03 -1.01998170123364546857e-02 -1.14870504764111812900e-03 -1.01998170123364546857e-02 9.99946681834777528763e-01 -4.73433567493545311849e-04
9.56173712977921605110e+08 9.75136240785214103433e-01 -2.20254761753689992654e-01 -1.15407347132987078350e-03 -1.02233204270597011210e-02 -1.15407347132987078350e-03 -1.02233204270597011210e-02 9.99946432654623018621e-01 -4.74524499366857257891e-04
9.56274928421390652657e+08 9.75019785313436360141e-01 -2.20763379003841964110e-01 -1.15947885550403612977e-03 -1.02469283485485829904e-02 -1.15947885550403612977e-03 -1.02469283485485829904e-02 9.99946181758914809379e-01 -4.75620282014533257101e-04
9.56376143864859580994e+08 9.74902526286556603274e-01 -2.21274262617582789803e-01 -1.16492153740209306370e-03 -1.02706414653167352885e-02 -1.16492153740209306370e-03 -1.02706414653167352885e-02 9.99945929131999644568e-01 -4.76720947394545385440e-04
9.56477359308328628540e+08 9.74784456356447170933e-01 -2.21787427556916411087e-01 -1.17040185809390274128e-03 -1.02944604718388597192e-02 -1.17040185809390274128e-03 -1.02944604718388597192e-02 9.99945674758046298969e-01 -4.77826527741553788026e-04
9.56578574751797676086e+08 9.74665568091315215327e-01 -2.22302888913637891610e-01 -1.17592016253274356079e-03 -1.03183860686140334295e-02 -1.17592016253274356079e-03 -1.03183860686140334295e-02 9.99945418621043691232e-01 -4.78937055569845463333e-04
9.56679790195266604424e+08 9.74545853974562059641e-01 -2.22820661910719142185e-01 -1.18147679960821589198e-03 -1.03424189622300186781e-02 -1.18147679960821589198e-03 -1.03424189622300186781e-02 9.99945160704797664231e-01 -4.80052563676319071773e-04
9.56781005638735651970e+08 9.74425306403625790530e-01 -2.23340761903711437775e-01 -1.18707212219998576100e-03 -1.03665598654283704766e-02 -1.18707212219998576100e-03 -1.03665598654283704766e-02 9.99944900992928986661e-01 -4.81173085143507040830e-04
9.56882221082204580307e+08 9.74303917688806642161e-01 -2.23863204382158176298e-01 -1.19270648723229680081e-03 -1.03908094971700039333e-02 -1.19270648723229680081e-03 -1.03908094971700039333e-02 9.99944639468870799526e-01 -4.82298653342618866349e-04
9.56983436525673627853e+08 9.74181680052070952947e-01 -2.24388004971038529378e-01 -1.19838025572949354557e-03 -1.04151685827022083553e-02 -1.19838025572949354557e-03 -1.04151685827022083553e-02 9.99944376115865840582e-01 -4.83429301936651905410e-04
9.57084651969142675400e+08 9.74058585625838913025e-01 -2.24915179432215450728e-01 -1.20409379287227851288e-03 -1.04396378536258556402e-02 -1.20409379287227851288e-03 -1.04396378536258556402e-02 9.99944110916963779800e-01 -4.84565064883510354925e-04
9.57185867412611603737e+08 9.73934626451751106480e-01 -2.25444743665911773167e-01 -1.20984746805497737736e-03 -1.04642180479639114454e-02 -1.20984746805497737736e-03 -1.04642180479639114454e-02 9.99943843855018998923e-01 -4.85705976439185867135e-04
9.57287082856080651283e+08 9.73809794479415402613e-01 -2.25976713712202792461e-01 -1.21564165494369340673e-03 -1.04889099102307183087e-02 -1.21564165494369340673e-03 -1.04889099102307183087e-02 9.99943574912687371814e-01 -4.86852071160973076409e-04
