! File generated for n1 = 2, n2 = 10
! b1 = 46.415888
! b2 = 0.046416
! Q0 = 10000.000000
! f0 = 1000000000.000000
! n = 1001
! rel_span = 10.000000
# Hz S RI R 50
9.76268847887768030167e+08 9.81092420530551123647e-01 -1.91373822770640744650e-01 -5.97910161640965043955e-04 -6.05177164488619745430e-03 -5.97910161640965043955e-04 -6.05177164488619745430e-03 9.99981092420530570664e-01 -1.91373822770640625388e-04
9.76316310191992521286e+08 9.81016374070431962373e-01 -1.91754525972854888982e-01 -6.00314961860660251634e-04 -6.06381053720136085905e-03 -6.00314961860660251634e-04 -6.06381053720136085905e-03 9.99981016374070441621e-01 -1.91754525972854768853e-04
9.76363772496217012405e+08 9.80939873227224090613e-01 -1.92136712430270500951e-01 -6.02734130935266270573e-04 -6.07589633416440351443e-03 -6.02734130935266270573e-04 -6.07589633416440351443e-03 9.99980939873227225867e-01 -1.92136712430270381472e-04
9.76411234800441384315e+08 9.80862914393419549342e-01 -1.92520390734250396170e-01 -6.05167782944193407071e-04 -6.08802930745807376750e-03 -6.05167782944193407071e-04 -6.08802930745807376750e-03 9.99980862914393364704e-01 -1.92520390734250300326e-04
9.76458697104665875435e+08 9.80785493925790285985e-01 -1.92905569541855420601e-01 -6.07616033096431036598e-04 -6.10020973084266990294e-03 -6.07616033096431036598e-04 -6.10020973084266990294e-03 9.99980785493925772300e-01 -1.92905569541855324974e-04
9.76506159408890366554e+08 9.80707608144966713759e-01 -1.93292257576452269907e-01 -6.10078997743860305426e-04 -6.11243788017526955281e-03 -6.10078997743860305426e-04 -6.11243788017526955281e-03 9.99980707608144947507e-01 -1.93292257576452156716e-04
9.76553621713114857674e+08 9.80629253335006279002e-01 -1.93680463628353477512e-01 -6.12556794394909114899e-04 -6.12471403342996351116e-03 -6.12556794394909114899e-04 -6.12471403342996351116e-03 9.99980629253334973860e-01 -1.93680463628353376031e-04
9.76601084017339229584e+08 9.80550425742959030906e-01 -1.94070196555443580388e-01 -6.15049541728265110503e-04 -6.13703847071765413307e-03 -6.15049541728265110503e-04 -6.13703847071765413307e-03 9.99980550425742964471e-01 -1.94070196555443488014e-04
9.76648546321563720703e+08 9.80471121578425752752e-01 -1.94461465283829432193e-01 -6.17557359606886284442e-04 -6.14941147430662481826e-03 -6.17557359606886284442e-04 -6.14941147430662481826e-03 9.99980471121578395888e-01 -1.94461465283829308161e-04
9.76696008625788211823e+08 9.80391337013110875098e-01 -1.94854278808481301555e-01 -6.20080369092101566994e-04 -6.16183332864281112229e-03 -6.20080369092101566994e-04 -6.16183332864281112229e-03 9.99980391337013108100e-01 -1.94854278808481186629e-04
9.76743470930012702942e+08 9.80311068180368394565e-01 -1.95248646193894898060e-01 -6.22618692457993960949e-04 -6.17430432037073539941e-03 -6.22618692457993960949e-04 -6.17430432037073539941e-03 9.99980311068180416356e-01 -1.95248646193894778147e-04
9.76790933234237074852e+08 9.80230311174742352520e-01 -1.95644576574751621889e-01 -6.25172453205927007580e-04 -6.18682473835438680176e-03 -6.25172453205927007580e-04 -6.18682473835438680176e-03 9.99980230311174778102e-01 -1.95644576574751510867e-04
9.76838395538461565971e+08 9.80149062051499542214e-01 -1.96042079156593440636e-01 -6.27741776079317474919e-04 -6.19939487369856358223e-03 -6.27741776079317474919e-04 -6.19939487369856358223e-03 9.99980149062051459907e-01 -1.96042079156593339589e-04
9.76885857842686057091e+08 9.80067316826157108878e-01 -1.96441163216499070643e-01 -6.30326787078576639481e-04 -6.21201501977025269396e-03 -6.30326787078576639481e-04 -6.21201501977025269396e-03 9.99980067316826204404e-01 -1.96441163216498962656e-04
9.76933320146910548210e+08 9.79985071474002711334e-01 -1.96841838103771260560e-01 -6.32927613476281310419e-04 -6.22468547222036587552e-03 -6.32927613476281310419e-04 -6.22468547222036587552e-03 9.99979985071474009040e-01 -1.96841838103771151923e-04
9.76980782451135039330e+08 9.79902321929608133289e-01 -1.97244113240632040762e-01 -6.35544383832559959396e-04 -6.23740652900572553619e-03 -6.35544383832559959396e-04 -6.23740652900572553619e-03 9.99979902321929570164e-01 -1.97244113240631943184e-04
9.77028244755359411240e+08 9.79819064086335900221e-01 -1.97647998122926327191e-01 -6.38177228010698076137e-04 -6.25017849041131518667e-03 -6.38177228010698076137e-04 -6.25017849041131518667e-03 9.99979819064086283831e-01 -1.97647998122926202074e-04
9.77075707059583902359e+08 9.79735293795838901865e-01 -1.98053502320830160377e-01 -6.40826277192942366651e-04 -6.26300165907267298443e-03 -6.40826277192942366651e-04 -6.26300165907267298443e-03 9.99979735293795801709e-01 -1.98053502320830068870e-04
9.77123169363808393478e+08 9.79651006867553908464e-01 -1.98460635479569241779e-01 -6.43491663896540331755e-04 -6.27587633999861661122e-03 -6.43491663896540331755e-04 -6.27587633999861661122e-03 9.99979651006867586993e-01 -1.98460635479569134009e-04
9.77170631668032884598e+08 9.79566199068186094223e-01 -1.98869407320148461338e-01 -6.46173521990028453151e-04 -6.28880284059431249322e-03 -6.46173521990028453151e-04 -6.28880284059431249322e-03 9.99979566199068137244e-01 -1.98869407320148350099e-04
9.77218093972257256508e+08 9.79480866121188786799e-01 -1.99279827640080425821e-01 -6.48871986709687455057e-04 -6.30178147068431292882e-03 -6.48871986709687455057e-04 -6.30178147068431292882e-03 9.99979480866121206439e-01 -1.99279827640080317618e-04
9.77265556276481747627e+08 9.79395003706231670471e-01 -1.99691906314141298662e-01 -6.51587194676357195702e-04 -6.31481254253645797603e-03 -6.51587194676357195702e-04 -6.31481254253645797603e-03 9.99979395003706250655e-01 -1.99691906314141190675e-04
9.77313018580706238747e+08 9.79308607458667212953e-01 -2.00105653295108099066e-01 -6.54319283912312274140e-04 -6.32789637088519273805e-03 -6.54319283912312274140e-04 -6.32789637088519273805e-03 9.99979308607458650116e-01 -2.00105653295107988694e-04
9.77360480884930729866e+08 9.79221672968984102603e-01 -2.00521078614529918438e-01 -6.57068393858544321298e-04 -6.34103327295595150387e-03 -6.57068393858544321298e-04 -6.34103327295595150387e-03 9.99979221672968932033e-01 -2.00521078614529816523e-04
9.77407943189155220985e+08 9.79134195782256022689e-01 -2.00938192383492170157e-01 -6.59834665392188164657e-04 -6.35422356848933111984e-03 -6.59834665392188164657e-04 -6.35422356848933111984e-03 9.99979134195782215500e-01 -2.00938192383492064338e-04
9.77455405493379592896e+08 9.79046171397581543872e-01 -2.01357004793397409426e-01 -6.62618240844249943231e-04 -6.36746757976577697213e-03 -6.62618240844249943231e-04 -6.36746757976577697213e-03 9.99979046171397545351e-01 -2.01357004793397277153e-04
9.77502867797604084015e+08 9.78957595267515023885e-01 -2.01777526116755034913e-01 -6.65419264017584914314e-04 -6.38076563163055953537e-03 -6.65419264017584914314e-04 -6.38076563163055953537e-03 9.99978957595267559100e-01 -2.01777526116754914783e-04
9.77550330101828575134e+08 9.78868462797492178140e-01 -2.02199766707970240986e-01 -6.68237880205073018700e-04 -6.39411805151872143088e-03 -6.68237880205073018700e-04 -6.39411805151872143088e-03 9.99978868462797487737e-01 -2.02199766707970136036e-04
9.77597792406053066254e+08 9.78778769345244215039e-01 -2.02623737004156423414e-01 -6.71074236208147245283e-04 -6.40752516948076694669e-03 -6.71074236208147245283e-04 -6.40752516948076694669e-03 9.99978778769345266753e-01 -2.02623737004156326920e-04
9.77645254710277438164e+08 9.78688510220204643808e-01 -2.03049447525948417725e-01 -6.73928480355534716140e-04 -6.42098731820838104778e-03 -6.73928480355534716140e-04 -6.42098731820838104778e-03 9.99978688510220203867e-01 -2.03049447525948306486e-04
9.77692717014501929283e+08 9.78597680682908421801e-01 -2.03476908878328061059e-01 -6.76800762522287578833e-04 -6.43450483306053609700e-03 -6.76800762522287578833e-04 -6.43450483306053609700e-03 9.99978597680682868010e-01 -2.03476908878327946784e-04
9.77740179318726420403e+08 9.78506275944381442855e-01 -2.03906131751455665935e-01 -6.79691234149064024174e-04 -6.44807805208978332412e-03 -6.79691234149064024174e-04 -6.44807805208978332412e-03 9.99978506275944423187e-01 -2.03906131751455566188e-04
9.77787641622950911522e+08 9.78414291165520921822e-01 -2.04337126921516204492e-01 -6.82600048261723831022e-04 -6.46170731606901267013e-03 -6.82600048261723831022e-04 -6.46170731606901267013e-03 9.99978414291165518257e-01 -2.04337126921516094987e-04
9.77835103927175283432e+08 9.78321721456467896516e-01 -2.04769905251572487126e-01 -6.85527359491189323785e-04 -6.47539296851843120678e-03 -6.85527359491189323785e-04 -6.47539296851843120678e-03 9.99978321721456508975e-01 -2.04769905251572369598e-04
9.77882566231399774551e+08 9.78228561875969071515e-01 -2.05204477692430775626e-01 -6.88473324093612725448e-04 -6.48913535573294227715e-03 -6.88473324093612725448e-04 -6.48913535573294227715e-03 9.99978228561876014702e-01 -2.05204477692430651160e-04
9.77930028535624265671e+08 9.78134807430730668365e-01 -2.05640855283511031493e-01 -6.91438099970800032837e-04 -6.50293482680965387321e-03 -6.91438099970800032837e-04 -6.50293482680965387321e-03 9.99978134807430696362e-01 -2.05640855283510914616e-04
9.77977490839848756790e+08 9.78040453074761839680e-01 -2.06079049153736759692e-01 -6.94421846690998208033e-04 -6.51679173367602886102e-03 -6.94421846690998208033e-04 -6.51679173367602886102e-03 9.99978040453074812355e-01 -2.06079049153736626335e-04
9.78024953144073247910e+08 9.77945493708709867597e-01 -2.06519070522421854808e-01 -6.97424725509896608136e-04 -6.53070643111792505098e-03 -6.97424725509896608136e-04 -6.53070643111792505098e-03 9.99977945493708664237e-01 -2.06519070522421729907e-04
9.78072415448297619820e+08 9.77849924179183260797e-01 -2.06960930700183981523e-01 -7.00446899392043989714e-04 -6.54467927680847660898e-03 -7.00446899392043989714e-04 -6.54467927680847660898e-03 9.99977849924179151841e-01 -2.06960930700183869634e-04
9.78119877752522110939e+08 9.77753739278066413831e-01 -2.07404641089859287373e-01 -7.03488533032519758673e-04 -6.55871063133702577458e-03 -7.03488533032519758673e-04 -6.55871063133702577458e-03 9.99977753739278107936e-01 -2.07404641089859159003e-04
9.78167340056746602058e+08 9.77656933741825384665e-01 -2.07850213187421029026e-01 -7.06549792878875728558e-04 -6.57280085823816473400e-03 -7.06549792878875728558e-04 -6.57280085823816473400e-03 9.99977656933741854139e-01 -2.07850213187420933617e-04
9.78214802360971093178e+08 9.77559502250799905454e-01 -2.08297658582929479110e-01 -7.09630847153542134234e-04 -6.58695032402178016345e-03 -7.09630847153542134234e-04 -6.58695032402178016345e-03 9.99977559502250756829e-01 -2.08297658582929376761e-04
9.78262264665195465088e+08 9.77461439428489176073e-01 -2.08746988961469398527e-01 -7.12731865876405274764e-04 -6.60115939820269791855e-03 -7.12731865876405274764e-04 -6.60115939820269791855e-03 9.99977461439428449985e-01 -2.08746988961469272976e-04
9.78309726969419956207e+08 9.77362739840822225545e-01 -2.09198216104121564873e-01 -7.15853020887874998829e-04 -6.61542845333140325237e-03 -7.15853020887874998829e-04 -6.61542845333140325237e-03 9.99977362739840835992e-01 -2.09198216104121453201e-04
9.78357189273644447327e+08 9.77263397995422278264e-01 -2.09651351888925668865e-01 -7.18994485872157863306e-04 -6.62975786502449215137e-03 -7.18994485872157863306e-04 -6.62975786502449215137e-03 9.99977263397995419503e-01 -2.09651351888925566299e-04
9.78404651577868938446e+08 9.77163408340856798340e-01 -2.10106408291866691984e-01 -7.22156436380960828521e-04 -6.64414801199586253083e-03 -7.22156436380960828521e-04 -6.64414801199586253083e-03 9.99977163408340863349e-01 -2.10106408291866594623e-04
9.78452113882093429565e+08 9.77062765265877430920e-01 -2.10563397387872136557e-01 -7.25339049857541356102e-04 -6.65859927608824717082e-03 -7.25339049857541356102e-04 -6.65859927608824717082e-03 9.99977062765265878319e-01 -2.10563397387872021848e-04
9.78499576186317801476e+08 9.76961463098649063319e-01 -2.11022331351814002032e-01 -7.28542505661067697070e-04 -6.67311204230490624678e-03 -7.28542505661067697070e-04 -6.67311204230490624678e-03 9.99976961463098668048e-01 -2.11022331351813879734e-04
9.78547038490542292595e+08 9.76859496105965896540e-01 -2.11483222459535297189e-01 -7.31766985091434002744e-04 -6.68768669884207966891e-03 -7.31766985091434002744e-04 -6.68768669884207966891e-03 9.99976859496105929814e-01 -2.11483222459535189419e-04
9.78594500794766783714e+08 9.76756858492457413767e-01 -2.11946083088874331901e-01 -7.35012671414344100941e-04 -6.70232363712138304312e-03 -7.35012671414344100941e-04 -6.70232363712138304312e-03 9.99976756858492410451e-01 -2.11946083088874234323e-04
9.78641963098991274834e+08 9.76653544399781137209e-01 -2.12410925720711879494e-01 -7.38279749886849010788e-04 -6.71702325182291920536e-03 -7.38279749886849010788e-04 -6.71702325182291920536e-03 9.99976653544399796125e-01 -2.12410925720711763918e-04
9.78689425403215646744e+08 9.76549547905804504744e-01 -2.12877762940025472282e-01 -7.41568407783231510651e-04 -6.73178594091862567833e-03 -7.41568407783231510651e-04 -6.73178594091862567833e-03 9.99976549547905824156e-01 -2.12877762940025353237e-04
9.78736887707440137863e+08 9.76444863023771203459e-01 -2.13346607436965318705e-01 -7.44878834421342926782e-04 -6.74661210570628305794e-03 -7.44878834421342926782e-04 -6.74661210570628305794e-03 9.99976444863023727905e-01 -2.13346607436965202478e-04
9.78784350011664628983e+08 9.76339483701460619791e-01 -2.13817472007924308519e-01 -7.48211221189209020957e-04 -6.76150215084336640714e-03 -7.48211221189209020957e-04 -6.76150215084336640714e-03 9.99976339483701459621e-01 -2.13817472007924190341e-04
9.78831812315889120102e+08 9.76233403820327305667e-01 -2.14290369556646709270e-01 -7.51565761572219287294e-04 -6.77645648438209881326e-03 -7.51565761572219287294e-04 -6.77645648438209881326e-03 9.99976233403820358170e-01 -2.14290369556646579166e-04
9.78879274620113492012e+08 9.76126617194635004537e-01 -2.14765313095322707415e-01 -7.54942651180536125274e-04 -6.79147551780406259075e-03 -7.54942651180536125274e-04 -6.79147551780406259075e-03 9.99976126617194593926e-01 -2.14765313095322598344e-04
9.78926736924337983131e+08 9.76019117570568806030e-01 -2.15242315745727830212e-01 -7.58342087777145209930e-04 -6.80655966605623469201e-03 -7.58342087777145209930e-04 -6.80655966605623469201e-03 9.99976019117570613659e-01 -2.15242315745727696855e-04
9.78974199228562474251e+08 9.75910898625343636859e-01 -2.15721390740338941905e-01 -7.61764271306071311281e-04 -6.82170934758627531963e-03 -7.61764271306071311281e-04 -6.82170934758627531963e-03 9.99975910898625364176e-01 -2.15721390740338837821e-04
9.79021661532786965370e+08 9.75801953966289770115e-01 -2.16202551423499367278e-01 -7.65209403921277269561e-04 -6.83692498437937085098e-03 -7.65209403921277269561e-04 -6.83692498437937085098e-03 9.99975801953966292324e-01 -2.16202551423499256906e-04
9.79069123837011456490e+08 9.75692277129930340962e-01 -2.16685811252576548958e-01 -7.68677690015853970311e-04 -6.85220700199484604453e-03 -7.68677690015853970311e-04 -6.85220700199484604453e-03 9.99975692277129901697e-01 -2.16685811252576417335e-04
9.79116586141235828400e+08 9.75581861581043319198e-01 -2.17171183799134109860e-01 -7.72169336251659287583e-04 -6.86755582960322640690e-03 -7.72169336251659287583e-04 -6.86755582960322640690e-03 9.99975581861581086507e-01 -2.17171183799133978238e-04
9.79164048445460319519e+08 9.75470700711706051322e-01 -2.17658682750138721129e-01 -7.75684551589561686706e-04 -6.88297190002440037460e-03 -7.75684551589561686706e-04 -6.88297190002440037460e-03 9.99975470700711688288e-01 -2.17658682750138592977e-04
9.79211510749684810638e+08 9.75358787840329699570e-01 -2.18148321909153480869e-01 -7.79223547319948047114e-04 -6.89845564976536082535e-03 -7.79223547319948047114e-04 -6.89845564976536082535e-03 9.99975358787840384878e-01 -2.18148321909153371798e-04
9.79258973053909301758e+08 9.75246116210676139424e-01 -2.18640115197563794647e-01 -7.82786537093830506878e-04 -6.91400751905896747418e-03 -7.82786537093830506878e-04 -6.91400751905896747418e-03 9.99975246116210692016e-01 -2.18640115197563653700e-04
9.79306435358133673668e+08 9.75132678990858425827e-01 -2.19134076655818549328e-01 -7.86373736954440547692e-04 -6.92962795190319932881e-03 -7.86373736954440547692e-04 -6.92962795190319932881e-03 9.99975132678990852320e-01 -2.19134076655818417923e-04
9.79353897662358164787e+08 9.75018469272328935915e-01 -2.19630220444677032310e-01 -7.89985365369241365058e-04 -6.94531739610058495432e-03 -7.89985365369241365058e-04 -6.94531739610058495432e-03 9.99975018469272280974e-01 -2.19630220444676926709e-04
9.79401359966582655907e+08 9.74903480068848637963e-01 -2.20128560846479581770e-01 -7.93621643262502288879e-04 -6.96107630329837953620e-03 -7.93621643262502288879e-04 -6.96107630329837953620e-03 9.99974903480068899597e-01 -2.20128560846479464459e-04
9.79448822270807147026e+08 9.74787704315442926628e-01 -2.20629112266428978328e-01 -7.97282794048344940416e-04 -6.97690512902909495963e-03 -7.97282794048344940416e-04 -6.97690512902909495963e-03 9.99974787704315470904e-01 -2.20629112266428864704e-04
9.79496284575031518936e+08 9.74671134867339028496e-01 -2.21131889233889045165e-01 -8.00969043664315660976e-04 -6.99280433275155724471e-03 -8.00969043664315660976e-04 -6.99280433275155724471e-03 9.99974671134867376665e-01 -2.21131889233888923518e-04
9.79543746879256010056e+08 9.74553764498886976320e-01 -2.21636906403705952195e-01 -8.04680620605532567757e-04 -7.00877437789269169821e-03 -8.04680620605532567757e-04 -7.00877437789269169821e-03 9.99974553764498841346e-01 -2.21636906403705825127e-04
9.79591209183480501175e+08 9.74435585902465595254e-01 -2.22144178557531823959e-01 -8.08417755959266941083e-04 -7.02481573188938179103e-03 -8.08417755959266941083e-04 -7.02481573188938179103e-03 9.99974435585902488022e-01 -2.22144178557531681711e-04
9.79638671487704992294e+08 9.74316591687368283026e-01 -2.22653720605180377445e-01 -8.12180683440181746570e-04 -7.04092886623133677737e-03 -8.12180683440181746570e-04 -7.04092886623133677737e-03 9.99974316591687339972e-01 -2.22653720605180246907e-04
9.79686133791929483414e+08 9.74196774378674135164e-01 -2.23165547585986223655e-01 -8.15969639426030401118e-04 -7.05711425650407467303e-03 -8.15969639426030401118e-04 -7.05711425650407467303e-03 9.99974196774378709662e-01 -2.23165547585986098755e-04
9.79733596096153855324e+08 9.74076126416098864169e-01 -2.23679674670191758201e-01 -8.19784862993997061331e-04 -7.07337238243278126903e-03 -8.19784862993997061331e-04 -7.07337238243278126903e-03 9.99974076126416089316e-01 -2.23679674670191632434e-04
9.79781058400378346443e+08 9.73954640152828288180e-01 -2.24196117160346375385e-01 -8.23626595957576519355e-04 -7.08970372792655772337e-03 -8.23626595957576519355e-04 -7.08970372792655772337e-03 9.99973954640152817852e-01 -2.24196117160346250268e-04
9.79828520704602837563e+08 9.73832307854334278119e-01 -2.24714890492720559267e-01 -8.27495082904021353291e-04 -7.10610878112313826271e-03 -8.27495082904021353291e-04 -7.10610878112313826271e-03 9.99973832307854304524e-01 -2.24714890492720432416e-04
9.79875983008827328682e+08 9.73709121697170165710e-01 -2.25236010238745926193e-01 -8.31390571232442743103e-04 -7.12258803443442407161e-03 -8.31390571232442743103e-04 -7.12258803443442407161e-03 9.99973709121697140745e-01 -2.25236010238745801293e-04
9.79923445313051700592e+08 9.73585073767748832019e-01 -2.25759492106461651106e-01 -8.35313311192435823532e-04 -7.13914198459223055260e-03 -8.35313311192435823532e-04 -7.13914198459223055260e-03 9.99973585073767767817e-01 -2.25759492106461528592e-04
9.79970907617276191711e+08 9.73460156061098480507e-01 -2.26285351941994533620e-01 -8.39263555923435572437e-04 -7.15577113269508496146e-03 -8.39263555923435572437e-04 -7.15577113269508496146e-03 9.99973460156061144666e-01 -2.26285351941994406768e-04
