! File generated for n1 = 3, n2 = 12
! b1 = 21.544347
! b2 = 0.004642
! Q0 = 10000.000000
! f0 = 1000000000.000000
! n = 1001
! rel_span = 10.000000
# Hz S RI R 50
9.88725505755423784256e+08 9.81292089282420287866e-01 -1.88145744126525044093e-01 -2.74594576500025960679e-04 -2.76160185435122672998e-03 -2.74594576500025960679e-04 -2.76160185435122672998e-03 9.99995969502817216856e-01 -4.05347717928047774336e-05
9.88748054743912935257e+08 9.81217343738285840971e-01 -1.88517504445843586680e-01 -2.75691691049411379509e-04 -2.76705854959549387220e-03 -2.75691691049411379509e-04 -2.76705854959549387220e-03 9.99995953399377857096e-01 -4.06148651256365013601e-05
9.88770603732402086258e+08 9.81142152573873826960e-01 -1.88890713069867877127e-01 -2.76795346409966557064e-04 -2.77253650304562504481e-03 -2.76795346409966557064e-04 -2.77253650304562504481e-03 9.99995937199932627415e-01 -4.06952704862582041343e-05
9.88793152720891237259e+08 9.81066512255336697912e-01 -1.89265378385837235165e-01 -2.77905594451481857254e-04 -2.77803583780945667278e-03 -2.77905594451481857254e-04 -2.77803583780945667278e-03 9.99995920903719914818e-01 -4.07759896816458142351e-05
9.88815701709380388260e+08 9.80990419213862430148e-01 -1.89641508845108996972e-01 -2.79022487556953170239e-04 -2.78355667793595126444e-03 -2.79022487556953170239e-04 -2.78355667793595126444e-03 9.99995904509971111906e-01 -4.08570245325890867970e-05
9.88838250697869539261e+08 9.80913869845259411839e-01 -1.90019112963769082336e-01 -2.80146078628677893362e-04 -2.78909914842415508976e-03 -2.80146078628677893362e-04 -2.78909914842415508976e-03 9.99995888017909617673e-01 -4.09383768738231105578e-05
9.88860799686358690262e+08 9.80836860509537999953e-01 -1.90398199323236316793e-01 -2.81276421094396990655e-04 -2.79466337523206998991e-03 -2.81276421094396990655e-04 -2.79466337523206998991e-03 9.99995871426751170574e-01 -4.10200485541585205393e-05
9.88883348674847841263e+08 9.80759387530483750517e-01 -1.90778776570886432484e-01 -2.82413568913560271943e-04 -2.80024948528581488563e-03 -2.82413568913560271943e-04 -2.80024948528581488563e-03 9.99995854735703848526e-01 -4.11020414366159458929e-05
9.88905897663336992264e+08 9.80681447195225319824e-01 -1.91160853420678678027e-01 -2.83557576583665018211e-04 -2.80585760648881894427e-03 -2.83557576583665018211e-04 -2.80585760648881894427e-03 9.99995837943967624817e-01 -4.11843573985609998469e-05
9.88928446651826143265e+08 9.80603035753797591667e-01 -1.91544438653786286419e-01 -2.84708499146673049002e-04 -2.81148786773107849796e-03 -2.84708499146673049002e-04 -2.81148786773107849796e-03 9.99995821050734701174e-01 -4.12669983318400895801e-05
9.88950995640315294266e+08 9.80524149418696810976e-01 -1.91929541119240015812e-01 -2.85866392195536155822e-04 -2.81714039889860304658e-03 -2.85866392195536155822e-04 -2.81714039889860304658e-03 9.99995804055188952653e-01 -4.13499661429191263384e-05
9.88973544628804445267e+08 9.80444784364431165535e-01 -1.92316169734574216044e-01 -2.87031311880795803396e-04 -2.82281533088289595529e-03 -2.87031311880795803396e-04 -2.82281533088289595529e-03 9.99995786956506371723e-01 -4.14332627530226285727e-05
9.88996093617293596268e+08 9.80364936727063929212e-01 -1.92704333486482720650e-01 -2.88203314917285016977e-04 -2.82851279559058303714e-03 -2.88203314917285016977e-04 -2.82851279559058303714e-03 9.99995769753854402140e-01 -4.15168900982750883498e-05
9.89018642605782747269e+08 9.80284602603750165883e-01 -1.93094041431486257432e-01 -2.89382458590935328843e-04 -2.83423292595321027129e-03 -2.89382458590935328843e-04 -2.83423292595321027129e-03 9.99995752446392160984e-01 -4.16008501298447568896e-05
9.89041191594271898270e+08 9.80203778052269769638e-01 -1.93485302696589339666e-01 -2.90568800765624111332e-04 -2.83997585593688192662e-03 -2.90568800765624111332e-04 -2.83997585593688192662e-03 9.99995735033270438663e-01 -4.16851448140851397247e-05
9.89063740582761049271e+08 9.80122459090548736604e-01 -1.93878126479972212604e-01 -2.91762399890202429528e-04 -2.84574172055242127083e-03 -2.91762399890202429528e-04 -2.84574172055242127083e-03 9.99995717513631254825e-01 -4.17697761326841016040e-05
9.89086289571250200272e+08 9.80040641696178438380e-01 -1.94272522051669421783e-01 -2.92963315005556666857e-04 -2.85153065586532658213e-03 -2.92963315005556666857e-04 -2.85153065586532658213e-03 9.99995699886607969376e-01 -4.18547460828100440508e-05
9.89108838559739351273e+08 9.79958321805925680614e-01 -1.94668498754264313044e-01 -2.94171605751795159182e-04 -2.85734279900596828752e-03 -2.94171605751795159182e-04 -2.85734279900596828752e-03 9.99995682151325171461e-01 -4.19400566772615252626e-05
9.89131387548228502274e+08 9.79875495315236655358e-01 -1.95066066003587890165e-01 -2.95387332375524980319e-04 -2.86317828817984508169e-03 -2.95387332375524980319e-04 -2.86317828817984508169e-03 9.99995664306898790485e-01 -4.20257099446178557928e-05
9.89153936536717653275e+08 9.79792158077733343902e-01 -1.95465233289433104602e-01 -2.96610555737254874466e-04 -2.86903726267806816197e-03 -2.96610555737254874466e-04 -2.86903726267806816197e-03 9.99995646352435207938e-01 -4.21117079293929400625e-05
9.89176485525206804276e+08 9.79708305904703924405e-01 -1.95866010176265259446e-01 -2.97841337318865788646e-04 -2.87491986288778865119e-03 -2.97841337318865788646e-04 -2.87491986288778865119e-03 9.99995628287032145565e-01 -4.21980526921883521553e-05
9.89199034513695955276e+08 9.79623934564583520590e-01 -1.96268406303956116643e-01 -2.99079739231236066584e-04 -2.88082623030297456726e-03 -2.99079739231236066584e-04 -2.88082623030297456726e-03 9.99995610109777999241e-01 -4.22847463098515209136e-05
9.89221583502185106277e+08 9.79539039782431175674e-01 -1.96672431388508150985e-01 -3.00325824221917871137e-04 -2.88675650753503904022e-03 -3.00325824221917871137e-04 -2.88675650753503904022e-03 9.99995591819751616924e-01 -4.23717908756317195268e-05
9.89244132490674257278e+08 9.79453617239395835092e-01 -1.97078095222803728603e-01 -3.01579655682974936016e-04 -2.89271083832383715806e-03 -3.01579655682974936016e-04 -2.89271083832383715806e-03 9.99995573416022631719e-01 -4.24591884993414964578e-05
9.89266681479163408279e+08 9.79367662572176111979e-01 -1.97485407677356755718e-01 -3.02841297658913667298e-04 -2.89868936754869967534e-03 -3.02841297658913667298e-04 -2.89868936754869967534e-03 9.99995554897650906767e-01 -4.25469413075186010382e-05
9.89289230467652559280e+08 9.79281171372474279480e-01 -1.97894378701062467751e-01 -3.04110814854694204868e-04 -2.90469224123943896634e-03 -3.04110814854694204868e-04 -2.90469224123943896634e-03 9.99995536263686757295e-01 -4.26350514435875499204e-05
9.89311779456141710281e+08 9.79194139186438605726e-01 -1.98305018321976500584e-01 -3.05388272643920919303e-04 -2.91071960658778128642e-03 -3.05388272643920919303e-04 -2.91071960658778128642e-03 9.99995517513170728563e-01 -4.27235210680274209161e-05
9.89334328444630861282e+08 9.79106561514099138499e-01 -1.98717336648093351181e-01 -3.06673737077121108616e-04 -2.91677161195879599762e-03 -3.06673737077121108616e-04 -2.91677161195879599762e-03 9.99995498645133151783e-01 -4.28123523585396197305e-05
9.89356877433120012283e+08 9.79018433808799048990e-01 -1.99131343868116317264e-01 -3.07967274890087554500e-04 -2.92284840690219555742e-03 -3.07967274890087554500e-04 -2.92284840690219555742e-03 9.99995479658594699224e-01 -4.29015475102137357893e-05
9.89379426421609163284e+08 9.78929751476610987559e-01 -1.99547050252272123450e-01 -3.09268953512453368890e-04 -2.92895014216429253398e-03 -3.09268953512453368890e-04 -2.92895014216429253398e-03 9.99995460552565385015e-01 -4.29911087357030339130e-05
9.89401975410098314285e+08 9.78840509875750219848e-01 -1.99964466153106368296e-01 -3.10578841076301589205e-04 -2.93507696969967559614e-03 -3.10578841076301589205e-04 -2.93507696969967559614e-03 9.99995441326045342301e-01 -4.30810382653958531276e-05
9.89424524398587465286e+08 9.78750704315978325987e-01 -2.00383602006294569975e-01 -3.11897006424918593007e-04 -2.94122904268311361961e-03 -3.11897006424918593007e-04 -2.94122904268311361961e-03 9.99995421978023935061e-01 -4.31713383475903258448e-05
9.89447073387076616287e+08 9.78660330057995020425e-01 -2.00804468331475749476e-01 -3.13223519121716322943e-04 -2.94740651552179069167e-03 -3.13223519121716322943e-04 -2.94740651552179069167e-03 9.99995402507480313226e-01 -4.32620112486739827285e-05
9.89469622375565767288e+08 9.78569382312826974157e-01 -2.01227075733072469088e-01 -3.14558449459210998610e-04 -2.95360954386734422469e-03 -3.14558449459210998610e-04 -2.95360954386734422469e-03 9.99995382913382635515e-01 -4.33530592533004098857e-05
9.89492171364054918289e+08 9.78477856241201759957e-01 -2.01651434901144982481e-01 -3.15901868468209182095e-04 -2.95983828462839963433e-03 -3.15901868468209182095e-04 -2.95983828462839963433e-03 9.99995363194688180464e-01 -4.34444846645732583043e-05
9.89514720352544069290e+08 9.78385746952915802410e-01 -2.02077556612240805123e-01 -3.17253847927083181771e-04 -2.96609289598304256760e-03 -3.17253847927083181771e-04 -2.96609289598304256760e-03 9.99995343350343568467e-01 -4.35362898042293181662e-05
9.89537269341033220291e+08 9.78293049506192891052e-01 -2.02505451730255747744e-01 -3.18614460371186209754e-04 -2.97237353739145679712e-03 -3.18614460371186209754e-04 -2.97237353739145679712e-03 9.99995323379284095644e-01 -4.36284770128239851811e-05
9.89559818329522371292e+08 9.78199758907033922739e-01 -2.02935131207303720569e-01 -3.19983779102400679381e-04 -2.97868036960868918378e-03 -3.19983779102400679381e-04 -2.97868036960868918378e-03 9.99995303280433844861e-01 -4.37210486499186717088e-05
9.89582367318011522293e+08 9.78105870108553654418e-01 -2.03366606084611406535e-01 -3.21361878198874828614e-04 -2.98501355469778456922e-03 -3.21361878198874828614e-04 -2.98501355469778456922e-03 9.99995283052705352667e-01 -4.38140070942735711289e-05
9.89604916306500673294e+08 9.78011378010312459885e-01 -2.03799887493397613447e-01 -3.22748832524818811927e-04 -2.99137325604269125115e-03 -3.22748832524818811927e-04 -2.99137325604269125115e-03 9.99995262694999942354e-01 -4.39073547440370611839e-05
9.89627465294989824295e+08 9.77916277457634652848e-01 -2.04234986655788874899e-01 -3.24144717740528691494e-04 -2.99775963836169988611e-03 -3.24144717740528691494e-04 -2.99775963836169988611e-03 9.99995242206206946811e-01 -4.40010940169430152225e-05
9.89650014283478975296e+08 9.77820563240917928205e-01 -2.04671914885729555600e-01 -3.25549610312506055004e-04 -3.00417286772080302862e-03 -3.25549610312506055004e-04 -3.00417286772080302862e-03 9.99995221585204041581e-01 -4.40952273505068530570e-05
9.89672563271968245506e+08 9.77724230094932367230e-01 -2.05110683589912773384e-01 -3.26963587523759942072e-04 -3.01061311154735911436e-03 -3.26963587523759942072e-04 -3.01061311154735911436e-03 9.99995200830856911800e-01 -4.41897572022261183656e-05
9.89695112260457396507e+08 9.77627272698112004257e-01 -2.05551304268701828804e-01 -3.28386727484195127362e-04 -3.01708053864361679802e-03 -3.28386727484195127362e-04 -3.01708053864361679802e-03 9.99995179942019030150e-01 -4.42846860497789757811e-05
9.89717661248946547508e+08 9.77529685671828629800e-01 -2.05993788517100262503e-01 -3.29819109141276549987e-04 -3.02357531920095139524e-03 -3.29819109141276549987e-04 -3.02357531920095139524e-03 9.99995158917531545839e-01 -4.43800163912331976359e-05
9.89740210237435698509e+08 9.77431463579662040964e-01 -2.06438148025698764432e-01 -3.31260812290741122558e-04 -3.03009762481376955859e-03 -3.31260812290741122558e-04 -3.03009762481376955859e-03 9.99995137756223284597e-01 -4.44757507452502108113e-05
9.89762759225924849510e+08 9.77332600926656858142e-01 -2.06884394581643898947e-01 -3.32711917587502582425e-04 -3.03664762849372056597e-03 -3.32711917587502582425e-04 -3.03664762849372056597e-03 9.99995116456910304592e-01 -4.45718916512937582213e-05
9.89785308214414000511e+08 9.77233092158565574969e-01 -2.07332540069632476065e-01 -3.34172506556766027615e-04 -3.04322550468429878917e-03 -3.34172506556766027615e-04 -3.04322550468429878917e-03 9.99995095018396118469e-01 -4.46684416698441507146e-05
9.89807857202903151512e+08 9.77132931661086501229e-01 -2.07782596472887548522e-01 -3.35642661605209727520e-04 -3.04983142927516253512e-03 -3.35642661605209727520e-04 -3.04983142927516253512e-03 9.99995073439471138244e-01 -4.47654033826085142049e-05
9.89830406191392302513e+08 9.77032113759081721760e-01 -2.08234575874186367273e-01 -3.37122466032467853897e-04 -3.05646557961722960955e-03 -3.37122466032467853897e-04 -3.05646557961722960955e-03 9.99995051718912564276e-01 -4.48627793927423192794e-05
9.89852955179881453514e+08 9.76930632715791946730e-01 -2.08688490456860359368e-01 -3.38612004042651646828e-04 -3.06312813453734830715e-03 -3.38612004042651646828e-04 -3.06312813453734830715e-03 9.99995029855484607317e-01 -4.49605723250647376318e-05
9.89875504168370604515e+08 9.76828482732032488123e-01 -2.09144352505837766154e-01 -3.40111360756148028029e-04 -3.06981927435360547884e-03 -3.40111360756148028029e-04 -3.06981927435360547884e-03 9.99995007847937711354e-01 -4.50587848262833294099e-05
9.89898053156859755516e+08 9.76725657945382130798e-01 -2.09602174408681535267e-01 -3.41620622221536771653e-04 -3.07653918089055957233e-03 -3.41620622221536771653e-04 -3.07653918089055957233e-03 9.99994985695008997695e-01 -4.51574195652176328089e-05
9.89920602145348906517e+08 9.76622152429357126557e-01 -2.10061968656642450437e-01 -3.43139875427699199417e-04 -3.08328803749469831930e-03 -3.43139875427699199417e-04 -3.08328803749469831930e-03 9.99994963395421598840e-01 -4.52564792330260469281e-05
9.89943151133838057518e+08 9.76517960192572309630e-01 -2.10523747845735909046e-01 -3.44669208316145613512e-04 -3.09006602905024336733e-03 -3.44669208316145613512e-04 -3.09006602905024336733e-03 9.99994940947884658478e-01 -4.53559665434378171548e-05
9.89965700122327208519e+08 9.76413075177891442991e-01 -2.10987524677815396767e-01 -3.46208709793476953741e-04 -3.09687334199490720693e-03 -3.46208709793476953741e-04 -3.09687334199490720693e-03 9.99994918351093220465e-01 -4.54558842329843361451e-05
9.89988249110816359520e+08 9.76307491261562132578e-01 -2.11453311961674161878e-01 -3.47758469744085846505e-04 -3.10371016433606252902e-03 -3.47758469744085846505e-04 -3.10371016433606252902e-03 9.99994895603728006783e-01 -4.55562350612364350220e-05
9.90010798099305510521e+08 9.76201202252341082577e-01 -2.11921122614142726226e-01 -3.49318579042994751139e-04 -3.11057668566685433659e-03 -3.49318579042994751139e-04 -3.11057668566685433659e-03 9.99994872704455084467e-01 -4.56570218110409088556e-05
9.90033347087794661522e+08 9.76094201890600032812e-01 -2.12390969661227918541e-01 -3.50889129568983100353e-04 -3.11747309718291443908e-03 -3.50889129568983100353e-04 -3.11747309718291443908e-03 9.99994849651925976630e-01 -4.57582472887658512858e-05
9.90055896076283812523e+08 9.75986483847425478899e-01 -2.12862866239229592269e-01 -3.52470214217796026877e-04 -3.12439959169875675765e-03 -3.52470214217796026877e-04 -3.12439959169875675765e-03 9.99994826444777107355e-01 -4.58599143245412660896e-05
9.90078445064772963524e+08 9.75878041723698630427e-01 -2.13336825595900281272e-01 -3.54061926915653251476e-04 -3.13135636366479539611e-03 -3.54061926915653251476e-04 -3.13135636366479539611e-03 9.99994803081629801689e-01 -4.59620257725089215715e-05
9.90100994053262114525e+08 9.75768869049163711793e-01 -2.13812861091604827779e-01 -3.55664362632919354469e-04 -3.13834360918436791610e-03 -3.55664362632919354469e-04 -3.13834360918436791610e-03 9.99994779561090063602e-01 -4.60645845110721575207e-05
9.90123543041751265526e+08 9.75658959281480830938e-01 -2.14290986200502825421e-01 -3.57277617398013547494e-04 -3.14536152603108994444e-03 -3.57277617398013547494e-04 -3.14536152603108994444e-03 9.99994755881748464965e-01 -4.61675934431506659449e-05
9.90146092030240416527e+08 9.75548305805266746660e-01 -2.14771214511729979790e-01 -3.58901788311482400871e-04 -3.15241031366619590265e-03 -3.58901788311482400871e-04 -3.15241031366619590265e-03 9.99994732042179701459e-01 -4.62710554964349872020e-05
9.90168641018729567528e+08 9.75436901931115429853e-01 -2.15253559730620130930e-01 -3.60536973560378695442e-04 -3.15949017325647561402e-03 -3.60536973560378695442e-04 -3.15949017325647561402e-03 9.99994708040942592575e-01 -4.63749736236497813921e-05
9.90191190007218718529e+08 9.75324740894610076047e-01 -2.15738035679911815956e-01 -3.62183272432760566643e-04 -3.16660130769198409559e-03 -3.62183272432760566643e-04 -3.16660130769198409559e-03 9.99994683876579748549e-01 -4.64793508028137997102e-05
9.90213738995707869530e+08 9.75211815855313690626e-01 -2.16224656300998907543e-01 -3.63840785332515909232e-04 -3.17374392160439840194e-03 -3.63840785332515909232e-04 -3.17374392160439840194e-03 9.99994659547617570361e-01 -4.65841900375092883568e-05
9.90236287984197020531e+08 9.75098119895748682850e-01 -2.16713435655169844862e-01 -3.65509613794326210408e-04 -3.18091822138520706822e-03 -3.65509613794326210408e-04 -3.18091822138520706822e-03 9.99994635052565583599e-01 -4.66894943571490139808e-05
9.90258836972686171532e+08 9.74983646020358585282e-01 -2.17204387924878700167e-01 -3.67189860498920840701e-04 -3.18812441520436792852e-03 -3.67189860498920840701e-04 -3.18812441520436792852e-03 9.99994610389916771531e-01 -4.67952668172500789380e-05
9.90281385961175322533e+08 9.74868387154449456133e-01 -2.17697527415041836019e-01 -3.68881629288604075915e-04 -3.19536271302933716498e-03 -3.68881629288604075915e-04 -3.19536271302933716498e-03 9.99994585558146908966e-01 -4.69015104997132863097e-05
9.90303934949664473534e+08 9.74752336143124065160e-01 -2.18192868554315688723e-01 -3.70585025182906314424e-04 -3.20263332664382947487e-03 -3.70585025182906314424e-04 -3.20263332664382947487e-03 9.99994560555714451233e-01 -4.70082285130984323866e-05
9.90326483938153624535e+08 9.74635485750189767273e-01 -2.18690425896427814711e-01 -3.72300154394610048961e-04 -3.20993646966735149059e-03 -3.72300154394610048961e-04 -3.20993646966735149059e-03 9.99994535381060423163e-01 -4.71154239929110781439e-05
9.90349032926642775536e+08 9.74517828657054607788e-01 -2.19190214121503107458e-01 -3.74027124345953322290e-04 -3.21727235757466797916e-03 -3.74027124345953322290e-04 -3.21727235757466797916e-03 9.99994510032608197037e-01 -4.72231001018882432896e-05
9.90371581915131926537e+08 9.74399357461603998765e-01 -2.19692248037414578077e-01 -3.75766043685120550676e-04 -3.22464120771563059892e-03 -3.75766043685120550676e-04 -3.22464120771563059892e-03 9.99994484508762826458e-01 -4.73312600302894671139e-05
9.90394130903621077538e+08 9.74280064677060742007e-01 -2.20196542581145682238e-01 -3.77517022302972359710e-04 -3.23204323933517405701e-03 -3.77517022302972359710e-04 -3.23204323933517405701e-03 9.99994458807911490439e-01 -4.74399069961902749128e-05
9.90416679892110228539e+08 9.74159942730824957025e-01 -2.20703112820178959375e-01 -3.79280171350074876788e-04 -3.23947867359369564080e-03 -3.79280171350074876788e-04 -3.23947867359369564080e-03 9.99994432928422716245e-01 -4.75490442457813771294e-05
9.90439228880599379539e+08 9.74038983963299020985e-01 -2.21211973953886170685e-01 -3.81055603253945321916e-04 -3.24694773358746380590e-03 -3.81055603253945321916e-04 -3.24694773358746380590e-03 9.99994406868646157349e-01 -4.76586750536681598759e-05
9.90461777869088530540e+08 9.73917180626688971934e-01 -2.21723141314957516990e-01 -3.82843431736646115301e-04 -3.25445064436959185031e-03 -3.82843431736646115301e-04 -3.25445064436959185031e-03 9.99994380626912815480e-01 -4.77688027231785712449e-05
9.90484326857577681541e+08 9.73794524883791035030e-01 -2.22236630370830717807e-01 -3.84643771832598590100e-04 -3.26198763297101809386e-03 -3.84643771832598590100e-04 -3.26198763297101809386e-03 9.99994354201534041415e-01 -4.78794305866710686085e-05
