! File generated for n1 = 3, n2 = 1
! b1 = 21.544347
! b2 = 21.544347
! Q0 = 10000.000000
! f0 = 1000000000.000000
! n = 1001
! rel_span = 10.000000
# Hz S RI R 50
9.77955653099681138992e+08 9.90535988508083109494e-01 -9.57067683596144191949e-02 -9.46401149191688009776e-03 -9.57067683596144191949e-02 -9.46401149191688009776e-03 -9.57067683596144191949e-02 9.90535988508083109494e-01 -9.57067683596144191949e-02
9.77999741793481826782e+08 9.90497958823920998661e-01 -9.58969830013035456906e-02 -9.50204117607901521669e-03 -9.58969830013035456906e-02 -9.50204117607901521669e-03 -9.58969830013035456906e-02 9.90497958823920998661e-01 -9.58969830013035456906e-02
9.78043830487282395363e+08 9.90459701978199436034e-01 -9.60879387332577578062e-02 -9.54029802180055529204e-03 -9.60879387332577578062e-02 -9.54029802180055529204e-03 -9.60879387332577578062e-02 9.90459701978199436034e-01 -9.60879387332577578062e-02
9.78087919181083083153e+08 9.90421216167685636300e-01 -9.62796398479301984707e-02 -9.57878383231435849565e-03 -9.62796398479301984707e-02 -9.57878383231435849565e-03 -9.62796398479301984707e-02 9.90421216167685636300e-01 -9.62796398479301984707e-02
9.78132007874883651733e+08 9.90382499571294316887e-01 -9.64720906705929526215e-02 -9.61750042870565362285e-03 -9.64720906705929526215e-02 -9.61750042870565362285e-03 -9.64720906705929526215e-02 9.90382499571294316887e-01 -9.64720906705929526215e-02
9.78176096568684339523e+08 9.90343550349875312300e-01 -9.66652955596517815540e-02 -9.65644965012466514886e-03 -9.66652955596517815540e-02 -9.65644965012466514886e-03 -9.66652955596517815540e-02 9.90343550349875312300e-01 -9.66652955596517815540e-02
9.78220185262484908104e+08 9.90304366646000189256e-01 -9.68592589069527803991e-02 -9.69563335399980727458e-03 -9.68592589069527803991e-02 -9.69563335399980727458e-03 -9.68592589069527803991e-02 9.90304366646000189256e-01 -9.68592589069527803991e-02
9.78264273956285595894e+08 9.90264946583743088659e-01 -9.70539851381075902026e-02 -9.73505341625687144191e-03 -9.70539851381075902026e-02 -9.73505341625687144191e-03 -9.70539851381075902026e-02 9.90264946583743088659e-01 -9.70539851381075902026e-02
9.78308362650086283684e+08 9.90225288268461678598e-01 -9.72494787128076187965e-02 -9.77471173153832487146e-03 -9.72494787128076187965e-02 -9.77471173153832487146e-03 -9.72494787128076187965e-02 9.90225288268461678598e-01 -9.72494787128076187965e-02
9.78352451343886852264e+08 9.90185389786572445203e-01 -9.74457441251511125024e-02 -9.81461021342750795926e-03 -9.74457441251511125024e-02 -9.81461021342750795926e-03 -9.74457441251511125024e-02 9.90185389786572445203e-01 -9.74457441251511125024e-02
9.78396540037687540054e+08 9.90145249205324429198e-01 -9.76427859039718376577e-02 -9.85475079467553957691e-03 -9.76427859039718376577e-02 -9.85475079467553957691e-03 -9.76427859039718376577e-02 9.90145249205324429198e-01 -9.76427859039718376577e-02
9.78440628731488108635e+08 9.90104864572569187686e-01 -9.78406086131684421536e-02 -9.89513542743078108876e-03 -9.78406086131684421536e-02 -9.89513542743078108876e-03 -9.78406086131684421536e-02 9.90104864572569187686e-01 -9.78406086131684421536e-02
9.78484717425288796425e+08 9.90064233916527425272e-01 -9.80392168520430457024e-02 -9.93576608347262156540e-03 -9.80392168520430457024e-02 -9.93576608347262156540e-03 -9.80392168520430457024e-02 9.90064233916527425272e-01 -9.80392168520430457024e-02
9.78528806119089484215e+08 9.90023355245552960646e-01 -9.82386152556366659683e-02 -9.97664475444708272189e-03 -9.82386152556366659683e-02 -9.97664475444708272189e-03 -9.82386152556366659683e-02 9.90023355245552960646e-01 -9.82386152556366659683e-02
9.78572894812890052795e+08 9.89982226547892807389e-01 -9.84388084950754554958e-02 -1.00177734521072116930e-02 -9.84388084950754554958e-02 -1.00177734521072116930e-02 -9.84388084950754554958e-02 9.89982226547892807389e-01 -9.84388084950754554958e-02
9.78616983506690740585e+08 9.89940845791444035129e-01 -9.86398012779171051712e-02 -1.00591542085560203823e-02 -9.86398012779171051712e-02 -1.00591542085560203823e-02 -9.86398012779171051712e-02 9.89940845791444035129e-01 -9.86398012779171051712e-02
9.78661072200491309166e+08 9.89899210923507522075e-01 -9.88415983484993571073e-02 -1.01007890764925160887e-02 -9.88415983484993571073e-02 -1.01007890764925160887e-02 -9.88415983484993571073e-02 9.89899210923507522075e-01 -9.88415983484993571073e-02
9.78705160894291996956e+08 9.89857319870537377682e-01 -9.90442044882992728150e-02 -1.01426801294625668071e-02 -9.90442044882992728150e-02 -1.01426801294625668071e-02 -9.90442044882992728150e-02 9.89857319870537377682e-01 -9.90442044882992728150e-02
9.78749249588092565536e+08 9.89815170537888810998e-01 -9.92476245162861869797e-02 -1.01848294621111803288e-02 -9.92476245162861869797e-02 -1.01848294621111803288e-02 -9.92476245162861869797e-02 9.89815170537888810998e-01 -9.92476245162861869797e-02
9.78793338281893253326e+08 9.89772760809558893591e-01 -9.94518632892923137856e-02 -1.02272391904411567159e-02 -9.94518632892923137856e-02 -1.02272391904411567159e-02 -9.94518632892923137856e-02 9.89772760809558893591e-01 -9.94518632892923137856e-02
9.78837426975693941116e+08 9.89730088547927433495e-01 -9.96569257023736942980e-02 -1.02699114520725491573e-02 -9.96569257023736942980e-02 -1.02699114520725491573e-02 -9.96569257023736942980e-02 9.89730088547927433495e-01 -9.96569257023736942980e-02
9.78881515669494509697e+08 9.89687151593492520085e-01 -9.98628166891832175223e-02 -1.03128484065074296078e-02 -9.98628166891832175223e-02 -1.03128484065074296078e-02 -9.98628166891832175223e-02 9.89687151593492520085e-01 -9.98628166891832175223e-02
9.78925604363295197487e+08 9.89643947764601183970e-01 -1.00069541222349525644e-01 -1.03560522353988073568e-02 -1.00069541222349525644e-01 -1.03560522353988073568e-02 -1.00069541222349525644e-01 9.89643947764601183970e-01 -1.00069541222349525644e-01
9.78969693057095766068e+08 9.89600474857178280530e-01 -1.00277104313852893913e-01 -1.03995251428217749812e-02 -1.00277104313852893913e-01 -1.03995251428217749812e-02 -1.00277104313852893913e-01 9.89600474857178280530e-01 -1.00277104313852893913e-01
9.79013781750896453857e+08 9.89556730644450044387e-01 -1.00485511015412073976e-01 -1.04432693555499781640e-02 -1.00485511015412073976e-01 -1.04432693555499781640e-02 -1.00485511015412073976e-01 9.89556730644450044387e-01 -1.00485511015412073976e-01
9.79057870444697022438e+08 9.89512712876664868311e-01 -1.00694766418871234359e-01 -1.04872871233351074027e-02 -1.00694766418871234359e-01 -1.04872871233351074027e-02 -1.00694766418871234359e-01 9.89512712876664868311e-01 -1.00694766418871234359e-01
9.79101959138497710228e+08 9.89468419280808308969e-01 -1.00904875656597364797e-01 -1.05315807191916563368e-02 -1.00904875656597364797e-01 -1.05315807191916563368e-02 -1.00904875656597364797e-01 9.89468419280808308969e-01 -1.00904875656597364797e-01
9.79146047832298398018e+08 9.89423847560316316319e-01 -1.01115843901872337618e-01 -1.05761524396836784773e-02 -1.01115843901872337618e-01 -1.05761524396836784773e-02 -1.01115843901872337618e-01 9.89423847560316316319e-01 -1.01115843901872337618e-01
9.79190136526098966599e+08 9.89378995394782134731e-01 -1.01327676369299818360e-01 -1.06210046052178635340e-02 -1.01327676369299818360e-01 -1.06210046052178635340e-02 -1.01327676369299818360e-01 9.89378995394782134731e-01 -1.01327676369299818360e-01
9.79234225219899654388e+08 9.89333860439659984465e-01 -1.01540378315212800886e-01 -1.06661395603399773713e-02 -1.01540378315212800886e-01 -1.06661395603399773713e-02 -1.01540378315212800886e-01 9.89333860439659984465e-01 -1.01540378315212800886e-01
9.79278313913700222969e+08 9.89288440325965523492e-01 -1.01753955038080531881e-01 -1.07115596740344262011e-02 -1.01753955038080531881e-01 -1.07115596740344262011e-02 -1.01753955038080531881e-01 9.89288440325965523492e-01 -1.01753955038080531881e-01
9.79322402607500910759e+08 9.89242732659969092879e-01 -1.01968411878932768699e-01 -1.07572673400308915087e-02 -1.01968411878932768699e-01 -1.07572673400308915087e-02 -1.01968411878932768699e-01 9.89242732659969092879e-01 -1.01968411878932768699e-01
9.79366491301301598549e+08 9.89196735022887740918e-01 -1.02183754221774211746e-01 -1.08032649771122174487e-02 -1.02183754221774211746e-01 -1.08032649771122174487e-02 -1.02183754221774211746e-01 9.89196735022887740918e-01 -1.02183754221774211746e-01
9.79410579995102167130e+08 9.89150444970570807968e-01 -1.02399987494015104472e-01 -1.08495550294292284615e-02 -1.02399987494015104472e-01 -1.08495550294292284615e-02 -1.02399987494015104472e-01 9.89150444970570807968e-01 -1.02399987494015104472e-01
9.79454668688902854919e+08 9.89103860033180404265e-01 -1.02617117166904178727e-01 -1.08961399668195558360e-02 -1.02617117166904178727e-01 -1.08961399668195558360e-02 -1.02617117166904178727e-01 9.89103860033180404265e-01 -1.02617117166904178727e-01
9.79498757382703423500e+08 9.89056977714870444451e-01 -1.02835148755959629452e-01 -1.09430222851295902431e-02 -1.02835148755959629452e-01 -1.09430222851295902431e-02 -1.02835148755959629452e-01 9.89056977714870444451e-01 -1.02835148755959629452e-01
9.79542846076504111290e+08 9.89009795493455912130e-01 -1.03054087821418491333e-01 -1.09902045065440601146e-02 -1.03054087821418491333e-01 -1.09902045065440601146e-02 -1.03054087821418491333e-01 9.89009795493455912130e-01 -1.03054087821418491333e-01
9.79586934770304679871e+08 9.88962310820083012608e-01 -1.03273939968675551593e-01 -1.10376891799170030045e-02 -1.03273939968675551593e-01 -1.10376891799170030045e-02 -1.03273939968675551593e-01 9.88962310820083012608e-01 -1.03273939968675551593e-01
9.79631023464105367661e+08 9.88914521118889111584e-01 -1.03494710848742593745e-01 -1.10854788811108936203e-02 -1.03494710848742593745e-01 -1.10854788811108936203e-02 -1.03494710848742593745e-01 9.88914521118889111584e-01 -1.03494710848742593745e-01
9.79675112157906055450e+08 9.88866423786661563611e-01 -1.03716406158702062479e-01 -1.11335762133383982253e-02 -1.03716406158702062479e-01 -1.11335762133383982253e-02 -1.03716406158702062479e-01 9.88866423786661563611e-01 -1.03716406158702062479e-01
9.79719200851706624031e+08 9.88818016192489768201e-01 -1.03939031642170845449e-01 -1.11819838075101919000e-02 -1.03939031642170845449e-01 -1.11819838075101919000e-02 -1.03939031642170845449e-01 9.88818016192489768201e-01 -1.03939031642170845449e-01
9.79763289545507311821e+08 9.88769295677411896861e-01 -1.04162593089770161292e-01 -1.12307043225880580362e-02 -1.04162593089770161292e-01 -1.12307043225880580362e-02 -1.04162593089770161292e-01 9.88769295677411896861e-01 -1.04162593089770161292e-01
9.79807378239307880402e+08 9.88720259554057734341e-01 -1.04387096339596752159e-01 -1.12797404459422691281e-02 -1.04387096339596752159e-01 -1.12797404459422691281e-02 -1.04387096339596752159e-01 9.88720259554057734341e-01 -1.04387096339596752159e-01
9.79851466933108568192e+08 9.88670905106283970376e-01 -1.04612547277707482185e-01 -1.13290948937160330934e-02 -1.04612547277707482185e-01 -1.13290948937160330934e-02 -1.04612547277707482185e-01 9.88670905106283970376e-01 -1.04612547277707482185e-01
9.79895555626909255981e+08 9.88621229588807048927e-01 -1.04838951838599078736e-01 -1.13787704111929580120e-02 -1.04838951838599078736e-01 -1.13787704111929580120e-02 -1.04838951838599078736e-01 9.88621229588807048927e-01 -1.04838951838599078736e-01
9.79939644320709824562e+08 9.88571230226827912801e-01 -1.05066316005702944936e-01 -1.14287697731721288319e-02 -1.05066316005702944936e-01 -1.14287697731721288319e-02 -1.05066316005702944936e-01 9.88571230226827912801e-01 -1.05066316005702944936e-01
9.79983733014510512352e+08 9.88520904215651974312e-01 -1.05294645811882595088e-01 -1.14790957843480031370e-02 -1.05294645811882595088e-01 -1.14790957843480031370e-02 -1.05294645811882595088e-01 9.88520904215651974312e-01 -1.05294645811882595088e-01
9.80027821708311080933e+08 9.88470248720304534018e-01 -1.05523947339934337508e-01 -1.15297512796954399611e-02 -1.05523947339934337508e-01 -1.15297512796954399611e-02 -1.05523947339934337508e-01 9.88470248720304534018e-01 -1.05523947339934337508e-01
9.80071910402111768723e+08 9.88419260875138538935e-01 -1.05754226723098504470e-01 -1.15807391248614732077e-02 -1.05754226723098504470e-01 -1.15807391248614732077e-02 -1.05754226723098504470e-01 9.88419260875138538935e-01 -1.05754226723098504470e-01
9.80115999095912337303e+08 9.88367937783437677801e-01 -1.05985490145573749143e-01 -1.16320622165623308725e-02 -1.05985490145573749143e-01 -1.16320622165623308725e-02 -1.05985490145573749143e-01 9.88367937783437677801e-01 -1.05985490145573749143e-01
9.80160087789713025093e+08 9.88316276517013259095e-01 -1.06217743843038905927e-01 -1.16837234829867270269e-02 -1.06217743843038905927e-01 -1.16837234829867270269e-02 -1.06217743843038905927e-01 9.88316276517013259095e-01 -1.06217743843038905927e-01
9.80204176483513712883e+08 9.88264274115794760789e-01 -1.06450994103180984762e-01 -1.17357258842051958431e-02 -1.06450994103180984762e-01 -1.17357258842051958431e-02 -1.06450994103180984762e-01 9.88264274115794760789e-01 -1.06450994103180984762e-01
9.80248265177314281464e+08 9.88211927587414940000e-01 -1.06685247266226676532e-01 -1.17880724125850131628e-02 -1.06685247266226676532e-01 -1.17880724125850131628e-02 -1.06685247266226676532e-01 9.88211927587414940000e-01 -1.06685247266226676532e-01
9.80292353871114969254e+08 9.88159233906786615975e-01 -1.06920509725489110142e-01 -1.18407660932133285137e-02 -1.06920509725489110142e-01 -1.18407660932133285137e-02 -1.06920509725489110142e-01 9.88159233906786615975e-01 -1.06920509725489110142e-01
9.80336442564915537834e+08 9.88106190015676455474e-01 -1.07156787927906935187e-01 -1.18938099843235757513e-02 -1.07156787927906935187e-01 -1.18938099843235757513e-02 -1.07156787927906935187e-01 9.88106190015676455474e-01 -1.07156787927906935187e-01
9.80380531258716225624e+08 9.88052792822267988981e-01 -1.07394088374606025416e-01 -1.19472071777319745894e-02 -1.07394088374606025416e-01 -1.19472071777319745894e-02 -1.07394088374606025416e-01 9.88052792822267988981e-01 -1.07394088374606025416e-01
9.80424619952516794205e+08 9.87999039200722739551e-01 -1.07632417621452786127e-01 -1.20009607992772274893e-02 -1.07632417621452786127e-01 -1.20009607992772274893e-02 -1.07632417621452786127e-01 9.87999039200722739551e-01 -1.07632417621452786127e-01
9.80468708646317481995e+08 9.87944925990729805321e-01 -1.07871782279628167234e-01 -1.20550740092701513112e-02 -1.07871782279628167234e-01 -1.20550740092701513112e-02 -1.07871782279628167234e-01 9.87944925990729805321e-01 -1.07871782279628167234e-01
9.80512797340118169785e+08 9.87890449997052444431e-01 -1.08112189016197082769e-01 -1.21095500029475295484e-02 -1.08112189016197082769e-01 -1.21095500029475295484e-02 -1.08112189016197082769e-01 9.87890449997052444431e-01 -1.08112189016197082769e-01
9.80556886033918738365e+08 9.87835607989065667134e-01 -1.08353644554691153079e-01 -1.21643920109343831731e-02 -1.08353644554691153079e-01 -1.21643920109343831731e-02 -1.08353644554691153079e-01 9.87835607989065667134e-01 -1.08353644554691153079e-01
9.80600974727719426155e+08 9.87780396700286500433e-01 -1.08596155675699107546e-01 -1.22196032997135065057e-02 -1.08596155675699107546e-01 -1.22196032997135065057e-02 -1.08596155675699107546e-01 9.87780396700286500433e-01 -1.08596155675699107546e-01
9.80645063421519994736e+08 9.87724812827899256718e-01 -1.08839729217458242028e-01 -1.22751871721007901200e-02 -1.08839729217458242028e-01 -1.22751871721007901200e-02 -1.08839729217458242028e-01 9.87724812827899256718e-01 -1.08839729217458242028e-01
9.80689152115320682526e+08 9.87668853032269700165e-01 -1.09084372076463653745e-01 -1.23311469677303241210e-02 -1.09084372076463653745e-01 -1.23311469677303241210e-02 -1.09084372076463653745e-01 9.87668853032269700165e-01 -1.09084372076463653745e-01
9.80733240809121370316e+08 9.87612513936456215546e-01 -1.09330091208070870334e-01 -1.23874860635437653716e-02 -1.09330091208070870334e-01 -1.23874860635437653716e-02 -1.09330091208070870334e-01 9.87612513936456215546e-01 -1.09330091208070870334e-01
9.80777329502921938896e+08 9.87555792125709319684e-01 -1.09576893627120405816e-01 -1.24442078742906352129e-02 -1.09576893627120405816e-01 -1.24442078742906352129e-02 -1.09576893627120405816e-01 9.87555792125709319684e-01 -1.09576893627120405816e-01
9.80821418196722626686e+08 9.87498684146965621800e-01 -1.09824786408561483886e-01 -1.25013158530344302422e-02 -1.09824786408561483886e-01 -1.25013158530344302422e-02 -1.09824786408561483886e-01 9.87498684146965621800e-01 -1.09824786408561483886e-01
9.80865506890523195267e+08 9.87441186508334012295e-01 -1.10073776688080507413e-01 -1.25588134916659408674e-02 -1.10073776688080507413e-01 -1.25588134916659408674e-02 -1.10073776688080507413e-01 9.87441186508334012295e-01 -1.10073776688080507413e-01
9.80909595584323883057e+08 9.87383295678571970555e-01 -1.10323871662752273637e-01 -1.26167043214280398533e-02 -1.10323871662752273637e-01 -1.26167043214280398533e-02 -1.10323871662752273637e-01 9.87383295678571970555e-01 -1.10323871662752273637e-01
9.80953684278124451637e+08 9.87325008086556321629e-01 -1.10575078591677714024e-01 -1.26749919134436991874e-02 -1.10575078591677714024e-01 -1.26749919134436991874e-02 -1.10575078591677714024e-01 9.87325008086556321629e-01 -1.10575078591677714024e-01
9.80997772971925139427e+08 9.87266320120743001709e-01 -1.10827404796650041963e-01 -1.27336798792570260463e-02 -1.10827404796650041963e-01 -1.27336798792570260463e-02 -1.10827404796650041963e-01 9.87266320120743001709e-01 -1.10827404796650041963e-01
9.81041861665725827217e+08 9.87207228128620384311e-01 -1.11080857662815210563e-01 -1.27927718713795775252e-02 -1.11080857662815210563e-01 -1.27927718713795775252e-02 -1.11080857662815210563e-01 9.87207228128620384311e-01 -1.11080857662815210563e-01
9.81085950359526395798e+08 9.87147728416153502629e-01 -1.11335444639346040074e-01 -1.28522715838465268617e-02 -1.11335444639346040074e-01 -1.28522715838465268617e-02 -1.11335444639346040074e-01 9.87147728416153502629e-01 -1.11335444639346040074e-01
9.81130039053327083588e+08 9.87087817247217502725e-01 -1.11591173240128307964e-01 -1.29121827527824434984e-02 -1.11591173240128307964e-01 -1.29121827527824434984e-02 -1.11591173240128307964e-01 9.87087817247217502725e-01 -1.11591173240128307964e-01
9.81174127747127652168e+08 9.87027490843026544809e-01 -1.11848051044444202207e-01 -1.29725091569734083535e-02 -1.11848051044444202207e-01 -1.29725091569734083535e-02 -1.11848051044444202207e-01 9.87027490843026544809e-01 -1.11848051044444202207e-01
9.81218216440928339958e+08 9.86966745381548382632e-01 -1.12106085697679075386e-01 -1.30332546184516451238e-02 -1.12106085697679075386e-01 -1.30332546184516451238e-02 -1.12106085697679075386e-01 9.86966745381548382632e-01 -1.12106085697679075386e-01
9.81262305134728908539e+08 9.86905576996913613819e-01 -1.12365284912024021580e-01 -1.30944230030863688341e-02 -1.12365284912024021580e-01 -1.30944230030863688341e-02 -1.12365284912024021580e-01 9.86905576996913613819e-01 -1.12365284912024021580e-01
9.81306393828529596329e+08 9.86843981778813605921e-01 -1.12625656467197049482e-01 -1.31560182211863680585e-02 -1.12625656467197049482e-01 -1.31560182211863680585e-02 -1.12625656467197049482e-01 9.86843981778813605921e-01 -1.12625656467197049482e-01
9.81350482522330284119e+08 9.86781955771889762730e-01 -1.12887208211165171456e-01 -1.32180442281102528829e-02 -1.12887208211165171456e-01 -1.32180442281102528829e-02 -1.12887208211165171456e-01 9.86781955771889762730e-01 -1.12887208211165171456e-01
9.81394571216130852699e+08 9.86719494975112132451e-01 -1.13149948060881674894e-01 -1.32805050248878883656e-02 -1.13149948060881674894e-01 -1.32805050248878883656e-02 -1.13149948060881674894e-01 9.86719494975112132451e-01 -1.13149948060881674894e-01
