! File generated for n1 = 7, n2 = 7
! b1 = 1.000000
! b2 = 0.010000
! Q0 = 10000.000000
! f0 = 1000000000.000000
! n = 1001
! rel_span = 10.000000
# Hz S RI R 50
9.98995000000000000000e+08 9.90158074079281247393e-01 -9.84687646379000802721e-02 -9.84192592071879207224e-04 -9.84687646379000559860e-03 -9.84192592071879207224e-04 -9.84687646379000559860e-03 9.99901580740792828017e-01 -9.84687646379000603228e-04
9.98997010000000000000e+08 9.90118960377444401466e-01 -9.86622788984009013724e-02 -9.88103962255559896757e-04 -9.86622788984008701474e-03 -9.88103962255559896757e-04 -9.86622788984008701474e-03 9.99901189603774498416e-01 -9.86622788984008701474e-04
9.98999020000000000000e+08 9.90079613908650513210e-01 -9.88565469580277855766e-02 -9.92038609134952755614e-04 -9.88565469580277716988e-03 -9.92038609134952755614e-04 -9.88565469580277716988e-03 9.99900796139086556202e-01 -9.88565469580277716988e-04
9.99001030000000000000e+08 9.90040032828764959838e-01 -9.90515731813691735486e-02 -9.95996717123499115606e-04 -9.90515731813691562013e-03 -9.95996717123499115606e-04 -9.90515731813691562013e-03 9.99900400328287641827e-01 -9.90515731813691431909e-04
9.99003040000000000000e+08 9.90000215275414152671e-01 -9.92473619663951783787e-02 -9.99978472458585817065e-04 -9.92473619663951714398e-03 -9.99978472458585817065e-04 -9.92473619663951714398e-03 9.99900002152754097118e-01 -9.92473619663951671030e-04
9.99005050000000000000e+08 9.89960159367781700190e-01 -9.94439177447083710870e-02 -1.00398406322183475145e-03 -9.94439177447083502703e-03 -1.00398406322183475145e-03 -9.94439177447083502703e-03 9.99899601593677855860e-01 -9.94439177447083459335e-04
9.99007060000000000000e+08 9.89919863206374595066e-01 -9.96412449819376599969e-02 -1.00801367936253615659e-03 -9.96412449819376530580e-03 -1.00801367936253615659e-03 -9.96412449819376530580e-03 9.99899198632063779257e-01 -9.96412449819376530580e-04
9.99009070000000000000e+08 9.89879324872806942714e-01 -9.98393481780339292486e-02 -1.01206751271930945821e-03 -9.98393481780339084319e-03 -1.01206751271930945821e-03 -9.98393481780339084319e-03 9.99898793248728101624e-01 -9.98393481780339127687e-04
9.99011080000000000000e+08 9.89838542429582801674e-01 -1.00038231867552035448e-01 -1.01614575704171987598e-03 -1.00038231867552018101e-02 -1.01614575704171987598e-03 -1.00038231867552018101e-02 9.99898385424295876867e-01 -1.00038231867552018101e-03
9.99013090000000000000e+08 9.89797513919851046360e-01 -1.00237900620067876822e-01 -1.02024860801489068024e-03 -1.00237900620067862945e-02 -1.02024860801489068024e-03 -1.00237900620067862945e-02 9.99897975139198535999e-01 -1.00237900620067849934e-03
9.99015100000000000000e+08 9.89756237367193758558e-01 -1.00438359040412872325e-01 -1.02437626328062019766e-03 -1.00438359040412854978e-02 -1.02437626328062019766e-03 -1.00438359040412854978e-02 9.99897562373671888736e-01 -1.00438359040412854978e-03
9.99017110000000000000e+08 9.89714710775374650886e-01 -1.00639611769093403892e-01 -1.02852892246253768693e-03 -1.00639611769093376137e-02 -1.02852892246253768693e-03 -1.00639611769093376137e-02 9.99897147107753792028e-01 -1.00639611769093371800e-03
9.99019120000000000000e+08 9.89672932128105475869e-01 -1.00841663482609977809e-01 -1.03270678718945249988e-03 -1.00841663482609967400e-02 -1.03270678718945249988e-03 -1.00841663482609967400e-02 9.99896729321281041436e-01 -1.00841663482609950053e-03
9.99021130000000000000e+08 9.89630899388819096352e-01 -1.01044518893734849851e-01 -1.03691006111808850000e-03 -1.01044518893734832504e-02 -1.03691006111808850000e-03 -1.01044518893734832504e-02 9.99896308993888149885e-01 -1.01044518893734819494e-03
9.99023140000000000000e+08 9.89588610500399146197e-01 -1.01248182751983259453e-01 -1.04113894996008568387e-03 -1.01248182751983249045e-02 -1.04113894996008568387e-03 -1.01248182751983249045e-02 9.99895886105004016997e-01 -1.01248182751983236034e-03
9.99025150000000000000e+08 9.89546063384955099096e-01 -1.01452659843854348098e-01 -1.04539366150449130471e-03 -1.01452659843854330751e-02 -1.04539366150449130471e-03 -1.01452659843854330751e-02 9.99895460633849597620e-01 -1.01452659843854326414e-03
9.99027160000000000000e+08 9.89503255943559256735e-01 -1.01657954993243468400e-01 -1.04967440564407107385e-03 -1.01657954993243440645e-02 -1.04967440564407107385e-03 -1.01657954993243440645e-02 9.99895032559435570363e-01 -1.01657954993243453655e-03
9.99029170000000000000e+08 9.89460186055991730569e-01 -1.01864073061803117604e-01 -1.05398139440082455782e-03 -1.01864073061803100256e-02 -1.05398139440082455782e-03 -1.01864073061803100256e-02 9.99894601860559895101e-01 -1.01864073061803104593e-03
9.99031180000000000000e+08 9.89416851580486200746e-01 -1.02071018949284886279e-01 -1.05831484195138066269e-03 -1.02071018949284868932e-02 -1.05831484195138066269e-03 -1.02071018949284868932e-02 9.99894168515804815378e-01 -1.02071018949284868932e-03
9.99033190000000000000e+08 9.89373250353465349960e-01 -1.02278797593919709707e-01 -1.06267496465346626168e-03 -1.02278797593919699299e-02 -1.06267496465346626168e-03 -1.02278797593919699299e-02 9.99893732503534637956e-01 -1.02278797593919690626e-03
9.99035200000000000000e+08 9.89329380189274854018e-01 -1.02487413972790916694e-01 -1.06706198107251360070e-03 -1.02487413972790902816e-02 -1.06706198107251360070e-03 -1.02487413972790902816e-02 9.99893293801892735218e-01 -1.02487413972790898480e-03
9.99037210000000000000e+08 9.89285238879913597643e-01 -1.02696873102211649886e-01 -1.07147611200864392202e-03 -1.02696873102211642947e-02 -1.07147611200864392202e-03 -1.02696873102211642947e-02 9.99892852388799102670e-01 -1.02696873102211638611e-03
9.99039220000000000000e+08 9.89240824194754675425e-01 -1.02907180038129861255e-01 -1.07591758052452885798e-03 -1.02907180038129836969e-02 -1.07591758052452885798e-03 -1.02907180038129836969e-02 9.99892408241947583392e-01 -1.02907180038129823958e-03
9.99041230000000000000e+08 9.89196133880283268169e-01 -1.03118339876444767289e-01 -1.08038661197167756324e-03 -1.03118339876444743003e-02 -1.08038661197167756324e-03 -1.03118339876444743003e-02 9.99891961338802870429e-01 -1.03118339876444743003e-03
9.99043240000000000000e+08 9.89151165659796882679e-01 -1.03330357753478652150e-01 -1.08488343402030713511e-03 -1.03330357753478631333e-02 -1.08488343402030713511e-03 -1.03330357753478631333e-02 9.99891511656597953284e-01 -1.03330357753478644343e-03
9.99045250000000000000e+08 9.89105917233128240085e-01 -1.03543238846337329329e-01 -1.08940827668717169809e-03 -1.03543238846337311981e-02 -1.08940827668717169809e-03 -1.03543238846337311981e-02 9.99891059172331231331e-01 -1.03543238846337298971e-03
9.99047260000000000000e+08 9.89060386276359726487e-01 -1.03756988373286021532e-01 -1.09396137236402509613e-03 -1.03756988373285997246e-02 -1.09396137236402509613e-03 -1.03756988373285997246e-02 9.99890603862763627241e-01 -1.03756988373286001583e-03
9.99049270000000000000e+08 9.89014570441519969002e-01 -1.03971611594200791240e-01 -1.09854295584800739326e-03 -1.03971611594200763484e-02 -1.09854295584800739326e-03 -1.03971611594200763484e-02 9.99890145704415145289e-01 -1.03971611594200772158e-03
9.99051280000000000000e+08 9.88968467356292957327e-01 -1.04187113810942186265e-01 -1.10315326437070105811e-03 -1.04187113810942175857e-02 -1.10315326437070105811e-03 -1.04187113810942175857e-02 9.99889684673562983974e-01 -1.04187113810942167183e-03
9.99053290000000000000e+08 9.88922074623713842634e-01 -1.04403500367780635583e-01 -1.10779253762861764482e-03 -1.04403500367780625174e-02 -1.10779253762861764482e-03 -1.04403500367780625174e-02 9.99889220746237095128e-01 -1.04403500367780612164e-03
9.99055300000000000000e+08 9.88875389821858630235e-01 -1.04620776651827063208e-01 -1.11246101781413246623e-03 -1.04620776651827042392e-02 -1.11246101781413246623e-03 -1.04620776651827042392e-02 9.99888753898218629601e-01 -1.04620776651827046728e-03
9.99057310000000000000e+08 9.88828410503541643806e-01 -1.04838948093420356034e-01 -1.11715894964583249693e-03 -1.04838948093420331747e-02 -1.11715894964583249693e-03 -1.04838948093420331747e-02 9.99888284105035385352e-01 -1.04838948093420331747e-03
9.99059320000000000000e+08 9.88781134195986233237e-01 -1.05058020166615750934e-01 -1.12188658040137984213e-03 -1.05058020166615730118e-02 -1.12188658040137984213e-03 -1.05058020166615730118e-02 9.99887811341959809042e-01 -1.05058020166615725781e-03
9.99061330000000000000e+08 9.88733558400522793974e-01 -1.05277998389533888890e-01 -1.12664415994772324804e-03 -1.05277998389533868073e-02 -1.12664415994772324804e-03 -1.05277998389533868073e-02 9.99887335584005221278e-01 -1.05277998389533868073e-03
9.99063340000000000000e+08 9.88685680592243154585e-01 -1.05498888324895900848e-01 -1.13143194077568458485e-03 -1.05498888324895880031e-02 -1.13143194077568458485e-03 -1.05498888324895880031e-02 9.99886856805922485947e-01 -1.05498888324895875694e-03
9.99065350000000000000e+08 9.88637498219686383649e-01 -1.05720695580394527524e-01 -1.13625017803136297949e-03 -1.05720695580394513646e-02 -1.13625017803136297949e-03 -1.05720695580394513646e-02 9.99886374982196901584e-01 -1.05720695580394509309e-03
9.99067360000000000000e+08 9.88589008704501615021e-01 -1.05943425809154639916e-01 -1.14109912954984222752e-03 -1.05943425809154629508e-02 -1.14109912954984222752e-03 -1.05943425809154629508e-02 9.99885890087044981733e-01 -1.05943425809154612161e-03
9.99069370000000000000e+08 9.88540209441100659049e-01 -1.06167084710224277067e-01 -1.14597905588993860537e-03 -1.06167084710224266658e-02 -1.14597905588993860537e-03 -1.06167084710224266658e-02 9.99885402094411013252e-01 -1.06167084710224253648e-03
9.99071380000000000000e+08 9.88491097796321493973e-01 -1.06391678028997321848e-01 -1.15089022036784648269e-03 -1.06391678028997307970e-02 -1.15089022036784648269e-03 -1.06391678028997307970e-02 9.99884910977963170531e-01 -1.06391678028997307970e-03
9.99073390000000000000e+08 9.88441671109073660695e-01 -1.06617211557703081559e-01 -1.15583288909262902992e-03 -1.06617211557703053804e-02 -1.15583288909262902992e-03 -1.06617211557703053804e-02 9.99884416711090739938e-01 -1.06617211557703058140e-03
9.99075400000000000000e+08 9.88391926689988542520e-01 -1.06843691135851917573e-01 -1.16080733100114405661e-03 -1.06843691135851907165e-02 -1.16080733100114405661e-03 -1.06843691135851907165e-02 9.99883919266899900968e-01 -1.06843691135851889817e-03
9.99077410000000000000e+08 9.88341861821058320636e-01 -1.07071122650717207025e-01 -1.16581381789416464040e-03 -1.07071122650717193148e-02 -1.16581381789416464040e-03 -1.07071122650717193148e-02 9.99883418618210617623e-01 -1.07071122650717175800e-03
9.99079420000000000000e+08 9.88291473755265381662e-01 -1.07299512037842187384e-01 -1.17085262447345949191e-03 -1.07299512037842166567e-02 -1.17085262447345949191e-03 -1.07299512037842166567e-02 9.99882914737552641604e-01 -1.07299512037842162231e-03
9.99081430000000000000e+08 9.88240759716219718811e-01 -1.07528865281489499628e-01 -1.17592402837802807551e-03 -1.07528865281489478811e-02 -1.17592402837802807551e-03 -1.07528865281489478811e-02 9.99882407597162181645e-01 -1.07528865281489478811e-03
9.99083440000000000000e+08 9.88189716897777237214e-01 -1.07759188415159648522e-01 -1.18102831022227688570e-03 -1.07759188415159634644e-02 -1.18102831022227688570e-03 -1.07759188415159634644e-02 9.99881897168977795687e-01 -1.07759188415159625971e-03
9.99085450000000000000e+08 9.88138342463656615955e-01 -1.07990487522096334505e-01 -1.18616575363433818767e-03 -1.07990487522096317158e-02 -1.18616575363433818767e-03 -1.07990487522096317158e-02 9.99881383424636616120e-01 -1.07990487522096321495e-03
9.99087460000000000000e+08 9.88086633547054504767e-01 -1.08222768735779142912e-01 -1.19133664529455008708e-03 -1.08222768735779118626e-02 -1.19133664529455008708e-03 -1.08222768735779118626e-02 9.99880866335470575024e-01 -1.08222768735779118626e-03
9.99089470000000000000e+08 9.88034587250260831759e-01 -1.08456038240395749583e-01 -1.19654127497391730116e-03 -1.08456038240395732236e-02 -1.19654127497391730116e-03 -1.08456038240395732236e-02 9.99880345872502629412e-01 -1.08456038240395727899e-03
9.99091480000000000000e+08 9.87982200644239694221e-01 -1.08690302271449018567e-01 -1.20177993557603400403e-03 -1.08690302271449001220e-02 -1.20177993557603400403e-03 -1.08690302271449001220e-02 9.99879822006442431359e-01 -1.08690302271448996883e-03
9.99093490000000000000e+08 9.87929470768244000212e-01 -1.08925567116190488703e-01 -1.20705292317559859105e-03 -1.08925567116190478295e-02 -1.20705292317559859105e-03 -1.08925567116190478295e-02 9.99879294707682442223e-01 -1.08925567116190460948e-03
9.99095500000000000000e+08 9.87876394629387255542e-01 -1.09161839114227610104e-01 -1.21236053706127782856e-03 -1.09161839114227596226e-02 -1.21236053706127782856e-03 -1.09161839114227596226e-02 9.99878763946293824816e-01 -1.09161839114227583215e-03
9.99097510000000000000e+08 9.87822969202245881881e-01 -1.09399124657968901952e-01 -1.21770307977541705942e-03 -1.09399124657968884605e-02 -1.21770307977541705942e-03 -1.09399124657968884605e-02 9.99878229692022446606e-01 -1.09399124657968884605e-03
9.99099520000000000000e+08 9.87769191428412351996e-01 -1.09637430193270768441e-01 -1.22308085715876354270e-03 -1.09637430193270744155e-02 -1.22308085715876354270e-03 -1.09637430193270744155e-02 9.99877691914284105756e-01 -1.09637430193270757166e-03
9.99101530000000000000e+08 9.87715058216085628473e-01 -1.09876762219895091066e-01 -1.22849417839143368325e-03 -1.09876762219895066780e-02 -1.22849417839143368325e-03 -1.09876762219895066780e-02 9.99877150582160867387e-01 -1.09876762219895062443e-03
9.99103540000000000000e+08 9.87660566439619302948e-01 -1.10117127292130773109e-01 -1.23394335603806918483e-03 -1.10117127292130752292e-02 -1.23394335603806918483e-03 -1.10117127292130752292e-02 9.99876605664396178597e-01 -1.10117127292130747955e-03
9.99105550000000000000e+08 9.87605712939087165836e-01 -1.10358532019316654682e-01 -1.23942870609128840374e-03 -1.10358532019316623457e-02 -1.23942870609128840374e-03 -1.10358532019316623457e-02 9.99876057129390871658e-01 -1.10358532019316627794e-03
9.99107560000000000000e+08 9.87550494519830013296e-01 -1.10600983066424157775e-01 -1.24495054801700253018e-03 -1.10600983066424136958e-02 -1.24495054801700253018e-03 -1.10600983066424136958e-02 9.99875504945198279039e-01 -1.10600983066424119611e-03
9.99109570000000000000e+08 9.87494907951995681827e-01 -1.10844487154646953453e-01 -1.25050920480042804424e-03 -1.10844487154646929167e-02 -1.25050920480042804424e-03 -1.10844487154646929167e-02 9.99874949079519903528e-01 -1.10844487154646920493e-03
9.99111580000000000000e+08 9.87438949970084189900e-01 -1.11089051061944166232e-01 -1.25610500299157680330e-03 -1.11089051061944131538e-02 -1.25610500299157680330e-03 -1.11089051061944131538e-02 9.99874389499700866324e-01 -1.11089051061944127201e-03
9.99113590000000000000e+08 9.87382617272464013780e-01 -1.11334681623684372820e-01 -1.26173827275359866536e-03 -1.11334681623684352003e-02 -1.26173827275359866536e-03 -1.11334681623684352003e-02 9.99873826172724688988e-01 -1.11334681623684338993e-03
9.99115600000000000000e+08 9.87325906520902907282e-01 -1.11581385733203350408e-01 -1.26740934790971009581e-03 -1.11581385733203319183e-02 -1.26740934790971009581e-03 -1.11581385733203319183e-02 9.99873259065209074592e-01 -1.11581385733203327856e-03
9.99117610000000000000e+08 9.87268814340076072966e-01 -1.11829170342435793573e-01 -1.27311856599239005793e-03 -1.11829170342435772756e-02 -1.27311856599239005793e-03 -1.11829170342435772756e-02 9.99872688143400800698e-01 -1.11829170342435781429e-03
9.99119620000000000000e+08 9.87211337317082215925e-01 -1.12078042462487217912e-01 -1.27886626829177424414e-03 -1.12078042462487193626e-02 -1.27886626829177424414e-03 -1.12078042462487193626e-02 9.99872113373170834372e-01 -1.12078042462487176278e-03
9.99121630000000000000e+08 9.87153472000929954611e-01 -1.12328009164308240120e-01 -1.28465279990700462567e-03 -1.12328009164308212364e-02 -1.28465279990700462567e-03 -1.12328009164308212364e-02 9.99871534720009336183e-01 -1.12328009164308216701e-03
9.99123640000000000000e+08 9.87095214902041662164e-01 -1.12579077579267688991e-01 -1.29047850979583755664e-03 -1.12579077579267657766e-02 -1.29047850979583755664e-03 -1.12579077579267657766e-02 9.99870952149020442157e-01 -1.12579077579267662103e-03
9.99125650000000000000e+08 9.87036562491720892432e-01 -1.12831254899856847640e-01 -1.29634375082790628993e-03 -1.12831254899856819884e-02 -1.29634375082790628993e-03 -1.12831254899856819884e-02 9.99870365624917156744e-01 -1.12831254899856819884e-03
9.99127660000000000000e+08 9.86977511201647450534e-01 -1.13084548380249658162e-01 -1.30224887983525845943e-03 -1.13084548380249626937e-02 -1.30224887983525845943e-03 -1.13084548380249626937e-02 9.99869775112016467844e-01 -1.13084548380249622600e-03
9.99129670000000000000e+08 9.86918057423327388378e-01 -1.13338965337023450664e-01 -1.30819425766725921066e-03 -1.13338965337023422908e-02 -1.30819425766725921066e-03 -1.13338965337023422908e-02 9.99869180574233240577e-01 -1.13338965337023427245e-03
9.99131680000000000000e+08 9.86858197507562651118e-01 -1.13594513149776421557e-01 -1.31418024924373857444e-03 -1.13594513149776407679e-02 -1.31418024924373857444e-03 -1.13594513149776407679e-02 9.99868581975075665369e-01 -1.13594513149776403342e-03
9.99133690000000000000e+08 9.86797927763897186892e-01 -1.13851199261808935792e-01 -1.32020722361027948930e-03 -1.13851199261808914975e-02 -1.32020722361027948930e-03 -1.13851199261808914975e-02 9.99867979277638929680e-01 -1.13851199261808910639e-03
9.99135700000000000000e+08 9.86737244460059503837e-01 -1.14109031180799389005e-01 -1.32627555399405356283e-03 -1.14109031180799364719e-02 -1.32627555399405356283e-03 -1.14109031180799364719e-02 9.99867372444600555070e-01 -1.14109031180799369055e-03
9.99137710000000000000e+08 9.86676143821394679989e-01 -1.14368016479488590620e-01 -1.33238561786053351897e-03 -1.14368016479488559395e-02 -1.33238561786053351897e-03 -1.14368016479488559395e-02 9.99866761438213957902e-01 -1.14368016479488563732e-03
9.99139720000000000000e+08 9.86614622030285604026e-01 -1.14628162796386559585e-01 -1.33853779697143469678e-03 -1.14628162796386531830e-02 -1.33853779697143469678e-03 -1.14628162796386531830e-02 9.99866146220302898229e-01 -1.14628162796386523156e-03
9.99141730000000000000e+08 9.86552675225570885331e-01 -1.14889477836460293658e-01 -1.34473247744290938521e-03 -1.14889477836460276311e-02 -1.34473247744290938521e-03 -1.14889477836460276311e-02 9.99865526752255706633e-01 -1.14889477836460271974e-03
9.99143740000000000000e+08 9.86490299501960543616e-01 -1.15151969371800153019e-01 -1.35097004980394824053e-03 -1.15151969371800125264e-02 -1.35097004980394824053e-03 -1.15151969371800125264e-02 9.99864902995019622090e-01 -1.15151969371800138274e-03
9.99145750000000000000e+08 9.86427490909406512465e-01 -1.15415645242447420515e-01 -1.35725090905934424323e-03 -1.15415645242447403168e-02 -1.35725090905934424323e-03 -1.15415645242447403168e-02 9.99864274909094019606e-01 -1.15415645242447390158e-03
9.99147760000000000000e+08 9.86364245452520549406e-01 -1.15680513356992351048e-01 -1.36357545474794731449e-03 -1.15680513356992333701e-02 -1.36357545474794731449e-03 -1.15680513356992333701e-02 9.99863642454525192171e-01 -1.15680513356992325028e-03
9.99149770000000000000e+08 9.86300559089922423972e-01 -1.15946581693427530624e-01 -1.36994409100775656196e-03 -1.15946581693427506338e-02 -1.36994409100775656196e-03 -1.15946581693427506338e-02 9.99863005590899245334e-01 -1.15946581693427493327e-03
9.99151780000000000000e+08 9.86236427733624854142e-01 -1.16213858299821948261e-01 -1.37635722663751423889e-03 -1.16213858299821937853e-02 -1.37635722663751423889e-03 -1.16213858299821937853e-02 9.99862364277336213014e-01 -1.16213858299821920506e-03
