! File generated for n1 = 5, n2 = 9
! b1 = 4.641589
! b2 = 0.010000
! Q0 = 10000.000000
! f0 = 1000000000.000000
! n = 1001
! rel_span = 10.000000
# Hz S RI R 50
9.97174205583193659782e+08 9.83782382389973175663e-01 -1.62405963699259053845e-01 -7.52755128065026382633e-04 -7.53821707618603040896e-03 -7.52755128065026382633e-04 -7.53821707618603040896e-03 9.99965060202031241765e-01 -3.49893042061742427611e-04
9.97179857172027230263e+08 9.83717870255283788339e-01 -1.62725433338218927748e-01 -7.55749516105091501995e-04 -7.55304554327477454395e-03 -7.55749516105091501995e-04 -7.55304554327477454395e-03 9.99964921214850366304e-01 -3.50581318534329484157e-04
9.97185508760860919952e+08 9.83652974083711995057e-01 -1.63046147444871336596e-01 -7.58761729558212285641e-04 -7.56793177343697328480e-03 -7.58761729558212285641e-04 -7.56793177343697328480e-03 9.99964781400287106017e-01 -3.51272276131284037510e-04
9.97191160349694490433e+08 9.83587690832153915821e-01 -1.63368113225036470926e-01 -7.61791909672749939682e-04 -7.58287610113717383542e-03 -7.61791909672749939682e-04 -7.58287610113717383542e-03 9.99964640751785260875e-01 -3.51965930377075005096e-04
9.97196811938528060913e+08 9.83522017427406969325e-01 -1.63691337939638387189e-01 -7.64840199094137364669e-04 -7.59787886339761270316e-03 -7.64840199094137364669e-04 -7.59787886339761270316e-03 9.99964499262723904849e-01 -3.52662296914889056981e-04
9.97202463527361750603e+08 9.83455950765821151904e-01 -1.64015828905184457565e-01 -7.67906741881044501569e-04 -7.61294039982048174192e-03 -7.67906741881044501569e-04 -7.61294039982048174192e-03 9.99964356926416275684e-01 -3.53361391507663426866e-04
9.97208115116195321083e+08 9.83389487712936660735e-01 -1.64341593494297555367e-01 -7.70991683522210245229e-04 -7.62806105261261933881e-03 -7.70991683522210245229e-04 -7.62806105261261933881e-03 9.99964213736109552855e-01 -3.54063230039232672720e-04
9.97213766705028891563e+08 9.83322625103110636857e-01 -1.64668639136280048341e-01 -7.74095170953755852029e-04 -7.64324116661169606496e-03 -7.74095170953755852029e-04 -7.64324116661169606496e-03 9.99964069684983525299e-01 -3.54767828515543471105e-04
9.97219418293862581253e+08 9.83255359739151790777e-01 -1.64996973317623474298e-01 -7.77217352576161269080e-04 -7.65848108930986676279e-03 -7.77217352576161269080e-04 -7.65848108930986676279e-03 9.99963924766149925283e-01 -3.55475203065753022399e-04
9.97225069882696151733e+08 9.83187688391944591970e-01 -1.65326603582545639259e-01 -7.80358378271683275802e-04 -7.67378117087870199181e-03 -7.80358378271683275802e-04 -7.67378117087870199181e-03 9.99963778972651984311e-01 -3.56185369943385677673e-04
9.97230721471529841423e+08 9.83119607800062023095e-01 -1.65657537533570181632e-01 -7.83518399422361696768e-04 -7.68914176419609098762e-03 -7.83518399422361696768e-04 -7.68914176419609098762e-03 9.99963632297463100862e-01 -3.56898345527582319062e-04
9.97236373060363411903e+08 9.83051114669383108158e-01 -1.65989782832056953499e-01 -7.86697568927746974585e-04 -7.70456322487085565331e-03 -7.86697568927746974585e-04 -7.70456322487085565331e-03 9.99963484733486396294e-01 -3.57614146324242133078e-04
9.97242024649196982384e+08 9.82982205672698450272e-01 -1.66323347198774590394e-01 -7.89896041223218741377e-04 -7.72004591126933346207e-03 -7.89896041223218741377e-04 -7.72004591126933346207e-03 9.99963336273553382583e-01 -3.58332788967257191617e-04
9.97247676238030672073e+08 9.82912877449309330125e-01 -1.66658238414482490208e-01 -7.93113972298590944911e-04 -7.73559018454238189744e-03 -7.93113972298590944911e-04 -7.73559018454238189744e-03 9.99963186910423962317e-01 -3.59054290219765247574e-04
9.97253327826864242554e+08 9.82843126604631467380e-01 -1.66994464320470492602e-01 -7.96351519716506747910e-04 -7.75119640865043306455e-03 -7.96351519716506747910e-04 -7.75119640865043306455e-03 9.99963036636784541322e-01 -3.59778666975313137985e-04
9.97258979415697813034e+08 9.82772949709777687843e-01 -1.67332032819180187566e-01 -7.99608842631818099791e-04 -7.76686495039233693732e-03 -7.99608842631818099791e-04 -7.76686495039233693732e-03 9.99962885445247806615e-01 -3.60505936259195285815e-04
9.97264631004531502724e+08 9.82702343301144254362e-01 -1.67670951874783896729e-01 -8.02886101810762671006e-04 -7.78259617943222528624e-03 -8.02886101810762671006e-04 -7.78259617943222528624e-03 9.99962733328351727202e-01 -3.61236115229700803508e-04
9.97270282593365073204e+08 9.82631303879998641015e-01 -1.68011229513740201202e-01 -8.06183459650119645448e-04 -7.79839046832530094489e-03 -8.06183459650119645448e-04 -7.79839046832530094489e-03 9.99962580278558443858e-01 -3.61969221179310397980e-04
9.97275934182198643684e+08 9.82559827912037220266e-01 -1.68352873825469123714e-01 -8.09501080197734643358e-04 -7.81424819254918426314e-03 -8.09501080197734643358e-04 -7.81424819254918426314e-03 9.99962426288253602991e-01 -3.62705271536151261508e-04
9.97281585771032333374e+08 9.82487911826962379003e-01 -1.68695892962911681012e-01 -8.12839129172136624912e-04 -7.83016973052987237669e-03 -8.12839129172136624912e-04 -7.83016973052987237669e-03 9.99962271349745135396e-01 -3.63444283865202270867e-04
9.97287237359865903854e+08 9.82415552018047533167e-01 -1.69040295143128571631e-01 -8.16197773982752731309e-04 -7.84615546366953901802e-03 -8.16197773982752731309e-04 -7.84615546366953901802e-03 9.99962115455262590125e-01 -3.64186275869584242127e-04
9.97292888948699474335e+08 9.82342744841677717460e-01 -1.69386088647987514966e-01 -8.19577183751204617519e-04 -7.86220577637842914231e-03 -8.19577183751204617519e-04 -7.86220577637842914231e-03 9.99961958596956135281e-01 -3.64931265392040029248e-04
9.97298540537533164024e+08 9.82269486616911602361e-01 -1.69733281824729270726e-01 -8.22977529331650036609e-04 -7.87832105610113998806e-03 -8.22977529331650036609e-04 -7.87832105610113998806e-03 9.99961800766895447801e-01 -3.65679270416154793624e-04
9.97304192126366734505e+08 9.82195773625015755570e-01 -1.70081883086642432490e-01 -8.26398983332411046776e-04 -7.89450169334793457054e-03 -8.26398983332411046776e-04 -7.89450169334793457054e-03 9.99961641957068603226e-01 -3.66430309067809431307e-04
9.97309843715200424194e+08 9.82121602109000901848e-01 -1.70431900913701472877e-01 -8.29841720137478185658e-04 -7.91074808172436208520e-03 -8.29841720137478185658e-04 -7.91074808172436208520e-03 9.99961482159381409573e-01 -3.67184399616554961888e-04
9.97315495304033994675e+08 9.82046968273155185258e-01 -1.70783343853198571471e-01 -8.33305915928186382267e-04 -7.92706061796057993851e-03 -8.33305915928186382267e-04 -7.92706061796057993851e-03 9.99961321365656408133e-01 -3.67941560476974340640e-04
9.97321146892867565155e+08 9.81971868282555337970e-01 -1.71136220520455045735e-01 -8.36791748705915439978e-04 -7.94343970194438114829e-03 -8.36791748705915439978e-04 -7.94343970194438114829e-03 9.99961159567631430178e-01 -3.68701810210214544605e-04
9.97326798481701254845e+08 9.81896298262594946493e-01 -1.71490539599423397199e-01 -8.40299398313956768039e-04 -7.95988573674913726941e-03 -8.40299398313956768039e-04 -7.95988573674913726941e-03 9.99960996756958930831e-01 -3.69465167525284091544e-04
9.97332450070534825325e+08 9.81820254298485739497e-01 -1.71846309843396910511e-01 -8.43829046460685709349e-04 -7.97639912866672691483e-03 -8.43829046460685709349e-04 -7.97639912866672691483e-03 9.99960832925204656796e-01 -3.70231651280581710792e-04
9.97338101659368395805e+08 9.81743732434755322913e-01 -1.72203540075706817980e-01 -8.47380876742869176659e-04 -7.99298028723991436928e-03 -8.47380876742869176659e-04 -7.99298028723991436928e-03 9.99960668063846980225e-01 -3.71001280485398342735e-04
9.97343753248202085495e+08 9.81666728674747468553e-01 -1.72562239190382132881e-01 -8.50955074668852833909e-04 -8.00962962529295184611e-03 -8.50955074668852833909e-04 -8.00962962529295184611e-03 9.99960502164275122361e-01 -3.71774074301338582071e-04
9.97349404837035655975e+08 9.81589238980107414712e-01 -1.72922416152855334959e-01 -8.54551827682469597285e-04 -8.02634755896435361788e-03 -8.54551827682469597285e-04 -8.02634755896435361788e-03 9.99960335217788820472e-01 -3.72550052043841162935e-04
9.97355056425869226456e+08 9.81511259270254066145e-01 -1.73284080000698031965e-01 -8.58171325187506717214e-04 -8.04313450774103363972e-03 -8.58171325187506717214e-04 -8.04313450774103363972e-03 9.99960167215596884560e-01 -3.73329233183763845635e-04
9.97360708014702916145e+08 9.81432785421858633335e-01 -1.73647239844304857037e-01 -8.61813758571931733815e-04 -8.05999089449005272356e-03 -8.61813758571931733815e-04 -8.05999089449005272356e-03 9.99959998148815532026e-01 -3.74111637348856955823e-04
9.97366359603536486626e+08 9.81353813268307617612e-01 -1.74011904867620748050e-01 -8.65479321232819477465e-04 -8.07691714549237452236e-03 -8.65479321232819477465e-04 -8.07691714549237452236e-03 9.99959828008468387672e-01 -3.74897284325330002429e-04
9.97372011192370057106e+08 9.81274338599154249962e-01 -1.74378084328891208576e-01 -8.69168208601791896992e-04 -8.09391369047768836908e-03 -8.69168208601791896992e-04 -8.09391369047768836908e-03 9.99959656785484263253e-01 -3.75686194059468277304e-04
9.97377662781203746796e+08 9.81194357159569152671e-01 -1.74745787561392668108e-01 -8.72880618170540287237e-04 -8.11098096265830924290e-03 -8.72880618170540287237e-04 -8.11098096265830924290e-03 9.99959484470696269298e-01 -3.76478386659206303629e-04
9.97383314370037317276e+08 9.81113864649783340433e-01 -1.75115023974164341070e-01 -8.76616749516650117444e-04 -8.12811939876315232845e-03 -8.76616749516650117444e-04 -8.12811939876315232845e-03 9.99959311054840815913e-01 -3.77273882395704482709e-04
9.97388965958870887756e+08 9.81032856724512014601e-01 -1.75485803052806255131e-01 -8.80376804330387221706e-04 -8.14532943907476762735e-03 -8.80376804330387221706e-04 -8.14532943907476762735e-03 9.99959136528556502554e-01 -3.78072701705068747041e-04
9.97394617547704577446e+08 9.80951328992380577887e-01 -1.75858134360229290127e-01 -8.84160986441296422450e-04 -8.16261152746415932779e-03 -8.84160986441296422450e-04 -8.16261152746415932779e-03 9.99958960882382230650e-01 -3.78874865189965804712e-04
9.97400269136538147926e+08 9.80869277015347207360e-01 -1.76232027537398583394e-01 -8.87969501845035751042e-04 -8.17996611142528945448e-03 -8.87969501845035751042e-04 -8.17996611142528945448e-03 9.99958784106756426446e-01 -3.79680393621225590207e-04
9.97405920725371837616e+08 9.80786696308094785302e-01 -1.76607492304181712406e-01 -8.91802558731582726247e-04 -8.19739364211444568320e-03 -8.91802558731582726247e-04 -8.19739364211444568320e-03 9.99958606192016041803e-01 -3.80489307939667874021e-04
9.97411572314205408096e+08 9.80703582337441925887e-01 -1.76984538460081608502e-01 -8.95660367512581944566e-04 -8.21489457438426100289e-03 -8.95660367512581944566e-04 -8.21489457438426100289e-03 9.99958427128394444772e-01 -3.81301629257681782594e-04
9.97417223903038978577e+08 9.80619930521720362115e-01 -1.77363175885088930617e-01 -8.99543140850226708230e-04 -8.23246936682327928869e-03 -8.99543140850226708230e-04 -8.23246936682327928869e-03 9.99958246906020753464e-01 -3.82117378861061894688e-04
9.97422875491872668266e+08 9.80535736230156995674e-01 -1.77743414540485450415e-01 -9.03451093685972059753e-04 -8.25011848179324318309e-03 -9.03451093685972059753e-04 -8.25011848179324318309e-03 9.99958065514918281735e-01 -3.82936578210739224370e-04
9.97428527080706238747e+08 9.80450994782252172044e-01 -1.78125264469627203612e-01 -9.07384443269360681933e-04 -8.26784238546544522630e-03 -9.07384443269360681933e-04 -8.26784238546544522630e-03 9.99957882945003317943e-01 -3.83759248944468456428e-04
9.97434178669539809227e+08 9.80365701447125093004e-01 -1.78508735798848738874e-01 -9.11343409188435094048e-04 -8.28564154786269949082e-03 -9.11343409188435094048e-04 -8.28564154786269949082e-03 9.99957699186083237564e-01 -3.84585412878775986627e-04
9.97439830258373498917e+08 9.80279851442874772260e-01 -1.78893838738259147725e-01 -9.15328213399375727709e-04 -8.30351644289628772200e-03 -9.15328213399375727709e-04 -8.30351644289628772200e-03 9.99957514227855948086e-01 -3.85415092010674966913e-04
9.97445481847207069397e+08 9.80193439935922339323e-01 -1.79280583582591440672e-01 -9.19339080257036288420e-04 -8.32146754840538786790e-03 -9.19339080257036288420e-04 -8.32146754840538786790e-03 9.99957328059907779583e-01 -3.86248308519495438685e-04
9.97451133436040639877e+08 9.80106462040337356179e-01 -1.79668980712089698670e-01 -9.23376236546221687215e-04 -8.33949534619825121051e-03 -9.23376236546221687215e-04 -8.33949534619825121051e-03 9.99957140671712263469e-01 -3.87085084768795293329e-04
9.97456785024874329567e+08 9.80018912817155141148e-01 -1.80059040593398972385e-01 -9.27439911513358561899e-04 -8.35760032209350613164e-03 -9.27439911513358561899e-04 -8.35760032209350613164e-03 9.99956952052628689209e-01 -3.87925443308277737974e-04
9.97462436613707900047e+08 9.79930787273702752493e-01 -1.80450773780385709255e-01 -9.31530336897805951585e-04 -8.37578296595823876269e-03 -9.31530336897805951585e-04 -8.37578296595823876269e-03 9.99956762191900883074e-01 -3.88769406875558707661e-04
9.97468088202541470528e+08 9.79842080362881673317e-01 -1.80844190915109864770e-01 -9.35647746965119486706e-04 -8.39404377175311487702e-03 -9.35647746965119486706e-04 -8.39404377175311487702e-03 9.99956571078654876672e-01 -3.89616998398261381309e-04
9.97473739791375160217e+08 9.79752786982469370258e-01 -1.81239302728681939136e-01 -9.39792378539493645367e-04 -8.41238323757215883392e-03 -9.39792378539493645367e-04 -8.41238323757215883392e-03 9.99956378701898573880e-01 -3.90468240995862415389e-04
9.97479391380208730698e+08 9.79662901974394650928e-01 -1.81636120042195786661e-01 -9.43964471037383296391e-04 -8.43080186568606095021e-03 -9.43964471037383296391e-04 -8.43080186568606095021e-03 9.99956185050519086310e-01 -3.91323157981701946328e-04
9.97485042969042420387e+08 9.79572420124001363995e-01 -1.82034653767677495617e-01 -9.48164266501683606486e-04 -8.44930016258620131264e-03 -9.48164266501683606486e-04 -8.44930016258620131264e-03 9.99955990113281734111e-01 -3.92181772865027420023e-04
9.97490694557875990868e+08 9.79481336159319759815e-01 -1.82434914908962270141e-01 -9.52392009635554979627e-04 -8.46787863902536720728e-03 -9.52392009635554979627e-04 -8.46787863902536720728e-03 9.99955793878828491650e-01 -3.93044109352883085182e-04
9.97496346146709561348e+08 9.79389644750291554764e-01 -1.82836914562736679857e-01 -9.56647947838394283049e-04 -8.48653781006612241422e-03 -9.56647947838394283049e-04 -8.48653781006612241422e-03 9.99955596335676100139e-01 -3.93910191352355484439e-04
9.97501997735543251038e+08 9.79297340508017755134e-01 -1.83240663919438856455e-01 -9.60932331240724364740e-04 -8.50527819512259322665e-03 -9.60932331240724364740e-04 -8.50527819512259322665e-03 9.99955397472214513321e-01 -3.94780042972512658361e-04
9.97507649324376821518e+08 9.79204417983984498619e-01 -1.83646174264221390127e-01 -9.65245412740162352094e-04 -8.52410031800516360123e-03 -9.65245412740162352094e-04 -8.52410031800516360123e-03 9.99955197276705343157e-01 -3.95653688526478928937e-04
9.97513300913210391998e+08 9.79110871669258364669e-01 -1.84053456978001600541e-01 -9.69587448038746130621e-04 -8.54300470696922088776e-03 -9.69587448038746130621e-04 -8.54300470696922088776e-03 9.99954995737279750401e-01 -3.96531152533697358459e-04
9.97518952502044081688e+08 9.79016695993693675248e-01 -1.84462523538421185876e-01 -9.73958695679735418291e-04 -8.56199189475970005858e-03 -9.73958695679735418291e-04 -8.56199189475970005858e-03 9.99954792841937334380e-01 -3.97412459721997377276e-04
9.97524604090877652168e+08 9.78921885325121143850e-01 -1.84873385520845201491e-01 -9.78359417085274563758e-04 -8.58106241865745286712e-03 -9.78359417085274563758e-04 -8.58106241865745286712e-03 9.99954588578544023569e-01 -3.98297635029746870897e-04
9.97530255679711222649e+08 9.78826433968517095607e-01 -1.85286054599401617260e-01 -9.82789876594938535681e-04 -8.60021682052750091607e-03 -9.82789876594938535681e-04 -8.60021682052750091607e-03 9.99954382934830077190e-01 -3.99186703608092358520e-04
9.97535907268544912338e+08 9.78730336165159586770e-01 -1.85700542548038249890e-01 -9.87250341504927264938e-04 -8.61945564686809016786e-03 -9.87250341504927264938e-04 -8.61945564686809016786e-03 9.99954175898388863963e-01 -4.00079690823235275491e-04
9.97541558857378482819e+08 9.78633586091784746230e-01 -1.86116861241531039717e-01 -9.91741082107209246180e-04 -8.63877944885749378401e-03 -9.91741082107209246180e-04 -8.63877944885749378401e-03 9.99953967456674530645e-01 -4.00976622258604877089e-04
9.97547210446212053299e+08 9.78536177859714917382e-01 -1.86535022656570736999e-01 -9.96262371729979842941e-04 -8.65818878240445267969e-03 -9.96262371729979842941e-04 -8.65818878240445267969e-03 9.99953757597000336688e-01 -4.01877523717199247860e-04
9.97552862035045742989e+08 9.78438105513976918992e-01 -1.86955038872850282106e-01 -1.00081448677861615734e-03 -8.67768420819864730320e-03 -1.00081448677861615734e-03 -8.67768420819864730320e-03 9.99953546306536544819e-01 -4.02782421223927828823e-04
9.97558513623879313469e+08 9.78339363032419639943e-01 -1.87376922074104362848e-01 -1.00539770677660999891e-03 -8.69726629175894550006e-03 -1.00539770677660999891e-03 -8.69726629175894550006e-03 9.99953333572308866728e-01 -4.03691341027851324959e-04
9.97564165212712883949e+08 9.78239944324789778562e-01 -1.87800684549285473723e-01 -1.01001231440848104025e-03 -8.71693560348799252602e-03 -1.01001231440848104025e-03 -8.71693560348799252602e-03 9.99953119381196353643e-01 -4.04604309604715268837e-04
9.97569816801546573639e+08 9.78139843231824457348e-01 -1.88226338693618072684e-01 -1.01465859556188202524e-03 -8.73669271872114412691e-03 -1.01465859556188202524e-03 -8.73669271872114412691e-03 9.99952903719929064863e-01 -4.05521353659221261544e-04
9.97575468390380144119e+08 9.78039053524316748245e-01 -1.88653897009723681144e-01 -1.01933683937099352733e-03 -8.75653821777868518472e-03 -1.01933683937099352733e-03 -8.75653821777868518472e-03 9.99952686575086846510e-01 -4.06442500127450815055e-04
9.97581119979213833809e+08 9.77937568902146558969e-01 -1.89083372108840103154e-01 -1.02404733826147930839e-03 -8.77647268602242160151e-03 -1.02404733826147930839e-03 -8.77647268602242160151e-03 9.99952467933096333930e-01 -4.07367776179492103051e-04
9.97586771568047404289e+08 9.77835382993338941837e-01 -1.89514776711879134874e-01 -1.02879038799422086597e-03 -8.79649671390477123911e-03 -1.02879038799422086597e-03 -8.79649671390477123911e-03 9.99952247780229619423e-01 -4.08297209221718791251e-04
9.97592423156880974770e+08 9.77732489353059674997e-01 -1.89948123650695882558e-01 -1.03356628771191600899e-03 -8.81661089702769247556e-03 -1.03356628771191600899e-03 -8.81661089702769247556e-03 9.99952026102601587709e-01 -4.09230826899524720557e-04
9.97598074745714664459e+08 9.77628881462636156741e-01 -1.90383425869204619962e-01 -1.03837533998456005464e-03 -8.83681583619446223143e-03 -1.03837533998456005464e-03 -8.83681583619446223143e-03 9.99951802886168250595e-01 -4.10168657099727800106e-04
9.97603726334548234940e+08 9.77524552728541773483e-01 -1.90820696424589181239e-01 -1.04321785085653186143e-03 -8.85711213746586886741e-03 -1.04321785085653186143e-03 -8.85711213746586886741e-03 9.99951578116724415501e-01 -4.11110727953177784548e-04
9.97609377923381805420e+08 9.77419496481351957051e-01 -1.91259948488589154314e-01 -1.04809412989510732268e-03 -8.87750041221990575380e-03 -1.04809412989510732268e-03 -8.87750041221990575380e-03 9.99951351779901020933e-01 -4.12057067837527440587e-04
9.97615029512215495110e+08 9.77313705974721669278e-01 -1.91701195348634029214e-01 -1.05300449023788085176e-03 -8.89798127720441492383e-03 -1.05300449023788085176e-03 -8.89798127720441492383e-03 9.99951123861163693185e-01 -4.13007705379675796580e-04
