! File generated for n1 = 3, n2 = 5
! b1 = 21.544347
! b2 = 1.000000
! Q0 = 10000.000000
! f0 = 1000000000.000000
! n = 1001
! rel_span = 10.000000
# Hz S RI R 50
9.88227826549840569496e+08 9.82091965106989595036e-01 -1.80146988055456758193e-01 -3.85816916038031173034e-03 -3.88114920371435342950e-02 -3.85816916038031173034e-03 -3.88114920371435342950e-02 9.99168782652086528984e-01 -8.36168248167182444341e-03
9.88251370896740913391e+08 9.82020396684023633149e-01 -1.80503038244786195854e-01 -3.87358810969517511000e-03 -3.88882007250719100022e-02 -3.87358810969517511000e-03 -3.88882007250719100022e-02 9.99165460740157773678e-01 -8.37820886750179592839e-03
9.88274915243641257286e+08 9.81948401544595839141e-01 -1.80860475541676779532e-01 -3.88909899228488025250e-03 -3.89652082562651422282e-02 -3.88909899228488025250e-03 -3.89652082562651422282e-02 9.99162119021805295027e-01 -8.39479963716143785801e-03
9.88298459590541481972e+08 9.81875976304614095369e-01 -1.81219307979029631284e-01 -3.90470253722992538883e-03 -3.90425163613593098622e-02 -3.90470253722992538883e-03 -3.90425163613593098622e-02 9.99158757339953629284e-01 -8.41145516350498730074e-03
9.88322003937441825867e+08 9.81803117546500070389e-01 -1.81579543651170738361e-01 -3.92039948082528386109e-03 -3.91201267842240796302e-02 -3.92039948082528386109e-03 -3.91201267842240796302e-02 9.99155375535972667400e-01 -8.42817582223777915507e-03
9.88345548284342169762e+08 9.81729821818797310229e-01 -1.81941190714402734052e-01 -3.93619056666466137634e-03 -3.91980412820815971031e-02 -3.93619056666466137634e-03 -3.91980412820815971031e-02 9.99151973449660113502e-01 -8.44496199194184372916e-03
9.88369092631242513657e+08 9.81656085635765562891e-01 -1.82304257387612744790e-01 -3.95207654572809173599e-03 -3.92762616256374166857e-02 -3.95207654572809173599e-03 -3.92762616256374166857e-02 9.99148550919222167011e-01 -8.46181405410413069179e-03
9.88392636978142857552e+08 9.81581905476974103664e-01 -1.82668751952854702125e-01 -3.96805817646933393916e-03 -3.93547895992059498793e-02 -3.96805817646933393916e-03 -3.93547895992059498793e-02 9.99145107781254981916e-01 -8.47873239314352565577e-03
9.88416181325043082237e+08 9.81507277786888399085e-01 -1.83034682755951721989e-01 -3.98413622490508163854e-03 -3.94336270008402919873e-02 -3.98413622490508163854e-03 -3.94336270008402919873e-02 9.99141643870725237875e-01 -8.49571739643882606341e-03
9.88439725671943426132e+08 9.81432198974449332418e-01 -1.83402058207109863730e-01 -4.00031146470559290096e-03 -3.95127756424644149824e-02 -4.00031146470559290096e-03 -3.95127756424644149824e-02 9.99138159020950600286e-01 -8.51276945435721667244e-03
9.88463270018843770027e+08 9.81356665412650097657e-01 -1.83770886781520537134e-01 -4.01658467728579528233e-03 -3.95922373500029525784e-02 -4.01658467728579528233e-03 -3.95922373500029525784e-02 9.99134653063580513432e-01 -8.52988896028223676782e-03
9.88486814365744113922e+08 9.81280673438104433792e-01 -1.84141177019984336738e-01 -4.03295665189829649622e-03 -3.96720139635156066049e-02 -4.03295665189829649622e-03 -3.96720139635156066049e-02 9.99131125828575550329e-01 -8.54707631064273096189e-03
9.88510358712644338608e+08 9.81204219350609418981e-01 -1.84512937529541953818e-01 -4.04942818572769872715e-03 -3.97521073373330938172e-02 -4.04942818572769872715e-03 -3.97521073373330938172e-02 9.99127577144187539737e-01 -8.56433190494213826549e-03
9.88533903059544682503e+08 9.81127299412701270320e-01 -1.84886176984110639498e-01 -4.06600008398615847538e-03 -3.98325193401942306837e-02 -4.06600008398615847538e-03 -3.98325193401942306837e-02 9.99124006836938804987e-01 -8.58165614578803616352e-03
9.88557447406445026398e+08 9.81049909849207257828e-01 -1.85260904125119835184e-01 -4.08267316000993172459e-03 -3.99132518553829002128e-02 -4.08267316000993172459e-03 -3.99132518553829002128e-02 9.99120414731601291791e-01 -8.59904943892163611818e-03
9.88580991753345370293e+08 9.80972046846790735053e-01 -1.85637127762160375477e-01 -4.09944823535755582117e-03 -3.99943067808679122987e-02 -4.09944823535755582117e-03 -3.99943067808679122987e-02 9.99116800651175585024e-01 -8.61651219324792091991e-03
9.88604536100245714188e+08 9.80893706553486843802e-01 -1.86014856773646958255e-01 -4.11632613990967500400e-03 -4.00756860294457228910e-02 -4.11632613990967500400e-03 -4.00756860294457228910e-02 9.99113164416869370399e-01 -8.63404482086639786520e-03
9.88628080447145938873e+08 9.80814885078235665361e-01 -1.86394100107475924055e-01 -4.13330771196973156129e-03 -4.01573915288821678415e-02 -4.13330771196973156129e-03 -4.01573915288821678415e-02 9.99109505848075563073e-01 -8.65164773710162295084e-03
9.88651624794046282768e+08 9.80735578490405712770e-01 -1.86774866781703102747e-01 -4.15039379836663110263e-03 -4.02394252220584849877e-02 -4.15039379836663110263e-03 -4.02394252220584849877e-02 9.99105824762350547275e-01 -8.66932136053467222725e-03
9.88675169140946626663e+08 9.80655782819313093235e-01 -1.87157165885215942547e-01 -4.16758525455826651929e-03 -4.03217890671160941740e-02 -4.16758525455826651929e-03 -4.03217890671160941740e-02 9.99102120975391416735e-01 -8.68706611303432518767e-03
9.88698713487846970558e+08 9.80575494053731899768e-01 -1.87541006578425623053e-01 -4.18488294473705942783e-03 -4.04044850376057765318e-02 -4.18488294473705942783e-03 -4.04044850376057765318e-02 9.99098394301013548180e-01 -8.70488241978920745945e-03
9.88722257834747314453e+08 9.80494708141399384793e-01 -1.87926398093957669477e-01 -4.20228774193657454022e-03 -4.04875151226363957924e-02 -4.20228774193657454022e-03 -4.04875151226363957924e-02 9.99094644551127619714e-01 -8.72277070933983461609e-03
9.88745802181647539139e+08 9.80413420988512029908e-01 -1.88313349737358332048e-01 -4.21980052814000493322e-03 -4.05708813270271237417e-02 -4.21980052814000493322e-03 -4.05708813270271237417e-02 9.99090871535716074092e-01 -8.74073141361140018568e-03
9.88769346528547883034e+08 9.80331628459215065341e-01 -1.88701870887810874144e-01 -4.23742219439029055988e-03 -4.06545856714617265260e-02 -4.23742219439029055988e-03 -4.06545856714617265260e-02 9.99087075062809470971e-01 -8.75876496794702856519e-03
9.88792890875448226929e+08 9.80249326375087881580e-01 -1.89091970998838621032e-01 -4.25515364090083263865e-03 -4.07386301926400754003e-02 -4.25515364090083263865e-03 -4.07386301926400754003e-02 9.99083254938462728134e-01 -8.77687181114040343433e-03
9.88816435222348570824e+08 9.80166510514616562411e-01 -1.89483659599048420707e-01 -4.27299577716925768622e-03 -4.08230169434382755833e-02 -4.27299577716925768622e-03 -4.08230169434382755833e-02 9.99079410966730696586e-01 -8.79505238547027660967e-03
9.88839979569248914719e+08 9.80083176612662754223e-01 -1.89876946292859588583e-01 -4.29094952209176875441e-03 -4.09077479930657489371e-02 -4.29094952209176875441e-03 -4.09077479930657489371e-02 9.99075542949642958490e-01 -8.81330713673430035660e-03
9.88863523916149139404e+08 9.79999320359925207846e-01 -1.90271840761241567419e-01 -4.30901580407914725629e-03 -4.09928254272241346379e-02 -4.30901580407914725629e-03 -4.09928254272241346379e-02 9.99071650687179624306e-01 -8.83163651428327430015e-03
9.88887068263049483299e+08 9.79914937402387775656e-01 -1.90668352762489279328e-01 -4.32719556117575846615e-03 -4.10782513482743361077e-02 -4.32719556117575846615e-03 -4.10782513482743361077e-02 9.99067733977245131527e-01 -8.85004097105712185523e-03
9.88910612609949827194e+08 9.79830023340769851181e-01 -1.91066492132955123573e-01 -4.34548974117788481403e-03 -4.11640278753942420731e-02 -4.34548974117788481403e-03 -4.11640278753942420731e-02 9.99063792615642820572e-01 -8.86852096361888039833e-03
9.88934156956850171089e+08 9.79744573729957379804e-01 -1.91466268787844728916e-01 -4.36389930175629364023e-03 -4.12501571447501519385e-02 -4.36389930175629364023e-03 -4.12501571447501519385e-02 9.99059826396049066588e-01 -8.88707695219162832623e-03
9.88957701303750395775e+08 9.79658584078435756837e-01 -1.91867692721976262904e-01 -4.38242521057848229138e-03 -4.13366413096603602106e-02 -4.38242521057848229138e-03 -4.13366413096603602106e-02 9.99055835109985967968e-01 -8.90570940069372596337e-03
9.88981245650650739670e+08 9.79572049847704406922e-01 -1.92270774010593364922e-01 -4.40106844543476649623e-03 -4.14234825407702941802e-02 -4.40106844543476649623e-03 -4.14234825407702941802e-02 9.99051818546795034059e-01 -8.92441877677655967527e-03
9.89004789997551083565e+08 9.79484966451694250011e-01 -1.92675522810134836060e-01 -4.41982999436376765984e-03 -4.15106830262183881808e-02 -4.41982999436376765984e-03 -4.15106830262183881808e-02 9.99047776493609873683e-01 -8.94320555186025809014e-03
9.89028334344451427460e+08 9.79397329256165405376e-01 -1.93081949359067667205e-01 -4.43871085578223002754e-03 -4.15982449718154678742e-02 -4.43871085578223002754e-03 -4.15982449718154678742e-02 9.99043708735328217507e-01 -8.96207020117236081991e-03
9.89051878691351771355e+08 9.79309133578105894813e-01 -1.93490063978680071344e-01 -4.45771203861444146460e-03 -4.16861706012156829626e-02 -4.45771203861444146460e-03 -4.16861706012156829626e-02 9.99039615054583607368e-01 -8.98101320378463276184e-03
9.89075423038251996040e+08 9.79220374685113248425e-01 -1.93899877073929666205e-01 -4.47683456242567185540e-03 -4.17744621560991943876e-02 -4.47683456242567185540e-03 -4.17744621560991943876e-02 9.99035495231717640685e-01 -9.00003504265242150473e-03
9.89098967385152339935e+08 9.79131047794771780524e-01 -1.94311399134270146316e-01 -4.49607945755610329680e-03 -4.18631218963502887975e-02 -4.49607945755610329680e-03 -4.18631218963502887975e-02 9.99031349044750105470e-01 -9.01913620465303808582e-03
9.89122511732052683830e+08 9.79041148074021871928e-01 -1.94724640734490805904e-01 -4.51544776525687405200e-03 -4.19521521002382546950e-02 -4.51544776525687405200e-03 -4.19521521002382546950e-02 9.99027176269350336568e-01 -9.03831718062472234954e-03
9.89146056078953027725e+08 9.78950670638514819366e-01 -1.95139612535585676989e-01 -4.53494053782904464611e-03 -4.20415550646046354277e-02 -4.53494053782904464611e-03 -4.20415550646046354277e-02 9.99022976678806906570e-01 -9.05757846540698394189e-03
9.89169600425853371620e+08 9.78859610551962910918e-01 -1.95556325285609372555e-01 -4.55455883876351198813e-03 -4.21313331050475955997e-02 -4.55455883876351198813e-03 -4.21313331050475955997e-02 9.99018750043997649790e-01 -9.07692055788032400865e-03
9.89193144772753596306e+08 9.78767962825478732292e-01 -1.95974789820554218256e-01 -4.57430374288352037393e-03 -4.22214885561109226630e-02 -4.57430374288352037393e-03 -4.22214885561109226630e-02 9.99014496133358909091e-01 -9.09634396100695435949e-03
9.89216689119653940201e+08 9.78675722416900706335e-01 -1.96395017065249949395e-01 -4.59417633648983962658e-03 -4.23120237714778163474e-02 -4.59417633648983962658e-03 -4.23120237714778163474e-02 9.99010214712854227592e-01 -9.11584918187255052735e-03
9.89240233466554284096e+08 9.78582884230116079038e-01 -1.96817018034243451652e-01 -4.61417771750668136155e-03 -4.24029411241604869964e-02 -4.61417771750668136155e-03 -4.24029411241604869964e-02 9.99005905545943151402e-01 -9.13543673172709062846e-03
9.89263777813454627991e+08 9.78489443114368473431e-01 -1.97240803832712779942e-01 -4.63430899563087739940e-03 -4.24942430066970050495e-02 -4.63430899563087739940e-03 -4.24942430066970050495e-02 9.99001568393548589064e-01 -9.15510712602727802500e-03
9.89287322160354971886e+08 9.78395393863554674319e-01 -1.97666385657392862374e-01 -4.65457129248334888078e-03 -4.25859318313507873022e-02 -4.65457129248334888078e-03 -4.25859318313507873022e-02 9.98997203014024726109e-01 -9.17486088447951562974e-03
9.89310866507255196571e+08 9.78300731215514196570e-01 -1.98093774797499594387e-01 -4.67496574176221642988e-03 -4.26780100303096737724e-02 -4.67496574176221642988e-03 -4.26780100303096737724e-02 9.98992809163123718363e-01 -9.19469853108278306619e-03
9.89334410854155540466e+08 9.78205449851305974818e-01 -1.98522982635672973206e-01 -4.69549348939859393509e-03 -4.27704800558891054529e-02 -4.69549348939859393509e-03 -4.27704800558891054529e-02 9.98988386593962052196e-01 -9.21462059417242976278e-03
9.89357955201055884361e+08 9.78109544394475838303e-01 -1.98954020648925311576e-01 -4.71615569371441802765e-03 -4.28633443807364331035e-02 -4.71615569371441802765e-03 -4.28633443807364331035e-02 9.98983935056987015777e-01 -9.23462760646417621380e-03
9.89381499547956228256e+08 9.78013009410310996117e-01 -1.99386900409609213458e-01 -4.73695352558304964841e-03 -4.29566054980394379514e-02 -4.73695352558304964841e-03 -4.29566054980394379514e-02 9.98979454299941505013e-01 -9.25472010509905025633e-03
9.89405043894856452942e+08 9.77915839405085307590e-01 -1.99821633586389713066e-01 -4.75788816859193386399e-03 -4.30502659217358099597e-02 -4.75788816859193386399e-03 -4.30502659217358099597e-02 9.98974944067829273564e-01 -9.27489863168850375841e-03
9.89428588241756796837e+08 9.77818028825289786710e-01 -2.00258231945239839611e-01 -4.77896081920828504075e-03 -4.31443281867275735264e-02 -4.77896081920828504075e-03 -4.31443281867275735264e-02 9.98970404102879405706e-01 -9.29516373236062738716e-03
9.89452132588657140732e+08 9.77719572056857111342e-01 -2.00696707350427439032e-01 -4.80017268694627168707e-03 -4.32387948490937715218e-02 -4.80017268694627168707e-03 -4.32387948490937715218e-02 9.98965834144509901016e-01 -9.31551595780595424745e-03
9.89475676935557484627e+08 9.77620463424368257854e-01 -2.01137071765536440404e-01 -4.82152499453782860256e-03 -4.33336684863104143473e-02 -4.82152499453782860256e-03 -4.33336684863104143473e-02 9.98961233929291148037e-01 -9.33595586332485773140e-03
9.89499221282457828522e+08 9.77520697190252696451e-01 -2.01579337254480267516e-01 -4.84301897810507104430e-03 -4.34289516974688677431e-02 -4.84301897810507104430e-03 -4.34289516974688677431e-02 9.98956603190908731804e-01 -9.35648400887459721909e-03
9.89522765629358053207e+08 9.77420267553970711916e-01 -2.02023515982548890202e-01 -4.86465588733638910901e-03 -4.35246471035013945960e-02 -4.86465588733638910901e-03 -4.35246471035013945960e-02 9.98951941660125464217e-01 -9.37710095911791288725e-03
9.89546309976258397102e+08 9.77319168651187286656e-01 -2.02469620217453183386e-01 -4.88643698566446418874e-03 -4.36207573474061902075e-02 -4.88643698566446418874e-03 -4.36207573474061902075e-02 9.98947249064742970326e-01 -9.39780728347150429158e-03
9.89569854323158740997e+08 9.77217394552933660279e-01 -2.02917662330380166313e-01 -4.90836355044691440008e-03 -4.37172850944746935187e-02 -4.90836355044691440008e-03 -4.37172850944746935187e-02 9.98942525129562941544e-01 -9.41860355615500681459e-03
9.89593398670059084892e+08 9.77114939264751569681e-01 -2.03367654797078356577e-01 -4.93043687315056818748e-03 -4.38142330325254555912e-02 -4.93043687315056818748e-03 -4.38142330325254555912e-02 9.98937769576347167622e-01 -9.43949035624136803535e-03
9.89616943016959428787e+08 9.77011796725830938826e-01 -2.03819610198933826029e-01 -4.95265825953743708820e-03 -4.39116038721359264185e-02 -4.95265825953743708820e-03 -4.39116038721359264185e-02 9.98932982123778012706e-01 -9.46046826770680256147e-03
9.89640487363859653473e+08 9.76907960808129471886e-01 -2.04273541224071819578e-01 -4.97502902985417615883e-03 -4.40094003468798275480e-02 -4.97502902985417615883e-03 -4.40094003468798275480e-02 9.98928162487416670956e-01 -9.48153787948191086044e-03
9.89664031710759997368e+08 9.76803425315476148150e-01 -2.04729460668489904318e-01 -4.99755051902534604830e-03 -4.41076252135712623681e-02 -4.99755051902534604830e-03 -4.41076252135712623681e-02 9.98923310379662532377e-01 -9.50269978550428995323e-03
9.89687576057660341263e+08 9.76698183982671497283e-01 -2.05187381437157229103e-01 -5.02022407684730304078e-03 -4.42062812525015613740e-02 -5.02022407684730304078e-03 -4.42062812525015613740e-02 9.98918425509710661281e-01 -9.52395458476954642757e-03
9.89711120404560685158e+08 9.76592230474562006393e-01 -2.05647316545175429248e-01 -5.04305106818746587405e-03 -4.43053712676893599043e-02 -5.04305106818746587405e-03 -4.43053712676893599043e-02 9.98913507583509496790e-01 -9.54530288138518388796e-03
9.89734664751461029053e+08 9.76485558385107643709e-01 -2.06109279118926791430e-01 -5.06603287318534070000e-03 -4.44048980871279974636e-02 -5.06603287318534070000e-03 -4.44048980871279974636e-02 9.98908556303716776981e-01 -9.56674528462389713035e-03
9.89758209098361253738e+08 9.76378161236431285630e-01 -2.06573282397247870446e-01 -5.08917088745722799581e-03 -4.45048645630383432614e-02 -5.08917088745722799581e-03 -4.45048645630383432614e-02 9.98903571369656129164e-01 -9.58828240897804592868e-03
9.89781753445261597633e+08 9.76270032477854265984e-01 -2.07039339732616817225e-01 -5.11246652230407713086e-03 -4.46052735721246054745e-02 -5.11246652230407713086e-03 -4.46052735721246054745e-02 9.98898552477272105854e-01 -9.60991487421476373032e-03
9.89805297792161941528e+08 9.76161165484919712831e-01 -2.07507464592340068466e-01 -5.13592120492183373121e-03 -4.47061280158300156096e-02 -5.13592120492183373121e-03 -4.47061280158300156096e-02 9.98893499319084554600e-01 -9.63164330543104380000e-03
9.89828842139062285423e+08 9.76051553558395013077e-01 -2.07977670559781363524e-01 -5.15953637861643003154e-03 -4.48074308206015681222e-02 -5.15953637861643003154e-03 -4.48074308206015681222e-02 9.98888411584142765776e-01 -9.65346833311078039719e-03
9.89852386485962510109e+08 9.75941189923264951211e-01 -2.08449971335575606757e-01 -5.18331350302066260621e-03 -4.49091849381515820228e-02 -5.18331350302066260621e-03 -4.49091849381515820228e-02 9.98883288957978177081e-01 -9.67539059318111259456e-03
9.89875930832862854004e+08 9.75830067727699645985e-01 -2.08924380738898962662e-01 -5.20725405431649978477e-03 -4.50113933457312945241e-02 -5.20725405431649978477e-03 -4.50113933457312945241e-02 9.98878131122557189059e-01 -9.69741072707137712061e-03
9.89899475179763197899e+08 9.75718180042020599707e-01 -2.09400912708695458031e-01 -5.23135952545794331164e-03 -4.51140590463951704492e-02 -5.23135952545794331164e-03 -4.51140590463951704492e-02 9.98872937756232426310e-01 -9.71952938177004718834e-03
9.89923019526663541794e+08 9.75605519857635883341e-01 -2.09879581304977302914e-01 -5.25563142640032756464e-03 -4.52171850692810253780e-02 -5.25563142640032756464e-03 -4.52171850692810253780e-02 9.98867708533694109718e-01 -9.74174720988507658603e-03
9.89946563873563885689e+08 9.75492080085967439018e-01 -2.10360400710106615341e-01 -5.28007128433148967273e-03 -4.53207744698861311750e-02 -5.28007128433148967273e-03 -4.53207744698861311750e-02 9.98862443125919541309e-01 -9.76406486970340242726e-03
9.89970108220464110374e+08 9.75377853557358398540e-01 -2.10843385230105345718e-01 -5.30468064390722526813e-03 -4.54248303303494971317e-02 -5.30468064390722526813e-03 -4.54248303303494971317e-02 9.98857141200122589098e-01 -9.78648302525174026978e-03
9.89993652567364454269e+08 9.75262833019961972170e-01 -2.11328549295982298650e-01 -5.32946106749051292523e-03 -4.55293557597377177015e-02 -5.32946106749051292523e-03 -4.55293557597377177015e-02 9.98851802419702394786e-01 -9.80900234635818761564e-03
9.90017196914264798164e+08 9.75147011138616570669e-01 -2.11815907465066954884e-01 -5.35441413539404064553e-03 -4.56343538943323606683e-02 -5.35441413539404064553e-03 -4.56343538943323606683e-02 9.98846426444190971239e-01 -9.83162350871412057951e-03
9.90040741261165142059e+08 9.75030380493697057531e-01 -2.12305474422379042432e-01 -5.37954144612757482330e-03 -4.57398278979250089149e-02 -5.37954144612757482330e-03 -4.57398278979250089149e-02 9.98841012929199800752e-01 -9.85434719393777670826e-03
9.90064285608065485954e+08 9.74912933579954565921e-01 -2.12797264981989725507e-01 -5.40484461664797466440e-03 -4.58457809621105535913e-02 -5.40484461664797466440e-03 -4.58457809621105535913e-02 9.98835561526366100260e-01 -9.87717408963742840577e-03
