! File generated for n1 = 9, n2 = 8
! b1 = 0.215443
! b2 = 0.001000
! Q0 = 10000.000000
! f0 = 1000000000.000000
! n = 1001
! rel_span = 10.000000
# Hz S RI R 50
9.99391778265498399734e+08 9.96494997177759356255e-01 -3.50606938039235982441e-02 -2.38793062481830502741e-04 -2.38865726242827461703e-03 -2.38793062481830502741e-04 -2.38865726242827461703e-03 9.99983731218038518485e-01 -1.62737324859008465313e-04
9.99392994708967447281e+08 9.96481070450473960243e-01 -3.51295820622618201745e-02 -2.39741879366576023840e-04 -2.39335056483397931940e-03 -2.39741879366576023840e-04 -2.39335056483397931940e-03 9.99983666575896656958e-01 -1.63057075829678183466e-04
9.99394211152436375618e+08 9.96467060850546260120e-01 -3.51987386605126309491e-02 -2.40696342298722150291e-04 -2.39806214902510981060e-03 -2.40696342298722150291e-04 -2.39806214902510981060e-03 9.99983601549094047733e-01 -1.63378072323889790259e-04
9.99395427595905423164e+08 9.96452967721425886261e-01 -3.52681651523968422990e-02 -2.41656496008510907622e-04 -2.40279212085543281488e-03 -2.41656496008510907622e-04 -2.40279212085543281488e-03 9.99983536134583350652e-01 -1.63700321553376449465e-04
9.99396644039374470711e+08 9.96438790400072216258e-01 -3.53378631035045909226e-02 -2.42622385668386748381e-04 -2.40754058698736291000e-03 -2.42622385668386748381e-04 -2.40754058698736291000e-03 9.99983470329286805445e-01 -1.64023830784963892734e-04
9.99397860482843399048e+08 9.96424528216880101006e-01 -3.54078340913914005328e-02 -2.43594056898011176917e-04 -2.41230765489850633790e-03 -2.43594056898011176917e-04 -2.41230765489850633790e-03 9.99983404130096564799e-01 -1.64348607341016162212e-04
9.99399076926312446594e+08 9.96410180495588604366e-01 -3.54780797057586139154e-02 -2.44571555770504663919e-04 -2.41709343289395455628e-03 -2.44571555770504663919e-04 -2.41709343289395455628e-03 9.99983337533873584135e-01 -1.64674658600273265139e-04
9.99400293369781374931e+08 9.96395746553220162944e-01 -3.55486015484787198915e-02 -2.45554928816590683962e-04 -2.42189803010801115585e-03 -2.45554928816590683962e-04 -2.42189803010801115585e-03 9.99983270537447954673e-01 -1.65001991997968728470e-04
9.99401509813250422478e+08 9.96381225699985328959e-01 -3.56194012337849169603e-02 -2.46544223031077997660e-04 -2.42672155651710210605e-03 -2.46544223031077997660e-04 -2.42672155651710210605e-03 9.99983203137617682188e-01 -1.65330615026709266306e-04
9.99402726256719470024e+08 9.96366617239208607337e-01 -3.56904803883532628639e-02 -2.47539485877907910940e-04 -2.43156412294537804461e-03 -2.47539485877907910940e-04 -2.43156412294537804461e-03 9.99983135331149242120e-01 -1.65660535236856337749e-04
9.99403942700188398361e+08 9.96351920467247187396e-01 -3.57618406514178741040e-02 -2.48540765295717858488e-04 -2.43642584107255913070e-03 -2.48540765295717858488e-04 -2.43642584107255913070e-03 9.99983067114776691398e-01 -1.65991760237060712773e-04
9.99405159143657445908e+08 9.96337134673403457263e-01 -3.58334836749071086737e-02 -2.49548109703758816576e-04 -2.44130682344321364718e-03 -2.49548109703758816576e-04 -2.44130682344321364718e-03 9.99982998485201002303e-01 -1.66324297694894589206e-04
9.99406375587126493454e+08 9.96322259139840404885e-01 -3.59054111235682718584e-02 -2.50561568007715083483e-04 -2.44620718347525641090e-03 -2.50561568007715083483e-04 -2.44620718347525641090e-03 9.99982929439090506563e-01 -1.66658155337430502474e-04
9.99407592030595421791e+08 9.96307293141502903211e-01 -3.59776246750509384742e-02 -2.51581189604999035016e-04 -2.45112703546562088475e-03 -2.51581189604999035016e-04 -2.45112703546562088475e-03 9.99982859973079785121e-01 -1.66993340951627952098e-04
9.99408808474064469337e+08 9.96292235946016013770e-01 -3.60501260201065987232e-02 -2.52607024391751330047e-04 -2.45606649460386678233e-03 -2.52607024391751330047e-04 -2.45606649460386678233e-03 9.99982790083769335077e-01 -1.67329862385260231920e-04
9.99410024917533397675e+08 9.96277086813615486705e-01 -3.61229168626186827873e-02 -2.53639122767507425079e-04 -2.46102567697421966905e-03 -2.53639122767507425079e-04 -2.46102567697421966905e-03 9.99982719767725569682e-01 -1.67667727547053560348e-04
9.99411241361002445221e+08 9.96261844997039847094e-01 -3.61959989198219131423e-02 -2.54677535642607445580e-04 -2.46600469957051950803e-03 -2.54677535642607445580e-04 -2.46600469957051950803e-03 9.99982649021479930163e-01 -1.68006944407705552770e-04
9.99412457804471492767e+08 9.96246509741454344677e-01 -3.62693739223578504038e-02 -2.55722314443350320478e-04 -2.47100368030000409197e-03 -2.55722314443350320478e-04 -2.47100368030000409197e-03 9.99982577841528885720e-01 -1.68347521000142665362e-04
9.99413674247940421104e+08 9.96231080284352477072e-01 -3.63430436144343560478e-02 -2.56773511118687050060e-04 -2.47602273799417058053e-03 -2.56773511118687050060e-04 -2.47602273799417058053e-03 9.99982506224333045353e-01 -1.68689465420260678065e-04
9.99414890691409468651e+08 9.96215555855455958678e-01 -3.64170097539907589024e-02 -2.57831178147068689529e-04 -2.48106199242003168728e-03 -2.57831178147068689529e-04 -2.48106199242003168728e-03 9.99982434166317268875e-01 -1.69032785827691117101e-04
9.99416107134878516197e+08 9.96199935676635339732e-01 -3.64912741127566483956e-02 -2.58895368541842314791e-04 -2.48612156428411898781e-03 -2.58895368541842314791e-04 -2.48612156428411898781e-03 9.99982361663869667723e-01 -1.69377490446074257082e-04
9.99417323578347444534e+08 9.96184218961800427294e-01 -3.65658384764501673270e-02 -2.59966135858709466045e-04 -2.49120157524599424720e-03 -2.59966135858709466045e-04 -2.49120157524599424720e-03 9.99982288713341604947e-01 -1.69723587563979581546e-04
9.99418540021816492081e+08 9.96168404916807803673e-01 -3.66407046448904219482e-02 -2.61043534202029102898e-04 -2.49630214792590432102e-03 -2.61043534202029102898e-04 -2.49630214792590432102e-03 9.99982215311046918060e-01 -1.70071085535427229994e-04
9.99419756465285420418e+08 9.96152492739367900754e-01 -3.67158744321074703709e-02 -2.62127618231154278176e-04 -2.50142340591227906391e-03 -2.62127618231154278176e-04 -2.50142340591227906391e-03 9.99982141453261808017e-01 -1.70419992780398901061e-04
9.99420972908754467964e+08 9.96136481618930980098e-01 -3.67913496665462705359e-02 -2.63218443168196163887e-04 -2.50656547377562386250e-03 -2.63218443168196163887e-04 -2.50656547377562386250e-03 9.99982067136223951032e-01 -1.70770317785784361006e-04
9.99422189352223515511e+08 9.96120370736596205674e-01 -3.68671321911562197005e-02 -2.64316064804214845632e-04 -2.51172847707461848951e-03 -2.64316064804214845632e-04 -2.51172847707461848951e-03 9.99981992356132387556e-01 -1.71122069105796882887e-04
9.99423405795692443848e+08 9.96104159265008171076e-01 -3.69432238635365589596e-02 -2.65420539506290055487e-04 -2.51691254236602671157e-03 -2.65420539506290055487e-04 -2.51691254236602671157e-03 9.99981917109146967171e-01 -1.71475255362648379247e-04
9.99424622239161491394e+08 9.96087846368247986639e-01 -3.70196265560975637521e-02 -2.66531924224897162016e-04 -2.52211779721567535412e-03 -2.66531924224897162016e-04 -2.52211779721567535412e-03 9.99981841391387460405e-01 -1.71829885247297501618e-04
9.99425838682630538940e+08 9.96071431201728585414e-01 -3.70963421562027426126e-02 -2.67650276501089196511e-04 -2.52734437020814359937e-03 -2.67650276501089196511e-04 -2.52734437020814359937e-03 9.99981765198933891803e-01 -1.72185967520109594383e-04
9.99427055126099467278e+08 9.96054912912091250377e-01 -3.71733725662950903468e-02 -2.68775654473523513063e-04 -2.53259239095536331163e-03 -2.68775654473523513063e-04 -2.53259239095536331163e-03 9.99981688527825096635e-01 -1.72543511011442841571e-04
9.99428271569568514824e+08 9.96038290637083378876e-01 -3.72507197041057475095e-02 -2.69908116886774475038e-04 -2.53786199011083683091e-03 -2.69908116886774475038e-04 -2.53786199011083683091e-03 9.99981611374059053965e-01 -1.72902524622616730453e-04
9.99429488013037443161e+08 9.96021563505470219901e-01 -3.73283855027027600126e-02 -2.71047723097388941049e-04 -2.54315329937295636631e-03 -2.71047723097388941049e-04 -2.54315329937295636631e-03 9.99981533733591776425e-01 -1.73263017326138216113e-04
9.99430704456506490707e+08 9.96004730636894430873e-01 -3.74063719107705291989e-02 -2.72194533083404692671e-04 -2.54846645150404562188e-03 -2.72194533083404692671e-04 -2.54846645150404562188e-03 9.99981455602336977151e-01 -1.73624998166999159081e-04
9.99431920899975538254e+08 9.95987791141790146376e-01 -3.74846808926367278114e-02 -2.73348607450250012142e-04 -2.55380158033218949629e-03 -2.73348607450250012142e-04 -2.55380158033218949629e-03 9.99981376976165625692e-01 -1.73988476262800873060e-04
9.99433137343444466591e+08 9.95970744121247530956e-01 -3.75633144285169098819e-02 -2.74510007439925682142e-04 -2.55915882076790520902e-03 -2.74510007439925682142e-04 -2.55915882076790520902e-03 9.99981297850905392899e-01 -1.74353460804889826702e-04
9.99434353786913514137e+08 9.95953588666902089876e-01 -3.76422745146441709019e-02 -2.75678794938587841575e-04 -2.56453830881296857350e-03 -2.75678794938587841575e-04 -2.56453830881296857350e-03 9.99981218222340095814e-01 -1.74719961058959213180e-04
9.99435570230382561684e+08 9.95936323860815320153e-01 -3.77215631634289089158e-02 -2.76855032484662696730e-04 -2.56994018157130502469e-03 -2.76855032484662696730e-04 -2.56994018157130502469e-03 9.99981138086208920512e-01 -1.75087986365790707110e-04
9.99436786673851490021e+08 9.95918948775356138725e-01 -3.78011824036095511747e-02 -2.78038783276916563313e-04 -2.57536457725925484533e-03 -2.78038783276916563313e-04 -2.57536457725925484533e-03 9.99981057438206311083e-01 -1.75457546141953910470e-04
9.99438003117320537567e+08 9.95901462473071319437e-01 -3.78811342804488207503e-02 -2.79230111183296396751e-04 -2.58081163521894398072e-03 -2.79230111183296396751e-04 -2.58081163521894398072e-03 9.99980976273980859403e-01 -1.75828649880717461903e-04
9.99439219560789465904e+08 9.95883864006573582550e-01 -3.79614208558409008121e-02 -2.80429080748539319348e-04 -2.58628149592558852568e-03 -2.80429080748539319348e-04 -2.58628149592558852568e-03 9.99980894589135305139e-01 -1.76201307152546333143e-04
9.99440436004258513451e+08 9.95866152418397376778e-01 -3.80420442085628862650e-02 -2.81635757204026933830e-04 -2.59177430100462381779e-03 -2.81635757204026933830e-04 -2.59177430100462381779e-03 9.99980812379225425524e-01 -1.76575527606269108184e-04
9.99441652447727560997e+08 9.95848326740890188447e-01 -3.81230064343527630388e-02 -2.82850206475149549765e-04 -2.59729019323701616068e-03 -2.82850206475149549765e-04 -2.59729019323701616068e-03 9.99980729639759702287e-01 -1.76951320969439862855e-04
9.99442868891196489334e+08 9.95830385996067768417e-01 -3.82043096461504791406e-02 -2.84072495191205654126e-04 -2.60282931657568805325e-03 -2.84072495191205654126e-04 -2.60282931657568805325e-03 9.99980646366198877573e-01 -1.77328697049456980150e-04
9.99444085334665536880e+08 9.95812329195488898925e-01 -3.82859559742383878667e-02 -2.85302690693898424248e-04 -2.60839181615508822545e-03 -2.85302690693898424248e-04 -2.60839181615508822545e-03 9.99980562553954954730e-01 -1.77707665734215324938e-04
9.99445301778134584427e+08 9.95794155340119613307e-01 -3.83679475664279595604e-02 -2.86540861046626689924e-04 -2.61397783830390716131e-03 -2.86540861046626689924e-04 -2.61397783830390716131e-03 9.99980478198390754230e-01 -1.78088236992972575711e-04
9.99446518221603512764e+08 9.95775863420201967635e-01 -3.84502865882148173182e-02 -2.87787075043403580473e-04 -2.61958753055564460069e-03 -2.87787075043403580473e-04 -2.61958753055564460069e-03 9.99980393294819580596e-01 -1.78470420877069026406e-04
9.99447734665072560310e+08 9.95757452415103383458e-01 -3.85329752230148883663e-02 -2.89041402219107981548e-04 -2.62522104166469649744e-03 -2.89041402219107981548e-04 -2.62522104166469649744e-03 9.99980307838503890139e-01 -1.78854227521023741903e-04
9.99448951108541607857e+08 9.95738921293193746109e-01 -3.86160156722712144539e-02 -2.90303912857886234605e-04 -2.63087852161363088335e-03 -2.90303912857886234605e-04 -2.63087852161363088335e-03 9.99980221824655290952e-01 -1.79239667143030092632e-04
9.99450167552010536194e+08 9.95720269011690417571e-01 -3.86994101556943984055e-02 -2.91574678003687979937e-04 -2.63656012162957103032e-03 -2.91574678003687979937e-04 -2.63656012162957103032e-03 9.99980135248433765760e-01 -1.79626750046072049130e-04
9.99451383995479583740e+08 9.95701494516517682243e-01 -3.87831609114340433719e-02 -2.92853769469868826895e-04 -2.64226599419587404247e-03 -2.92853769469868826895e-04 -2.64226599419587404247e-03 9.99980048104946672716e-01 -1.80015486618719796697e-04
9.99452600438948512077e+08 9.95682596742166525772e-01 -3.88672701962366265449e-02 -2.94141259848697343270e-04 -2.64799629306288787645e-03 -2.94141259848697343270e-04 -2.64799629306288787645e-03 9.99979960389248190289e-01 -1.80405887335862628960e-04
9.99453816882417559624e+08 9.95663574611529544889e-01 -3.89517402857130212723e-02 -2.95437222522653580338e-04 -2.65375117326617634625e-03 -2.95437222522653580338e-04 -2.65375117326617634625e-03 9.99979872096339095222e-01 -1.80797962759950549098e-04
9.99455033325886607170e+08 9.95644427035772827672e-01 -3.90365734744279740953e-02 -2.96741731673122043252e-04 -2.65953079113261580887e-03 -2.96741731673122043252e-04 -2.65953079113261580887e-03 9.99979783221165208218e-01 -1.81191723541409627695e-04
9.99456249769355535507e+08 9.95625152914165201246e-01 -3.91217720761762519088e-02 -2.98054862292061772174e-04 -2.66533530429920867411e-03 -2.98054862292061772174e-04 -2.66533530429920867411e-03 9.99979693758617615984e-01 -1.81587180419923854965e-04
9.99457466212824583054e+08 9.95605751133926908381e-01 -3.92073384241575575992e-02 -2.99376690192250209666e-04 -2.67116487172500008743e-03 -2.99376690192250209666e-04 -2.67116487172500008743e-03 9.99979603703531116921e-01 -1.81984344225246910025e-04
9.99458682656293630600e+08 9.95586220570074842406e-01 -3.92932748711690288390e-02 -3.00707292017918898733e-04 -2.67701965370419417423e-03 -3.00707292017918898733e-04 -2.67701965370419417423e-03 9.99979513050683999076e-01 -1.82383225878095733222e-04
9.99459899099762558937e+08 9.95566560085266338831e-01 -3.93795837897842129771e-02 -3.02046745255302715762e-04 -2.68289981187834350798e-03 -3.02046745255302715762e-04 -2.68289981187834350798e-03 9.99979421794797262990e-01 -1.82783836390981160522e-04
9.99461115543231606483e+08 9.95546768529620540455e-01 -3.94662675726328571191e-02 -3.03395128244883711434e-04 -2.68880550925541545598e-03 -3.03395128244883711434e-04 -2.68880550925541545598e-03 9.99979329930533622495e-01 -1.83186186869506716394e-04
9.99462331986700534821e+08 9.95526844740571292824e-01 -3.95533286325260302618e-02 -3.04752520191366800713e-04 -2.69473691021831574313e-03 -3.04752520191366800713e-04 -2.69473691021831574313e-03 9.99979237452496838578e-01 -1.83590288512949366710e-04
9.99463548430169582367e+08 9.95506787542685400716e-01 -3.96407694027295157135e-02 -3.06119001176090028797e-04 -2.70069418054351114214e-03 -3.06119001176090028797e-04 -2.70069418054351114214e-03 9.99979144355231053254e-01 -1.83996152615528387646e-04
9.99464764873638629913e+08 9.95486595747502756026e-01 -3.97285923371290192185e-02 -3.07494652167888060049e-04 -2.70667748741228912993e-03 -3.07494652167888060049e-04 -2.70667748741228912993e-03 9.99979050633220012401e-01 -1.84403790567172221884e-04
9.99465981317107558250e+08 9.95466268153363920135e-01 -3.98167999104450873182e-02 -3.08879555034864607815e-04 -2.71268699942539765271e-03 -3.08879555034864607815e-04 -2.71268699942539765271e-03 9.99978956280886066565e-01 -1.84813213854516161447e-04
9.99467197760576605797e+08 9.95445803545218832475e-01 -3.99053946185195379526e-02 -3.10273792557431212381e-04 -2.71872288662256033145e-03 -3.10273792557431212381e-04 -2.71872288662256033145e-03 9.99978861292589393805e-01 -1.85224434062231715090e-04
9.99468414204045653343e+08 9.95425200694462497530e-01 -3.99943789784721753788e-02 -3.11677448439455278759e-04 -2.72478532049315368482e-03 -3.11677448439455278759e-04 -2.72478532049315368482e-03 9.99978765662627444577e-01 -1.85637462873754053748e-04
9.99469630647514581680e+08 9.95404458358759569592e-01 -4.00837555289034266903e-02 -3.13090607320267398910e-04 -2.73087447399001075760e-03 -3.13090607320267398910e-04 -2.73087447399001075760e-03 9.99978669385233609468e-01 -1.86052312072222583023e-04
9.99470847090983629227e+08 9.95383575281839294568e-01 -4.01735268302099574056e-02 -3.14513354788603324320e-04 -2.73699052155092605390e-03 -3.14513354788603324320e-04 -2.73699052155092605390e-03 9.99978572454576997153e-01 -1.86468993541945862952e-04
9.99472063534452557564e+08 9.95362550193331196979e-01 -4.02636954647159622800e-02 -3.15945777393785830894e-04 -2.74313363910759847042e-03 -3.15945777393785830894e-04 -2.74313363910759847042e-03 9.99978474864760880081e-01 -1.86887519269011065154e-04
9.99473279977921605110e+08 9.95341381808552805310e-01 -4.03542640370033039998e-02 -3.17387962660207979468e-04 -2.74930400410812545570e-03 -3.17387962660207979468e-04 -2.74930400410812545570e-03 9.99978376609822472432e-01 -1.87307901342816221545e-04
9.99474496421390652657e+08 9.95320068828343118561e-01 -4.04452351740351573328e-02 -3.18839999098695229315e-04 -2.75550179552542422526e-03 -3.18839999098695229315e-04 -2.75550179552542422526e-03 9.99978277683731597847e-01 -1.87730151956644336500e-04
9.99475712864859580994e+08 9.95298609938848000134e-01 -4.05366115254716455341e-02 -3.20301976221075814302e-04 -2.76172719387873712854e-03 -3.20301976221075814302e-04 -2.76172719387873712854e-03 9.99978178080389690230e-01 -1.88154283409128198195e-04
9.99476929308328628540e+08 9.95277003811321892002e-01 -4.06283957639108975202e-02 -3.21773984553735492662e-04 -2.76798038125005601076e-03 -3.21773984553735492662e-04 -2.76798038125005601076e-03 9.99978077793629460679e-01 -1.88580308105369492087e-04
9.99478145751797676086e+08 9.95255249101933414657e-01 -4.07205905850994073769e-02 -3.23256115650839771954e-04 -2.77426154129845059515e-03 -3.23256115650839771954e-04 -2.77426154129845059515e-03 9.99977976817213232152e-01 -1.89008238557914989451e-04
9.99479362195266604424e+08 9.95233344451566415145e-01 -4.08131987081528785355e-02 -3.24748462107890068298e-04 -2.78057085927511807646e-03 -3.24748462107890068298e-04 -2.78057085927511807646e-03 9.99977875144832717424e-01 -1.89438087387781850263e-04
9.99480578638735651970e+08 9.95211288485584932850e-01 -4.09062228759199744688e-02 -3.26251117577752063406e-04 -2.78690852204816234480e-03 -3.26251117577752063406e-04 -2.78690852204816234480e-03 9.99977772770107242728e-01 -1.89869867326145698883e-04
9.99481795082204580307e+08 9.95189079813654120521e-01 -4.09996658550958112399e-02 -3.27764176782830102350e-04 -2.79327471811032651550e-03 -3.27764176782830102350e-04 -2.79327471811032651550e-03 9.99977669686583636732e-01 -1.90303591214867763148e-04
9.99483011525673627853e+08 9.95166717029503544723e-01 -4.10935304365709838659e-02 -3.29287735531213403371e-04 -2.79966963760277468692e-03 -3.29287735531213403371e-04 -2.79966963760277468692e-03 9.99977565887734454186e-01 -1.90739272008114672417e-04
9.99484227969142675400e+08 9.95144198710718796974e-01 -4.11878194356483651184e-02 -3.30821890730870053245e-04 -2.80609347232985790674e-03 -3.30821890730870053245e-04 -2.80609347232985790674e-03 9.99977461366957420807e-01 -1.91176922773364759821e-04
9.99485444412611603737e+08 9.95121523418519671189e-01 -4.12825356923052222413e-02 -3.32366740404756882445e-04 -2.81254641577697531846e-03 -3.32366740404756882445e-04 -2.81254641577697531846e-03 9.99977356117574323058e-01 -1.91616556692624835255e-04
9.99486660856080651283e+08 9.95098689697516913810e-01 -4.13776820715327370293e-02 -3.33922383707381466474e-04 -2.81902866313370409693e-03 -3.33922383707381466474e-04 -2.81902866313370409693e-03 9.99977250132829897922e-01 -1.92058187064005964810e-04
