! File generated for n1 = 9, n2 = 1
! b1 = 0.215443
! b2 = 0.215443
! Q0 = 10000.000000
! f0 = 1000000000.000000
! n = 1001
! rel_span = 10.000000
# Hz S RI R 50
9.99284556530996799469e+08 9.97020599865880763346e-01 -2.98046669336575684173e-02 -2.97940013411927655251e-03 -2.98046669336575684173e-02 -2.97940013411927655251e-03 -2.98046669336575684173e-02 9.97020599865880763346e-01 -2.98046669336575684173e-02
9.99285987417934775352e+08 9.97008760911717528685e-01 -2.98632312700282225026e-02 -2.99123908828246914612e-03 -2.98632312700282225026e-02 -2.99123908828246914612e-03 -2.98632312700282225026e-02 9.97008760911717528685e-01 -2.98632312700282225026e-02
9.99287418304872870445e+08 9.96996851507122916480e-01 -2.99220237319991651248e-02 -3.00314849287712515302e-03 -2.99220237319991651248e-02 -3.00314849287712515302e-03 -2.99220237319991651248e-02 9.96996851507122916480e-01 -2.99220237319991651248e-02
9.99288849191810846329e+08 9.96984871093960167698e-01 -2.99810456404212694048e-02 -3.01512890603984184262e-03 -2.99810456404212694048e-02 -3.01512890603984184262e-03 -2.99810456404212694048e-02 9.96984871093960167698e-01 -2.99810456404212694048e-02
9.99290280078748822212e+08 9.96972819108567942514e-01 -3.00402983262708887791e-02 -3.02718089143209695066e-03 -3.00402983262708887791e-02 -3.02718089143209695066e-03 -3.00402983262708887791e-02 9.96972819108567942514e-01 -3.00402983262708887791e-02
9.99291710965686798096e+08 9.96960694981703587914e-01 -3.00997831306996262157e-02 -3.03930501829638346351e-03 -3.00997831306996262157e-02 -3.03930501829638346351e-03 -3.00997831306996262157e-02 9.96960694981703587914e-01 -3.00997831306996262157e-02
9.99293141852624893188e+08 9.96948498138472416485e-01 -3.01595014051559834334e-02 -3.05150186152761257116e-03 -3.01595014051559834334e-02 -3.05150186152761257116e-03 -3.01595014051559834334e-02 9.96948498138472416485e-01 -3.01595014051559834334e-02
9.99294572739562869072e+08 9.96936227998262980421e-01 -3.02194545114667471875e-02 -3.06377200173702608429e-03 -3.02194545114667471875e-02 -3.06377200173702608429e-03 -3.02194545114667471875e-02 9.96936227998262980421e-01 -3.02194545114667471875e-02
9.99296003626500844955e+08 9.96923883974677349507e-01 -3.02796438219471476805e-02 -3.07611602532268258586e-03 -3.02796438219471476805e-02 -3.07611602532268258586e-03 -3.02796438219471476805e-02 9.96923883974677349507e-01 -3.02796438219471476805e-02
9.99297434513438820839e+08 9.96911465475463387520e-01 -3.03400707194913313303e-02 -3.08853452453663242933e-03 -3.03400707194913313303e-02 -3.08853452453663242933e-03 -3.03400707194913313303e-02 9.96911465475463387520e-01 -3.03400707194913313303e-02
9.99298865400376915932e+08 9.96898971902442698756e-01 -3.04007365976848506484e-02 -3.10102809755735285210e-03 -3.04007365976848506484e-02 -3.10102809755735285210e-03 -3.04007365976848506484e-02 9.96898971902442698756e-01 -3.04007365976848506484e-02
9.99300296287314891815e+08 9.96886402651442571354e-01 -3.04616428608902797825e-02 -3.11359734855737920606e-03 -3.04616428608902797825e-02 -3.11359734855737920606e-03 -3.04616428608902797825e-02 9.96886402651442571354e-01 -3.04616428608902797825e-02
9.99301727174252867699e+08 9.96873757112221259291e-01 -3.05227909243667369643e-02 -3.12624288777869257031e-03 -3.05227909243667369643e-02 -3.12624288777869257031e-03 -3.05227909243667369643e-02 9.96873757112221259291e-01 -3.05227909243667369643e-02
9.99303158061190843582e+08 9.96861034668396261971e-01 -3.05841822143648467414e-02 -3.13896533160379267308e-03 -3.05841822143648467414e-02 -3.13896533160379267308e-03 -3.05841822143648467414e-02 9.96861034668396261971e-01 -3.05841822143648467414e-02
9.99304588948128938675e+08 9.96848234697368829060e-01 -3.06458181682393374090e-02 -3.15176530263121127198e-03 -3.06458181682393374090e-02 -3.15176530263121127198e-03 -3.06458181682393374090e-02 9.96848234697368829060e-01 -3.06458181682393374090e-02
9.99306019835066914558e+08 9.96835356570252906216e-01 -3.07077002345389898919e-02 -3.16464342974710375819e-03 -3.07077002345389898919e-02 -3.16464342974710375819e-03 -3.07077002345389898919e-02 9.96835356570252906216e-01 -3.07077002345389898919e-02
9.99307450722004890442e+08 9.96822399651794199826e-01 -3.07698298731360342373e-02 -3.17760034820583747023e-03 -3.07698298731360342373e-02 -3.17760034820583747023e-03 -3.07698298731360342373e-02 9.96822399651794199826e-01 -3.07698298731360342373e-02
9.99308881608942866325e+08 9.96809363300293793664e-01 -3.08322085553306181327e-02 -3.19063669970624319908e-03 -3.08322085553306181327e-02 -3.19063669970624319908e-03 -3.08322085553306181327e-02 9.96809363300293793664e-01 -3.08322085553306181327e-02
9.99310312495880961418e+08 9.96796246867533652924e-01 -3.08948377639442772757e-02 -3.20375313246636095332e-03 -3.08948377639442772757e-02 -3.20375313246636095332e-03 -3.08948377639442772757e-02 9.96796246867533652924e-01 -3.08948377639442772757e-02
9.99311743382818937302e+08 9.96783049698693690566e-01 -3.09577189934483777700e-02 -3.21695030130635540450e-03 -3.09577189934483777700e-02 -3.21695030130635540450e-03 -3.09577189934483777700e-02 9.96783049698693690566e-01 -3.09577189934483777700e-02
9.99313174269756913185e+08 9.96769771132272497383e-01 -3.10208537500698058875e-02 -3.23022886772752126569e-03 -3.10208537500698058875e-02 -3.23022886772752126569e-03 -3.10208537500698058875e-02 9.96769771132272497383e-01 -3.10208537500698058875e-02
9.99314605156694889069e+08 9.96756410500003964259e-01 -3.10842435519149591638e-02 -3.24358949999601318959e-03 -3.10842435519149591638e-02 -3.24358949999601318959e-03 -3.10842435519149591638e-02 9.96756410500003964259e-01 -3.10842435519149591638e-02
9.99316036043632984161e+08 9.96742967126775791797e-01 -3.11478899290780243680e-02 -3.25703287322415789562e-03 -3.11478899290780243680e-02 -3.25703287322415789562e-03 -3.11478899290780243680e-02 9.96742967126775791797e-01 -3.11478899290780243680e-02
9.99317466930570960045e+08 9.96729440330549221194e-01 -3.12117944237404430774e-02 -3.27055966945078097421e-03 -3.12117944237404430774e-02 -3.27055966945078097421e-03 -3.12117944237404430774e-02 9.96729440330549221194e-01 -3.12117944237404430774e-02
9.99318897817508935928e+08 9.96715829422265775506e-01 -3.12759585903261277950e-02 -3.28417057773424791306e-03 -3.12759585903261277950e-02 -3.28417057773424791306e-03 -3.12759585903261277950e-02 9.96715829422265775506e-01 -3.12759585903261277950e-02
9.99320328704446911812e+08 9.96702133705766324390e-01 -3.13403839955964241826e-02 -3.29786629423369469227e-03 -3.13403839955964241826e-02 -3.29786629423369469227e-03 -3.13403839955964241826e-02 9.96702133705766324390e-01 -3.13403839955964241826e-02
9.99321759591385006905e+08 9.96688352477701711152e-01 -3.14050722187784736583e-02 -3.31164752229827887356e-03 -3.14050722187784736583e-02 -3.31164752229827887356e-03 -3.14050722187784736583e-02 9.96688352477701711152e-01 -3.14050722187784736583e-02
9.99323190478322982788e+08 9.96674485027448708863e-01 -3.14700248516649253028e-02 -3.32551497255127552488e-03 -3.14700248516649253028e-02 -3.32551497255127552488e-03 -3.14700248516649253028e-02 9.96674485027448708863e-01 -3.14700248516649253028e-02
9.99324621365260958672e+08 9.96660530637009545174e-01 -3.15352434987854271520e-02 -3.33946936299046827010e-03 -3.15352434987854271520e-02 -3.33946936299046827010e-03 -3.15352434987854271520e-02 9.96660530637009545174e-01 -3.15352434987854271520e-02
9.99326052252198934555e+08 9.96646488580931078083e-01 -3.16007297774814899238e-02 -3.35351141906891974873e-03 -3.16007297774814899238e-02 -3.35351141906891974873e-03 -3.16007297774814899238e-02 9.96646488580931078083e-01 -3.16007297774814899238e-02
9.99327483139137029648e+08 9.96632358126200768034e-01 -3.16664853180863362092e-02 -3.36764187379920160864e-03 -3.16664853180863362092e-02 -3.36764187379920160864e-03 -3.16664853180863362092e-02 9.96632358126200768034e-01 -3.16664853180863362092e-02
9.99328914026075005531e+08 9.96618138532167185950e-01 -3.17325117639844778150e-02 -3.38186146783286218850e-03 -3.17325117639844778150e-02 -3.38186146783286218850e-03 -3.17325117639844778150e-02 9.96618138532167185950e-01 -3.17325117639844778150e-02
9.99330344913012981415e+08 9.96603829050431544445e-01 -3.17988107717996626445e-02 -3.39617094956849935664e-03 -3.17988107717996626445e-02 -3.39617094956849935664e-03 -3.17988107717996626445e-02 9.96603829050431544445e-01 -3.17988107717996626445e-02
9.99331775799950957298e+08 9.96589428924755660333e-01 -3.18653840115059039384e-02 -3.41057107524437175955e-03 -3.18653840115059039384e-02 -3.41057107524437175955e-03 -3.18653840115059039384e-02 9.96589428924755660333e-01 -3.18653840115059039384e-02
9.99333206686889052391e+08 9.96574937390961590467e-01 -3.19322331665678887935e-02 -3.42506260903844596266e-03 -3.19322331665678887935e-02 -3.42506260903844596266e-03 -3.19322331665678887935e-02 9.96574937390961590467e-01 -3.19322331665678887935e-02
9.99334637573827028275e+08 9.96560353676839150161e-01 -3.19993599340414741627e-02 -3.43964632316085677788e-03 -3.19993599340414741627e-02 -3.43964632316085677788e-03 -3.19993599340414741627e-02 9.96560353676839150161e-01 -3.19993599340414741627e-02
9.99336068460765004158e+08 9.96545677002034113734e-01 -3.20667660247587540945e-02 -3.45432299796583118859e-03 -3.20667660247587540945e-02 -3.45432299796583118859e-03 -3.20667660247587540945e-02 9.96545677002034113734e-01 -3.20667660247587540945e-02
9.99337499347702980042e+08 9.96530906577952291236e-01 -3.21344531634344260373e-02 -3.46909342204769315099e-03 -3.21344531634344260373e-02 -3.46909342204769315099e-03 -3.21344531634344260373e-02 9.96530906577952291236e-01 -3.21344531634344260373e-02
9.99338930234641075134e+08 9.96516041607652058865e-01 -3.22024230888178775167e-02 -3.48395839234794373745e-03 -3.22024230888178775167e-02 -3.48395839234794373745e-03 -3.22024230888178775167e-02 9.96516041607652058865e-01 -3.22024230888178775167e-02
9.99340361121579051018e+08 9.96501081285742995597e-01 -3.22706775538153731175e-02 -3.49891871425700483680e-03 -3.22706775538153731175e-02 -3.49891871425700483680e-03 -3.22706775538153731175e-02 9.96501081285742995597e-01 -3.22706775538153731175e-02
9.99341792008517026901e+08 9.96486024798273306580e-01 -3.23392183256561716043e-02 -3.51397520172673722208e-03 -3.23392183256561716043e-02 -3.51397520172673722208e-03 -3.23392183256561716043e-02 9.96486024798273306580e-01 -3.23392183256561716043e-02
9.99343222895455002785e+08 9.96470871322622908650e-01 -3.24080471860260441175e-02 -3.52912867737709091617e-03 -3.24080471860260441175e-02 -3.52912867737709091617e-03 -3.24080471860260441175e-02 9.96470871322622908650e-01 -3.24080471860260441175e-02
9.99344653782393097878e+08 9.96455620027391630877e-01 -3.24771659312211094517e-02 -3.54437997260842159800e-03 -3.24771659312211094517e-02 -3.54437997260842159800e-03 -3.24771659312211094517e-02 9.96455620027391630877e-01 -3.24771659312211094517e-02
9.99346084669331073761e+08 9.96440270072295186665e-01 -3.25465763722550469050e-02 -3.55972992770477994137e-03 -3.25465763722550469050e-02 -3.55972992770477994137e-03 -3.25465763722550469050e-02 9.96440270072295186665e-01 -3.25465763722550469050e-02
9.99347515556269049644e+08 9.96424820608039274461e-01 -3.26162803350672214631e-02 -3.57517939196074939143e-03 -3.26162803350672214631e-02 -3.57517939196074939143e-03 -3.26162803350672214631e-02 9.96424820608039274461e-01 -3.26162803350672214631e-02
9.99348946443207144737e+08 9.96409270776205224784e-01 -3.26862796606633976282e-02 -3.59072922379477087879e-03 -3.26862796606633976282e-02 -3.59072922379477087879e-03 -3.26862796606633976282e-02 9.96409270776205224784e-01 -3.26862796606633976282e-02
9.99350377330145120621e+08 9.96393619709148081753e-01 -3.27565762052034054053e-02 -3.60638029085192778761e-03 -3.27565762052034054053e-02 -3.60638029085192778761e-03 -3.27565762052034054053e-02 9.96393619709148081753e-01 -3.27565762052034054053e-02
9.99351808217083096504e+08 9.96377866529855937827e-01 -3.28271718402507184376e-02 -3.62213347014405826971e-03 -3.28271718402507184376e-02 -3.62213347014405826971e-03 -3.28271718402507184376e-02 9.96377866529855937827e-01 -3.28271718402507184376e-02
9.99353239104021072388e+08 9.96362010351846349998e-01 -3.28980684528528827260e-02 -3.63798964815365563977e-03 -3.28980684528528827260e-02 -3.63798964815365563977e-03 -3.28980684528528827260e-02 9.96362010351846349998e-01 -3.28980684528528827260e-02
9.99354669990959167480e+08 9.96346050279031891783e-01 -3.29692679457517998087e-02 -3.65394972096805834352e-03 -3.29692679457517998087e-02 -3.65394972096805834352e-03 -3.29692679457517998087e-02 9.96346050279031891783e-01 -3.29692679457517998087e-02
9.99356100877897143364e+08 9.96329985405604023896e-01 -3.30407722375083909294e-02 -3.67001459439597957357e-03 -3.30407722375083909294e-02 -3.67001459439597957357e-03 -3.30407722375083909294e-02 9.96329985405604023896e-01 -3.30407722375083909294e-02
9.99357531764835119247e+08 9.96313814815905640643e-01 -3.31125832626673610726e-02 -3.68618518409438320968e-03 -3.31125832626673610726e-02 -3.68618518409438320968e-03 -3.31125832626673610726e-02 9.96313814815905640643e-01 -3.31125832626673610726e-02
9.99358962651773095131e+08 9.96297537584293180224e-01 -3.31847029719659417091e-02 -3.70246241570680329619e-03 -3.31847029719659417091e-02 -3.70246241570680329619e-03 -3.31847029719659417091e-02 9.96297537584293180224e-01 -3.31847029719659417091e-02
9.99360393538711190224e+08 9.96281152775018274959e-01 -3.32571333324473972226e-02 -3.71884722498169598484e-03 -3.32571333324473972226e-02 -3.71884722498169598484e-03 -3.32571333324473972226e-02 9.96281152775018274959e-01 -3.32571333324473972226e-02
9.99361824425649166107e+08 9.96264659442094857589e-01 -3.33298763276315829218e-02 -3.73534055790512896714e-03 -3.33298763276315829218e-02 -3.73534055790512896714e-03 -3.33298763276315829218e-02 9.96264659442094857589e-01 -3.33298763276315829218e-02
9.99363255312587141991e+08 9.96248056629152833885e-01 -3.34029339577387243687e-02 -3.75194337084711233843e-03 -3.34029339577387243687e-02 -3.75194337084711233843e-03 -3.34029339577387243687e-02 9.96248056629152833885e-01 -3.34029339577387243687e-02
9.99364686199525117874e+08 9.96231343369318733671e-01 -3.34763082397885047836e-02 -3.76865663068123900661e-03 -3.34763082397885047836e-02 -3.76865663068123900661e-03 -3.34763082397885047836e-02 9.96231343369318733671e-01 -3.34763082397885047836e-02
9.99366117086463212967e+08 9.96214518685060945735e-01 -3.35500012078451675945e-02 -3.78548131493908548983e-03 -3.35500012078451675945e-02 -3.78548131493908548983e-03 -3.35500012078451675945e-02 9.96214518685060945735e-01 -3.35500012078451675945e-02
9.99367547973401188850e+08 9.96197581588064262625e-01 -3.36240149131286913953e-02 -3.80241841193577163535e-03 -3.36240149131286913953e-02 -3.80241841193577163535e-03 -3.36240149131286913953e-02 9.96197581588064262625e-01 -3.36240149131286913953e-02
9.99368978860339164734e+08 9.96180531079075115564e-01 -3.36983514242476522860e-02 -3.81946892092492043189e-03 -3.36983514242476522860e-02 -3.81946892092492043189e-03 -3.36983514242476522860e-02 9.96180531079075115564e-01 -3.36983514242476522860e-02
9.99370409747277140617e+08 9.96163366147763018610e-01 -3.37730128273516644333e-02 -3.83663385223696837972e-03 -3.37730128273516644333e-02 -3.83663385223696837972e-03 -3.37730128273516644333e-02 9.96163366147763018610e-01 -3.37730128273516644333e-02
9.99371840634215235710e+08 9.96146085772573242068e-01 -3.38480012263172105880e-02 -3.85391422742680954047e-03 -3.38480012263172105880e-02 -3.85391422742680954047e-03 -3.38480012263172105880e-02 9.96146085772573242068e-01 -3.38480012263172105880e-02
9.99373271521153211594e+08 9.96128688920578930777e-01 -3.39233187429241744848e-02 -3.87131107942104840669e-03 -3.39233187429241744848e-02 -3.87131107942104840669e-03 -3.39233187429241744848e-02 9.96128688920578930777e-01 -3.39233187429241744848e-02
9.99374702408091187477e+08 9.96111174547321676087e-01 -3.39989675170814104055e-02 -3.88882545267837725564e-03 -3.39989675170814104055e-02 -3.88882545267837725564e-03 -3.39989675170814104055e-02 9.96111174547321676087e-01 -3.39989675170814104055e-02
9.99376133295029163361e+08 9.96093541596667186866e-01 -3.40749497069700660323e-02 -3.90645840333276803125e-03 -3.40749497069700660323e-02 -3.90645840333276803125e-03 -3.40749497069700660323e-02 9.96093541596667186866e-01 -3.40749497069700660323e-02
9.99377564181967258453e+08 9.96075789000642752846e-01 -3.41512674892679862770e-02 -3.92421099935726103158e-03 -3.41512674892679862770e-02 -3.92421099935726103158e-03 -3.41512674892679862770e-02 9.96075789000642752846e-01 -3.41512674892679862770e-02
9.99378995068905234337e+08 9.96057915679283367716e-01 -3.42279230593179051301e-02 -3.94208432071660192647e-03 -3.42279230593179051301e-02 -3.94208432071660192647e-03 -3.42279230593179051301e-02 9.96057915679283367716e-01 -3.42279230593179051301e-02
9.99380425955843210220e+08 9.96039920540465306686e-01 -3.43049186313510445778e-02 -3.96007945953468203787e-03 -3.43049186313510445778e-02 -3.96007945953468203787e-03 -3.43049186313510445778e-02 9.96039920540465306686e-01 -3.43049186313510445778e-02
9.99381856842781186104e+08 9.96021802479744366998e-01 -3.43822564386749435217e-02 -3.97819752025561305248e-03 -3.43822564386749435217e-02 -3.97819752025561305248e-03 -3.43822564386749435217e-02 9.96021802479744366998e-01 -3.43822564386749435217e-02
9.99383287729719281197e+08 9.96003560380187780154e-01 -3.44599387338844903583e-02 -3.99643961981221550878e-03 -3.44599387338844903583e-02 -3.99643961981221550878e-03 -3.44599387338844903583e-02 9.96003560380187780154e-01 -3.44599387338844903583e-02
9.99384718616657257080e+08 9.95985193112215672073e-01 -3.45379677890211289615e-02 -4.01480688778434527397e-03 -3.45379677890211289615e-02 -4.01480688778434527397e-03 -3.45379677890211289615e-02 9.95985193112215672073e-01 -3.45379677890211289615e-02
9.99386149503595232964e+08 9.95966699533410326772e-01 -3.46163458958614611571e-02 -4.03330046658967236034e-03 -3.46163458958614611571e-02 -4.03330046658967236034e-03 -3.46163458958614611571e-02 9.95966699533410326772e-01 -3.46163458958614611571e-02
9.99387580390533208847e+08 9.95948078488361865368e-01 -3.46950753660420982416e-02 -4.05192151163809126391e-03 -3.46950753660420982416e-02 -4.05192151163809126391e-03 -3.46950753660420982416e-02 9.95948078488361865368e-01 -3.46950753660420982416e-02
9.99389011277471303940e+08 9.95929328808471736600e-01 -3.47741585313541684554e-02 -4.07067119152820875577e-03 -3.47741585313541684554e-02 -4.07067119152820875577e-03 -3.47741585313541684554e-02 9.95929328808471736600e-01 -3.47741585313541684554e-02
9.99390442164409279823e+08 9.95910449311792289606e-01 -3.48535977438757943458e-02 -4.08955068820776417027e-03 -3.48535977438757943458e-02 -4.08955068820776417027e-03 -3.48535977438757943458e-02 9.95910449311792289606e-01 -3.48535977438757943458e-02
9.99391873051347255707e+08 9.95891438802831374666e-01 -3.49333953762415508337e-02 -4.10856119716863574243e-03 -3.49333953762415508337e-02 -4.10856119716863574243e-03 -3.49333953762415508337e-02 9.95891438802831374666e-01 -3.49333953762415508337e-02
9.99393303938285231590e+08 9.95872296072367380049e-01 -3.50135538218631428564e-02 -4.12770392763262168601e-03 -3.50135538218631428564e-02 -4.12770392763262168601e-03 -3.50135538218631428564e-02 9.95872296072367380049e-01 -3.50135538218631428564e-02
9.99394734825223326683e+08 9.95853019897262048410e-01 -3.50940754951434494280e-02 -4.14698010273792556923e-03 -3.50940754951434494280e-02 -4.14698010273792556923e-03 -3.50940754951434494280e-02 9.95853019897262048410e-01 -3.50940754951434494280e-02
9.99396165712161302567e+08 9.95833609040280509639e-01 -3.51749628316553666907e-02 -4.16639095971950250419e-03 -3.51749628316553666907e-02 -4.16639095971950250419e-03 -3.51749628316553666907e-02 9.95833609040280509639e-01 -3.51749628316553666907e-02
