! File generated for n1 = 2, n2 = 12
! b1 = 46.415888
! b2 = 0.010000
! Q0 = 10000.000000
! f0 = 1000000000.000000
! n = 1001
! rel_span = 10.000000
# Hz S RI R 50
9.76287055831936120987e+08 9.81077548686577149972e-01 -1.91522541305542248757e-01 -2.77743601794563455074e-04 -2.81116645861392367226e-03 -2.77743601794563455074e-04 -2.81116645861392367226e-03 9.99995923281447041120e-01 -4.12622806911724254210e-05
9.76334481720272302628e+08 9.81001443161640174218e-01 -1.91903536534849428197e-01 -2.78860678132208396861e-04 -2.81675870379936984719e-03 -2.78860678132208396861e-04 -2.81675870379936984719e-03 9.99995906885008722931e-01 -4.13443636250480366806e-05
9.76381907608608365059e+08 9.80924882902179717803e-01 -1.92286016157054984177e-01 -2.79984429059857461812e-04 -2.82237273689290657855e-03 -2.79984429059857461812e-04 -2.82237273689290657855e-03 9.99995890390600772335e-01 -4.14267663616790313553e-05
9.76429333496944546700e+08 9.80847864297903715425e-01 -1.92669988770111572096e-01 -2.81114907569354147837e-04 -2.82800868409522048602e-03 -2.81114907569354147837e-04 -2.82800868409522048602e-03 9.99995873797445478104e-01 -4.15094907534381568235e-05
9.76476759385280609131e+08 9.80770383702773362877e-01 -1.93055463037712426999e-01 -2.82252167177227228541e-04 -2.83366667257193725546e-03 -2.82252167177227228541e-04 -2.83366667257193725546e-03 9.99995857104757357448e-01 -4.15925386668615542285e-05
9.76524185273616790771e+08 9.80692437434578789812e-01 -1.93442447689916779963e-01 -2.83396261930924644665e-04 -2.83934683046280266286e-03 -2.83396261930924644665e-04 -2.83934683046280266286e-03 9.99995840311742933970e-01 -4.16759119827834502697e-05
9.76571611161952853203e+08 9.80614021774510402629e-01 -1.93830951523774219769e-01 -2.84547246415110170834e-04 -2.84504928689084581744e-03 -2.84547246415110170834e-04 -2.84504928689084581744e-03 9.99995823417601070737e-01 -4.17596125964707337976e-05
9.76619037050289034843e+08 9.80535132966721456604e-01 -1.94220983403964930769e-01 -2.85705175758072134600e-04 -2.85077417197177745978e-03 -2.85705175758072134600e-04 -2.85077417197177745978e-03 9.99995806421522637208e-01 -4.18436424177608527774e-05
9.76666462938625097275e+08 9.80455767217888407572e-01 -1.94612552263434629429e-01 -2.86870105638185695068e-04 -2.85652161682331019732e-03 -2.86870105638185695068e-04 -2.85652161682331019732e-03 9.99995789322690398215e-01 -4.19280033711986338269e-05
9.76713888826961278915e+08 9.80375920696761160578e-01 -1.95005667104053842520e-01 -2.88042092290514278874e-04 -2.86229175357483262357e-03 -2.88042092290514278874e-04 -2.86229175357483262357e-03 9.99995772120278902939e-01 -4.20126973961782720435e-05
9.76761314715297341347e+08 9.80295589533710098884e-01 -1.95400336997266055317e-01 -2.89221192513448800612e-04 -2.86808471537692601105e-03 -2.89221192513448800612e-04 -2.86808471537692601105e-03 9.99995754813454484911e-01 -4.20977264470830236779e-05
9.76808740603633522987e+08 9.80214769820265452438e-01 -1.95796571084757980996e-01 -2.90407463675483546936e-04 -2.87390063641120149449e-03 -2.90407463675483546936e-04 -2.87390063641120149449e-03 9.99995737401375039966e-01 -4.21830924934295947585e-05
9.76856166491969704628e+08 9.80133457608650560111e-01 -1.96194378579127054474e-01 -2.91600963722054456508e-04 -2.87973965190009648790e-03 -2.91600963722054456508e-04 -2.87973965190009648790e-03 9.99995719883190137267e-01 -4.22687975200119401805e-05
9.76903592380305767059e+08 9.80051648911307693446e-01 -1.96593768764566578788e-01 -2.92801751182505227370e-04 -2.88560189811693217771e-03 -2.92801751182505227370e-04 -2.88560189811693217771e-03 9.99995702258040575217e-01 -4.23548435270488575033e-05
9.76951018268641948700e+08 9.79969339700418773376e-01 -1.96994750997548040417e-01 -2.94009885177117717518e-04 -2.89148751239592894866e-03 -2.94009885177117717518e-04 -2.89148751239592894866e-03 9.99995684525058603498e-01 -4.24412325303310250936e-05
9.76998444156978011131e+08 9.79886525907418981518e-01 -1.97397334707516469710e-01 -2.95225425424258355097e-04 -2.89739663314241132838e-03 -2.95225425424258355097e-04 -2.89739663314241132838e-03 9.99995666683367812055e-01 -4.25279665613707982081e-05
9.77045870045314192772e+08 9.79803203422501822750e-01 -1.97801529397598319093e-01 -2.96448432247637468258e-04 -2.90332939984319984839e-03 -2.96448432247637468258e-04 -2.90332939984319984839e-03 9.99995648732082575982e-01 -4.26150476675547020293e-05
9.77093295933650255203e+08 9.79719368094119968937e-01 -1.98207344645304706088e-01 -2.97678966583634480297e-04 -2.90928595307693308239e-03 -2.97678966583634480297e-04 -2.90928595307693308239e-03 9.99995630670308610632e-01 -4.27024779122949556948e-05
9.77140721821986436844e+08 9.79635015728476110652e-01 -1.98614790103260052678e-01 -2.98917089988777603601e-04 -2.91526643452476091553e-03 -2.98917089988777603601e-04 -2.91526643452476091553e-03 9.99995612497142305486e-01 -4.27902593751864444437e-05
9.77188147710322499275e+08 9.79550142089009923119e-01 -1.99023875499918123655e-01 -3.00162864647266576425e-04 -2.92127098698085653494e-03 -3.00162864647266576425e-04 -2.92127098698085653494e-03 9.99995594211671057217e-01 -4.28783941521610083617e-05
9.77235573598658680916e+08 9.79464742895874151962e-01 -1.99434610640307957707e-01 -3.01416353378668546749e-04 -2.92729975436336513697e-03 -3.01416353378668546749e-04 -2.92729975436336513697e-03 9.99995575812972603558e-01 -4.29668843556481008144e-05
9.77282999486994862556e+08 9.79378813825406147053e-01 -1.99847005406771721647e-01 -3.02677619645671635695e-04 -2.93335288172523207112e-03 -3.02677619645671635695e-04 -2.93335288172523207112e-03 9.99995557300115578414e-01 -4.30557321147338138007e-05
9.77330425375330924988e+08 9.79292350509590736607e-01 -2.00261069759718135508e-01 -3.03946727561971586761e-04 -2.93943051526526387060e-03 -3.03946727561971586761e-04 -2.93943051526526387060e-03 9.99995538672158845728e-01 -4.31449395753231559132e-05
9.77377851263667106628e+08 9.79205348535514108477e-01 -2.00676813738389692165e-01 -3.05223741900285646181e-04 -2.94553280233938747507e-03 -3.05223741900285646181e-04 -2.94553280233938747507e-03 9.99995519928151832545e-01 -4.32345089003053389596e-05
9.77425277152003169060e+08 9.79117803444813361580e-01 -2.01094247461621911111e-01 -3.06508728100430628046e-04 -2.95165989147179756366e-03 -3.06508728100430628046e-04 -2.95165989147179756366e-03 9.99995501067133751860e-01 -4.33244422697174043986e-05
9.77472703040339350700e+08 9.79029710733113733845e-01 -2.01513381128634205819e-01 -3.07801752277586052747e-04 -2.95781193236656142140e-03 -3.07801752277586052747e-04 -2.95781193236656142140e-03 9.99995482088134379772e-01 -4.34147418809145582783e-05
9.77520128928675413132e+08 9.78941065849462721538e-01 -2.01934225019805430046e-01 -3.09102881230600707706e-04 -2.96398907591900523037e-03 -3.09102881230600707706e-04 -2.96398907591900523037e-03 9.99995462990173056284e-01 -4.35054099487372942243e-05
9.77567554817011594772e+08 9.78851864195750431819e-01 -2.02356789497483563478e-01 -3.10412182450496532907e-04 -2.97019147422759605820e-03 -3.10412182450496532907e-04 -2.97019147422759605820e-03 9.99995443772259351434e-01 -4.35964487056857873592e-05
9.77614980705347657204e+08 9.78762101126126715656e-01 -2.02781085006783323710e-01 -3.11729724129028505468e-04 -2.97641928060565080782e-03 -3.11729724129028505468e-04 -2.97641928060565080782e-03 9.99995424433392288144e-01 -4.36878604020918013336e-05
9.77662406593683838844e+08 9.78671771946406754417e-01 -2.03207122076405399813e-01 -3.13055575167406775067e-04 -2.98267264959336218799e-03 -3.13055575167406775067e-04 -2.98267264959336218799e-03 9.99995404972560453238e-01 -4.37796473062951354530e-05
9.77709832482019901276e+08 9.78580871913469318990e-01 -2.03634911319460681911e-01 -3.14389805185129984303e-04 -2.98895173696989363901e-03 -3.14389805185129984303e-04 -2.98895173696989363901e-03 9.99995385388741997446e-01 -4.38718117048212102177e-05
9.77757258370356082916e+08 9.78489396234645592010e-01 -2.04064463434307064027e-01 -3.15732484528956987464e-04 -2.99525669976566377706e-03 -3.15732484528956987464e-04 -2.99525669976566377706e-03 9.99995365680904413352e-01 -4.39643559025613701440e-05
9.77804684258692264557e+08 9.78397340067099996475e-01 -2.04495789205390854359e-01 -3.17083684281992193681e-04 -3.00158769627469719163e-03 -3.17083684281992193681e-04 -3.00158769627469719163e-03 9.99995345848004313360e-01 -4.40572822229541420386e-05
9.77852110147028326988e+08 9.78304698517201698493e-01 -2.04928899504101424967e-01 -3.18443476272913645296e-04 -3.00794488606716649629e-03 -3.18443476272913645296e-04 -3.00794488606716649629e-03 9.99995325888987429686e-01 -4.41505930081693528564e-05
9.77899536035364508629e+08 9.78211466639885007801e-01 -2.05363805289642681329e-01 -3.19811933085357438192e-04 -3.01432843000218721533e-03 -3.19811933085357438192e-04 -3.01432843000218721533e-03 9.99995305802788392313e-01 -4.42442906192959202927e-05
9.77946961923700571060e+08 9.78117639438005004315e-01 -2.05800517609896871374e-01 -3.21189128067382752545e-04 -3.02073849024049384190e-03 -3.21189128067382752545e-04 -3.02073849024049384190e-03 9.99995285588330506954e-01 -4.43383774365279154290e-05
9.77994387812036752701e+08 9.78023211861678287704e-01 -2.06239047602318953389e-01 -3.22575135341139846226e-04 -3.02717523025756822530e-03 -3.22575135341139846226e-04 -3.02717523025756822530e-03 9.99995265244525977089e-01 -4.44328558593572728926e-05
9.78041813700372815132e+08 9.77928178807618619928e-01 -2.06679406494824607909e-01 -3.23970029812626952783e-04 -3.03363881485667471680e-03 -3.23970029812626952783e-04 -3.03363881485667471680e-03 9.99995244770275126811e-01 -4.45277283067650915538e-05
9.78089239588708996773e+08 9.77832535118458578971e-01 -2.07121605606705783131e-01 -3.25373887181643745275e-04 -3.04012941018229777140e-03 -3.25373887181643745275e-04 -3.04012941018229777140e-03 9.99995224164466955941e-01 -4.46229972174188983347e-05
9.78136665477045059204e+08 9.77736275582066771683e-01 -2.07565656349533750324e-01 -3.26786783951818959534e-04 -3.04664718373339740362e-03 -3.26786783951818959534e-04 -3.04664718373339740362e-03 9.99995203425978473888e-01 -4.47186650498672015131e-05
9.78184091365381240845e+08 9.77639394930848171228e-01 -2.08011570228101294600e-01 -3.28208797440874265085e-04 -3.05319230437723666827e-03 -3.28208797440874265085e-04 -3.05319230437723666827e-03 9.99995182553674921699e-01 -4.48147342827424601452e-05
9.78231517253717303276e+08 9.77541887841039902618e-01 -2.08459358841349778890e-01 -3.29640005790958717617e-04 -3.05976494236299273455e-03 -3.29640005790958717617e-04 -3.05976494236299273455e-03 9.99995161546409216946e-01 -4.49112074149608347636e-05
9.78278943142053484917e+08 9.77443748931993372508e-01 -2.08909033883326211711e-01 -3.31080487979195606674e-04 -3.06636526933580250837e-03 -3.31080487979195606674e-04 -3.06636526933580250837e-03 9.99995140403022175768e-01 -4.50080869659283958539e-05
9.78326369030389666557e+08 9.77344972765447073115e-01 -2.09360607144140148383e-01 -3.32530323828348294522e-04 -3.07299345835080608622e-03 -3.32530323828348294522e-04 -3.07299345835080608622e-03 9.99995119122342179807e-01 -4.51053754757472239118e-05
9.78373794918725728989e+08 9.77245553844787617770e-01 -2.09814090510937578671e-01 -3.33989594017665382061e-04 -3.07964968388744694816e-03 -3.33989594017665382061e-04 -3.07964968388744694816e-03 9.99995097703185065185e-01 -4.52030755054253109834e-05
9.78421220807061910629e+08 9.77145486614300673445e-01 -2.10269495968885750115e-01 -3.35458380093882108271e-04 -3.08633412186392133703e-03 -3.35458380093882108271e-04 -3.08633412186392133703e-03 9.99995076144353789438e-01 -4.53011896370886509391e-05
9.78468646695397973061e+08 9.77044765458410569003e-01 -2.10726835602166373551e-01 -3.36936764482377712135e-04 -3.09304694965175947657e-03 -3.36936764482377712135e-04 -3.09304694965175947657e-03 9.99995054444638542535e-01 -4.53997204741952745349e-05
9.78516072583734154701e+08 9.76943384700906691798e-01 -2.11186121594990061645e-01 -3.38424830498529035164e-04 -3.09978834609071643783e-03 -3.38424830498529035164e-04 -3.09978834609071643783e-03 9.99995032602816524836e-01 -4.54986706417537839129e-05
9.78563498472070217133e+08 9.76841338604162556791e-01 -2.11647366232604994263e-01 -3.39922662359176338837e-04 -3.10655849150357453448e-03 -3.39922662359176338837e-04 -3.10655849150357453448e-03 9.99995010617651391982e-01 -4.55980427865406673740e-05
9.78610924360406398773e+08 9.76738621368337223139e-01 -2.12110581902342582028e-01 -3.41430345194343096409e-04 -3.11335756771149345726e-03 -3.41430345194343096409e-04 -3.11335756771149345726e-03 9.99994988487893810003e-01 -4.56978395773255694845e-05
9.78658350248742461205e+08 9.76635227130570826581e-01 -2.12575781094648308400e-01 -3.42947965059041761943e-04 -3.12018575804914096578e-03 -3.42947965059041761943e-04 -3.12018575804914096578e-03 9.99994966212280567142e-01 -4.57980637050933966675e-05
9.78705776137078642845e+08 9.76531149964162348276e-01 -2.13042976404151873648e-01 -3.44475608945347120445e-04 -3.12704324738039864118e-03 -3.44475608945347120445e-04 -3.12704324738039864118e-03 9.99994943789534795897e-01 -4.58987178832748592421e-05
9.78753202025414824486e+08 9.76426383877739501038e-01 -2.13512180530727846417e-01 -3.46013364794578058212e-04 -3.13393022211393319776e-03 -3.46013364794578058212e-04 -3.13393022211393319776e-03 9.99994921218365639959e-01 -4.59998048479749941362e-05
9.78800627913750886917e+08 9.76320922814413849622e-01 -2.13983406280579296910e-01 -3.47561321509697528868e-04 -3.14084687021909956042e-03 -3.47561321509697528868e-04 -3.14084687021909956042e-03 9.99994898497468365228e-01 -4.61013273582066207198e-05
9.78848053802087068558e+08 9.76214760650921609120e-01 -2.14456666567342968399e-01 -3.49119568967928438265e-04 -3.14779338124216313127e-03 -3.49119568967928438265e-04 -3.14779338124216313127e-03 9.99994875625523582663e-01 -4.62032881961284316017e-05
9.78895479690423130989e+08 9.76107891196755228513e-01 -2.14931974413187537598e-01 -3.50688198033494754734e-04 -3.15476994632241970751e-03 -3.50688198033494754734e-04 -3.15476994632241970751e-03 9.99994852601197581343e-01 -4.63056901672816197536e-05
9.78942905578759312630e+08 9.76000308193278542923e-01 -2.15409342949941434719e-01 -3.52267300570611443730e-04 -3.16177675820875168228e-03 -3.52267300570611443730e-04 -3.16177675820875168228e-03 9.99994829423142106428e-01 -4.64085361008328549934e-05
9.78990331467095375061e+08 9.75892005312829491359e-01 -2.15888785420229767364e-01 -3.53856969456655626877e-04 -3.16881401127631261508e-03 -3.53856969456655626877e-04 -3.16881401127631261508e-03 9.99994806089993915066e-01 -4.65118288498192255847e-05
9.79037757355431556702e+08 9.75782976157809067708e-01 -2.16370315178624650354e-01 -3.55457298595540486814e-04 -3.17588190154341519847e-03 -3.55457298595540486814e-04 -3.17588190154341519847e-03 9.99994782600374554349e-01 -4.66155712913960936297e-05
9.79085183243767619133e+08 9.75673214259756615974e-01 -2.16853945692806582279e-01 -3.57068382931282322663e-04 -3.18298062668857448254e-03 -3.57068382931282322663e-04 -3.18298062668857448254e-03 9.99994758952890472337e-01 -4.67197663270872408391e-05
9.79132609132103800774e+08 9.75562713078409471379e-01 -2.17339690544749358780e-01 -3.58690318461809490996e-04 -3.19011038606790238090e-03 -3.58690318461809490996e-04 -3.19011038606790238090e-03 9.99994735146132573966e-01 -4.68244168830402320253e-05
9.79180035020439863205e+08 9.75451466000750611052e-01 -2.17827563431906234825e-01 -3.60323202252937826052e-04 -3.19727138073251735545e-03 -3.60323202252937826052e-04 -3.19727138073251735545e-03 9.99994711178676221053e-01 -4.69295259102819073437e-05
9.79227460908776044846e+08 9.75339466340038541148e-01 -2.18317578168423870322e-01 -3.61967132452608274240e-04 -3.20446381344636349597e-03 -3.61967132452608274240e-04 -3.20446381344636349597e-03 9.99994687049080788199e-01 -4.70350963849799528441e-05
9.79274886797112226486e+08 9.75226707334825082540e-01 -2.18809748686360994174e-01 -3.63622208305309168284e-04 -3.21168788870409638650e-03 -3.63622208305309168284e-04 -3.21168788870409638650e-03 9.99994662755889551775e-01 -4.71411313087054264733e-05
9.79322312685448288918e+08 9.75113182147956392143e-01 -2.19304089036925581313e-01 -3.65288530166734911643e-04 -3.21894381274924392539e-03 -3.65288530166734911643e-04 -3.21894381274924392539e-03 9.99994638297629467871e-01 -4.72476337086993091797e-05
9.79369738573784470558e+08 9.74998883865556886796e-01 -2.19800613391735233382e-01 -3.66966199518699558862e-04 -3.22623179359270541647e-03 -3.66966199518699558862e-04 -3.22623179359270541647e-03 9.99994613672811061278e-01 -4.73546066381440704522e-05
9.79417164462120532990e+08 9.74883805496001731861e-01 -2.20299336044075144692e-01 -3.68655318984220940932e-04 -3.23355204103121553205e-03 -3.68655318984220940932e-04 -3.23355204103121553205e-03 9.99994588879927870373e-01 -4.74620531764346511010e-05
9.79464590350456714630e+08 9.74767939968867791478e-01 -2.20800271410194509647e-01 -3.70355992342919209271e-04 -3.24090476666637596417e-03 -3.70355992342919209271e-04 -3.24090476666637596417e-03 9.99994563917456780189e-01 -4.75699764294577943946e-05
9.79512016238792777061e+08 9.74651280133874031719e-01 -2.21303434030592854898e-01 -3.72068324546566571703e-04 -3.24829018392353095074e-03 -3.72068324546566571703e-04 -3.24829018392353095074e-03 9.99994538783857245257e-01 -4.76783795298691478060e-05
9.79559442127128958702e+08 9.74533818759799164155e-01 -2.21808838571350558366e-01 -3.73792421734976925817e-04 -3.25570850807130069554e-03 -3.73792421734976925817e-04 -3.25570850807130069554e-03 9.99994513477571400628e-01 -4.77872656373799463967e-05
9.79606868015465021133e+08 9.74415548533387743113e-01 -2.22316499825450042405e-01 -3.75528391252058339495e-04 -3.26315995624097427569e-03 -3.75528391252058339495e-04 -3.26315995624097427569e-03 9.99994487997023506765e-01 -4.78966379390416497675e-05
9.79654293903801202774e+08 9.74296462058234946646e-01 -2.22826432714134492485e-01 -3.77276341662188352630e-04 -3.27064474744644855322e-03 -3.77276341662188352630e-04 -3.27064474744644855322e-03 9.99994462340620171581e-01 -4.80064996495386427642e-05
9.79701719792137265205e+08 9.74176551853656813584e-01 -2.23338652288266215074e-01 -3.79036382766789747834e-04 -3.27816310260417098990e-03 -3.79036382766789747834e-04 -3.27816310260417098990e-03 9.99994436506749684312e-01 -4.81168540114809226301e-05
9.79749145680473446846e+08 9.74055810353539719415e-01 -2.23853173729718413210e-01 -3.80808625621224534474e-04 -3.28571524455356471506e-03 -3.80808625621224534474e-04 -3.28571524455356471506e-03 9.99994410493782126537e-01 -4.82277042957039012356e-05
9.79796571568809628487e+08 9.73934229905174531083e-01 -2.24370012352767933539e-01 -3.82593182551899948455e-04 -3.29330139807747354283e-03 -3.82593182551899948455e-04 -3.29330139807747354283e-03 9.99994384300068483995e-01 -4.83390538015685190159e-05
9.79843997457145690918e+08 9.73811802768070222669e-01 -2.24889183605518294673e-01 -3.84390167173688816413e-04 -3.30092178992304804280e-03 -3.84390167173688816413e-04 -3.30092178992304804280e-03 9.99994357923941423749e-01 -4.84509058572677895824e-05
9.79891423345481872559e+08 9.73688521112748395225e-01 -2.25410703071336315784e-01 -3.86199694407613923139e-04 -3.30857664882283110386e-03 -3.86199694407613923139e-04 -3.30857664882283110386e-03 9.99994331363713961913e-01 -4.85632638201363123383e-05
9.79938849233817934990e+08 9.73564377019521032253e-01 -2.25934586470303483408e-01 -3.88021880498802507978e-04 -3.31626620551606510895e-03 -3.88021880498802507978e-04 -3.31626620551606510895e-03 9.99994304617679796721e-01 -4.86761310769629834900e-05
9.79986275122154116631e+08 9.73439362477244607419e-01 -2.26460849660693713803e-01 -3.89856843034755613537e-04 -3.32399069277037727960e-03 -3.89856843034755613537e-04 -3.32399069277037727960e-03 9.99994277684113197502e-01 -4.87895110443093381336e-05
