! File generated for n1 = 1, n2 = 14
! b1 = 100.000000
! b2 = 0.004642
! Q0 = 10000.000000
! f0 = 1000000000.000000
! n = 1001
! rel_span = 10.000000
# Hz S RI R 50
9.49497679205583214760e+08 9.81388147408718491960e-01 -1.91068204941675756636e-01 -1.26801075609159240917e-04 -1.30173252675904816203e-03 -1.26801075609159240917e-04 -1.30173252675904816203e-03 9.99999136114328446290e-01 -8.86860046515719616979e-06
9.49598683847172021866e+08 9.81312160778025743824e-01 -1.91454136342602498910e-01 -1.27318766497613931714e-04 -1.30436184678556612096e-03 -1.27318766497613931714e-04 -1.30436184678556612096e-03 9.99999132587341410527e-01 -8.88651381396801591885e-06
9.49699688488760828972e+08 9.81235717917177341363e-01 -1.91841571148938294655e-01 -1.27839565645934910652e-04 -1.30700140939390215163e-03 -1.27839565645934910652e-04 -1.30700140939390215163e-03 9.99999129039178091816e-01 -8.90449694467642692618e-06
9.49800693130349755287e+08 9.81158815194894340372e-01 -1.92230518072628170367e-01 -1.28363497793738647523e-04 -1.30965127393784614915e-03 -1.28363497793738647523e-04 -1.30965127393784614915e-03 9.99999125469669958299e-01 -8.92255026165509762548e-06
9.49901697771938562393e+08 9.81081448943885714442e-01 -1.92620985892261703532e-01 -1.28890587925988052767e-04 -1.31231150022523301336e-03 -1.28890587925988052767e-04 -1.31231150022523301336e-03 9.99999121878646701767e-01 -8.94067417237005907979e-06
9.50002702413527369499e+08 9.81003615460420919092e-01 -1.93012983453703657055e-01 -1.29420861275905240816e-04 -1.31498214852223760732e-03 -1.29420861275905240816e-04 -1.31498214852223760732e-03 9.99999118265936459693e-01 -8.95886908740998182826e-06
9.50103707055116176605e+08 9.80925311003896682749e-01 -1.93406519670729887261e-01 -1.29954343327923216300e-04 -1.31766327955770787966e-03 -1.29954343327923216300e-04 -1.31766327955770787966e-03 9.99999114631365482175e-01 -8.97713542051569498431e-06
9.50204711696705102921e+08 9.80846531796397691494e-01 -1.93801603525672799799e-01 -1.30491059820680765707e-04 -1.32035495452756260551e-03 -1.30491059820680765707e-04 -1.32035495452756260551e-03 9.99999110974758576020e-01 -8.99547358861013223851e-06
9.50305716338293910027e+08 9.80767274022250723498e-01 -1.94198244070071607270e-01 -1.31031036750056055062e-04 -1.32305723509921991862e-03 -1.31031036750056055062e-04 -1.32305723509921991862e-03 9.99999107295938660656e-01 -9.01388401182852688905e-06
9.50406720979882717133e+08 9.80687533827573010292e-01 -1.94596450425332828660e-01 -1.31574300372246387513e-04 -1.32577018341609935252e-03 -1.31574300372246387513e-04 -1.32577018341609935252e-03 9.99999103594726657107e-01 -9.03236711354906935225e-06
9.50507725621471524239e+08 9.80607307319814491819e-01 -1.94996231783395979065e-01 -1.32120877206887425877e-04 -1.32849386210215597397e-03 -1.32120877206887425877e-04 -1.32849386210215597397e-03 9.99999099870942043111e-01 -9.05092332042379337192e-06
9.50608730263060331345e+08 9.80526590567293299117e-01 -1.95397597407406253822e-01 -1.32670794040215620641e-04 -1.33122833426646287186e-03 -1.32670794040215620641e-04 -1.33122833426646287186e-03 9.99999096124402298003e-01 -9.06955306240981459450e-06
9.50709734904649257660e+08 9.80445379598724242598e-01 -1.95800556632399896939e-01 -1.33224077928281568360e-04 -1.33397366350788190020e-03 -1.33224077928281568360e-04 -1.33397366350788190020e-03 9.99999092354923013737e-01 -9.08825677280113157399e-06
9.50810739546238064766e+08 9.80363670402742859444e-01 -1.96205118865986821719e-01 -1.33780756200194080085e-04 -1.33672991391971360438e-03 -1.33780756200194080085e-04 -1.33672991391971360438e-03 9.99999088562318116935e-01 -9.10703488826031835673e-06
9.50911744187826871872e+08 9.80281458927419468985e-01 -1.96611293589054270115e-01 -1.34340856461427811137e-04 -1.33949715009449004527e-03 -1.34340856461427811137e-04 -1.33949715009449004527e-03 9.99999084746399424795e-01 -9.12588784885117251930e-06
9.51012748829415678978e+08 9.80198741079769120255e-01 -1.97019090356468834502e-01 -1.34904406597164690891e-04 -1.34227543712876025081e-03 -1.34904406597164690891e-04 -1.34227543712876025081e-03 9.99999080906977089178e-01 -9.14481609807132254887e-06
9.51113753471004605293e+08 9.80115512725253767989e-01 -1.97428518797789442907e-01 -1.35471434775685578220e-04 -1.34506484062794505648e-03 -1.35471434775685578220e-04 -1.34506484062794505648e-03 9.99999077043859041503e-01 -9.16382008288529431540e-06
9.51214758112593412399e+08 9.80031769687276899106e-01 -1.97839588617987727215e-01 -1.36041969451809865782e-04 -1.34786542671124702324e-03 -1.36041969451809865782e-04 -1.34786542671124702324e-03 9.99999073156851547850e-01 -9.18290025375797056711e-06
9.51315762754182219505e+08 9.79947507746671830908e-01 -1.98252309598179327077e-01 -1.36616039370386665227e-04 -1.35067726201663061182e-03 -1.36616039370386665227e-04 -1.35067726201663061182e-03 9.99999069245758653857e-01 -9.20205706468851968222e-06
9.51416767395771026611e+08 9.79862722641181793648e-01 -1.98666691596361327798e-01 -1.37193673569832748620e-04 -1.35350041370584832714e-03 -1.37193673569832748620e-04 -1.35350041370584832714e-03 9.99999065310382739824e-01 -9.22129097324463782288e-06
9.51517772037359833717e+08 9.79777410064934017875e-01 -1.99082744548156331810e-01 -1.37774901385718086342e-04 -1.35633494946950936347e-03 -1.37774901385718086342e-04 -1.35633494946950936347e-03 9.99999061350523743563e-01 -9.24060244059707060996e-06
9.51618776678948760033e+08 9.79691565667904717962e-01 -1.99500478467569908325e-01 -1.38359752454409037437e-04 -1.35918093753223888885e-03 -1.38359752454409037437e-04 -1.35918093753223888885e-03 9.99999057365979715506e-01 -9.25999193155478362508e-06
9.51719781320537567139e+08 9.79605185055378191450e-01 -1.99919903447751373671e-01 -1.38948256716756290410e-04 -1.36203844665786335047e-03 -1.38948256716756290410e-04 -1.36203844665786335047e-03 9.99999053356546929727e-01 -9.27945991460027013202e-06
9.51820785962126374245e+08 9.79518263787395926379e-01 -2.00341029661769393089e-01 -1.39540444421843600658e-04 -1.36490754615469205707e-03 -1.39540444421843600658e-04 -1.36490754615469205707e-03 9.99999049322018995767e-01 -9.29900686192554658878e-06
9.51921790603715181351e+08 9.79430797378200934666e-01 -2.00763867363388637255e-01 -1.40136346130779299675e-04 -1.36778830588081112135e-03 -1.40136346130779299675e-04 -1.36778830588081112135e-03 9.99999045262187968852e-01 -9.31863324946821084023e-06
9.52022795245304107666e+08 9.79342781295670317121e-01 -2.01188426887865118298e-01 -1.40735992720555675318e-04 -1.37068079624949948347e-03 -1.40735992720555675318e-04 -1.37068079624949948347e-03 9.99999041176843239676e-01 -9.33833955694834903761e-06
9.52123799886892914772e+08 9.79254210960743720626e-01 -2.01614718652739971505e-01 -1.41339415387949009651e-04 -1.37358508823463907993e-03 -1.41339415387949009651e-04 -1.37358508823463907993e-03 9.99999037065772533595e-01 -9.35812626790539173617e-06
9.52224804528481721878e+08 9.79165081746839804921e-01 -2.02042753158653026757e-01 -1.41946645653490144141e-04 -1.37650125337625620081e-03 -1.41946645653490144141e-04 -1.37650125337625620081e-03 9.99999032928760911432e-01 -9.37799386973586276549e-06
9.52325809170070528984e+08 9.79075388979267269285e-01 -2.02472540990157129359e-01 -1.42557715365480310293e-04 -1.37942936378606956921e-03 -1.42557715365480310293e-04 -1.37942936378606956921e-03 9.99999028765591435608e-01 -9.39794285373118230993e-06
9.52426813811659336090e+08 9.78985127934625332102e-01 -2.02904092816548337064e-01 -1.43172656704074370559e-04 -1.38236949215314770811e-03 -1.43172656704074370559e-04 -1.38236949215314770811e-03 9.99999024576044837076e-01 -9.41797371511620860177e-06
9.52527818453248262405e+08 9.78894293840196882961e-01 -2.03337419392701002074e-01 -1.43791502185415911216e-04 -1.38532171174959644819e-03 -1.43791502185415911216e-04 -1.38532171174959644819e-03 9.99999020359899626342e-01 -9.43808695308798798450e-06
9.52628823094837069511e+08 9.78802881873332419893e-01 -2.03772531559913705479e-01 -1.44414284665833863707e-04 -1.38828609643632254651e-03 -1.44414284665833863707e-04 -1.38828609643632254651e-03 9.99999016116931982445e-01 -9.45828307085502336022e-06
9.52729827736425876617e+08 9.78710887160823550524e-01 -2.04209440246771067873e-01 -1.45041037346109517826e-04 -1.39126272066890724344e-03 -1.45041037346109517826e-04 -1.39126272066890724344e-03 9.99999011846915641932e-01 -9.47856257567727955582e-06
9.52830832378014683723e+08 9.78618304778270275968e-01 -2.04648156470004921603e-01 -1.45671793775789261112e-04 -1.39425165950347006161e-03 -1.45671793775789261112e-04 -1.39425165950347006161e-03 9.99999007549622120905e-01 -9.49892597890614972546e-06
9.52931837019603610039e+08 9.78525129749436839433e-01 -2.05088691335374939673e-01 -1.46306587857574459241e-04 -1.39725298860267116603e-03 -1.46306587857574459241e-04 -1.39725298860267116603e-03 9.99999003224820381952e-01 -9.51937379602533485475e-06
9.53032841661192417145e+08 9.78431357045598470989e-01 -2.05531056038553122667e-01 -1.46945453851765925985e-04 -1.40026678424173584188e-03 -1.46945453851765925985e-04 -1.40026678424173584188e-03 9.99998998872277056194e-01 -9.53990654669189775360e-06
9.53133846302781224251e+08 9.78336981584879583629e-01 -2.05975261866023912072e-01 -1.47588426380780953417e-04 -1.40329312331458760932e-03 -1.47588426380780953417e-04 -1.40329312331458760932e-03 9.99998994491756221237e-01 -9.56052475477803872118e-06
9.53234850944370031357e+08 9.78241998231580422996e-01 -2.06421320195992519242e-01 -1.48235540433733686610e-04 -1.40633208334003619901e-03 -1.48235540433733686610e-04 -1.40633208334003619901e-03 9.99998990083019512198e-01 -9.58122894841326254011e-06
9.53335855585958838463e+08 9.78146401795496056586e-01 -2.06869242499301442262e-01 -1.48886831371078571812e-04 -1.40938374246802168924e-03 -1.48886831371078571812e-04 -1.40938374246802168924e-03 9.99998985645826010682e-01 -9.60201966002690969482e-06
9.53436860227547764778e+08 9.78050187031223261513e-01 -2.07319040340363608399e-01 -1.49542334929331433490e-04 -1.41244817948597205064e-03 -1.49542334929331433490e-04 -1.41244817948597205064e-03 9.99998981179932244778e-01 -9.62289742639148210676e-06
9.53537864869136571884e+08 9.77953348637458974579e-01 -2.07770725378100512559e-01 -1.50202087225850697489e-04 -1.41552547382519516850e-03 -1.50202087225850697489e-04 -1.41552547382519516850e-03 9.99998976685092189065e-01 -9.64386278866617893386e-06
9.53638869510725378990e+08 9.77855881256286529890e-01 -2.08224309366896426221e-01 -1.50866124763697218849e-04 -1.41861570556737841796e-03 -1.50866124763697218849e-04 -1.41861570556737841796e-03 9.99998972161057042563e-01 -9.66491629244118622929e-06
9.53739874152314186096e+08 9.77757779472452570602e-01 -2.08679804157561515909e-01 -1.51534484436562495680e-04 -1.42171895545115177344e-03 -1.51534484436562495680e-04 -1.42171895545115177344e-03 9.99998967607575672822e-01 -9.68605848778238334035e-06
9.53840878793903112411e+08 9.77659037812633080478e-01 -2.09137221698305786344e-01 -1.52207203533769145102e-04 -1.42483530487872247540e-03 -1.52207203533769145102e-04 -1.42483530487872247540e-03 9.99998963024393838772e-01 -9.70728992927655583319e-06
9.53941883435491919518e+08 9.77559650744688202195e-01 -2.09596574035725180529e-01 -1.52884319745346487296e-04 -1.42796483592259318071e-03 -1.52884319745346487296e-04 -1.42796483592259318071e-03 9.99998958411254745826e-01 -9.72861117607715390667e-06
9.54042888077080726624e+08 9.77459612676905620354e-01 -2.10057873315803167458e-01 -1.53565871167187878400e-04 -1.43110763133238614794e-03 -1.53565871167187878400e-04 -1.43110763133238614794e-03 9.99998953767898934863e-01 -9.75002279195078941896e-06
9.54143892718669533730e+08 9.77358917957233619411e-01 -2.10521131784916742946e-01 -1.54251896306273420792e-04 -1.43426377454169604563e-03 -1.54251896306273420792e-04 -1.43426377454169604563e-03 9.99998949094064060183e-01 -9.77152534532393111987e-06
9.54244897360258340836e+08 9.77257560872501374050e-01 -2.10986361790862025911e-01 -1.54942434085982716366e-04 -1.43743334967507915313e-03 -1.54942434085982716366e-04 -1.43743334967507915313e-03 9.99998944389485000528e-01 -9.79311940933050282024e-06
9.54345902001847267151e+08 9.77155535647628359364e-01 -2.11453575783888153561e-01 -1.55637523851480830562e-04 -1.44061644155509525379e-03 -1.55637523851480830562e-04 -1.44061644155509525379e-03 9.99998939653893526014e-01 -9.81480556185987966695e-06
9.54446906643436074257e+08 9.77052836444822325745e-01 -2.11922786317742833928e-01 -1.56337205375184649979e-04 -1.44381313570943171053e-03 -1.56337205375184649979e-04 -1.44381313570943171053e-03 9.99998934887018742224e-01 -9.83658438560541466039e-06
9.54547911285024881363e+08 9.76949457362763395984e-01 -2.12394006050733830104e-01 -1.57041518862316436958e-04 -1.44702351837813552801e-03 -1.57041518862316436958e-04 -1.44702351837813552801e-03 9.99998930088586868159e-01 -9.85845646811370547884e-06
9.54648915926613688469e+08 9.76845392435777948315e-01 -2.12867247746801907526e-01 -1.57750504956539349842e-04 -1.45024767652092261006e-03 -1.57750504956539349842e-04 -1.45024767652092261006e-03 9.99998925258320792153e-01 -9.88042240183439832168e-06
9.54749920568202614784e+08 9.76740635632998177584e-01 -2.13342524276605327582e-01 -1.58464204745676528118e-04 -1.45348569782456724792e-03 -1.58464204745676528118e-04 -1.45348569782456724792e-03 9.99998920395940738004e-01 -9.90248278417053724189e-06
9.54850925209791421890e+08 9.76635180857510554198e-01 -2.13819848618617774916e-01 -1.59182659767516588483e-04 -1.45673767071038116373e-03 -1.59182659767516588483e-04 -1.45673767071038116373e-03 9.99998915501163709862e-01 -9.92463821752950301337e-06
9.54951929851380228996e+08 9.76529021945489961176e-01 -2.14299233860241661320e-01 -1.59905912015711278076e-04 -1.46000368434179902261e-03 -1.59905912015711278076e-04 -1.46000368434179902261e-03 9.99998910573703492233e-01 -9.94688930937470416362e-06
9.55052934492969036102e+08 9.76422152665321174680e-01 -2.14780693198933503307e-01 -1.60634003945760839684e-04 -1.46328382863204547668e-03 -1.60634003945760839684e-04 -1.46328382863204547668e-03 9.99998905613270872017e-01 -9.96923667227781010744e-06
9.55153939134557843208e+08 9.76314566716706799809e-01 -2.15264239943343649308e-01 -1.61366978481091154652e-04 -1.46657819425189978740e-03 -1.61366978481091154652e-04 -1.46657819425189978740e-03 9.99998900619573527493e-01 -9.99168092397165174265e-06
9.55254943776146769524e+08 9.76206257729762216790e-01 -2.15749887514468025040e-01 -1.62104879019221525096e-04 -1.46988687263754263038e-03 -1.62104879019221525096e-04 -1.46988687263754263038e-03 9.99998895592315695247e-01 -1.00142226874036709231e-05
9.55355948417735576630e+08 9.76097219264095872227e-01 -2.16237649446815227705e-01 -1.62847749438029194054e-04 -1.47320995599850806772e-03 -1.62847749438029194054e-04 -1.47320995599850806772e-03 9.99998890531198392218e-01 -1.00368625907901119326e-05
9.55456953059324383736e+08 9.75987444807874915398e-01 -2.16727539389590551089e-01 -1.63595634102113503825e-04 -1.47654753732574892805e-03 -1.63595634102113503825e-04 -1.47654753732574892805e-03 9.99998885435919526721e-01 -1.00596012676709651239e-05
9.55557957700913190842e+08 9.75876927776878733134e-01 -2.17219571107888531625e-01 -1.64348577869249473865e-04 -1.47989971039976268494e-03 -1.64348577869249473865e-04 -1.47989971039976268494e-03 9.99998880306173343335e-01 -1.00824393569653171342e-05
9.55658962342502117157e+08 9.75765661513534610094e-01 -2.17713758483905978069e-01 -1.65106626096950015762e-04 -1.48326656979885524584e-03 -1.65106626096950015762e-04 -1.48326656979885524584e-03 9.99998875141650866993e-01 -1.01053775030276667168e-05
9.55759966984090924263e+08 9.75653639285941398640e-01 -2.18210115518166825055e-01 -1.65869824649124398240e-04 -1.48664821090748562257e-03 -1.65869824649124398240e-04 -1.48664821090748562257e-03 9.99998869942039680936e-01 -1.01284163557047708171e-05
9.55860971625679731369e+08 9.75540854286876313317e-01 -2.18708656330763001607e-01 -1.66638219902841879785e-04 -1.49004472992472053981e-03 -1.66638219902841879785e-04 -1.49004472992472053981e-03 9.99998864707023815690e-01 -1.01515565703932360362e-05
9.55961976267268538475e+08 9.75427299632787181416e-01 -2.19209395162609010921e-01 -1.67411858755197581533e-04 -1.49345622387278076718e-03 -1.67411858755197581533e-04 -1.49345622387278076718e-03 9.99998859436283638047e-01 -1.01747988080977623109e-05
9.56062980908857345581e+08 9.75312968362767818142e-01 -2.19712346376716494145e-01 -1.68190788630292445329e-04 -1.49688279060572579544e-03 -1.68190788630292445329e-04 -1.49688279060572579544e-03 9.99998854129496184129e-01 -1.01981437354902963060e-05
9.56163985550446271896e+08 9.75197853437519524000e-01 -2.20217524459477675958e-01 -1.68975057486311068143e-04 -1.50032452881819684289e-03 -1.68975057486311068143e-04 -1.50032452881819684289e-03 9.99998848786334604277e-01 -1.02215920249695981599e-05
9.56264990192035079002e+08 9.75081947738294263495e-01 -2.20724944021970237440e-01 -1.69764713822718907137e-04 -1.50378153805430731307e-03 -1.69764713822718907137e-04 -1.50378153805430731307e-03 9.99998843406468718165e-01 -1.02451443547218195863e-05
9.56365994833623886108e+08 9.74965244065821967645e-01 -2.21234619801277926365e-01 -1.70559806687571997820e-04 -1.50725391871663993819e-03 -1.70559806687571997820e-04 -1.50725391871663993819e-03 9.99998837989564015594e-01 -1.02688014087817951789e-05
9.56466999475212693214e+08 9.74847735139221516221e-01 -2.21746566661824878741e-01 -1.71360385684935986883e-04 -1.51074177207533738056e-03 -1.71360385684935986883e-04 -1.51074177207533738056e-03 9.99998832535282766720e-01 -1.02925638770949723778e-05
9.56568004116801619530e+08 9.74729413594894067430e-01 -2.22260799596728120253e-01 -1.72166500982425918053e-04 -1.51424520027731730060e-03 -1.72166500982425918053e-04 -1.51424520027731730060e-03 9.99998827043283244898e-01 -1.03164324555802020222e-05
9.56669008758390426636e+08 9.74610271985399068129e-01 -2.22777333729166915344e-01 -1.72978203318863247304e-04 -1.51776430635560018179e-03 -1.72978203318863247304e-04 -1.51776430635560018179e-03 9.99998821513219615653e-01 -1.03404078461932776798e-05
9.56770013399979233742e+08 9.74490302778312611487e-01 -2.23296184313769241481e-01 -1.73795544012055210286e-04 -1.52129919423875663471e-03 -1.73795544012055210286e-04 -1.52129919423875663471e-03 9.99998815944742269757e-01 -1.03644907569913152329e-05
9.56871018041568040848e+08 9.74369498355067253925e-01 -2.23817366738016054750e-01 -1.74618574966697165385e-04 -1.52484996876047418021e-03 -1.74618574966697165385e-04 -1.52484996876047418021e-03 9.99998810337497601175e-01 -1.03886819021979066527e-05
9.56972022683156847954e+08 9.74247851009773735420e-01 -2.24340896523663568818e-01 -1.75447348682401327649e-04 -1.52841673566924676417e-03 -1.75447348682401327649e-04 -1.52841673566924676417e-03 9.99998804691128007072e-01 -1.04129820022691597703e-05
9.57073027324745774269e+08 9.74125352948024714195e-01 -2.24866789328179744745e-01 -1.76281918261847475463e-04 -1.53199960163816206737e-03 -1.76281918261847475463e-04 -1.53199960163816206737e-03 9.99998799005271665763e-01 -1.04373917839603546872e-05
9.57174031966334581375e+08 9.74001996285677851262e-01 -2.25395060946203790175e-01 -1.77122337419071269578e-04 -1.53559867427484407314e-03 -1.77122337419071269578e-04 -1.53559867427484407314e-03 9.99998793279562647740e-01 -1.04619119803937047172e-05
9.57275036607923388481e+08 9.73877773047620576286e-01 -2.25925727311022311872e-01 -1.77968660487882161412e-04 -1.53921406213151077715e-03 -1.77968660487882161412e-04 -1.53921406213151077715e-03 9.99998787513630693624e-01 -1.04865433311268593287e-05
9.57376041249512195587e+08 9.73752675166515202498e-01 -2.26458804496061927303e-01 -1.78820942430412760859e-04 -1.54284587471514313649e-03 -1.78820942430412760859e-04 -1.54284587471514313649e-03 9.99998781707101436211e-01 -1.05112865822221965224e-05
