! File generated for n1 = 2, n2 = 14
! b1 = 46.415888
! b2 = 0.002154
! Q0 = 10000.000000
! f0 = 1000000000.000000
! n = 1001
! rel_span = 10.000000
# Hz S RI R 50
9.76290978614591121674e+08 9.81074341654603498952e-01 -1.91554611645727151936e-01 -1.28939009324192331010e-04 -1.30504637705711667647e-03 -1.28939009324192331010e-04 -1.30504637705711667647e-03 9.99999121548755587341e-01 -8.89117746441838947347e-06
9.76338396657361984253e+08 9.80998223392659185471e-01 -1.91935669849101098183e-01 -1.29457597005923921935e-04 -1.30764249637519802509e-03 -1.29457597005923921935e-04 -1.30764249637519802509e-03 9.99999118015658772229e-01 -8.90886461943576037016e-06
9.76385814700132727623e+08 9.80921650320406568468e-01 -1.92318212690711254353e-01 -1.29979283274215103245e-04 -1.31024873041583693987e-03 -1.29979283274215103245e-04 -1.31024873041583693987e-03 9.99999114461451621416e-01 -8.92662068525572070300e-06
9.76433232742903590202e+08 9.80844618826953063007e-01 -1.92702248769930528649e-01 -1.30504092729790679636e-04 -1.31286513776587908213e-03 -1.30504092729790679636e-04 -1.31286513776587908213e-03 9.99999110885966491225e-01 -8.94444606102580780046e-06
9.76480650785674333572e+08 9.80767125265653461064e-01 -1.93087786751884926684e-01 -1.31032050216955568483e-04 -1.31549177746014054995e-03 -1.31032050216955568483e-04 -1.31549177746014054995e-03 9.99999107289033961621e-01 -8.96234114894553897867e-06
9.76528068828445196152e+08 9.80689165953685937360e-01 -1.93474835368074304931e-01 -1.31563180826482003117e-04 -1.31812870898563735088e-03 -1.31563180826482003117e-04 -1.31812870898563735088e-03 9.99999103670483280304e-01 -8.98030635429523776665e-06
9.76575486871216058731e+08 9.80610737171621837938e-01 -1.93863403417004476204e-01 -1.32097509898543465220e-04 -1.32077599228589206981e-03 -1.32097509898543465220e-04 -1.32077599228589206981e-03 9.99999100030141585549e-01 -8.99834208546536835135e-06
9.76622904913986802101e+08 9.80531835162991027843e-01 -1.94253499764815373840e-01 -1.32635063025673011769e-04 -1.32343368776521234757e-03 -1.32635063025673011769e-04 -1.32343368776521234757e-03 9.99999096367834794385e-01 -9.01644875398569045166e-06
9.76670322956757664680e+08 9.80452456133837912944e-01 -1.94645133345934501223e-01 -1.33175866055788578567e-04 -1.32610185629314456662e-03 -1.33175866055788578567e-04 -1.32610185629314456662e-03 9.99999092683386714420e-01 -9.03462677455559326240e-06
9.76717740999528527260e+08 9.80372596252276018447e-01 -1.95038313163715226750e-01 -1.33719945095228583696e-04 -1.32878055920882106808e-03 -1.33719945095228583696e-04 -1.32878055920882106808e-03 9.99999088976619265878e-01 -9.05287656507372297265e-06
9.76765159042299270630e+08 9.80292251648032686440e-01 -1.95433048291099698002e-01 -1.34267326511854344926e-04 -1.33146985832547737165e-03 -1.34267326511854344926e-04 -1.33146985832547737165e-03 9.99999085247353147743e-01 -9.07119854666874700247e-06
9.76812577085070133209e+08 9.80211418411987445154e-01 -1.95829347871287529070e-01 -1.34818036938193127608e-04 -1.33416981593500712580e-03 -1.34818036938193127608e-04 -1.33416981593500712580e-03 9.99999081495406727527e-01 -9.08959314373039945444e-06
9.76859995127840876579e+08 9.80130092595707713699e-01 -1.96227221118396771837e-01 -1.35372103274603987908e-04 -1.33688049481246588358e-03 -1.35372103274603987908e-04 -1.33688049481246588358e-03 9.99999077720596707408e-01 -9.10806078394015556482e-06
9.76907413170611739159e+08 9.80048270210972516381e-01 -1.96626677318154752250e-01 -1.35929552692518859679e-04 -1.33960195822077719058e-03 -1.35929552692518859679e-04 -1.33960195822077719058e-03 9.99999073922738013209e-01 -9.12660189830329528877e-06
9.76954831213382601738e+08 9.79965947229294198628e-01 -1.97027725828579219902e-01 -1.36490412637705244058e-04 -1.34233426991537427124e-03 -1.36490412637705244058e-04 -1.34233426991537427124e-03 9.99999070101643683373e-01 -9.14521692118052812240e-06
9.77002249256153345108e+08 9.79883119581431705214e-01 -1.97430376080671404759e-01 -1.37054710833579558409e-04 -1.34507749414892021148e-03 -1.37054710833579558409e-04 -1.34507749414892021148e-03 9.99999066257124868962e-01 -9.16390629032015155571e-06
9.77049667298924207687e+08 9.79799783156894754654e-01 -1.97834637579130084850e-01 -1.37622475284586621600e-04 -1.34783169567617407483e-03 -1.37622475284586621600e-04 -1.34783169567617407483e-03 9.99999062388990611616e-01 -9.18267044689120733026e-06
9.77097085341695070267e+08 9.79715933803445904182e-01 -1.98240519903047862638e-01 -1.38193734279589547625e-04 -1.35059693975873407017e-03 -1.38193734279589547625e-04 -1.35059693975873407017e-03 9.99999058497048398664e-01 -9.20150983551578219354e-06
9.77144503384465813637e+08 9.79631567326591179423e-01 -1.98648032706641247680e-01 -1.38768516395344450928e-04 -1.35337329217001143752e-03 -1.38768516395344450928e-04 -1.35337329217001143752e-03 9.99999054581103496986e-01 -9.22042490430291462791e-06
9.77191921427236676216e+08 9.79546679489065152957e-01 -1.99057185719975410221e-01 -1.39346850500004669146e-04 -1.35616081920016877220e-03 -1.39346850500004669146e-04 -1.35616081920016877220e-03 9.99999050640959064040e-01 -9.23941610488222375263e-06
9.77239339470007419586e+08 9.79461266010309694607e-01 -1.99467988749695124273e-01 -1.39928765756672121535e-04 -1.35895958766109889795e-03 -1.39928765756672121535e-04 -1.35895958766109889795e-03 9.99999046676416591950e-01 -9.25848389243783638156e-06
9.77286757512778282166e+08 9.79375322565942729724e-01 -1.99880451679778220475e-01 -1.40514291627018923694e-04 -1.36176966489155921482e-03 -1.40514291627018923694e-04 -1.36176966489155921482e-03 9.99999042687275241370e-01 -9.27762872574336609570e-06
9.77334175555549144745e+08 9.79288844787222778621e-01 -2.00294584472280379206e-01 -1.41103457874935809191e-04 -1.36459111876224468106e-03 -1.41103457874935809191e-04 -1.36459111876224468106e-03 9.99999038673332285576e-01 -9.29685106719647388158e-06
9.77381593598319888115e+08 9.79201828260503503998e-01 -2.00710397168096077447e-01 -1.41696294570243841492e-04 -1.36742401768097311850e-03 -1.41696294570243841492e-04 -1.36742401768097311850e-03 9.99999034634382888420e-01 -9.31615138285420126354e-06
9.77429011641090750694e+08 9.79114268526679487614e-01 -2.01127899887739824969e-01 -1.42292832092475297987e-04 -1.37026843059800712728e-03 -1.42292832092475297987e-04 -1.37026843059800712728e-03 9.99999030570220104330e-01 -9.33553014246921314954e-06
9.77476429683861613274e+08 9.79026161080628121169e-01 -2.01547102832110747173e-01 -1.42893101134672199405e-04 -1.37312442701126367732e-03 -1.42893101134672199405e-04 -1.37312442701126367732e-03 9.99999026480634767289e-01 -9.35498781952531053446e-06
9.77523847726632356644e+08 9.78937501370639839848e-01 -2.01968016283289114599e-01 -1.43497132707272415661e-04 -1.37599207697174010651e-03 -1.43497132707272415661e-04 -1.37599207697174010651e-03 9.99999022365415490832e-01 -9.37452489127437977136e-06
9.77571265769403219223e+08 9.78848284797840584304e-01 -2.02390650605333899392e-01 -1.44104958142039546367e-04 -1.37887145108894835881e-03 -1.44104958142039546367e-04 -1.37887145108894835881e-03 9.99999018224349112138e-01 -9.39414183877342654600e-06
9.77618683812173962593e+08 9.78758506715607823345e-01 -2.02815016245085022462e-01 -1.44716609096043704631e-04 -1.38176262053637958008e-03 -1.44716609096043704631e-04 -1.38176262053637958008e-03 9.99999014057219581808e-01 -9.41383914692180297484e-06
9.77666101854944825172e+08 9.78668162428976362577e-01 -2.03241123732983058892e-01 -1.45332117555710659809e-04 -1.38466565705709101185e-03 -1.45332117555710659809e-04 -1.38466565705709101185e-03 9.99999009863809296128e-01 -9.43361730449926648944e-06
9.77713519897715687752e+08 9.78577247194036492495e-01 -2.03668983683892357295e-01 -1.45951515840921097495e-04 -1.38758063296931153340e-03 -1.45951515840921097495e-04 -1.38758063296931153340e-03 9.99999005643897875828e-01 -9.45347680420417424614e-06
9.77760937940486431122e+08 9.78485756217323143780e-01 -2.04098606797936343860e-01 -1.46574836609173061400e-04 -1.39050762117213307263e-03 -1.46574836609173061400e-04 -1.39050762117213307263e-03 9.99999001397262943236e-01 -9.47341814269225860029e-06
9.77808355983257293701e+08 9.78393684655195383648e-01 -2.04530003861343900873e-01 -1.47202112859806763957e-04 -1.39344669515127769430e-03 -1.47202112859806763957e-04 -1.39344669515127769430e-03 9.99998997123679567167e-01 -9.49344182061591757656e-06
9.77855774026028156281e+08 9.78301027613208584732e-01 -2.04963185747303155981e-01 -1.47833377938287157793e-04 -1.39639792898491369409e-03 -1.47833377938287157793e-04 -1.39639792898491369409e-03 9.99998992822920707013e-01 -9.51354834266383568206e-06
9.77903192068798899651e+08 9.78207780145476046840e-01 -2.05398163416823376082e-01 -1.48468665540546409382e-04 -1.39936139734952807133e-03 -1.48468665540546409382e-04 -1.39936139734952807133e-03 9.99998988494756657630e-01 -9.53373821760099435468e-06
9.77950610111569762230e+08 9.78113937254021292844e-01 -2.05834947919615540712e-01 -1.49108009717402022892e-04 -1.40233717552592541955e-03 -1.49108009717402022892e-04 -1.40233717552592541955e-03 9.99998984138955493428e-01 -9.55401195830954638494e-06
9.77998028154340505600e+08 9.78019493888122037895e-01 -2.06273550394973109734e-01 -1.49751444879025135499e-04 -1.40532533940522833503e-03 -1.49751444879025135499e-04 -1.40532533940522833503e-03 9.99998979755282735304e-01 -9.57437008182969372604e-06
9.78045446197111368179e+08 9.77924444943643278449e-01 -2.06713982072668306378e-01 -1.50399005799481671076e-04 -1.40832596549498472761e-03 -1.50399005799481671076e-04 -1.40832596549498472761e-03 9.99998975343501572688e-01 -9.59481310940128697599e-06
9.78092864239882230759e+08 9.77828785262361277475e-01 -2.07156254273860362947e-01 -1.51050727621342557568e-04 -1.41133913092535427831e-03 -1.51050727621342557568e-04 -1.41133913092535427831e-03 9.99998970903372419450e-01 -9.61534156650599067771e-06
9.78140282282652974129e+08 9.77732509631277668660e-01 -2.07600378412007041673e-01 -1.51706645860350485509e-04 -1.41436491345531961672e-03 -1.51706645860350485509e-04 -1.41436491345531961672e-03 9.99998966434653469015e-01 -9.63595598290958583847e-06
9.78187700325423836708e+08 9.77635612781922014314e-01 -2.08046365993801551930e-01 -1.52366796410177685311e-04 -1.41740339147906901918e-03 -1.52366796410177685311e-04 -1.41740339147906901918e-03 9.99998961937100139252e-01 -9.65665689270545998953e-06
9.78235118368194699287e+08 9.77538089389646480676e-01 -2.08494228620102584060e-01 -1.53031215547226991320e-04 -1.42045464403233270313e-03 -1.53031215547226991320e-04 -1.42045464403233270313e-03 9.99998957410465294515e-01 -9.67744483435777367924e-06
9.78282536410965442657e+08 9.77439934072908966911e-01 -2.08943977986884965592e-01 -1.53699939935518259696e-04 -1.42351875079885941723e-03 -1.53699939935518259696e-04 -1.42351875079885941723e-03 9.99998952854499023601e-01 -9.69832035074558919548e-06
9.78329954453736305237e+08 9.77341141392543022448e-01 -2.09395625886210523525e-01 -1.54373006631661170100e-04 -1.42659579211703137561e-03 -1.54373006631661170100e-04 -1.42659579211703137561e-03 9.99998948268949083840e-01 -9.71928398920793102441e-06
9.78377372496507048607e+08 9.77241705851022657292e-01 -2.09849184207186012507e-01 -1.55050453089864917347e-04 -1.42968584898638963708e-03 -1.55050453089864917347e-04 -1.42968584898638963708e-03 9.99998943653560012912e-01 -9.74033630158824999799e-06
9.78424790539277911186e+08 9.77141621891709388770e-01 -2.10304664936960761246e-01 -1.55732317167065159548e-04 -1.43278900307443248646e-03 -1.55732317167065159548e-04 -1.43278900307443248646e-03 9.99998939008074128054e-01 -9.76147784428073227929e-06
9.78472208582048773766e+08 9.77040883898094625337e-01 -2.10762080161711579107e-01 -1.56418637128090512499e-04 -1.43590533672332339339e-03 -1.56418637128090512499e-04 -1.43590533672332339339e-03 9.99998934332230748900e-01 -9.78270917827601203657e-06
9.78519626624819517136e+08 9.76939486193024952954e-01 -2.11221442067660081232e-01 -1.57109451650937464312e-04 -1.43903493295682405155e-03 -1.57109451650937464312e-04 -1.43903493295682405155e-03 9.99998929625766197482e-01 -9.80403086920838844791e-06
9.78567044667590379715e+08 9.76837423037919316826e-01 -2.11682762942087376867e-01 -1.57804799832102319061e-04 -1.44217787548720616751e-03 -1.57804799832102319061e-04 -1.44217787548720616751e-03 9.99998924888414131296e-01 -9.82544348740293089746e-06
9.78614462710361242294e+08 9.76734688631973657635e-01 -2.12146055174368242113e-01 -1.58504721192003861056e-04 -1.44533424872229725698e-03 -1.58504721192003861056e-04 -1.44533424872229725698e-03 9.99998920119905432280e-01 -9.84694760792347525036e-06
9.78661880753131985664e+08 9.76631277111353668374e-01 -2.12611331257012564633e-01 -1.59209255680480314069e-04 -1.44850413777257653117e-03 -1.59209255680480314069e-04 -1.44850413777257653117e-03 9.99998915319967873749e-01 -9.86854381062096402304e-06
9.78709298795902848244e+08 9.76527182548373340332e-01 -2.13078603786729992020e-01 -1.59918443682385288214e-04 -1.45168762845842777565e-03 -1.59918443682385288214e-04 -1.45168762845842777565e-03 9.99998910488326231416e-01 -9.89023268018286736759e-06
9.78756716838673591614e+08 9.76422398950665071382e-01 -2.13547885465492193191e-01 -1.60632326023245119778e-04 -1.45488480731737661669e-03 -1.60632326023245119778e-04 -1.45488480731737661669e-03 9.99998905624702505435e-01 -9.91201480618248547143e-06
9.78804134881444454193e+08 9.76316920260333231951e-01 -2.14019189101620904703e-01 -1.61350943975022164713e-04 -1.45809576161150342838e-03 -1.61350943975022164713e-04 -1.45809576161150342838e-03 9.99998900728815365291e-01 -9.93389078312944527355e-06
9.78851552924215316772e+08 9.76210740353096850797e-01 -2.14492527610883998435e-01 -1.62074339261957049143e-04 -1.46132057933491001610e-03 -1.62074339261957049143e-04 -1.46132057933491001610e-03 9.99998895800380593890e-01 -9.95586121052059189803e-06
9.78898970966986060143e+08 9.76103853037420088334e-01 -2.14967914017599071030e-01 -1.62802554066491774257e-04 -1.46455934922123942599e-03 -1.62802554066491774257e-04 -1.46455934922123942599e-03 9.99998890839110976536e-01 -9.97792669289119179567e-06
9.78946389009756922722e+08 9.75996252053626056622e-01 -2.15445361455767758763e-01 -1.63535631035309183190e-04 -1.46781216075140327065e-03 -1.63535631035309183190e-04 -1.46781216075140327065e-03 9.99998885844715634796e-01 -1.00000878398675995586e-05
9.78993807052527785301e+08 9.75887931073001535509e-01 -2.15924883170200587745e-01 -1.64273613285429348528e-04 -1.47107910416124465329e-03 -1.64273613285429348528e-04 -1.47107910416124465329e-03 9.99998880816901136726e-01 -1.00223452662194622550e-05
9.79041225095298528671e+08 9.75778883696885035448e-01 -2.16406492517673493259e-01 -1.65016544410426956773e-04 -1.47436027044941966695e-03 -1.65016544410426956773e-04 -1.47436027044941966695e-03 9.99998875755370275620e-01 -1.00446995919134009890e-05
9.79088643138069391251e+08 9.75669103455739983310e-01 -2.16890202968096607039e-01 -1.65764468486741039718e-04 -1.47765575138535673952e-03 -1.65764468486741039718e-04 -1.47765575138535673952e-03 9.99998870659822847173e-01 -1.00671514421672565845e-05
9.79136061180840134621e+08 9.75558583808218249267e-01 -2.17376028105681434743e-01 -1.66517430080057591332e-04 -1.48096563951721207561e-03 -1.66517430080057591332e-04 -1.48096563951721207561e-03 9.99998865529955316411e-01 -1.00897014475042776717e-05
9.79183479223610997200e+08 9.75447318140202579428e-01 -2.17863981630149861068e-01 -1.67275474251832886961e-04 -1.48429002818010438887e-03 -1.67275474251832886961e-04 -1.48429002818010438887e-03 9.99998860365460484623e-01 -1.01123502438092247605e-05
9.79230897266381859779e+08 9.75335299763841701015e-01 -2.18354077357925002723e-01 -1.68038646565866594531e-04 -1.48762901150422820369e-03 -1.68038646565866594531e-04 -1.48762901150422820369e-03 9.99998855166028044472e-01 -1.01350984723836493051e-05
9.79278315309152603149e+08 9.75222521916563778177e-01 -2.18846329223368080141e-01 -1.68806993095025427215e-04 -1.49098268442328179238e-03 -1.68806993095025427215e-04 -1.49098268442328179238e-03 9.99998849931344024888e-01 -1.01579467800033055973e-05
9.79325733351923465729e+08 9.75108977760077988428e-01 -2.19340751280012069557e-01 -1.69580560428042202356e-04 -1.49435114268287060936e-03 -1.69580560428042202356e-04 -1.49435114268287060936e-03 9.99998844661091124131e-01 -1.01808958189754118875e-05
9.79373151394694328308e+08 9.74994660379360889024e-01 -2.19837357701811619837e-01 -1.70359395676422642994e-04 -1.49773448284902348238e-03 -1.70359395676422642994e-04 -1.49773448284902348238e-03 9.99998839354948376723e-01 -1.02039462471966636717e-05
9.79420569437465071678e+08 9.74879562781625574885e-01 -2.20336162784414785198e-01 -1.71143546481469246111e-04 -1.50113280231685668892e-03 -1.71143546481469246111e-04 -1.50113280231685668892e-03 9.99998834012591153453e-01 -1.02270987282122651109e-05
9.79467987480235934258e+08 9.74763677895274849305e-01 -2.20837180946449135321e-01 -1.71933061021413408466e-04 -1.50454619931933669501e-03 -1.71933061021413408466e-04 -1.50454619931933669501e-03 9.99998828633691161372e-01 -1.02503539312756228319e-05
9.79515405523006677628e+08 9.74646998568839073585e-01 -2.21340426730818912171e-01 -1.72727988018650551643e-04 -1.50797477293611661975e-03 -1.72727988018650551643e-04 -1.50797477293611661975e-03 9.99998823217916554817e-01 -1.02737125314085581108e-05
9.79562823565777540207e+08 9.74529517569895920026e-01 -2.21845914806025473753e-01 -1.73528376747100933223e-04 -1.51141862310253272811e-03 -1.73528376747100933223e-04 -1.51141862310253272811e-03 9.99998817764931602348e-01 -1.02971752094625897068e-05
9.79610241608548402786e+08 9.74411227583974248745e-01 -2.22353659967497035987e-01 -1.74334277039674297432e-04 -1.51487785061866380744e-03 -1.74334277039674297432e-04 -1.51487785061866380744e-03 9.99998812274396908784e-01 -1.03207426521806622358e-05
9.79657659651319146156e+08 9.74292121213441664196e-01 -2.22863677138936927546e-01 -1.75145739295855631164e-04 -1.51835255715851761248e-03 -1.75145739295855631164e-04 -1.51835255715851761248e-03 9.99998806745968860099e-01 -1.03444155522597249636e-05
9.79705077694090008736e+08 9.74172190976370422355e-01 -2.23375981373697685139e-01 -1.75962814489424439505e-04 -1.52184284527939078270e-03 -1.75962814489424439505e-04 -1.52184284527939078270e-03 9.99998801179300400577e-01 -1.03681946084145066114e-05
9.79752495736860871315e+08 9.74051429305390459312e-01 -2.23890587856157785573e-01 -1.76785554176273307066e-04 -1.52534881843124957637e-03 -1.76785554176273307066e-04 -1.52534881843124957637e-03 9.99998795574040144629e-01 -1.03920805254414206031e-05
9.79799913779631614685e+08 9.73929828546521325627e-01 -2.24407511903123163544e-01 -1.77614010502362743536e-04 -1.52887058096627822222e-03 -1.77614010502362743536e-04 -1.52887058096627822222e-03 9.99998789929832931911e-01 -1.04160740142836256663e-05
9.79847331822402477264e+08 9.73807380957985246894e-01 -2.24926768965252737997e-01 -1.78448236211812042394e-04 -1.53240823814859033515e-03 -1.78448236211812042394e-04 -1.53240823814859033515e-03 9.99998784246319272206e-01 -1.04401757920971774109e-05
9.79894749865173220634e+08 9.73684078709004530161e-01 -2.25448374628481801318e-01 -1.79288284655087229924e-04 -1.53596189616392710467e-03 -1.79288284655087229924e-04 -1.53596189616392710467e-03 9.99998778523135900542e-01 -1.04643865823171087581e-05
9.79942167907944083214e+08 9.73559913878574101354e-01 -2.25972344615494036280e-01 -1.80134209797369317053e-04 -1.53953166212968551446e-03 -1.80134209797369317053e-04 -1.53953166212968551446e-03 9.99998772759915000030e-01 -1.04887071147257516173e-05
9.79989585950714945793e+08 9.73434878454220942068e-01 -2.26498694787177823340e-01 -1.80986066227000261383e-04 -1.54311764410484009331e-03 -1.80986066227000261383e-04 -1.54311764410484009331e-03 9.99998766956284645957e-01 -1.05131381255203284217e-05
