! File generated for n1 = 2, n2 = 2
! b1 = 46.415888
! b2 = 21.544347
! Q0 = 10000.000000
! f0 = 1000000000.000000
! n = 1001
! rel_span = 10.000000
# Hz S RI R 50
9.65519882381776690483e+08 9.87130737136875158200e-01 -1.30990528991859672692e-01 -8.76772672326914248586e-03 -8.92428085238609475338e-02 -8.76772672326914248586e-03 -8.92428085238609475338e-02 9.94026617319769156822e-01 -6.08004176677646862581e-02
9.65588842617013096809e+08 9.87078670829197868386e-01 -1.31252678626197716305e-01 -8.80319908575477073909e-03 -8.94214089906418957421e-02 -8.80319908575477073909e-03 -8.94214089906418957421e-02 9.94002450280537019900e-01 -6.09220967493125931114e-02
9.65657802852249622345e+08 9.87026292819866424288e-01 -1.31515849613208363200e-01 -8.83888380810533141885e-03 -8.96007052968984113450e-02 -8.83888380810533141885e-03 -8.96007052968984113450e-02 9.93978138562212953921e-01 -6.10442499007765454477e-02
9.65726763087486028671e+08 9.86973600631685710205e-01 -1.31780047869843680575e-01 -8.87478257801418111972e-03 -8.97807014738029873779e-02 -8.87478257801418111972e-03 -8.97807014738029873779e-02 9.93953681014985157560e-01 -6.11668798685623821276e-02
9.65795723322722434998e+08 9.86920591762916687983e-01 -1.32045279358309924911e-01 -8.91089709989622072439e-03 -8.99614015833594821148e-02 -8.91089709989622072439e-03 -8.99614015833594821148e-02 9.93929076477649164900e-01 -6.12899894200811326539e-02
9.65864683557958960533e+08 9.86867263686986295745e-01 -1.32311550086491314104e-01 -8.94722909508572500359e-03 -9.01428097186917492989e-02 -8.94722909508572500359e-03 -9.01428097186917492989e-02 9.93904323777473508450e-01 -6.14135813439455960361e-02
9.65933643793195366859e+08 9.86813613852192128562e-01 -1.32578866108381460132e-01 -8.98378030203729818770e-03 -9.03249300043376390779e-02 -8.98378030203729818770e-03 -9.03249300043376390779e-02 9.93879421730062828644e-01 -6.15376584501707152297e-02
9.66002604028431773186e+08 9.86759639681402345168e-01 -1.32847233524524960258e-01 -9.02055247653034235344e-03 -9.05077665965497712985e-02 -9.02055247653034235344e-03 -9.05077665965497712985e-02 9.93854369139218762896e-01 -6.16622235703784202232e-02
9.66071564263668298721e+08 9.86705338571752910148e-01 -1.33116658482457600465e-01 -9.05754739187550859947e-03 -9.06913236835955455239e-02 -9.05754739187550859947e-03 -9.06913236835955455239e-02 9.93829164796798614212e-01 -6.17872795580020964246e-02
9.66140524498904705048e+08 9.86650707894340284199e-01 -1.33387147177151554889e-01 -9.09476683912398969900e-03 -9.08756054860603845746e-02 -9.09476683912398969900e-03 -9.08756054860603845746e-02 9.93803807482573464682e-01 -6.19128292884931000217e-02
9.66209484734141111374e+08 9.86595744993908674303e-01 -1.33658705851471132364e-01 -9.13221262728049036628e-03 -9.10606162571582083975e-02 -9.13221262728049036628e-03 -9.10606162571582083975e-02 9.93778295964082847291e-01 -6.20388756595323387355e-02
9.66278444969377636909e+08 9.86540447188533953238e-01 -1.33931340796629161360e-01 -9.16988658351859838025e-03 -9.12463602830424214130e-02 -9.16988658351859838025e-03 -9.12463602830424214130e-02 9.93752628996487752389e-01 -6.21654215912421509449e-02
9.66347405204614043236e+08 9.86484811769303693296e-01 -1.34205058352647066400e-01 -9.20779055339888616305e-03 -9.14328418831193562299e-02 -9.20779055339888616305e-03 -9.14328418831193562299e-02 9.93726805322422523936e-01 -6.22924700263998015748e-02
9.66416365439850449562e+08 9.86428835999990982764e-01 -1.34479864908827045911e-01 -9.24592640109106987667e-03 -9.16200654103698913788e-02 -9.24592640109106987667e-03 -9.16200654103698913788e-02 9.93700823671842981000e-01 -6.24200239306566539987e-02
9.66485325675086975098e+08 9.86372517116725133768e-01 -1.34755766904222473723e-01 -9.28429600959828488227e-03 -9.18080352516700698429e-02 -9.28429600959828488227e-03 -9.18080352516700698429e-02 9.93674682761874206172e-01 -6.25480862927565439691e-02
9.66554285910323381424e+08 9.86315852327657727194e-01 -1.35032770828115378237e-01 -9.32290128098474737972e-03 -9.19967558281162556266e-02 -9.32290128098474737972e-03 -9.19967558281162556266e-02 9.93648381296654781281e-01 -6.26766601247573801325e-02
9.66623246145559787750e+08 9.86258838812622662395e-01 -1.35310883220503996860e-01 -9.36174413660726539854e-03 -9.21862315953573541183e-02 -9.36174413660726539854e-03 -9.21862315953573541183e-02 9.93621917967179579811e-01 -6.28057484622574074828e-02
9.66692206380796313286e+08 9.86201473722792987253e-01 -1.35590110672588720631e-01 -9.40082651734903268492e-03 -9.23764670439259361068e-02 -9.40082651734903268492e-03 -9.23764670439259361068e-02 9.93595291451140338879e-01 -6.29353543646208740681e-02
9.66761166616032719612e+08 9.86143754180331955084e-01 -1.35870459827268391662e-01 -9.44015038385738816662e-03 -9.25674666995763006927e-02 -9.44015038385738816662e-03 -9.25674666995763006927e-02 9.93568500412763455643e-01 -6.30654809152082634904e-02
9.66830126851269125938e+08 9.86085677278039085536e-01 -1.36151937379642679060e-01 -9.47971771678498935365e-03 -9.27592351236267431691e-02 -9.47971771678498935365e-03 -9.27592351236267431691e-02 9.93541543502646118391e-01 -6.31961312216095805194e-02
9.66899087086505651474e+08 9.86027240078991673577e-01 -1.36434550077516647537e-01 -9.51953051703392956473e-03 -9.29517769133033494589e-02 -9.51953051703392956473e-03 -9.29517769133033494589e-02 9.93514419357589551041e-01 -6.33273084158784693720e-02
9.66968047321742057800e+08 9.85968439616181302476e-01 -1.36718304721912708999e-01 -9.55959080600354144108e-03 -9.31450967020887587999e-02 -9.55959080600354144108e-03 -9.31450967020887587999e-02 9.93487126600430370260e-01 -6.34590156547699263401e-02
9.67037007556978464127e+08 9.85909272892144472600e-01 -1.37003208167590401212e-01 -9.59990062584199256579e-03 -9.33391991600762555015e-02 -9.59990062584199256579e-03 -9.33391991600762555015e-02 9.93459663839869278057e-01 -6.35912561199814679869e-02
9.67105967792214989662e+08 9.85849736878588234212e-01 -1.37289267323570246537e-01 -9.64046203970122042581e-03 -9.35340889943267334017e-02 -9.64046203970122042581e-03 -9.35340889943267334017e-02 9.93432029670297200852e-01 -6.37240330183963393784e-02
9.67174928027451395988e+08 9.85789828516011157333e-01 -1.37576489153661662979e-01 -9.68127713199523273757e-03 -9.37297709492283248611e-02 -9.68127713199523273757e-03 -9.37297709492283248611e-02 9.93404222671619430152e-01 -6.38573495823285541828e-02
9.67243888262687802315e+08 9.85729544713317751281e-01 -1.37864880677002310527e-01 -9.72234800866285560350e-03 -9.39262498068638568283e-02 -9.72234800866285560350e-03 -9.39262498068638568283e-02 9.93376241409076543576e-01 -6.39912090697732083289e-02
9.67312848497924327850e+08 9.85668882347428110258e-01 -1.38154448968600462866e-01 -9.76367679743379845991e-03 -9.41235303873803330621e-02 -9.76367679743379845991e-03 -9.41235303873803330621e-02 9.93348084433063105436e-01 -6.41256147646582369548e-02
9.67381808733160734177e+08 9.85607838262881896796e-01 -1.38445201159879627273e-01 -9.80526564809798724387e-03 -9.43216175493600678115e-02 -9.80526564809798724387e-03 -9.43216175493600678115e-02 9.93319750278944368915e-01 -6.42605699770972260687e-02
9.67450768968397140503e+08 9.85546409271436218980e-01 -1.38737144439239373783e-01 -9.84711673278017111943e-03 -9.45205161902026164134e-02 -9.84711673278017111943e-03 -9.45205161902026164134e-02 9.93291237466868870420e-01 -6.43960780436496627033e-02
9.67519729203633666039e+08 9.85484592151657623482e-01 -1.39030286052614415748e-01 -9.88923224621733425177e-03 -9.47202312465058871016e-02 -9.88923224621733425177e-03 -9.47202312465058871016e-02 9.93262544501579913714e-01 -6.45321423275805466924e-02
9.67588689438870072365e+08 9.85422383648509425669e-01 -1.39324633304040546022e-01 -9.93161440604015642586e-03 -9.49207676944515271744e-02 -9.93161440604015642586e-03 -9.49207676944515271744e-02 9.93233669872223057240e-01 -6.46687662191229722941e-02
9.67657649674106478691e+08 9.85359780472931268136e-01 -1.39620193556233423982e-01 -9.97426545305945232156e-03 -9.51221305501993019682e-02 -9.97426545305945232156e-03 -9.51221305501993019682e-02 9.93204612052151825097e-01 -6.48059531357467882851e-02
9.67726609909343004227e+08 9.85296779301413239160e-01 -1.39916974231168972365e-01 -1.00171876515560507453e-02 -9.53243248702825562990e-02 -1.00171876515560507453e-02 -9.53243248702825562990e-02 9.93175369498729532225e-01 -6.49437065224280768438e-02
9.67795570144579410553e+08 9.85233376775564995143e-01 -1.40214982810668881141e-01 -1.00603832895746429094e-02 -9.55273557520070759619e-02 -1.00603832895746429094e-02 -9.55273557520070759619e-02 9.93145940653129555287e-01 -6.50820298519208390031e-02
9.67864530379815816879e+08 9.85169569501676889445e-01 -1.40514226836999711612e-01 -1.01038546792228661059e-02 -9.57312283338592473481e-02 -1.01038546792228661059e-02 -9.57312283338592473481e-02 9.93116323940131273673e-01 -6.52209266250350916394e-02
9.67933490615052342415e+08 9.85105354050274883981e-01 -1.40814713913473388285e-01 -1.01476041569739938719e-02 -9.59359477959151746296e-02 -1.01476041569739938719e-02 -9.59359477959151746296e-02 9.93086517767914012111e-01 -6.53604003709156028412e-02
9.68002450850288748741e+08 9.85040726955670575826e-01 -1.41116451705056100696e-01 -1.01916340839741971502e-02 -9.61415193602555423480e-02 -1.01916340839741971502e-02 -9.61415193602555423480e-02 9.93056520527847541580e-01 -6.55004546473245408134e-02
9.68071411085525274277e+08 9.84975684715502453059e-01 -1.41419447938985420876e-01 -1.02359468463545186939e-02 -9.63479482913860291182e-02 -1.02359468463545186939e-02 -9.63479482913860291182e-02 9.93026330594279804664e-01 -6.56410930409278420283e-02
9.68140371320761680603e+08 9.84910223790271932565e-01 -1.41723710405393749090e-01 -1.02805448555472710159e-02 -9.65552398966620234466e-02 -1.02805448555472710159e-02 -9.65552398966620234466e-02 9.92995946324320977183e-01 -6.57823191675846741244e-02
9.68209331555998086929e+08 9.84844340602871737289e-01 -1.42029246957939947471e-01 -1.03254305486072204406e-02 -9.67633995267190710754e-02 -1.03254305486072204406e-02 -9.67633995267190710754e-02 9.92965366057625087315e-01 -6.59241366726405764176e-02
9.68278291791234612465e+08 9.84778031538107945231e-01 -1.42336065514448245617e-01 -1.03706063885374757255e-02 -9.69724325759079713860e-02 -1.03706063885374757255e-02 -9.69724325759079713860e-02 9.92934588116167637928e-01 -6.60665492312239865935e-02
9.68347252026471018791e+08 9.84711292942214377888e-01 -1.42644174057552169943e-01 -1.04160748646198557388e-02 -9.71823444827336901941e-02 -1.04160748646198557388e-02 -9.71823444827336901941e-02 9.92903610804020564373e-01 -6.62095605485451821348e-02
9.68416212261707425117e+08 9.84644121122359661236e-01 -1.42953580635352267558e-01 -1.04618384927510112148e-02 -9.73931407303032514733e-02 -1.04618384927510112148e-02 -9.73931407303032514733e-02 9.92872432407123417519e-01 -6.63531743602015083860e-02
9.68485172496943950653e+08 9.84576512346148069454e-01 -1.43264293362075356697e-01 -1.05078998157826664778e-02 -9.76048268467750723687e-02 -1.05078998157826664778e-02 -9.76048268467750723687e-02 9.92841051193051660206e-01 -6.64973944324834254083e-02
9.68554132732180356979e+08 9.84508462841112153008e-01 -1.43576320418742409135e-01 -1.05542614038670046206e-02 -9.78174084058138354481e-02 -1.05542614038670046206e-02 -9.78174084058138354481e-02 9.92809465410780855876e-01 -6.66422245626845238808e-02
9.68623092967416763306e+08 9.84439968794196818003e-01 -1.43889670053850199372e-01 -1.06009258548080652351e-02 -9.80308910270549782595e-02 -1.06009258548080652351e-02 -9.80308910270549782595e-02 9.92777673290447748577e-01 -6.67876685794178137634e-02
9.68692053202653288841e+08 9.84371026351237854435e-01 -1.44204350584054896700e-01 -1.06478957944174928291e-02 -9.82452803765704041350e-02 -1.06478957944174928291e-02 -9.82452803765704041350e-02 9.92745673043107790257e-01 -6.69337303429331648141e-02
9.68761013437889695168e+08 9.84301631616431138561e-01 -1.44520370394864372532e-01 -1.06951738768756784981e-02 -9.84605821673400910532e-02 -1.06951738768756784981e-02 -9.84605821673400910532e-02 9.92713462860488671247e-01 -6.70804137454385357442e-02
9.68829973673126101494e+08 9.84231780651793841663e-01 -1.44837737941344107950e-01 -1.07427627850991344594e-02 -9.86768021597331096428e-02 -1.07427627850991344594e-02 -9.86768021597331096428e-02 9.92681040914740964176e-01 -6.72277227114276704212e-02
9.68898933908362627029e+08 9.84161469476618311347e-01 -1.45156461748825016400e-01 -1.07906652311123597843e-02 -9.88939461619898069200e-02 -1.07906652311123597843e-02 -9.88939461619898069200e-02 9.92648405358183660852e-01 -6.73756611980086683733e-02
9.68967894143599033356e+08 9.84090694066917737182e-01 -1.45476550413621924518e-01 -1.08388839564257186826e-02 -9.91120200307113036198e-02 -1.08388839564257186826e-02 -9.91120200307113036198e-02 9.92615554323047599716e-01 -6.75242331952373986415e-02
9.69036854378835439682e+08 9.84019450354861935359e-01 -1.45798012603765042572e-01 -1.08874217324195655260e-02 -9.93310296713578039229e-02 -1.08874217324195655260e-02 -9.93310296713578039229e-02 9.92582485921213231173e-01 -6.76734427264571031246e-02
9.69105814614071965218e+08 9.83947734228206583040e-01 -1.46120857059734654548e-01 -1.09362813607334595500e-02 -9.95509810387492366512e-02 -1.09362813607334595500e-02 -9.95509810387492366512e-02 9.92549198243945940412e-01 -6.78232938486393321931e-02
9.69174774849308371544e+08 9.83875541529712682731e-01 -1.46445092595204690022e-01 -1.09854656736611839413e-02 -9.97718801375717390112e-02 -1.09854656736611839413e-02 -9.97718801375717390112e-02 9.92515689361626152198e-01 -6.79737906527291546599e-02
9.69243735084544777870e+08 9.83802868056557255905e-01 -1.46770728097802477530e-01 -1.10349775345529015763e-02 -9.99937330228953119571e-02 -1.10349775345529015763e-02 -9.99937330228953119571e-02 9.92481957323476327026e-01 -6.81249372639977368582e-02
9.69312695319781303406e+08 9.83729709559735265856e-01 -1.47097772529867637514e-01 -1.10848198382219060437e-02 -1.00216545800690864931e-01 -1.10848198382219060437e-02 -1.00216545800690864931e-01 9.92448000157283072298e-01 -6.82767378423946164068e-02
9.69381655555017709732e+08 9.83656061743452880819e-01 -1.47426234929226490644e-01 -1.11349955113585284000e-02 -1.00440324628357807724e-01 -1.11349955113585284000e-02 -1.00440324628357807724e-01 9.92413815869115478741e-01 -6.84291965829071924254e-02
9.69450615790254116058e+08 9.83581920264509967922e-01 -1.47756124409977401823e-01 -1.11855075129505890374e-02 -1.00665075715259039191e-01 -1.11855075129505890374e-02 -1.00665075715259039191e-01 9.92379402443038571846e-01 -6.85823177159251562429e-02
9.69519576025490641594e+08 9.83507280731674593532e-01 -1.48087450163280370807e-01 -1.12363588347095151587e-02 -1.00890805323259016846e-01 -1.12363588347095151587e-02 -1.00890805323259016846e-01 9.92344757840823099571e-01 -6.87361055076071009173e-02
9.69588536260727047920e+08 9.83432138705048086713e-01 -1.48420221458157280958e-01 -1.12875525015031265286e-02 -1.01117519767268806974e-01 -1.12875525015031265286e-02 -1.01117519767268806974e-01 9.92309880001650546077e-01 -6.88905642602518630824e-02
9.69657496495963454247e+08 9.83356489695418334307e-01 -1.48754447642307663369e-01 -1.13390915717959724768e-02 -1.01345225415801973301e-01 -1.13390915717959724768e-02 -1.01345225415801973301e-01 9.92274766841813482543e-01 -6.90456983126772061432e-02
9.69726456731199979782e+08 9.83280329163605082421e-01 -1.49090138142928291254e-01 -1.13909791380955114498e-02 -1.01573928691532894275e-01 -1.13909791380955114498e-02 -1.01573928691532894275e-01 9.92239416254410810936e-01 -6.92015120406002520737e-02
9.69795416966436386108e+08 9.83203652519795134879e-01 -1.49427302467543182685e-01 -1.14432183274052589467e-02 -1.01803636071862310675e-01 -1.14432183274052589467e-02 -1.01803636071862310675e-01 9.92203826109040121217e-01 -6.93580098570227704391e-02
9.69864377201672792435e+08 9.83126455122865228198e-01 -1.49765950204847675398e-01 -1.14958123016854953796e-02 -1.02034354089492268480e-01 -1.14958123016854953796e-02 -1.02034354089492268480e-01 9.92167994251482721069e-01 -6.95151962126228373240e-02
9.69933337436909317970e+08 9.83048732279696579894e-01 -1.50106091025561383390e-01 -1.15487642583209596664e-02 -1.02266089333007403894e-01 -1.15487642583209596664e-02 -1.02266089333007403894e-01 9.92131918503385890062e-01 -6.96730755961509073959e-02
9.70002297672145724297e+08 9.82970479244477779446e-01 -1.50447734683288175672e-01 -1.16020774305952319161e-02 -1.02498848447460613742e-01 -1.16020774305952319161e-02 -1.02498848447460613742e-01 9.92095596661939138627e-01 -6.98316525348288419384e-02
9.70071257907382130623e+08 9.82891691217997021113e-01 -1.50790891015391947949e-01 -1.16557550881733178877e-02 -1.02732638134969939125e-01 -1.16557550881733178877e-02 -1.02732638134969939125e-01 9.92059026499545582034e-01 -6.99909315947564864002e-02
9.70140218142618656158e+08 9.82812363346922568397e-01 -1.51135569943881858945e-01 -1.17098005375915800025e-02 -1.02967465155321499792e-01 -1.17098005375915800025e-02 -1.02967465155321499792e-01 9.92022205763488207353e-01 -7.01509173813225223038e-02
9.70209178377855062485e+08 9.82732490723073892624e-01 -1.51481781476303672962e-01 -1.17642171227545465351e-02 -1.03203336326576897153e-01 -1.17642171227545465351e-02 -1.03203336326576897153e-01 9.91985132175591477477e-01 -7.03116145396182196103e-02
9.70278138613091468811e+08 9.82652068382678711700e-01 -1.51829535706650281535e-01 -1.18190082254408072859e-02 -1.03440258525693398739e-01 -1.18190082254408072859e-02 -1.03440258525693398739e-01 9.91947803431876384828e-01 -7.04730277548600708704e-02
9.70347098848327994347e+08 9.82571091305620258893e-01 -1.52178842816279663586e-01 -1.18741772658162471343e-02 -1.03678238689149451734e-01 -1.18741772658162471343e-02 -1.03678238689149451734e-01 9.91910217202211064169e-01 -7.06351617528157976755e-02
9.70416059083564400673e+08 9.82489554414672783267e-01 -1.52529713074838563225e-01 -1.19297277029544613464e-02 -1.03917283813573943507e-01 -1.19297277029544613464e-02 -1.03917283813573943507e-01 9.91872371129956076352e-01 -7.07980213002331743022e-02
9.70485019318800806999e+08 9.82407452574723061289e-01 -1.52882156841209454479e-01 -1.19856630353672392181e-02 -1.04157400956391352209e-01 -1.19856630353672392181e-02 -1.04157400956391352209e-01 9.91834262831603141741e-01 -7.09616112052795372511e-02
9.70553979554037332535e+08 9.82324780591981472355e-01 -1.53236184564462668556e-01 -1.20419868015423977420e-02 -1.04398597236470408456e-01 -1.20419868015423977420e-02 -1.04398597236470408456e-01 9.91795889896408544573e-01 -7.11259363179836817670e-02
9.70622939789273738861e+08 9.82241533213180528783e-01 -1.53591806784815099185e-01 -1.20987025804893070374e-02 -1.04640879834777308921e-01 -1.20987025804893070374e-02 -1.04640879834777308921e-01 9.91757249886021541307e-01 -7.12910015306809224933e-02
9.70691900024510145187e+08 9.82157705124758861892e-01 -1.53949034134615081459e-01 -1.21558139922952786194e-02 -1.04884255995046624110e-01 -1.21558139922952786194e-02 -1.04884255995046624110e-01 9.91718340334105441514e-01 -7.14568117784701861694e-02
9.70760860259746670723e+08 9.82073290952034327894e-01 -1.54307877339325050237e-01 -1.22133246986885837804e-02 -1.05128733024450873867e-01 -1.22133246986885837804e-02 -1.05128733024450873867e-01 9.91679158745953803766e-01 -7.16233720396701606381e-02
9.70829820494983077049e+08 9.81988285258362569863e-01 -1.54668347218526375242e-01 -1.22712384036119167424e-02 -1.05374318294285007624e-01 -1.22712384036119167424e-02 -1.05374318294285007624e-01 9.91639702598099748165e-01 -7.17906873362856023935e-02
9.70898780730219483376e+08 9.81902682544282923160e-01 -1.55030454686931107311e-01 -1.23295588538042226456e-02 -1.05621019240655811267e-01 -1.23295588538042226456e-02 -1.05621019240655811267e-01 9.91599969337919828760e-01 -7.19587627344771413318e-02
