! File generated for n1 = 6, n2 = 3
! b1 = 2.154435
! b2 = 0.464159
! Q0 = 10000.000000
! f0 = 1000000000.000000
! n = 1001
! rel_span = 10.000000
# Hz S RI R 50
9.98190703213303446770e+08 9.88231446235440347259e-01 -1.17792194652327292248e-01 -5.46247877413518108380e-03 -5.46742935384985154212e-02 -5.46247877413518108380e-03 -5.46742935384985154212e-02 9.97464541951812777576e-01 -2.53775590373962016411e-02
9.98194321806876897812e+08 9.88184656473678257882e-01 -1.18023781166942870469e-01 -5.48419665770740003691e-03 -5.47817864765240136737e-02 -5.48419665770740003691e-03 -5.47817864765240136737e-02 9.97454461403224912353e-01 -2.54274528394793399022e-02
9.98197940400450229645e+08 9.88137588225083907112e-01 -1.18256269794754523272e-01 -5.50604380341671376109e-03 -5.48896981384032686679e-02 -5.50604380341671376109e-03 -5.48896981384032686679e-02 9.97444320856467836478e-01 -2.54775409959588743092e-02
9.98201558994023680687e+08 9.88090239283130444825e-01 -1.18489665759203555151e-01 -5.52802123544220147533e-03 -5.49980309486429591592e-02 -5.52802123544220147533e-03 -5.49980309486429591592e-02 9.97434119836159704953e-01 -2.55278246321911164718e-02
9.98205177587597012520e+08 9.88042607419482132869e-01 -1.18723974323602807224e-01 -5.55012998808559424729e-03 -5.51067873502565017119e-02 -5.55012998808559424729e-03 -5.51067873502565017119e-02 9.97423857862220208936e-01 -2.55783048821224476277e-02
9.98208796181170463562e+08 9.87994690383716234194e-01 -1.18959200791614011505e-01 -5.57237110590067322158e-03 -5.52159698049855957036e-02 -5.57237110590067322158e-03 -5.52159698049855957036e-02 9.97413534449810512683e-01 -2.56289828883921495806e-02
9.98212414774743795395e+08 9.87946485903077098456e-01 -1.19195350507546690699e-01 -5.59474564380714467493e-03 -5.53255807934389942648e-02 -5.59474564380714467493e-03 -5.53255807934389942648e-02 9.97403149109280073858e-01 -2.56798598023968045745e-02
9.98216033368317246437e+08 9.87897991682196052743e-01 -1.19432428856815778251e-01 -5.61725466722076075682e-03 -5.54356228153048691265e-02 -5.61725466722076075682e-03 -5.54356228153048691265e-02 9.97392701346106913540e-01 -2.57309367843888865679e-02
9.98219651961890578270e+08 9.87849205402838270729e-01 -1.19670441266252175483e-01 -5.63989925217081404518e-03 -5.55460983894949938966e-02 -5.63989925217081404518e-03 -5.55460983894949938966e-02 9.97382190660842327112e-01 -2.57822150035436695181e-02
9.98223270555464029312e+08 9.87800124723610339927e-01 -1.19909393204591471771e-01 -5.66268048543587011745e-03 -5.56570100543715765018e-02 -5.66268048543587011745e-03 -5.56570100543715765018e-02 9.97371616549048378708e-01 -2.58336956380645250964e-02
9.98226889149037361145e+08 9.87750747279705798576e-01 -1.20149290182763268664e-01 -5.68559946466187186159e-03 -5.57683603678815406623e-02 -5.68559946466187186159e-03 -5.57683603678815406623e-02 9.97360978501243056193e-01 -2.58853798752452408938e-02
9.98230507742610812187e+08 9.87701070682598492034e-01 -1.20390137754419368488e-01 -5.70865729850435817821e-03 -5.58801519078017117081e-02 -5.70865729850435817821e-03 -5.58801519078017117081e-02 9.97350276002833990852e-01 -2.59372689115838217511e-02
9.98234126336184144020e+08 9.87651092519785889223e-01 -1.20631941516208887610e-01 -5.73185510674793178426e-03 -5.59923872718664922266e-02 -5.73185510674793178426e-03 -5.59923872718664922266e-02 9.97339508534063279299e-01 -2.59893639528417791373e-02
9.98237744929757595062e+08 9.87600810354473557240e-01 -1.20874707108316478688e-01 -5.75519402045226568382e-03 -5.61050690780176899985e-02 -5.75519402045226568382e-03 -5.61050690780176899985e-02 9.97328675569939426815e-01 -2.60416662141600523117e-02
9.98241363523330926895e+08 9.87550221725306376364e-01 -1.21118440214768335883e-01 -5.77867518207730423291e-03 -5.62181999645465640958e-02 -5.77867518207730423291e-03 -5.62181999645465640958e-02 9.97317776580179504720e-01 -2.60941769201249625099e-02
9.98244982116904377937e+08 9.87499324146050905249e-01 -1.21363146563950696777e-01 -5.80229974563032172008e-03 -5.63317825903344587823e-02 -5.80229974563032172008e-03 -5.63317825903344587823e-02 9.97306811029140760638e-01 -2.61468973048799152581e-02
9.98248600710477709770e+08 9.87448115105311829964e-01 -1.21608831928954497226e-01 -5.82606887679773012556e-03 -5.64458196350128352248e-02 -5.82606887679773012556e-03 -5.64458196350128352248e-02 9.97295778375759667256e-01 -2.61998286121996500075e-02
9.98252219304051160812e+08 9.87396592066211331584e-01 -1.21855502128082077151e-01 -5.84998375309399906014e-03 -5.65603137991983959121e-02 -5.84998375309399906014e-03 -5.65603137991983959121e-02 9.97284678073482311333e-01 -2.62529720955994028131e-02
9.98255837897624492645e+08 9.87344752466096320376e-01 -1.22103163025200536773e-01 -5.87404556399729986527e-03 -5.66752678046571478632e-02 -5.87404556399729986527e-03 -5.66752678046571478632e-02 9.97273509570201777130e-01 -2.63063290184110433467e-02
9.98259456491197943687e+08 9.87292593716205812981e-01 -1.22351820530274088550e-01 -5.89825551110401830046e-03 -5.67906843945514966387e-02 -5.89825551110401830046e-03 -5.67906843945514966387e-02 9.97262272308186425995e-01 -2.63599006538977678749e-02
9.98263075084771275520e+08 9.87240113201369950957e-01 -1.22601480599727225007e-01 -5.92261480826843534492e-03 -5.69065663336087573798e-02 -5.92261480826843534492e-03 -5.69065663336087573798e-02 9.97250965724015170366e-01 -2.64136882853323283482e-02
9.98266693678344726562e+08 9.87187308279671382749e-01 -1.22852149236972477131e-01 -5.94712468176001717718e-03 -5.70229164083662087847e-02 -5.94712468176001717718e-03 -5.70229164083662087847e-02 9.97239589248503977004e-01 -2.64676932061107469951e-02
9.98270312271918058395e+08 9.87134176282133513070e-01 -1.23103832492790762898e-01 -5.97178637040795667196e-03 -5.71397374273475561202e-02 -5.97178637040795667196e-03 -5.71397374273475561202e-02 9.97228142306639364634e-01 -2.65219167198342577196e-02
9.98273930865491509438e+08 9.87080714512373891267e-01 -1.23356536465862753893e-01 -5.99660112576211584007e-03 -5.72570322213096088992e-02 -5.99660112576211584007e-03 -5.72570322213096088992e-02 9.97216624317503241848e-01 -2.65763601404237735648e-02
9.98277549459064841270e+08 9.87026920246280248250e-01 -1.23610267303174328757e-01 -6.02157021224333788290e-03 -5.73748036434304706233e-02 -6.02157021224333788290e-03 -5.73748036434304706233e-02 9.97205034694203629186e-01 -2.66310247922072612647e-02
9.98281168052638292313e+08 9.86972790731654447960e-01 -1.23865031200559375102e-01 -6.04669490730894067937e-03 -5.74930545695614761414e-02 -6.04669490730894067937e-03 -5.74930545695614761414e-02 9.97193372843797165572e-01 -2.66859120100366685457e-02
9.98284786646211624146e+08 9.86918323187881751934e-01 -1.24120834403100274712e-01 -6.07197650160595358421e-03 -5.76117878984131054354e-02 -6.07197650160595358421e-03 -5.76117878984131054354e-02 9.97181638167218609148e-01 -2.67410231393742058026e-02
9.98288405239785075188e+08 9.86863514805564334686e-01 -1.24377683205681960343e-01 -6.09741629914124089185e-03 -5.77310065518120973937e-02 -6.09741629914124089185e-03 -5.77310065518120973937e-02 9.97169830059201789396e-01 -2.67963595364117193598e-02
9.98292023833358407021e+08 9.86808362746177558655e-01 -1.24635583953422543479e-01 -6.12301561744126032760e-03 -5.78507134749014079178e-02 -6.12301561744126032760e-03 -5.78507134749014079178e-02 9.97157947908204778109e-01 -2.68519225681634679526e-02
9.98295642426931858063e+08 9.86752864141694385758e-01 -1.24894543042231673247e-01 -6.14877578772626311177e-03 -5.79709116363993082199e-02 -6.14877578772626311177e-03 -5.79709116363993082199e-02 9.97145991096330064352e-01 -2.69077136125864119220e-02
9.98299261020505189896e+08 9.86697016094235324069e-01 -1.25154566919232101974e-01 -6.17469815507280025274e-03 -5.80916040287950963261e-02 -6.17469815507280025274e-03 -5.80916040287950963261e-02 9.97133958999248504185e-01 -2.69637340586710433366e-02
9.98302879614078640938e+08 9.86640815675678739538e-01 -1.25415662083345924582e-01 -6.20078407859446859018e-03 -5.82127936686212058004e-02 -6.20078407859446859018e-03 -5.82127936686212058004e-02 9.97121850986115165760e-01 -2.70199853065676842689e-02
9.98306498207651972771e+08 9.86584259927296258752e-01 -1.25677835085747535704e-01 -6.22703493161131087924e-03 -5.83344835966633987190e-02 -6.22703493161131087924e-03 -5.83344835966633987190e-02 9.97109666419491613709e-01 -2.70764687676840615227e-02
9.98310116801225423813e+08 9.86527345859359194868e-01 -1.25941092530430176488e-01 -6.25345210183252727537e-03 -5.84566768782238399549e-02 -6.25345210183252727537e-03 -5.84566768782238399549e-02 9.97097404655260199924e-01 -2.71331858648074068785e-02
9.98313735394798755646e+08 9.86470070450761404857e-01 -1.26205441074674712398e-01 -6.28003699153134066491e-03 -5.85793766033385621128e-02 -6.28003699153134066491e-03 -5.85793766033385621128e-02 9.97085065042543239322e-01 -2.71901380322053902450e-02
9.98317353988372206688e+08 9.86412430648609395156e-01 -1.26470887429652706357e-01 -6.30679101773539817904e-03 -5.87025858870574707149e-02 -6.30679101773539817904e-03 -5.87025858870574707149e-02 9.97072646923614969161e-01 -2.72473267157561024887e-02
9.98320972581945657730e+08 9.86354423367836519176e-01 -1.26737438360895432465e-01 -6.33371561240572440027e-03 -5.88263078696619964858e-02 -6.33371561240572440027e-03 -5.88263078696619964858e-02 9.97060149633817838222e-01 -2.73047533730490649129e-02
9.98324591175518989563e+08 9.86296045490794859312e-01 -1.27005100688848598933e-01 -6.36081222262639515985e-03 -5.89505457169226254610e-02 -6.36081222262639515985e-03 -5.89505457169226254610e-02 9.97047572501474910212e-01 -2.73624194735047655824e-02
9.98328209769092440605e+08 9.86237293866827124944e-01 -1.27273881289492296620e-01 -6.38808231080292398402e-03 -5.90753026203865785893e-02 -6.38808231080292398402e-03 -5.90753026203865785893e-02 9.97034914847797826276e-01 -2.74203264985082052763e-02
9.98331828362665772438e+08 9.86178165311871191001e-01 -1.27543787094794885961e-01 -6.41552735484603089272e-03 -5.92005817975885598181e-02 -6.41552735484603089272e-03 -5.92005817975885598181e-02 9.97022175986800984759e-01 -2.74784759415066977273e-02
9.98335446956239223480e+08 9.86118656608019561460e-01 -1.27814825093349793139e-01 -6.44314884837610558216e-03 -5.93263864923462766465e-02 -6.44314884837610558216e-03 -5.93263864923462766465e-02 9.97009355225207283269e-01 -2.75368693081470446160e-02
9.98339065549812555313e+08 9.86058764503095486198e-01 -1.28087002330912330672e-01 -6.47094830091978975850e-03 -5.94527199750096643771e-02 -6.47094830091978975850e-03 -5.94527199750096643771e-02 9.96996451862356525275e-01 -2.75955081163912242792e-02
9.98342684143386006355e+08 9.85998485710211092226e-01 -1.28360325911000966448e-01 -6.49892723811538314260e-03 -5.95795855427399059789e-02 -6.49892723811538314260e-03 -5.95795855427399059789e-02 9.96983465190110162979e-01 -2.76543938966458888173e-02
9.98346302736959338188e+08 9.85937816907334174665e-01 -1.28634802995430508332e-01 -6.52708720191359347690e-03 -5.97069865197569910054e-02 -6.52708720191359347690e-03 -5.97069865197569910054e-02 9.96970394492758149596e-01 -2.77135281918772721776e-02
9.98349921330532789230e+08 9.85876754736825677838e-01 -1.28910440804960918504e-01 -6.55542975079247396825e-03 -5.98349262576407664449e-02 -6.55542975079247396825e-03 -5.98349262576407664449e-02 9.96957239046918908265e-01 -2.77729125577509394773e-02
9.98353539924106121063e+08 9.85815295804987723471e-01 -1.29187246619869411379e-01 -6.58395645996692237267e-03 -5.99634081355966061522e-02 -6.58395645996692237267e-03 -5.99634081355966061522e-02 9.96943998121442520599e-01 -2.78325485627550842094e-02
9.98357158517679572105e+08 9.85753436681602646097e-01 -1.29465227780546643377e-01 -6.61266892160303296905e-03 -6.00924355607320229145e-02 -6.61266892160303296905e-03 -6.00924355607320229145e-02 9.96930670977310917635e-01 -2.78924377883289185964e-02
9.98360777111252903938e+08 9.85691173899461814401e-01 -1.29744391688107835181e-01 -6.64156874503650344888e-03 -6.02220119683403859456e-02 -6.64156874503650344888e-03 -6.02220119683403859456e-02 9.96917256867536738518e-01 -2.79525818289943842054e-02
9.98364395704826354980e+08 9.85628503953880352739e-01 -1.30024745805046221259e-01 -6.67065755699791651523e-03 -6.03521408222042546332e-02 -6.67065755699791651523e-03 -6.03521408222042546332e-02 9.96903755037058414423e-01 -2.80129822924969212883e-02
9.98368014298399686813e+08 9.85565423302223853064e-01 -1.30306297655808311919e-01 -6.69993700183249465269e-03 -6.04828256148622900312e-02 -6.69993700183249465269e-03 -6.04828256148622900312e-02 9.96890164722638472128e-01 -2.80736407999293731408e-02
9.98371632891973137856e+08 9.85501928363404777755e-01 -1.30589054827478984189e-01 -6.72940874173385498308e-03 -6.06140698679273337568e-02 -6.72940874173385498308e-03 -6.06140698679273337568e-02 9.96876485152755176244e-01 -2.81345589858796318872e-02
9.98375251485546469688e+08 9.85438015517396181941e-01 -1.30873024970363099895e-01 -6.75907445696966122789e-03 -6.07458771323563656575e-02 -6.75907445696966122789e-03 -6.07458771323563656575e-02 9.96862715547497280077e-01 -2.81957384985559132706e-02
9.98378870079119920731e+08 9.85373681104707133116e-01 -1.31158215798712451949e-01 -6.78893584612511556686e-03 -6.08782509887878797716e-02 -6.78893584612511556686e-03 -6.08782509887878797716e-02 9.96848855118451226964e-01 -2.82571809999433917748e-02
9.98382488672693252563e+08 9.85308921425887440648e-01 -1.31444635091296502249e-01 -6.81899462633287975488e-03 -6.10111950478068182369e-02 -6.81899462633287975488e-03 -6.10111950478068182369e-02 9.96834903068594790909e-01 -2.83188881659271404767e-02
9.98386107266266703606e+08 9.85243732740989419661e-01 -1.31732290692136794208e-01 -6.84925253352292994630e-03 -6.11447129502854652694e-02 -6.84925253352292994630e-03 -6.11447129502854652694e-02 9.96820858592180614188e-01 -2.83808616864503655830e-02
9.98389725859840035439e+08 9.85178111269045975185e-01 -1.32021190511141139901e-01 -6.87971132266474404149e-03 -6.12788083676778089215e-02 -6.87971132266474404149e-03 -6.12788083676778089215e-02 9.96806720874623963802e-01 -2.84431032656510610068e-02
9.98393344453413486481e+08 9.85112053187521707898e-01 -1.32311342524829511635e-01 -6.91037276802202067583e-03 -6.14134850023564174415e-02 -6.91037276802202067583e-03 -6.14134850023564174415e-02 9.96792489092384714766e-01 -2.85056146220183416473e-02
9.98396963046986818314e+08 9.85045554631786668409e-01 -1.32602754776934422809e-01 -6.94123866339714425816e-03 -6.15487465878912370920e-02 -6.94123866339714425816e-03 -6.15487465878912370920e-02 9.96778162412853441232e-01 -2.85683974885218572304e-02
9.98400581640560269356e+08 9.84978611694532157905e-01 -1.32895435379224269301e-01 -6.97231082240212882845e-03 -6.16845968894315990760e-02 -6.97231082240212882845e-03 -6.16845968894315990760e-02 9.96763739994226072305e-01 -2.86314536127891261508e-02
9.98404200234133601189e+08 9.84911220425236599851e-01 -1.33189392512080173603e-01 -7.00359107870661759532e-03 -6.18210397039740747194e-02 -7.00359107870661759532e-03 -6.18210397039740747194e-02 9.96749220985388539873e-01 -2.86947847572298284091e-02
9.98407818827707052231e+08 9.84843376829566685693e-01 -1.33484634425328069218e-01 -7.03508128631598079333e-03 -6.19580788607486596109e-02 -7.03508128631598079333e-03 -6.19580788607486596109e-02 9.96734604525787770690e-01 -2.87583926992150927526e-02
9.98411437421280384064e+08 9.84775076868816157116e-01 -1.33781169438872832300e-01 -7.06678331983160660373e-03 -6.20957182215131214820e-02 -7.06678331983160660373e-03 -6.20957182215131214820e-02 9.96719889745310894114e-01 -2.88222792312140853321e-02
9.98415056014853835106e+08 9.84706316459305175393e-01 -1.34079005943476242679e-01 -7.09869907472965213507e-03 -6.22339616809140724896e-02 -7.09869907472965213507e-03 -6.22339616809140724896e-02 9.96705075764155790097e-01 -2.88864461609616290927e-02
9.98418674608427166939e+08 9.84637091471781467078e-01 -1.34378152401499390001e-01 -7.13083046763935465145e-03 -6.23728131668315685654e-02 -7.13083046763935465145e-03 -6.23728131668315685654e-02 9.96690161692701970253e-01 -2.89508953116181487475e-02
9.98422293202000617981e+08 9.84567397730815030421e-01 -1.34678617347635254387e-01 -7.16317943662359533918e-03 -6.25122766407192054228e-02 -7.16317943662359533918e-03 -6.25122766407192054228e-02 9.96675146631380348694e-01 -2.90156285219275167364e-02
9.98425911795573949814e+08 9.84497231014180407271e-01 -1.34980409389669347986e-01 -7.19574794146584772320e-03 -6.26523560979570653950e-02 -7.19574794146584772320e-03 -6.26523560979570653950e-02 9.96660029670540015267e-01 -2.90806476463808978583e-02
9.98429530389147400856e+08 9.84426587052217971774e-01 -1.35283537209295617876e-01 -7.22853796396657772433e-03 -6.27930555682305463483e-02 -7.22853796396657772433e-03 -6.27930555682305463483e-02 9.96644809890310678924e-01 -2.91459545553925600259e-02
9.98433148982720732689e+08 9.84355461527215425122e-01 -1.35588009562812750186e-01 -7.26155150823023284173e-03 -6.29343791158534227037e-02 -7.26155150823023284173e-03 -6.29343791158534227037e-02 9.96629486360469440953e-01 -2.92115511354498515184e-02
9.98436767576294183731e+08 9.84283850072741217652e-01 -1.35893835281996527842e-01 -7.29479060097486340514e-03 -6.30763308401729311248e-02 -7.29479060097486340514e-03 -6.30763308401729311248e-02 9.96614058140297132127e-01 -2.92774392893011999039e-02
9.98440386169867515564e+08 9.84211748273001507670e-01 -1.36201023274833576959e-01 -7.32825729183035970427e-03 -6.32189148759101787745e-02 -7.32825729183035970427e-03 -6.32189148759101787745e-02 9.96598524278439867885e-01 -2.93436209361141418783e-02
9.98444004763440966606e+08 9.84139151662161593137e-01 -1.36509582526377043488e-01 -7.36195365365364864235e-03 -6.33621353935573672356e-02 -7.36195365365364864235e-03 -6.33621353935573672356e-02 9.96582883812762609921e-01 -2.94100980116596896763e-02
9.98447623357014417648e+08 9.84066055723674448785e-01 -1.36819522099532409065e-01 -7.39588178284010175356e-03 -6.35059965997426395523e-02 -7.39588178284010175356e-03 -6.35059965997426395523e-02 9.96567135770204948209e-01 -2.94768724684816539605e-02
9.98451241950587749481e+08 9.83992455889586170592e-01 -1.37130851135910336591e-01 -7.43004379964606279790e-03 -6.36505027376257637162e-02 -7.43004379964606279790e-03 -6.36505027376257637162e-02 9.96551279166630887829e-01 -2.95439462760803336905e-02
9.98454860544161200523e+08 9.83918347539834758919e-01 -1.37443578856671300148e-01 -7.46444184851445275558e-03 -6.37956580872902911938e-02 -7.46444184851445275558e-03 -6.37956580872902911938e-02 9.96535313006678302727e-01 -2.96113214210945371874e-02
9.98458479137734532356e+08 9.83843726001552898452e-01 -1.37757714563312899658e-01 -7.49907809839804768981e-03 -6.39414669661089590802e-02 -7.49907809839804768981e-03 -6.39414669661089590802e-02 9.96519236283608500493e-01 -2.96789999074711652316e-02
9.98462097731307983398e+08 9.83768586548321000151e-01 -1.38073267638636337784e-01 -7.53395474310653533168e-03 -6.40879337291923034670e-02 -7.53395474310653533168e-03 -6.40879337291923034670e-02 9.96503047979145240021e-01 -2.97469837566734784939e-02
9.98465716324881315231e+08 9.83692924399455437268e-01 -1.38390247547522049487e-01 -7.56907400163668586668e-03 -6.42350627697486492584e-02 -7.56907400163668586668e-03 -6.42350627697486492584e-02 9.96486747063321409712e-01 -2.98152750078481271201e-02
9.98469334918454766273e+08 9.83616734719246821328e-01 -1.38708663837879275782e-01 -7.60443811852599526463e-03 -6.43828585195249103457e-02 -7.60443811852599526463e-03 -6.43828585195249103457e-02 9.96470332494315047533e-01 -2.98838757180298134064e-02
9.98472953512028098106e+08 9.83540012616220593600e-01 -1.39028526141462299703e-01 -7.64004936419578322554e-03 -6.45313254491853699468e-02 -7.64004936419578322554e-03 -6.45313254491853699468e-02 9.96453803218289801968e-01 -2.99527879623170921464e-02
