! File generated for n1 = 7, n2 = 8
! b1 = 1.000000
! b2 = 0.004642
! Q0 = 10000.000000
! f0 = 1000000000.000000
! n = 1001
! rel_span = 10.000000
# Hz S RI R 50
9.98997679205583214760e+08 9.90131740373670909960e-01 -9.87321016927452388412e-02 -6.72316701882287050783e-04 -6.72653978446914341954e-03 -6.72316701882287050783e-04 -6.72653978446914341954e-03 9.99954195596311268268e-01 -4.58273820736167486044e-04
9.98999683847172021866e+08 9.90092522070402880630e-01 -9.89261332014277905422e-02 -6.74988613780129432726e-04 -6.73975899727042096488e-03 -6.74988613780129432726e-04 -6.73975899727042096488e-03 9.99954013561072718730e-01 -4.59174435220237472065e-04
9.99001688488760828972e+08 9.90053070377799104840e-01 -9.91209205240605045750e-02 -6.77676426308313731468e-04 -6.75302970307669128691e-03 -6.77676426308313731468e-04 -6.75302970307669128691e-03 9.99953830442536828471e-01 -4.60078557881898821298e-04
9.99003693130349755287e+08 9.90013383446792682996e-01 -9.93164680369085367539e-02 -6.80380265442313055674e-04 -6.76635220003942838146e-03 -6.80380265442313055674e-04 -6.76635220003942838146e-03 9.99953646232121018400e-01 -4.60986209033975005613e-04
9.99005697771938562393e+08 9.89973459410039002826e-01 -9.95127801496539649007e-02 -6.83100258402813105899e-04 -6.77972678858677554881e-03 -6.83100258402813105899e-04 -6.77972678858677554881e-03 9.99953460921157888386e-01 -4.61897409144397085978e-04
9.99007702413527369499e+08 9.89933296381689364907e-01 -9.97098613057657290337e-02 -6.85836533671214964615e-04 -6.79315377144874745635e-03 -6.85836533671214964615e-04 -6.79315377144874745635e-03 9.99953274500893996013e-01 -4.62812178837920926069e-04
9.99009707055116176605e+08 9.89892892457169937259e-01 -9.99077159828196809110e-02 -6.88589221004605326129e-04 -6.80663345367903648009e-03 -6.88589221004605326129e-04 -6.80663345367903648009e-03 9.99953086962489079426e-01 -4.63730538897612657671e-04
9.99011711696705102921e+08 9.89852245712966705149e-01 -1.00106348692788976740e-01 -6.91358451450471180044e-04 -6.82016614267479288902e-03 -6.91358451450471180044e-04 -6.82016614267479288902e-03 9.99952898297015058127e-01 -4.64652510266196398184e-04
9.99013716338293910027e+08 9.89811354206404092615e-01 -1.00305763982348611352e-01 -6.94144357361765125709e-04 -6.83375214819738081157e-03 -6.94144357361765125709e-04 -6.83375214819738081157e-03 9.99952708495454811732e-01 -4.65578114047468050261e-04
9.99015720979882717133e+08 9.89770215975404710207e-01 -1.00505966433260610082e-01 -6.96947072413259260948e-04 -6.84739178239861159131e-03 -6.96947072413259260948e-04 -6.84739178239861159131e-03 9.99952517548701180772e-01 -4.66507371508083042762e-04
9.99017725621471524239e+08 9.89728829038259760864e-01 -1.00706960662697408981e-01 -6.99766731617206048759e-04 -6.86108535984278258141e-03 -6.99766731617206048759e-04 -6.86108535984278258141e-03 9.99952325447555856464e-01 -4.67440304079057517093e-04
9.99019730263060331345e+08 9.89687191393394671834e-01 -1.00908751323574477632e-01 -7.02603471339291810183e-04 -6.87483319752933350055e-03 -7.02603471339291810183e-04 -6.87483319752933350055e-03 9.99952132182728381515e-01 -4.68376933357311851618e-04
9.99021734904649257660e+08 9.89645301019136391929e-01 -1.01111343104863984910e-01 -7.05457429314495566321e-04 -6.88863561491421996091e-03 -7.05457429314495566321e-04 -6.88863561491421996091e-03 9.99951937744835039901e-01 -4.69317281107126962024e-04
9.99023739546238064766e+08 9.89603155873469364501e-01 -1.01314740731951347108e-01 -7.08328744663718639675e-04 -6.90249293393420306625e-03 -7.08328744663718639675e-04 -6.90249293393420306625e-03 9.99951742124397524591e-01 -4.70261369261799010676e-04
9.99025744187826871872e+08 9.89560753893780842283e-01 -1.01518948967029662422e-01 -7.11217557911129720505e-04 -6.91640547903372114591e-03 -7.11217557911129720505e-04 -6.91640547903372114591e-03 9.99951545311842049379e-01 -4.71209219925470298822e-04
9.99027748829415678978e+08 9.89518092996619302859e-01 -1.01723972609419774371e-01 -7.14124011000639644098e-04 -6.93037357718669696366e-03 -7.14124011000639644098e-04 -6.93037357718669696366e-03 9.99951347297498127631e-01 -4.72160855374614840414e-04
9.99029753471004605293e+08 9.89475171077446424839e-01 -1.01929816495905087304e-01 -7.17048247312762469276e-04 -6.94439755791934759666e-03 -7.17048247312762469276e-04 -6.94439755791934759666e-03 9.99951148071597351041e-01 -4.73116298059592511709e-04
9.99031758112593412399e+08 9.89431986010382069630e-01 -1.02136485501092444395e-01 -7.19990411682026789503e-04 -6.95847775333477240600e-03 -7.19990411682026789503e-04 -6.95847775333477240600e-03 9.99950947624272279413e-01 -4.74075570606324035207e-04
9.99033762754182219505e+08 9.89388535647925615457e-01 -1.02343984537869650553e-01 -7.22950650415955342436e-04 -6.97261449814411994608e-03 -7.22950650415955342436e-04 -6.97261449814411994608e-03 9.99950745945555108385e-01 -4.75038695818414498026e-04
9.99035767395771026611e+08 9.89344817820716482260e-01 -1.02552318557661004128e-01 -7.25929111311359918056e-04 -6.98680812968400111879e-03 -7.25929111311359918056e-04 -6.98680812968400111879e-03 9.99950543025376559214e-01 -4.76005696678339740129e-04
9.99037772037359833717e+08 9.89300830337259240466e-01 -1.02761492550841271321e-01 -7.28925943673080709018e-04 -7.00105898794469144047e-03 -7.28925943673080709018e-04 -7.00105898794469144047e-03 9.99950338853564546504e-01 -4.76976596349367452151e-04
9.99039776678948760033e+08 9.89256570983644722972e-01 -1.02971511547154490063e-01 -7.31941298333001373611e-04 -7.01536741559866290630e-03 -7.31941298333001373611e-04 -7.01536741559866290630e-03 9.99950133419842956961e-01 -4.77951418177501475160e-04
9.99041781320537567139e+08 9.89212037523289788865e-01 -1.03182380616027566389e-01 -7.34975327667751671991e-04 -7.02973375802194884454e-03 -7.34975327667751671991e-04 -7.02973375802194884454e-03 9.99949926713830650193e-01 -4.78930185692937016809e-04
9.99043785962126374245e+08 9.89167227696647222146e-01 -1.03394104867015085292e-01 -7.38028185618499360000e-04 -7.04415836332445213785e-03 -7.38028185618499360000e-04 -7.04415836332445213785e-03 9.99949718725039682354e-01 -4.79912922612125731215e-04
9.99045790603715181351e+08 9.89122139220932838910e-01 -1.03606689450144576203e-01 -7.41100027709514766125e-04 -7.05864158237346373675e-03 -7.41100027709514766125e-04 -7.05864158237346373675e-03 9.99949509442874306941e-01 -4.80899652839377844508e-04
9.99047795245304107666e+08 9.89076769789829390866e-01 -1.03820139556359297694e-01 -7.44191011068352889675e-04 -7.07318376882383036824e-03 -7.44191011068352889675e-04 -7.07318376882383036824e-03 9.99949298856629531507e-01 -4.81890400468917531104e-04
9.99049799886892914772e+08 9.89031117073201571088e-01 -1.04034460417895630036e-01 -7.47301294445307457207e-04 -7.08778527914366834189e-03 -7.47301294445307457207e-04 -7.08778527914366834189e-03 9.99949086955489785389e-01 -4.82885189786634875988e-04
9.99051804528481721878e+08 9.88985178716807800114e-01 -1.04249657308652904364e-01 -7.50431038232965484484e-04 -7.10244647263955433680e-03 -7.50431038232965484484e-04 -7.10244647263955433680e-03 9.99948873728527698468e-01 -4.83884045271802004130e-04
9.99053809170070528984e+08 9.88938952341982480121e-01 -1.04465735544698332116e-01 -7.53580404487948891067e-04 -7.11716771149093277438e-03 -7.53580404487948891067e-04 -7.11716771149093277438e-03 9.99948659164702435831e-01 -4.84886991599417179789e-04
9.99055813811659336090e+08 9.88892435545358328142e-01 -1.04682700484556787113e-01 -7.56749556949751645690e-04 -7.13194936076985263468e-03 -7.56749556949751645690e-04 -7.13194936076985263468e-03 9.99948443252858698571e-01 -4.85894053641549650887e-04
9.99057818453248262405e+08 9.88845625898530089515e-01 -1.04900557529768109766e-01 -7.59938661063700783040e-04 -7.14679178847894055332e-03 -7.59938661063700783040e-04 -7.14679178847894055332e-03 9.99948225981724725386e-01 -4.86905256469926446972e-04
9.99059823094837069511e+08 9.88798520947775649859e-01 -1.05119312125155378590e-01 -7.63147883999930267025e-04 -7.16169536556967353119e-03 -7.63147883999930267025e-04 -7.16169536556967353119e-03 9.99948007339911293379e-01 -4.87920625357177476997e-04
9.99061827736425876617e+08 9.88751118213707647087e-01 -1.05338969759405001736e-01 -7.66377394677153316038e-04 -7.17666046598190374151e-03 -7.66377394677153316038e-04 -7.17666046598190374151e-03 9.99947787315910163741e-01 -4.88940185779528362249e-04
9.99063832378014683723e+08 9.88703415190968271098e-01 -1.05559535965423070825e-01 -7.69627363783397769499e-04 -7.19168746666813511748e-03 -7.69627363783397769499e-04 -7.19168746666813511748e-03 9.99947565898092416425e-01 -4.89963963418454115720e-04
9.99065837019603610039e+08 9.88655409347904079453e-01 -1.05781016320774703954e-01 -7.72897963798201657892e-04 -7.20677674762345600590e-03 -7.72897963798201657892e-04 -7.20677674762345600590e-03 9.99947343074707339916e-01 -4.90991984162718851648e-04
9.99067841661192417145e+08 9.88607098126235483981e-01 -1.06003416448128648386e-01 -7.76189369015131648208e-04 -7.22192869191582830640e-03 -7.76189369015131648208e-04 -7.22192869191582830640e-03 9.99947118833880321809e-01 -4.92024274110438968044e-04
9.99069846302781224251e+08 9.88558478940715801286e-01 -1.06226742015731859259e-01 -7.79501755564998956641e-04 -7.23714368571842184968e-03 -7.79501755564998956641e-04 -7.23714368571842184968e-03 9.99946893163611627564e-01 -4.93060859571286245508e-04
9.99071850944370031357e+08 9.88509549178787860768e-01 -1.06450998737877375322e-01 -7.82835301439238325297e-04 -7.25242211834148907401e-03 -7.82835301439238325297e-04 -7.25242211834148907401e-03 9.99946666051775068240e-01 -4.94101767068659504176e-04
9.99073855585958838463e+08 9.88460306200254046338e-01 -1.06676192375296893800e-01 -7.86190186512424407650e-04 -7.26776438225911185914e-03 -7.86190186512424407650e-04 -7.26776438225911185914e-03 9.99946437486115780047e-01 -4.95147023341506605475e-04
9.99075860227547764778e+08 9.88410747336905148863e-01 -1.06902328735720170139e-01 -7.89566592567535305465e-04 -7.28317087314731340109e-03 -7.89566592567535305465e-04 -7.28317087314731340109e-03 9.99946207454249114122e-01 -4.96196655346921116324e-04
9.99077864869136571884e+08 9.88360869892189519703e-01 -1.07129413674234175158e-01 -7.92964703318503973985e-04 -7.29864198990852388466e-03 -7.92964703318503973985e-04 -7.29864198990852388466e-03 9.99945975943658638130e-01 -4.97250690261809378395e-04
9.99079869510725378990e+08 9.88310671140827046166e-01 -1.07357453093873012051e-01 -7.96384704436485404803e-04 -7.31417813471177576112e-03 -7.96384704436485404803e-04 -7.31417813471177576112e-03 9.99945742941694803996e-01 -4.98309155485628552280e-04
9.99081874152314186096e+08 9.88260148328457543876e-01 -1.07586452946038288458e-01 -7.99826783573875607115e-04 -7.32977971302134056336e-03 -7.99826783573875607115e-04 -7.32977971302134056336e-03 9.99945508435573060524e-01 -4.99372078642337856140e-04
9.99083878793903112411e+08 9.88209298671262392766e-01 -1.07816419231013024826e-01 -8.03291130390010885490e-04 -7.34544713363174169712e-03 -8.03291130390010885490e-04 -7.34544713363174169712e-03 9.99945272412372077042e-01 -5.00439487582784027324e-04
9.99085883435491919518e+08 9.88158119355605268908e-01 -1.08047357998379736643e-01 -8.06777936575712984434e-04 -7.36118080869623860052e-03 -8.06777936575712984434e-04 -7.36118080869623860052e-03 9.99945034859031967045e-01 -5.01511410386641610579e-04
9.99087888077080726624e+08 9.88106607537617698256e-01 -1.08279275347660630668e-01 -8.10287395881477369095e-04 -7.37698115377044029428e-03 -8.10287395881477369095e-04 -7.37698115377044029428e-03 9.99944795762352844903e-01 -5.02587875365384864623e-04
9.99089892718669533730e+08 9.88054760342833460207e-01 -1.08512177428722531025e-01 -8.13819704142417356223e-04 -7.39284858783989702602e-03 -8.13819704142417356223e-04 -7.39284858783989702602e-03 9.99944555108992494397e-01 -5.03668911064167009774e-04
9.99091897360258340836e+08 9.88002574865792571046e-01 -1.08746070442295200698e-01 -8.17375059305214019152e-04 -7.40878353335540969921e-03 -8.17375059305214019152e-04 -7.40878353335540969921e-03 9.99944312885464925422e-01 -5.04754546264225964144e-04
9.99093902001847267151e+08 9.87950048169628280981e-01 -1.08980960640548005247e-01 -8.20953661456271075077e-04 -7.42478641627231789046e-03 -8.20953661456271075077e-04 -7.42478641627231789046e-03 9.99944069078138597639e-01 -5.05844809985561238812e-04
9.99095906643436074257e+08 9.87897177285677940972e-01 -1.09216854327537249425e-01 -8.24555712848215062970e-04 -7.44085766608097894104e-03 -8.24555712848215062970e-04 -7.44085766608097894104e-03 9.99943823673233977978e-01 -5.06939731489010184974e-04
9.99097911285024881363e+08 9.87843959213059341629e-01 -1.09453757859788919360e-01 -8.28181417928775778954e-04 -7.45699771584646710354e-03 -8.28181417928775778954e-04 -7.45699771584646710354e-03 9.99943576656822430415e-01 -5.08039340278953078373e-04
9.99099915926613688469e+08 9.87790390918251715036e-01 -1.09691677646836502347e-01 -8.31830983369314020705e-04 -7.47320700224521523858e-03 -8.31830983369314020705e-04 -7.47320700224521523858e-03 9.99943328014823329397e-01 -5.09143666105808627431e-04
9.99101920568202614784e+08 9.87736469334673850007e-01 -1.09930620151752103664e-01 -8.35504618093577339569e-04 -7.48948596560119941173e-03 -8.35504618093577339569e-04 -7.48948596560119941173e-03 9.99943077733003171659e-01 -5.10252738968500316359e-04
9.99103925209791421890e+08 9.87682191362264760848e-01 -1.10170591891643729343e-01 -8.39202533306266816246e-04 -7.50583504991981977778e-03 -8.39202533306266816246e-04 -7.50583504991981977778e-03 9.99942825796972467600e-01 -5.11366589116763912634e-04
9.99105929851380228996e+08 9.87627553867015506306e-01 -1.10411599438345234270e-01 -8.42924942524916941469e-04 -7.52225470293490551532e-03 -8.42924942524916941469e-04 -7.52225470293490551532e-03 9.99942572192184631064e-01 -5.12485247054350091800e-04
9.99107934492969036102e+08 9.87572553680551967759e-01 -1.10653649418861105280e-01 -8.46672061608351911484e-04 -7.53874537613901437444e-03 -8.46672061608351911484e-04 -7.53874537613901437444e-03 9.99942316903933314798e-01 -5.13608743541088758403e-04
9.99109939134557843208e+08 9.87517187599678547549e-01 -1.10896748515956863890e-01 -8.50444108787735226704e-04 -7.55530752482366351613e-03 -8.50444108787735226704e-04 -7.55530752482366351613e-03 9.99942059917350634102e-01 -5.14737109595629692242e-04
9.99111943776146769524e+08 9.87461452385900662065e-01 -1.11140903468824436828e-01 -8.54241304699150400676e-04 -7.57194160812465436733e-03 -8.54241304699150400676e-04 -7.57194160812465436733e-03 9.99941801217404724333e-01 -5.15870376498531115102e-04
9.99113948417735576630e+08 9.87405344764992309869e-01 -1.11386121073518987168e-01 -8.58063872413004089315e-04 -7.58864808905183266946e-03 -8.58063872413004089315e-04 -7.58864808905183266946e-03 9.99941540788897964553e-01 -5.17008575794286606708e-04
9.99115953059324383736e+08 9.87348861426496915428e-01 -1.11632408183672079960e-01 -8.61912037468093457891e-04 -7.60542743453768328721e-03 -8.61912037468093457891e-04 -7.60542743453768328721e-03 9.99941278616464757079e-01 -5.18151739294636041328e-04
9.99117957700913190842e+08 9.87291999023258926016e-01 -1.11879771711037065418e-01 -8.65786027903450933554e-04 -7.62228011547448017909e-03 -8.65786027903450933554e-04 -7.62228011547448017909e-03 9.99941014684568862947e-01 -5.19299899081096332475e-04
9.99119962342502117157e+08 9.87234754170921990912e-01 -1.12128218626164288807e-01 -8.69686074292605102408e-04 -7.63920660676028952935e-03 -8.69686074292605102408e-04 -7.63920660676028952935e-03 9.99940748977501403516e-01 -5.20453087508096403496e-04
9.99121966984090924263e+08 9.87177123447468329864e-01 -1.12377755958864122832e-01 -8.73612409774910682846e-04 -7.65620738733051656166e-03 -8.73612409774910682846e-04 -7.65620738733051656166e-03 9.99940481479378973084e-01 -5.21611337205125425755e-04
9.99123971625679731369e+08 9.87119103392675611985e-01 -1.12628390799007424561e-01 -8.77565270092574138162e-04 -7.67328294021244090850e-03 -8.77565270092574138162e-04 -7.67328294021244090850e-03 9.99940212174140530266e-01 -5.22774681080448921575e-04
9.99125976267268538475e+08 9.87060690507638449631e-01 -1.12880130297016809116e-01 -8.81544893623235144460e-04 -7.69043375255868376372e-03 -8.81544893623235144460e-04 -7.69043375255868376372e-03 9.99939941045545621634e-01 -5.23943152323388624571e-04
9.99127980908857345581e+08 9.87001881254226609563e-01 -1.13132981664607876193e-01 -8.85551521416900479754e-04 -7.70766031569770915244e-03 -8.85551521416900479754e-04 -7.70766031569770915244e-03 9.99939668077171606164e-01 -5.25116784407763086823e-04
9.99129985550446271896e+08 9.86942672054576752849e-01 -1.13386952175357644257e-01 -8.89585397230577561330e-04 -7.72496312517254989788e-03 -8.89585397230577561330e-04 -7.72496312517254989788e-03 9.99939393252411656832e-01 -5.26295611094526084861e-04
9.99131990192035079002e+08 9.86883059290555975096e-01 -1.13642049165364189545e-01 -8.93646767564775412925e-04 -7.74234268078575170458e-03 -8.93646767564775412925e-04 -7.74234268078575170458e-03 9.99939116554471874032e-01 -5.27479666434828623443e-04
9.99133994833623886108e+08 9.86823039303205140627e-01 -1.13898280033970997205e-01 -8.97735881701483182625e-04 -7.75979948664871736763e-03 -8.97735881701483182625e-04 -7.75979948664871736763e-03 9.99938837966368843091e-01 -5.28668984773380938071e-04
9.99135999475212693214e+08 9.86762608392200424312e-01 -1.14155652244380109717e-01 -9.01852991740828861464e-04 -7.77733405122348238347e-03 -9.01852991740828861464e-04 -7.77733405122348238347e-03 9.99938557470927080750e-01 -5.29863600751298200429e-04
9.99138004116801619530e+08 9.86701762815290206454e-01 -1.14414173324343823590e-01 -9.05998352639441717309e-04 -7.79494688736983958044e-03 -9.05998352639441717309e-04 -7.79494688736983958044e-03 9.99938275050776703701e-01 -5.31063549309311274706e-04
9.99140008758390426636e+08 9.86640498787733633002e-01 -1.14673850866821996908e-01 -9.10172222248731787285e-04 -7.81263851239012360739e-03 -9.10172222248731787285e-04 -7.81263851239012360739e-03 9.99937990688350542001e-01 -5.32268865690817879338e-04
9.99142013399979233742e+08 9.86578812481705313964e-01 -1.14934692530748255868e-01 -9.14374861355388732047e-04 -7.83040944808140702837e-03 -9.14374861355388732047e-04 -7.83040944808140702837e-03 9.99937704365881252500e-01 -5.33479585445438986985e-04
9.99144018041568040848e+08 9.86516700025726334111e-01 -1.15196706041661642295e-01 -9.18606533720207007153e-04 -7.84826022077853881209e-03 -9.18606533720207007153e-04 -7.84826022077853881209e-03 9.99937416065399209408e-01 -5.34695744431950290357e-04
9.99146022683156847954e+08 9.86454157504055850758e-01 -1.15459899192469225837e-01 -9.22867506119504012359e-04 -7.86619136140609756525e-03 -9.22867506119504012359e-04 -7.86619136140609756525e-03 9.99937125768728951591e-01 -5.35917378821822122312e-04
9.99148027324745774269e+08 9.86391180956090796172e-01 -1.15724279844145738760e-01 -9.27158048386030075351e-04 -7.88420340552605652951e-03 -9.27158048386030075351e-04 -7.88420340552605652951e-03 9.99936833457487184162e-01 -5.37144525102467075041e-04
9.99150031966334581375e+08 9.86327766375761139095e-01 -1.15989855926419443977e-01 -9.31478433450154907035e-04 -7.90229689338451182778e-03 -9.31478433450154907035e-04 -7.90229689338451182778e-03 9.99936539113079225771e-01 -5.38377220080423326068e-04
9.99152036607923388481e+08 9.86263909710884179027e-01 -1.16256635438599237320e-01 -9.35828937383870705646e-04 -7.92047236996803669107e-03 -9.35828937383870705646e-04 -7.92047236996803669107e-03 9.99936242716696566113e-01 -5.39615500885193689722e-04
9.99154041249512195587e+08 9.86199606862539934760e-01 -1.16524626450279902845e-01 -9.40209839443347850964e-04 -7.93873038505172289037e-03 -9.40209839443347850964e-04 -7.93873038505172289037e-03 9.99935944249313646282e-01 -5.40859404972519365595e-04
