! File generated for n1 = 10, n2 = 2
! b1 = 0.100000
! b2 = 0.046416
! Q0 = 10000.000000
! f0 = 1000000000.000000
! n = 1001
! rel_span = 10.000000
# Hz S RI R 50
9.99426792055831909180e+08 9.98273685801510324289e-01 -1.72680925076405672458e-02 -1.17612417213317876734e-03 -1.17646144732147222428e-02 -1.17612417213317876734e-03 -1.17646144732147222428e-02 9.99198715929298320049e-01 -8.01513853612569569795e-03
9.99427938471720218658e+08 9.98266826612523305862e-01 -1.73020207331762744529e-02 -1.18079728319021035401e-03 -1.17877295041894092353e-02 -1.18079728319021035401e-03 -1.17877295041894092353e-02 9.99195532175797374030e-01 -8.03088662340477842105e-03
9.99429084887608528137e+08 9.98259926607369396656e-01 -1.73360811190049930730e-02 -1.18549820197797503400e-03 -1.18109345749235691847e-02 -1.18549820197797503400e-03 -1.18109345749235691847e-02 9.99192329477109897340e-01 -8.04669605405789085950e-03
9.99430231303496956825e+08 9.98252985462687481011e-01 -1.73702744303524878045e-02 -1.19022714879998586963e-03 -1.18342302067594475068e-02 -1.19022714879998586963e-03 -1.18342302067594475068e-02 9.99189107683145061323e-01 -8.06256718327136821800e-03
9.99431377719385266304e+08 9.98246002851921998555e-01 -1.74046014382767920414e-02 -1.19498434613579500307e-03 -1.18576169250127639448e-02 -1.19498434613579500307e-03 -1.18576169250127639448e-02 9.99185866642329223453e-01 -8.07850036893864587029e-03
9.99432524135273575783e+08 9.98238978445280200624e-01 -1.74390629197515613369e-02 -1.19977001867068388229e-03 -1.18810952590295143549e-02 -1.19977001867068388229e-03 -1.18810952590295143549e-02 9.99182606201586165362e-01 -8.09449597169895236626e-03
9.99433670551161885262e+08 9.98231911909694846763e-01 -1.74736596577137956454e-02 -1.20458439332070442809e-03 -1.19046657422184586073e-02 -1.20458439332070442809e-03 -1.19046657422184586073e-02 9.99179326206319662340e-01 -8.11055435495944450353e-03
9.99434816967050313950e+08 9.98224802908786901234e-01 -1.75083924411136293564e-02 -1.20942769925827487906e-03 -1.19283289120850743287e-02 -1.20942769925827487906e-03 -1.19283289120850743287e-02 9.99176026500396274876e-01 -8.12667588491833986497e-03
9.99435963382938623428e+08 9.98217651102826342147e-01 -1.75432620649680522107e-02 -1.21430016793858380070e-03 -1.19520853102681266084e-02 -1.21430016793858380070e-03 -1.19520853102681266084e-02 9.99172706926127696114e-01 -8.14286093058983612147e-03
9.99437109798826932907e+08 9.98210456148690306044e-01 -1.75782693304321127603e-02 -1.21920203312873062090e-03 -1.19759354825881986217e-02 -1.21920203312873062090e-03 -1.19759354825881986217e-02 9.99169367324250101703e-01 -8.15910986383716792247e-03
9.99438256214715242386e+08 9.98203217699823119879e-01 -1.76134150448489651408e-02 -1.22413353093420011232e-03 -1.19998799790817754773e-02 -1.22413353093420011232e-03 -1.19998799790817754773e-02 9.99166007533906608273e-01 -8.17542305939582790442e-03
9.99439402630603551865e+08 9.98195935406195777873e-01 -1.76487000218106121485e-02 -1.22909489982712190510e-03 -1.20239193540426381884e-02 -1.22909489982712190510e-03 -1.20239193540426381884e-02 9.99162627392628177603e-01 -8.19180089490177502920e-03
9.99440549046491980553e+08 9.98188608914262642813e-01 -1.76841250812211116250e-02 -1.23408638067517726841e-03 -1.20480541660649195096e-02 -1.23408638067517726841e-03 -1.20480541660649195096e-02 9.99159226736313521577e-01 -8.20824375092075834981e-03
9.99441695462380290031e+08 9.98181237866922699276e-01 -1.77196910493432752132e-02 -1.23910821676848103591e-03 -1.20722849780749170306e-02 -1.23910821676848103591e-03 -1.20722849780749170306e-02 9.99155805399211116580e-01 -8.22475201097000452322e-03
9.99442841878268599510e+08 9.98173821903471591988e-01 -1.77553987588837877687e-02 -1.24416065385218638402e-03 -1.20966123573890953907e-02 -1.24416065385218638402e-03 -1.20966123573890953907e-02 9.99152363213896554939e-01 -8.24132606155771919865e-03
9.99443988294156908989e+08 9.98166360659562545976e-01 -1.77912490490310000457e-02 -1.24924394015272837918e-03 -1.21210368757398174316e-02 -1.24924394015272837918e-03 -1.21210368757398174316e-02 9.99148900011255225451e-01 -8.25796629220062680665e-03
9.99445134710045337677e+08 9.98158853767158960046e-01 -1.78272427655363843724e-02 -1.25435832641055105413e-03 -1.21455591093308570838e-02 -1.25435832641055105413e-03 -1.21455591093308570838e-02 9.99145415620459664829e-01 -8.27467309546178753088e-03
9.99446281125933647156e+08 9.98151300854493772619e-01 -1.78633807607569243536e-02 -1.25950406590762185692e-03 -1.21701796388662651649e-02 -1.25950406590762185692e-03 -1.21701796388662651649e-02 9.99141909868950905960e-01 -8.29144686697026907229e-03
9.99447427541821956635e+08 9.98143701546020167825e-01 -1.78996638937381769008e-02 -1.26468141450104560458e-03 -1.21948990496069664680e-02 -1.26468141450104560458e-03 -1.21948990496069664680e-02 9.99138382582415385258e-01 -8.30828800545969567426e-03
9.99448573957710266113e+08 9.98136055462365279212e-01 -1.79360930302790398672e-02 -1.26989063065442915092e-03 -1.22197179314148876572e-02 -1.26989063065442915092e-03 -1.22197179314148876572e-02 9.99134833584764070480e-01 -8.32519691279831955399e-03
9.99449720373598575592e+08 9.98128362220288223305e-01 -1.79726690429778748759e-02 -1.27513197546690265974e-03 -1.22446368787843661713e-02 -1.27513197546690265974e-03 -1.22446368787843661713e-02 9.99131262698112143639e-01 -8.34217399401041698193e-03
9.99450866789487004280e+08 9.98120621432627141978e-01 -1.80093928113215021036e-02 -1.28040571270862310604e-03 -1.22696564909028013601e-02 -1.28040571270862310604e-03 -1.22696564909028013601e-02 9.99127669742755131210e-01 -8.35921965731761459906e-03
9.99452013205375313759e+08 9.98112832708256902947e-01 -1.80462652217291408263e-02 -1.28571210885016829796e-03 -1.22947773716805749955e-02 -1.28571210885016829796e-03 -1.22947773716805749955e-02 9.99124054537148587052e-01 -8.37633431415926200947e-03
9.99453159621263623238e+08 9.98104995652034809872e-01 -1.80832871676431528041e-02 -1.29105143309900900414e-03 -1.23200001298128854893e-02 -1.29105143309900900414e-03 -1.23200001298128854893e-02 9.99120416897883778518e-01 -8.39351837923457168300e-03
9.99454306037151932716e+08 9.98097109864754195030e-01 -1.81204595495869681676e-02 -1.29642395743162584104e-03 -1.23453253788191989748e-02 -1.29642395743162584104e-03 -1.23453253788191989748e-02 9.99116756639665148931e-01 -8.41077227052949155661e-03
9.99455452453040361404e+08 9.98089174943094237236e-01 -1.81577832752306857211e-02 -1.30182995662709980779e-03 -1.23707537370879583349e-02 -1.30182995662709980779e-03 -1.23707537370879583349e-02 9.99113073575287891082e-01 -8.42809640934716157445e-03
9.99456598868928670883e+08 9.98081190479571001006e-01 -1.81952592594574677487e-02 -1.30726970830117314795e-03 -1.23962858279218074431e-02 -1.30726970830117314795e-03 -1.23962858279218074431e-02 9.99109367515614743560e-01 -8.44549122033872931570e-03
9.99457745284816980362e+08 9.98073156062480815187e-01 -1.82328884244543146242e-02 -1.31274349294423762526e-03 -1.24219222795994323205e-02 -1.31274349294423762526e-03 -1.24219222795994323205e-02 9.99105638269549678476e-01 -8.46295713154548295831e-03
9.99458891700705289841e+08 9.98065071275852977450e-01 -1.82706716997620491338e-02 -1.31825159395379358507e-03 -1.24476637254096259011e-02 -1.31825159395379358507e-03 -1.24476637254096259011e-02 9.99101885644016252108e-01 -8.48049457442205494029e-03
9.99460038116593599319e+08 9.98056935699393021899e-01 -1.83086100223660841468e-02 -1.32379429767322167460e-03 -1.24735108037131170455e-02 -1.32379429767322167460e-03 -1.24735108037131170455e-02 9.99098109443931070572e-01 -8.49810398387854278035e-03
9.99461184532482028008e+08 9.98048748908431093696e-01 -1.83467043367570130374e-02 -1.32937189342656730123e-03 -1.24994641579838569601e-02 -1.32937189342656730123e-03 -1.24994641579838569601e-02 9.99094309472179920029e-01 -8.51578579830864976219e-03
9.99462330948370337486e+08 9.98040510473869879604e-01 -1.83849555949973861302e-02 -1.33498467355461464083e-03 -1.25255244368545123196e-02 -1.33498467355461464083e-03 -1.25255244368545123196e-02 9.99090485529593341774e-01 -8.53354045962066536102e-03
9.99463477364258646965e+08 9.98032219962121880386e-01 -1.84233647568263700367e-02 -1.34063293345693221488e-03 -1.25516922941877624026e-02 -1.34063293345693221488e-03 -1.25516922941877624026e-02 9.99086637414917877464e-01 -8.55136841328604790924e-03
9.99464623780146956444e+08 9.98023876935061671212e-01 -1.84619327897005761074e-02 -1.34631697162498052169e-03 -1.25779683891041257904e-02 -1.34631697162498052169e-03 -1.25779683891041257904e-02 9.99082764924793753636e-01 -8.56927010835838165459e-03
9.99465770196035385132e+08 9.98015480949961619750e-01 -1.85006606689025188128e-02 -1.35203708968557574990e-03 -1.26043533860558439746e-02 -1.35203708968557574990e-03 -1.26043533860558439746e-02 9.99078867853725016701e-01 -8.58724599752370629235e-03
9.99466916611923694611e+08 9.98007031559439816704e-01 -1.85395493775922896862e-02 -1.35779359243643404573e-03 -1.26308479548620910399e-02 -1.35779359243643404573e-03 -1.26308479548620910399e-02 9.99074945994055330090e-01 -8.60529653712451166048e-03
9.99468063027812004089e+08 9.97998528311398347412e-01 -1.85785999069011491247e-02 -1.36358678788832984700e-03 -1.26574527707727316900e-02 -1.36358678788832984700e-03 -1.26574527707727316900e-02 9.99070999135939441516e-01 -8.62342218720317868486e-03
9.99469209443700313568e+08 9.97989970748964339009e-01 -1.86178132560074482971e-02 -1.36941698730510446128e-03 -1.26841685145200541718e-02 -1.36941698730510446128e-03 -1.26841685145200541718e-02 9.99067027067315760469e-01 -8.64162341153721508258e-03
9.99470355859588623047e+08 9.97981358410429675310e-01 -1.86571904322171480684e-02 -1.37528450524480373197e-03 -1.27109958723736187619e-02 -1.37528450524480373197e-03 -1.27109958723736187619e-02 9.99063029573878380596e-01 -8.65990067767662824449e-03
9.99471502275477051735e+08 9.97972690829187714101e-01 -1.86967324510549301464e-02 -1.38118965960286896669e-03 -1.27379355362023417853e-02 -1.38118965960286896669e-03 -1.27379355362023417853e-02 9.99059006439047658787e-01 -8.67825445698622473245e-03
9.99472648691365361214e+08 9.97963967533679774391e-01 -1.87364403363064306596e-02 -1.38713277164848915179e-03 -1.27649882035032521260e-02 -1.38713277164848915179e-03 -1.27649882035032521260e-02 9.99054957443945457207e-01 -8.69668522466519877678e-03
9.99473795107253670692e+08 9.97955188047316088529e-01 -1.87763151201745283336e-02 -1.39311416607848493308e-03 -1.27921545775079893714e-02 -1.39311416607848493308e-03 -1.27921545775079893714e-02 9.99050882367358394909e-01 -8.71519345981968882042e-03
9.99474941523141980171e+08 9.97946351888428617727e-01 -1.88163578432869738055e-02 -1.39913417104944697023e-03 -1.28194353671879819612e-02 -1.39913417104944697023e-03 -1.28194353671879819612e-02 9.99046780985715976442e-01 -8.73377964546630594644e-03
9.99476087939030408859e+08 9.97937458570192559293e-01 -1.88565695548435496853e-02 -1.40519311823126841904e-03 -1.28468312873547228781e-02 -1.40519311823126841904e-03 -1.28468312873547228781e-02 9.99042653073054176538e-01 -8.75244426860045075800e-03
9.99477234354918718338e+08 9.97928507600571945702e-01 -1.88969513126501752198e-02 -1.41129134284421228589e-03 -1.28743430586829958606e-02 -1.41129134284421228589e-03 -1.28743430586829958606e-02 9.99038498400990127024e-01 -8.77118782021213926059e-03
9.99478380770807027817e+08 9.97919498482244260451e-01 -1.89375041832432894351e-02 -1.41742918371006582090e-03 -1.29019714077956201143e-02 -1.41742918371006582090e-03 -1.29019714077956201143e-02 9.99034316738687033777e-01 -8.79001079534373445934e-03
9.99479527186695337296e+08 9.97910430712533713660e-01 -1.89782292419746374812e-02 -1.42360698329787650242e-03 -1.29297170673212061948e-02 -1.42360698329787650242e-03 -1.29297170673212061948e-02 9.99030107852823645587e-01 -8.80891369312929856106e-03
9.99480673602583765984e+08 9.97901303783346516063e-01 -1.90191275730812459077e-02 -1.42982508776796305577e-03 -1.29575807759418435566e-02 -1.42982508776796305577e-03 -1.29575807759418435566e-02 9.99025871507563612006e-01 -8.82789701682708261021e-03
9.99481820018472075462e+08 9.97892117181097271228e-01 -1.90602002697917542740e-02 -1.43608384702196808028e-03 -1.29855632784655374012e-02 -1.43608384702196808028e-03 -1.29855632784655374012e-02 9.99021607464521732567e-01 -8.84696127386886896349e-03
9.99482966434360384941e+08 9.97882870386638476390e-01 -1.91014484344162877028e-02 -1.44238361475097754370e-03 -1.30136653258874288031e-02 -1.44238361475097754370e-03 -1.30136653258874288031e-02 9.99017315482730983156e-01 -8.86610697590169485882e-03
9.99484112850248694420e+08 9.97873562875189135113e-01 -1.91428731784353232948e-02 -1.44872474848404360001e-03 -1.30418876754503539062e-02 -1.44872474848404360001e-03 -1.30418876754503539062e-02 9.99012995318609875461e-01 -8.88533463882909720077e-03
9.99485259266137003899e+08 9.97864194116262925860e-01 -1.91844756225896355406e-02 -1.45510760963743360566e-03 -1.30702310907061126227e-02 -1.45510760963743360566e-03 -1.30702310907061126227e-02 9.99008646725928151078e-01 -8.90464478285286215042e-03
9.99486405682025432587e+08 9.97854763573588154912e-01 -1.92262568969975462807e-02 -1.46153256356865309494e-03 -1.30986963415953578532e-02 -1.46153256356865309494e-03 -1.30986963415953578532e-02 9.99004269455770699260e-01 -8.92403793252745033970e-03
9.99487552097913742065e+08 9.97845270705040254811e-01 -1.92682181412190366154e-02 -1.46799997962290297571e-03 -1.31272842044912619458e-02 -1.46799997962290297571e-03 -1.31272842044912619458e-02 9.98999863256505693521e-01 -8.94351461678974564429e-03
9.99488698513802051544e+08 9.97835714962559627850e-01 -1.93103605043773024486e-02 -1.47451023118896169459e-03 -1.31559954622823497422e-02 -1.47451023118896169459e-03 -1.31559954622823497422e-02 9.98995427873746177916e-01 -8.96307536901549094244e-03
9.99489844929690361023e+08 9.97826095792075595803e-01 -1.93526851452473468151e-02 -1.48106369575060786183e-03 -1.31848309044328391992e-02 -1.48106369575060786183e-03 -1.31848309044328391992e-02 9.98990963050315428085e-01 -8.98272072706039932666e-03
9.99490991345578789711e+08 9.97816412633427463064e-01 -1.93951932323598655317e-02 -1.48766075494102790154e-03 -1.32137913270534233107e-02 -1.48766075494102790154e-03 -1.32137913270534233107e-02 9.98986468526209869800e-01 -9.00245123330837074271e-03
9.99492137761467099190e+08 9.97806664920286912057e-01 -1.94378859440878376530e-02 -1.49430179459516783783e-03 -1.32428775329602680527e-02 -1.49430179459516783783e-03 -1.32428775329602680527e-02 9.98981944038563218768e-01 -9.02226743471169073674e-03
9.99493284177355408669e+08 9.97796852080068408242e-01 -1.94807644687859625454e-02 -1.50098720481094691573e-03 -1.32720903317700058416e-02 -1.50098720481094691573e-03 -1.32720903317700058416e-02 9.98977389321604847261e-01 -9.04216988285574951867e-03
9.99494430593243718147e+08 9.97786973533857146634e-01 -1.95238300048487661842e-02 -1.50771737999848384933e-03 -1.33014305399393219231e-02 -1.50771737999848384933e-03 -1.33014305399393219231e-02 9.98972804106626144360e-01 -9.06215913398601517759e-03
9.99495577009132027626e+08 9.97777028696318790679e-01 -1.95670837608422250320e-02 -1.51449271894141842924e-03 -1.33308989808546361072e-02 -1.51449271894141842924e-03 -1.33308989808546361072e-02 9.98968188121939215662e-01 -9.08223574906912196891e-03
9.99496723425020456314e+08 9.97767016975614429164e-01 -1.96105269556099831574e-02 -1.52131362485497488579e-03 -1.33604964849044476755e-02 -1.52131362485497488579e-03 -1.33604964849044476755e-02 9.98963541092836471158e-01 -9.10240029384216942088e-03
9.99497869840908765793e+08 9.97756937773319974028e-01 -1.96541608183533403342e-02 -1.52818050544059331856e-03 -1.33902238895338629443e-02 -1.52818050544059331856e-03 -1.33902238895338629443e-02 9.98958862741554320941e-01 -9.12265333884986623358e-03
9.99499016256797075272e+08 9.97746790484327350512e-01 -1.96979865887905100652e-02 -1.53509377295370859524e-03 -1.34200820393530605851e-02 -1.53509377295370859524e-03 -1.34200820393530605851e-02 9.98954152787226323795e-01 -9.14299545951843123381e-03
9.99500162672685384750e+08 9.97736574496766448483e-01 -1.97420055172160824331e-02 -1.54205384425657311513e-03 -1.34500717861778321116e-02 -1.54205384425657311513e-03 -1.34500717861778321116e-02 9.98949410945847660059e-01 -9.16342723618320496859e-03
9.99501309088573813438e+08 9.97726289191906756670e-01 -1.97862188646462412722e-02 -1.54906114088529649891e-03 -1.34801939891285044865e-02 -1.54906114088529649891e-03 -1.34801939891285044865e-02 9.98944636930228946348e-01 -9.18394925415605065111e-03
9.99502455504462122917e+08 9.97715933944073207762e-01 -1.98306279028995502411e-02 -1.55611608910745488794e-03 -1.35104495146849742232e-02 -1.55611608910745488794e-03 -1.35104495146849742232e-02 9.98939830449957599789e-01 -9.20456210376285541286e-03
9.99503601920350432396e+08 9.97705508120542150508e-01 -1.98752339147539210107e-02 -1.56321911999253329410e-03 -1.35408392367936634970e-02 -1.56321911999253329410e-03 -1.35408392367936634970e-02 9.98934991211349321283e-01 -9.22526638041638001597e-03
9.99504748336238741875e+08 9.97695011081455529478e-01 -1.99200381940258380853e-02 -1.57037066947080384931e-03 -1.35713640369214769837e-02 -1.57037066947080384931e-03 -1.35713640369214769837e-02 9.98930118917408349510e-01 -9.24606268465303846038e-03
9.99505894752127051353e+08 9.97684442179720742949e-01 -1.99650420457023192178e-02 -1.57757117840136447916e-03 -1.36020248041457247207e-02 -1.57757117840136447916e-03 -1.36020248041457247207e-02 9.98925213267780720550e-01 -9.26695162219415106974e-03
9.99507041168015480042e+08 9.97673800760912166119e-01 -2.00102467860616903272e-02 -1.58482109263919485574e-03 -1.36328224352363896327e-02 -1.58482109263919485574e-03 -1.36328224352363896327e-02 9.98920273958709192819e-01 -9.28793380400199340696e-03
9.99508187583903789520e+08 9.97663086163175893972e-01 -2.00556537427760035730e-02 -1.59212086310009490360e-03 -1.36637578347259085187e-02 -1.59212086310009490360e-03 -1.36637578347259085187e-02 9.98915300682988172021e-01 -9.30900984632734330992e-03
9.99509333999792098999e+08 9.97652297717121938625e-01 -2.01012642550609417491e-02 -1.59947094583405796490e-03 -1.36948319150113091008e-02 -1.59947094583405796490e-03 -1.36948319150113091008e-02 9.98910293129914639287e-01 -9.33018037077905718069e-03
9.99510480415680408478e+08 9.97641434745727861966e-01 -2.01470796737747426253e-02 -1.60687180209131150535e-03 -1.37260455964215901531e-02 -1.60687180209131150535e-03 -1.37260455964215901531e-02 9.98905250985242298967e-01 -9.35144600436998291171e-03
9.99511626831568837166e+08 9.97630496564229307666e-01 -2.01931013615603109634e-02 -1.61432389839616624409e-03 -1.37573998073145607052e-02 -1.61432389839616624409e-03 -1.37573998073145607052e-02 9.98900173931131951655e-01 -9.37280737958293488910e-03
9.99512773247457146645e+08 9.97619482480021524395e-01 -2.02393306929446771536e-02 -1.62182770661483603540e-03 -1.37888954841445809940e-02 -1.62182770661483603540e-03 -1.37888954841445809940e-02 9.98895061646104864828e-01 -9.39426513441683937178e-03
9.99513919663345456123e+08 9.97608391792543902632e-01 -2.02857690544977209424e-02 -1.62938370403375521259e-03 -1.38205335715707155336e-02 -1.62938370403375521259e-03 -1.38205335715707155336e-02 9.98889913804989482138e-01 -9.41581991246042727950e-03
9.99515066079233765602e+08 9.97597223793172172002e-01 -2.03324178449550176107e-02 -1.63699237343300531278e-03 -1.38523150225404179103e-02 -1.63699237343300531278e-03 -1.38523150225404179103e-02 9.98884730078871685421e-01 -9.43747236294924067568e-03
9.99516212495122075081e+08 9.97585977765112152937e-01 -2.03792784753283988397e-02 -1.64465420315864263752e-03 -1.38842407983648594150e-02 -1.64465420315864263752e-03 -1.38842407983648594150e-02 9.98879510135045167729e-01 -9.45922314081695629617e-03
