! File generated for n1 = 3, n2 = 10
! b1 = 21.544347
! b2 = 0.021544
! Q0 = 10000.000000
! f0 = 1000000000.000000
! n = 1001
! rel_span = 10.000000
# Hz S RI R 50
9.88717054376390457153e+08 9.81306261382024480611e-01 -1.88004023168542366840e-01 -5.91147920166508293593e-04 -5.94520922487659728845e-03 -5.91147920166508293593e-04 -5.94520922487659728845e-03 9.99981306261382041356e-01 -1.88004023168542250613e-04
9.88739620267637729645e+08 9.81231572129802498416e-01 -1.88375505136945647910e-01 -5.93509801704070845060e-04 -5.95695651617496844954e-03 -5.93509801704070845060e-04 -5.95695651617496844954e-03 9.99981231572129813934e-01 -1.88375505136945548814e-04
9.88762186158884882927e+08 9.81156437592239916157e-01 -1.88748434325764768982e-01 -5.95885764400483006198e-04 -5.96874957260124308633e-03 -5.95885764400483006198e-04 -5.96874957260124308633e-03 9.99981156437592222375e-01 -1.88748434325764646467e-04
9.88784752050132155418e+08 9.81080854238140842583e-01 -1.89122819115968676673e-01 -5.98275919921963366538e-04 -5.98058865918492908731e-03 -5.98275919921963366538e-04 -5.98058865918492908731e-03 9.99981080854238091327e-01 -1.89122819115968558061e-04
9.88807317941379308701e+08 9.81004818501373554440e-01 -1.89498667952585492236e-01 -6.00680381039499569629e-04 -5.99247404298126461891e-03 -6.00680381039499569629e-04 -5.99247404298126461891e-03 9.99981004818501384435e-01 -1.89498667952585353458e-04
9.88829883832626581192e+08 9.80928326780452386480e-01 -1.89875989345328122226e-01 -6.03099261642070592210e-04 -6.00440599309100177944e-03 -6.03099261642070592210e-04 -6.00440599309100177944e-03 9.99980928326780427184e-01 -1.89875989345328013589e-04
9.88852449723873734474e+08 9.80851375438121286798e-01 -1.90254791869187894759e-01 -6.05532676749803862835e-04 -6.01638478067917283759e-03 -6.05532676749803862835e-04 -6.01638478067917283759e-03 9.99980851375438128947e-01 -1.90254791869187787207e-04
9.88875015615121006966e+08 9.80773960800924604619e-01 -1.90635084165075685547e-01 -6.07980742527576361288e-04 -6.02841067899537435409e-03 -6.07980742527576361288e-04 -6.02841067899537435409e-03 9.99980773960800872757e-01 -1.90635084165075550672e-04
9.88897581506368160248e+08 9.80696079158780542606e-01 -1.91016874940418412976e-01 -6.10443576298470434900e-04 -6.04048396339262102378e-03 -6.10443576298470434900e-04 -6.04048396339262102378e-03 9.99980696079158737355e-01 -1.91016874940418308892e-04
9.88920147397615432739e+08 9.80617726764537622763e-01 -1.91400172969825421720e-01 -6.12921296557821589264e-04 -6.05260491134842430055e-03 -6.12921296557821589264e-04 -6.05260491134842430055e-03 9.99980617726764497988e-01 -1.91400172969825302025e-04
9.88942713288862705231e+08 9.80538899833536592432e-01 -1.91784987095699688275e-01 -6.15414022987062123669e-04 -6.06477380248411808428e-03 -6.15414022987062123669e-04 -6.06477380248411808428e-03 9.99980538899833515387e-01 -1.91784987095699549714e-04
9.88965279180109858513e+08 9.80459594543158230451e-01 -1.92171326228899125299e-01 -6.17921876468031081898e-04 -6.07699091858577254699e-03 -6.17921876468031081898e-04 -6.07699091858577254699e-03 9.99980459594543180657e-01 -1.92171326228898997580e-04
9.88987845071357131004e+08 9.80379807032365713226e-01 -1.92559199349396165113e-01 -6.20444979097427642967e-04 -6.08925654362504811118e-03 -6.20444979097427642967e-04 -6.08925654362504811118e-03 9.99980379807032360162e-01 -1.92559199349396037394e-04
9.89010410962604284286e+08 9.80299533401245648534e-01 -1.92948615506925602592e-01 -6.22983454201343658622e-04 -6.10157096377968773820e-03 -6.22983454201343658622e-04 -6.10157096377968773820e-03 9.99980299533401284506e-01 -1.92948615506925480511e-04
9.89032976853851556778e+08 9.80218769710536563800e-01 -1.93339583821665522700e-01 -6.25537426350162109080e-04 -6.11393446745504571399e-03 -6.25537426350162109080e-04 -6.11393446745504571399e-03 9.99980218769710549331e-01 -1.93339583821665409727e-04
9.89055542745098710060e+08 9.80137511981154729845e-01 -1.93732113484909762580e-01 -6.28107021373564412652e-04 -6.12634734530535188940e-03 -6.28107021373564412652e-04 -6.12634734530535188940e-03 9.99980137511981115317e-01 -1.93732113484909655677e-04
9.89078108636345982552e+08 9.80055756193711102853e-01 -1.94126213759754806532e-01 -6.30692366375790679743e-04 -6.13880989025543909177e-03 -6.30692366375790679743e-04 -6.13880989025543909177e-03 9.99980055756193753069e-01 -1.94126213759754693124e-04
9.89100674527593135834e+08 9.79973498288023381342e-01 -1.94521893981788457362e-01 -6.33293589751075716027e-04 -6.15132239752251390452e-03 -6.33293589751075716027e-04 -6.15132239752251390452e-03 9.99979973498288043920e-01 -1.94521893981788326173e-04
9.89123240418840408325e+08 9.79890734162618626257e-01 -1.94919163559798408469e-01 -6.35910821199382422265e-04 -6.16388516463856755978e-03 -6.35910821199382422265e-04 -6.16388516463856755978e-03 9.99979890734162601973e-01 -1.94919163559798295712e-04
9.89145806310087561607e+08 9.79807459674232994473e-01 -1.95318031976468159394e-01 -6.38544191742220954532e-04 -6.17649849147238177299e-03 -6.38544191742220954532e-04 -6.17649849147238177299e-03 9.99979807459674185921e-01 -1.95318031976468011943e-04
9.89168372201334834099e+08 9.79723670637297816555e-01 -1.95718508789111234059e-01 -6.41193833738893216936e-04 -6.18916268025274888404e-03 -6.41193833738893216936e-04 -6.18916268025274888404e-03 9.99979723670637254962e-01 -1.95718508789111101352e-04
9.89190938092582106590e+08 9.79639362823425896565e-01 -1.96120603630379558568e-01 -6.43859880902740173286e-04 -6.20187803559086626992e-03 -6.43859880902740173286e-04 -6.20187803559086626992e-03 9.99979639362823413684e-01 -1.96120603630379444944e-04
9.89213503983829259872e+08 9.79554531960886043507e-01 -1.96524326209001815036e-01 -6.46542468317766569515e-04 -6.21464486450369439641e-03 -6.46542468317766569515e-04 -6.21464486450369439641e-03 9.99979554531960856956e-01 -1.96524326209001709651e-04
9.89236069875076532364e+08 9.79469173734068387915e-01 -1.96929686310535728699e-01 -6.49241732455538007700e-04 -6.22746347643773640740e-03 -6.49241732455538007700e-04 -6.22746347643773640740e-03 9.99979469173734036858e-01 -1.96929686310535622014e-04
9.89258635766323685646e+08 9.79383283782948699248e-01 -1.97336693798099732655e-01 -6.51957811192125074456e-04 -6.24033418329218627502e-03 -6.51957811192125074456e-04 -6.24033418329218627502e-03 9.99979383283782996550e-01 -1.97336693798099614911e-04
9.89281201657570958138e+08 9.79296857702537271173e-01 -1.97745358613149874172e-01 -6.54690843825535468727e-04 -6.25325729944348467776e-03 -6.54690843825535468727e-04 -6.25325729944348467776e-03 9.99979296857702482093e-01 -1.97745358613149739731e-04
9.89303767548818111420e+08 9.79209891042326696642e-01 -1.98155690776231380168e-01 -6.57440971093166295729e-04 -6.26623314176909685519e-03 -6.57440971093166295729e-04 -6.26623314176909685519e-03 9.99979209891042275515e-01 -1.98155690776231235319e-04
9.89326333440065383911e+08 9.79122379305725321075e-01 -1.98567700387773382609e-01 -6.60208335189739481397e-04 -6.27926202967263574067e-03 -6.60208335189739481397e-04 -6.27926202967263574067e-03 9.99979122379305751522e-01 -1.98567700387773248168e-04
9.89348899331312537193e+08 9.79034317949489585331e-01 -1.98981397628852613169e-01 -6.62993079785223309031e-04 -6.29234428510801798579e-03 -6.62993079785223309031e-04 -6.29234428510801798579e-03 9.99979034317949544430e-01 -1.98981397628852490220e-04
9.89371465222559809685e+08 9.78945702383139604308e-01 -1.99396792762014107847e-01 -6.65795350043338124077e-04 -6.30548023260541021934e-03 -6.65795350043338124077e-04 -6.30548023260541021934e-03 9.99978945702383104077e-01 -1.99396792762013979911e-04
9.89394031113807082176e+08 9.78856527968376743942e-01 -1.99813896132048168797e-01 -6.68615292639970532247e-04 -6.31867019929580660959e-03 -6.68615292639970532247e-04 -6.31867019929580660959e-03 9.99978856527968362755e-01 -1.99813896132048035657e-04
9.89416597005054235458e+08 9.78766790018483545666e-01 -2.00232718166818701722e-01 -6.71453055782138372339e-04 -6.33191451493721798455e-03 -6.71453055782138372339e-04 -6.33191451493721798455e-03 9.99978766790018513966e-01 -2.00232718166818579207e-04
9.89439162896301507950e+08 9.78676483797716545432e-01 -2.00653269378095688857e-01 -6.74308789227194972475e-04 -6.34521351194099712811e-03 -6.74308789227194972475e-04 -6.34521351194099712811e-03 9.99978676483797679353e-01 -2.00653269378095558970e-04
9.89461728787548661232e+08 9.78585604520697982522e-01 -2.01075560362361765998e-01 -6.77182644302073738669e-04 -6.35856752539734875612e-03 -6.77182644302073738669e-04 -6.35856752539734875612e-03 9.99978585604520686658e-01 -2.01075560362361623534e-04
9.89484294678795933723e+08 9.78494147351787857403e-01 -2.01499601801677363788e-01 -6.80074773923140763962e-04 -6.37197689310268263613e-03 -6.80074773923140763962e-04 -6.37197689310268263613e-03 9.99978494147351737453e-01 -2.01499601801677233684e-04
9.89506860570043087006e+08 9.78402107404453880157e-01 -2.01925404464522451065e-01 -6.82985332616115091778e-04 -6.38544195558623552123e-03 -6.82985332616115091778e-04 -6.38544195558623552123e-03 9.99978402107404407140e-01 -2.01925404464522328550e-04
9.89529426461290359497e+08 9.78309479740629650557e-01 -2.02352979206660926748e-01 -6.85914476536364221652e-04 -6.39896305613740171842e-03 -6.85914476536364221652e-04 -6.39896305613740171842e-03 9.99978309479740645749e-01 -2.02352979206660787102e-04
9.89551992352537512779e+08 9.78216259370065066570e-01 -2.02782336972008536691e-01 -6.88862363489453968790e-04 -6.41254054083318855706e-03 -6.88862363489453968790e-04 -6.41254054083318855706e-03 9.99978216259370111807e-01 -2.02782336972008413309e-04
9.89574558243784785271e+08 9.78122441249662077922e-01 -2.03213488793532764953e-01 -6.91829152952146641219e-04 -6.42617475856665718026e-03 -6.91829152952146641219e-04 -6.42617475856665718026e-03 9.99978122441249617225e-01 -2.03213488793532634199e-04
9.89597124135032057762e+08 9.78028020282810994779e-01 -2.03646445794117086914e-01 -6.94815006093394229615e-04 -6.43986606107427132784e-03 -6.94815006093394229615e-04 -6.43986606107427132784e-03 9.99978028020282794230e-01 -2.03646445794116961363e-04
9.89619690026279211044e+08 9.77932991318705480133e-01 -2.04081219187487117317e-01 -6.97820085795992201515e-04 -6.45361480296516732552e-03 -6.97820085795992201515e-04 -6.45361480296516732552e-03 9.99977932991318652078e-01 -2.04081219187486980924e-04
9.89642255917526483536e+08 9.77837349151653545398e-01 -2.04517820279121437244e-01 -7.00844556678378470191e-04 -6.46742134174997044399e-03 -7.00844556678378470191e-04 -6.46742134174997044399e-03 9.99977837349151688073e-01 -2.04517820279121300200e-04
9.89664821808773636818e+08 9.77741088520377998883e-01 -2.04956260467172080020e-01 -7.03888585116741252734e-04 -6.48128603786989661989e-03 -7.03888585116741252734e-04 -6.48128603786989661989e-03 9.99977741088520333257e-01 -2.04956260467171954036e-04
9.89687387700020909309e+08 9.77644204107306458162e-01 -2.05396551243400338205e-01 -7.06952339267488943236e-04 -6.49520925472634423625e-03 -7.06952339267488943236e-04 -6.49520925472634423625e-03 9.99977644204107285475e-01 -2.05396551243400206799e-04
9.89709953591268062592e+08 9.77546690537848816938e-01 -2.05838704194127419811e-01 -7.10035989090079941097e-04 -6.50919135871096295187e-03 -7.10035989090079941097e-04 -6.50919135871096295187e-03 9.99977546690537844043e-01 -2.05838704194127289273e-04
9.89732519482515335083e+08 9.77448542379665274993e-01 -2.06282731001195707154e-01 -7.13139706370185437814e-04 -6.52323271923604171979e-03 -7.13139706370185437814e-04 -6.52323271923604171979e-03 9.99977448542379687701e-01 -2.06282731001195570979e-04
9.89755085373762488365e+08 9.77349754141925375350e-01 -2.06728643442927823015e-01 -7.16263664743105798668e-04 -6.53733370876484736617e-03 -7.16263664743105798668e-04 -6.53733370876484736617e-03 9.99977349754141875415e-01 -2.06728643442927672528e-04
9.89777651265009760857e+08 9.77250320274551276256e-01 -2.07176453395123555401e-01 -7.19408039717719938189e-04 -6.55149470284314364849e-03 -7.19408039717719938189e-04 -6.55149470284314364849e-03 9.99977250320274513307e-01 -2.07176453395123416623e-04
9.89800217156257033348e+08 9.77150235167453473650e-01 -2.07626172832045069461e-01 -7.22573008700628334131e-04 -6.56571608013034775653e-03 -7.22573008700628334131e-04 -6.56571608013034775653e-03 9.99977150235167422387e-01 -2.07626172832044934152e-04
9.89822783047504186630e+08 9.77049493149756420607e-01 -2.08077813827414720427e-01 -7.25758751020664561772e-04 -6.57999822243108493242e-03 -7.25758751020664561772e-04 -6.57999822243108493242e-03 9.99977049493149805492e-01 -2.08077813827414590973e-04
9.89845348938751459122e+08 9.76948088489004495827e-01 -2.08531388555455471367e-01 -7.28965447953992297381e-04 -6.59434151472808663397e-03 -7.28965447953992297381e-04 -6.59434151472808663397e-03 9.99976948088489026034e-01 -2.08531388555455334107e-04
9.89867914829998612404e+08 9.76846015390368194176e-01 -2.08986909291891481688e-01 -7.32193282749210236360e-04 -6.60874634521383709507e-03 -7.32193282749210236360e-04 -6.60874634521383709507e-03 9.99976846015390385958e-01 -2.08986909291891356137e-04
9.89890480721245884895e+08 9.76743267995825226180e-01 -2.09444388415018889482e-01 -7.35442440653248045296e-04 -6.62321310532442992375e-03 -7.35442440653248045296e-04 -6.62321310532442992375e-03 9.99976743267995793474e-01 -2.09444388415018771955e-04
9.89913046612493038177e+08 9.76639840383340507302e-01 -2.09903838406738901812e-01 -7.38713108937297550580e-04 -6.63774218977223641469e-03 -7.38713108937297550580e-04 -6.63774218977223641469e-03 9.99976639840383318969e-01 -2.09903838406738755011e-04
9.89935612503740310669e+08 9.76535726566025386042e-01 -2.10365271853640928290e-01 -7.42005476923402471426e-04 -6.65233399658016460315e-03 -7.42005476923402471426e-04 -6.65233399658016460315e-03 9.99976535726565973761e-01 -2.10365271853640790813e-04
9.89958178394987463951e+08 9.76430920491290876839e-01 -2.10828701448067756807e-01 -7.45319736011231166219e-04 -6.66698892711533371708e-03 -7.45319736011231166219e-04 -6.66698892711533371708e-03 9.99976430920491266008e-01 -2.10828701448067634509e-04
9.89980744286234736443e+08 9.76325416039980020777e-01 -2.11294139989229690091e-01 -7.48656079705516813716e-04 -6.68170738612431074771e-03 -7.48656079705516813716e-04 -6.68170738612431074771e-03 9.99976325416039979466e-01 -2.11294139989229545458e-04
9.90003310177481889725e+08 9.76219207025496693575e-01 -2.11761600384289178090e-01 -7.52014703643607749194e-04 -6.69648978176741200424e-03 -7.52014703643607749194e-04 -6.69648978176741200424e-03 9.99976219207025507352e-01 -2.11761600384289058610e-04
9.90025876068729162216e+08 9.76112287192911765032e-01 -2.12231095649499601485e-01 -7.55395805623732723502e-04 -6.71133652565470903428e-03 -7.55395805623732723502e-04 -6.71133652565470903428e-03 9.99976112287192964168e-01 -2.12231095649499450998e-04
9.90048441959976434708e+08 9.76004650218060709754e-01 -2.12702638911334090954e-01 -7.58799585633529189571e-04 -6.72624803288173010035e-03 -7.58799585633529189571e-04 -6.72624803288173010035e-03 9.99976004650218075476e-01 -2.12702638911333965404e-04
9.90071007851223587990e+08 9.75896289706629005423e-01 -2.13176243407623616788e-01 -7.62226245878977947887e-04 -6.74122472206544701839e-03 -7.62226245878977947887e-04 -6.74122472206544701839e-03 9.99975896289706622788e-01 -2.13176243407623463699e-04
9.90093573742470860481e+08 9.75787199193215548654e-01 -2.13651922488740930728e-01 -7.65675990814013249924e-04 -6.75626701538171395983e-03 -7.65675990814013249924e-04 -6.75626701538171395983e-03 9.99975787199193222321e-01 -2.13651922488740782192e-04
9.90116139633718013763e+08 9.75677372140392962230e-01 -2.14129689618751034574e-01 -7.69149027170243381780e-04 -6.77137533860165154176e-03 -7.69149027170243381780e-04 -6.77137533860165154176e-03 9.99975677372140436816e-01 -2.14129689618750907506e-04
9.90138705524965286255e+08 9.75566801937739924711e-01 -2.14609558376632370003e-01 -7.72645563987541753731e-04 -6.78655012113026090415e-03 -7.72645563987541753731e-04 -6.78655012113026090415e-03 9.99975566801937776340e-01 -2.14609558376632249006e-04
9.90161271416212439537e+08 9.75455481900874277201e-01 -2.15091542457447687520e-01 -7.76165812644637230847e-04 -6.80179179604345138244e-03 -7.76165812644637230847e-04 -6.80179179604345138244e-03 9.99975455481900921129e-01 -2.15091542457447550043e-04
9.90183837307459712029e+08 9.75343405270453822631e-01 -2.15575655673599791973e-01 -7.79709986890693364410e-04 -6.81710080012775179736e-03 -7.79709986890693364410e-04 -6.81710080012775179736e-03 9.99975343405270500341e-01 -2.15575655673599665121e-04
9.90206403198706865311e+08 9.75230565211176680940e-01 -2.16061911956041907690e-01 -7.83278302876934569288e-04 -6.83247757391858365900e-03 -7.83278302876934569288e-04 -6.83247757391858365900e-03 9.99975230565211203881e-01 -2.16061911956041773466e-04
9.90228969089954137802e+08 9.75116954810756331185e-01 -2.16550325355542527817e-01 -7.86870979189054770009e-04 -6.84792256174026042065e-03 -7.86870979189054770009e-04 -6.84792256174026042065e-03 9.99975116954810783199e-01 -2.16550325355542371908e-04
9.90251534981201410294e+08 9.75002567078886217544e-01 -2.17040910043941687180e-01 -7.90488236879957162188e-04 -6.86343621174571351384e-03 -7.90488236879957162188e-04 -6.86343621174571351384e-03 9.99975002567078941063e-01 -2.17040910043941539945e-04
9.90274100872448563576e+08 9.74887394946183927225e-01 -2.17533680315441541042e-01 -7.94130299503141676327e-04 -6.87901897595730518753e-03 -7.94130299503141676327e-04 -6.87901897595730518753e-03 9.99974887394946221342e-01 -2.17533680315441411372e-04
9.90296666763695836067e+08 9.74771431263119714217e-01 -2.18028650587908712222e-01 -7.97797393146587379906e-04 -6.89467131030800910868e-03 -7.97797393146587379906e-04 -6.89467131030800910868e-03 9.99974771431263120824e-01 -2.18028650587908572143e-04
9.90319232654942989349e+08 9.74654668798933809803e-01 -2.18525835404170337695e-01 -8.01489746467003074532e-04 -6.91039367468239927594e-03 -8.01489746467003074532e-04 -6.91039367468239927594e-03 9.99974654668798978996e-01 -2.18525835404170196965e-04
9.90341798546190261841e+08 9.74537100240524645223e-01 -2.19025249433372121155e-01 -8.05207590724955446330e-04 -6.92618653295959396665e-03 -8.05207590724955446330e-04 -6.92618653295959396665e-03 9.99974537100240534748e-01 -2.19025249433371985413e-04
9.90364364437437415123e+08 9.74418718191334742862e-01 -2.19526907472297666546e-01 -8.08951159820140114180e-04 -6.94205035305497583642e-03 -8.08951159820140114180e-04 -6.94205035305497583642e-03 9.99974418718191371269e-01 -2.19526907472297527551e-04
9.90386930328684687614e+08 9.74299515170204299963e-01 -2.20030824446755535195e-01 -8.12720690327593223330e-04 -6.95798560696405353487e-03 -8.12720690327593223330e-04 -6.95798560696405353487e-03 9.99974299515170250707e-01 -2.20030824446755405091e-04
9.90409496219931840897e+08 9.74179483610217333833e-01 -2.20537015412948039783e-01 -8.16516421534212253480e-04 -6.97399277080574999527e-03 -8.16516421534212253480e-04 -6.97399277080574999527e-03 9.99974179483610225994e-01 -2.20537015412947915317e-04
9.90432062111179113388e+08 9.74058615857523513171e-01 -2.21045495558875870756e-01 -8.20338595475995652900e-04 -6.99007232486681655964e-03 -8.20338595475995652900e-04 -6.99007232486681655964e-03 9.99974058615857530619e-01 -2.21045495558875736315e-04
9.90454628002426385880e+08 9.73936904170143891157e-01 -2.21556280205751854329e-01 -8.24187456975816116860e-04 -7.00622475364654634378e-03 -8.24187456975816116860e-04 -7.00622475364654634378e-03 9.99973936904170135342e-01 -2.21556280205751726610e-04
9.90477193893673539162e+08 9.73814340716756765559e-01 -2.22069384809434611228e-01 -8.28063253681808933947e-04 -7.02245054590210082690e-03 -8.28063253681808933947e-04 -7.02245054590210082690e-03 9.99973814340716748994e-01 -2.22069384809434457271e-04
