! File generated for n1 = 4, n2 = 2
! b1 = 10.000000
! b2 = 4.641589
! Q0 = 10000.000000
! f0 = 1000000000.000000
! n = 1001
! rel_span = 10.000000
# Hz S RI R 50
9.92179205583193659782e+08 9.87438402316112351365e-01 -1.26111057125175396454e-01 -8.55811687672948170902e-03 -8.59184630398975024423e-02 -8.55811687672948170902e-03 -8.59184630398975024423e-02 9.94169422845813111067e-01 -5.85355674547317350598e-02
9.92194847172027230263e+08 9.87388304234026348283e-01 -1.26359784471286568097e-01 -8.59224830272969919420e-03 -8.60879190081608736129e-02 -8.59224830272969919420e-03 -8.60879190081608736129e-02 9.94146169375973554061e-01 -5.86510164619641061190e-02
9.92210488760860919952e+08 9.87337907658167646119e-01 -1.26609480775302596367e-01 -8.62658309016990990092e-03 -8.62580351197600597724e-02 -8.62658309016990990092e-03 -8.62580351197600597724e-02 9.94122777357597686709e-01 -5.87669152196156202583e-02
9.92226130349694490433e+08 9.87287210222184130615e-01 -1.26860151648216706866e-01 -8.66112285122705959084e-03 -8.64288151974202945027e-02 -8.66112285122705959084e-03 -8.64288151974202945027e-02 9.94099245692322330825e-01 -5.88832663320786320327e-02
9.92241771938528060913e+08 9.87236209536313746860e-01 -1.27111802743922752690e-01 -8.69586921402709829565e-03 -8.66002630930945704879e-02 -8.69586921402709829565e-03 -8.66002630930945704879e-02 9.94075573270918000368e-01 -5.90000724236581924886e-02
9.92257413527361750603e+08 9.87184903187109608069e-01 -1.27364439759607511737e-01 -8.73082382283220208297e-03 -8.67723826882310783626e-02 -8.73082382283220208297e-03 -8.67723826882310783626e-02 9.94051758973162113975e-01 -5.91173361387541673739e-02
9.92273055116195321083e+08 9.87133288737158776094e-01 -1.27618068436161274937e-01 -8.76598833823245132679e-03 -8.69451778940528163808e-02 -8.76598833823245132679e-03 -8.69451778940528163808e-02 9.94027801667707655575e-01 -5.92350601420517583473e-02
9.92288696705028891563e+08 9.87081363724795379788e-01 -1.27872694558601840420e-01 -8.80136443734142598361e-03 -8.71186526518465398361e-02 -8.80136443734142598361e-03 -8.71186526518465398361e-02 9.94003700211950502741e-01 -5.93532471187183732764e-02
9.92304338293862581253e+08 9.87029125663811512936e-01 -1.28128323956490153268e-01 -8.83695381399266823019e-03 -8.72928109332459234437e-02 -8.83695381399266823019e-03 -8.72928109332459234437e-02 9.93979453451895311744e-01 -5.94718997745965344270e-02
9.92319979882696151733e+08 9.86976572043168576265e-01 -1.28384962504337007960e-01 -8.87275817893695868677e-03 -8.74676567405085342299e-02 -8.87275817893695868677e-03 -8.74676567405085342299e-02 9.93955060222021069549e-01 -5.95910208363925816832e-02
9.92335621471529841423e+08 9.86923700326693187357e-01 -1.28642616122063013773e-01 -8.90877926004916484426e-03 -8.76431941068293446362e-02 -8.90877926004916484426e-03 -8.76431941068293446362e-02 9.93930519345140428555e-01 -5.97106130518902794568e-02
9.92351263060363411903e+08 9.86870507952781972349e-01 -1.28901290775401161648e-01 -8.94501880252919663594e-03 -8.78194270966149437285e-02 -8.94501880252919663594e-03 -8.78194270966149437285e-02 9.93905829632262483031e-01 -5.98306791901375839560e-02
9.92366904649196982384e+08 9.86816992334092146777e-01 -1.29160992476357816550e-01 -8.98147856911332004293e-03 -8.79963598057975776578e-02 -8.98147856911332004293e-03 -8.79963598057975776578e-02 9.93880989882448995232e-01 -5.99512220416606525508e-02
9.92382546238030672073e+08 9.86763150857233761748e-01 -1.29421727283642346018e-01 -9.01816034028329535643e-03 -8.81739963621278877159e-02 -9.01816034028329535643e-03 -8.81739963621278877159e-02 9.93855998882671953787e-01 -6.00722444186632537066e-02
9.92398187826864242554e+08 9.86708980882454844696e-01 -1.29683501303121589965e-01 -9.05506591448125390531e-03 -8.83523409254845099037e-02 -9.05506591448125390531e-03 -8.83523409254845099037e-02 9.93830855407666802215e-01 -6.01937491552377301751e-02
9.92413829415697813034e+08 9.86654479743323653551e-01 -1.29946320688267724641e-01 -9.09219710832593827621e-03 -8.85313976881792752405e-02 -9.09219710832593827621e-03 -8.85313976881792752405e-02 9.93805558219785778462e-01 -6.03157391075728605001e-02
9.92429471004531502724e+08 9.86599644746403492412e-01 -1.30210191640628830667e-01 -9.12955575683445548496e-03 -8.87111708752776756404e-02 -9.12955575683445548496e-03 -8.87111708752776756404e-02 9.93780106068846258438e-01 -6.04382171541722745811e-02
9.92445112593365073204e+08 9.86544473170928637451e-01 -1.30475120410274897376e-01 -9.16714371364293900690e-03 -8.88916647449028152206e-02 -9.16714371364293900690e-03 -8.88916647449028152206e-02 9.93754497691980542839e-01 -6.05611861960614686340e-02
9.92460754182198643684e+08 9.86488962268469160577e-01 -1.30741113296280797584e-01 -9.20496285123484705992e-03 -8.90728835885644804060e-02 -9.20496285123484705992e-03 -8.90728835885644804060e-02 9.93728731813480536950e-01 -6.06846491570120077919e-02
9.92476395771032333374e+08 9.86433109262594975952e-01 -1.31008176647196855624e-01 -9.24301506116992875606e-03 -8.92548317314796335609e-02 -9.24301506116992875606e-03 -8.92548317314796335609e-02 9.93702807144641653281e-01 -6.08086089837599347296e-02
9.92492037359865903854e+08 9.86376911348535778679e-01 -1.31276316861522246437e-01 -9.28130225431609071074e-03 -8.94375135328950160440e-02 -9.28130225431609071074e-03 -8.94375135328950160440e-02 9.93676722383604715816e-01 -6.09330686462254550451e-02
9.92507678948699474335e+08 9.86320365692831213522e-01 -1.31545540388203235915e-01 -9.31982636108731263280e-03 -8.96209333864265850211e-02 -9.31982636108731263280e-03 -8.96209333864265850211e-02 9.93650476215193867446e-01 -6.10580311377442799814e-02
9.92523320537533164024e+08 9.86263469432982375906e-01 -1.31815853727111881311e-01 -9.35858933168136689074e-03 -8.98050957203856276001e-02 -9.35858933168136689074e-03 -8.98050957203856276001e-02 9.93624067310755032523e-01 -6.11834994752897820547e-02
9.92538962126366734505e+08 9.86206219677094431120e-01 -1.32087263429547407956e-01 -9.39759313632333032063e-03 -8.99900049981203348226e-02 -9.39759313632333032063e-03 -8.99900049981203348226e-02 9.93597494327989383400e-01 -6.13094766997056769831e-02
9.92554603715200424194e+08 9.86148613503513793432e-01 -1.32359776098742970563e-01 -9.43683976551259323662e-03 -9.01756657183610810247e-02 -9.43683976551259323662e-03 -9.01756657183610810247e-02 9.93570755910785474718e-01 -6.14359658759412868845e-02
9.92570245304033994675e+08 9.86090647960464417032e-01 -1.32633398390360535135e-01 -9.47633123027079304901e-03 -9.03620824155575985692e-02 -9.47633123027079304901e-03 -9.03620824155575985692e-02 9.93543850689050267455e-01 -6.15629700932812454206e-02
9.92585886892867565155e+08 9.86032320065672540643e-01 -1.32908137013018928796e-01 -9.51606956239730260305e-03 -9.05492596602386762283e-02 -9.51606956239730260305e-03 -9.05492596602386762283e-02 9.93516777278534823914e-01 -6.16904924655905864683e-02
9.92601528481701254845e+08 9.85973626805989988853e-01 -1.33183998728813146606e-01 -9.55605681472621211470e-03 -9.07372020593659872612e-02 -9.55605681472621211470e-03 -9.07372020593659872612e-02 9.93489534280659780663e-01 -6.18185361315557527218e-02
9.92617170070534825325e+08 9.85914565137014697882e-01 -1.33460990353821501442e-01 -9.59629506138441959462e-03 -9.09259142566796463303e-02 -9.59629506138441959462e-03 -9.09259142566796463303e-02 9.93462120282338712052e-01 -6.19471042549200531790e-02
9.92632811659368395805e+08 9.85855131982697696635e-01 -1.33739118758661956754e-01 -9.63678639805968899334e-03 -9.11154009330772118869e-02 -9.63678639805968899334e-03 -9.11154009330772118869e-02 9.93434533855796275681e-01 -6.20762000247418593846e-02
9.92648453248202085495e+08 9.85795324234951531039e-01 -1.34018390869019010658e-01 -9.67753294226737434403e-03 -9.13056668069725518855e-02 -9.67753294226737434403e-03 -9.13056668069725518855e-02 9.93406773558386135825e-01 -6.22058266556391389890e-02
9.92664094837035655975e+08 9.85735138753251249888e-01 -1.34298813666184790883e-01 -9.71853683362220582831e-03 -9.14967166346646321173e-02 -9.71853683362220582831e-03 -9.14967166346646321173e-02 9.93378837932405556188e-01 -6.23359873880406437086e-02
9.92679736425869226456e+08 9.85674572364227730148e-01 -1.34580394187616025903e-01 -9.75980023411539970857e-03 -9.16885552107169349290e-02 -9.75980023411539970857e-03 -9.16885552107169349290e-02 9.93350725504907106078e-01 -6.24666854884444594509e-02
9.92695378014702916145e+08 9.85613621861256561374e-01 -1.34863139527490294434e-01 -9.80132532839471902475e-03 -9.18811873683363783405e-02 -9.80132532839471902475e-03 -9.18811873683363783405e-02 9.93322434787507813070e-01 -6.25979242496761123515e-02
9.92711019603536486626e+08 9.85552284004041045939e-01 -1.35147056837268991769e-01 -9.84311432404869762758e-03 -9.20746179797568842229e-02 -9.84311432404869762758e-03 -9.20746179797568842229e-02 9.93293964276194762952e-01 -6.27297069911499222128e-02
9.92726661192370057106e+08 9.85490555518189648154e-01 -1.35432153326261600634e-01 -9.88516945189417926831e-03 -9.22688519566238068981e-02 -9.88516945189417926831e-03 -9.22688519566238068981e-02 9.93265312451130477633e-01 -6.28620370591309457486e-02
9.92742302781203746796e+08 9.85428433094782896262e-01 -1.35718436262222019728e-01 -9.92749296627188151931e-03 -9.24638942504002886436e-02 -9.92749296627188151931e-03 -9.24638942504002886436e-02 9.93236477776450299437e-01 -6.29949178270117343681e-02
9.92757944370037317276e+08 9.85365913389943171019e-01 -1.36005912971903258901e-01 -9.97008714533902107302e-03 -9.26597498527449853212e-02 -9.97008714533902107302e-03 -9.26597498527449853212e-02 9.93207458700063772206e-01 -6.31283526955697532612e-02
9.92773585958870887756e+08 9.85302993024386619680e-01 -1.36294590841676638293e-01 -1.00129542913749043642e-02 -9.28564237959341315376e-02 -1.00129542913749043642e-02 -9.28564237959341315376e-02 9.93178253653446363458e-01 -6.32623450932548736514e-02
9.92789227547704577446e+08 9.85239668582977512479e-01 -1.36584477318114377864e-01 -1.00560967310844434630e-02 -9.30539211532583204756e-02 -1.00560967310844434630e-02 -9.30539211532583204756e-02 9.93148861051432518821e-01 -6.33968984764597537351e-02
9.92804869136538147926e+08 9.85175936614273717318e-01 -1.36875579908590366829e-01 -1.00995168159078562570e-02 -9.32522470394318431230e-02 -1.00995168159078562570e-02 -9.32522470394318431230e-02 9.93119279292004497606e-01 -6.35320163297986573170e-02
9.92820510725371837616e+08 9.85111793630059073834e-01 -1.37167906181914822650e-01 -1.01432169223389379020e-02 -9.34514066110250646302e-02 -1.01432169223389379020e-02 -9.34514066110250646302e-02 9.93089506756075990346e-01 -6.36677021664021070002e-02
9.92836152314205408096e+08 9.85047236104882539820e-01 -1.37461463768920932882e-01 -1.01871994522397188443e-02 -9.36514050668641184760e-02 -1.01871994522397188443e-02 -9.36514050668641184760e-02 9.93059541807277512682e-01 -6.38039595281890831169e-02
9.92851793903038978577e+08 9.84982260475575244207e-01 -1.37756260363118998580e-01 -1.02314668331688948116e-02 -9.38522476484765638682e-02 -1.02314668331688948116e-02 -9.38522476484765638682e-02 9.93029382791732473379e-01 -6.39407919861707668696e-02
9.92867435491872668266e+08 9.84916863140769427432e-01 -1.38052303721321739660e-01 -1.02760215187096305700e-02 -9.40539396405173644400e-02 -1.02760215187096305700e-02 -9.40539396405173644400e-02 9.92999028037834130522e-01 -6.40782031407406832413e-02
9.92883077080706238747e+08 9.84851040460410720456e-01 -1.38349601664276483648e-01 -1.03208659888021532514e-02 -9.42564863711996825391e-02 -1.03208659888021532514e-02 -9.42564863711996825391e-02 9.92968475856018994996e-01 -6.42161966219681606960e-02
9.92898718669539809227e+08 9.84784788755256434989e-01 -1.38648162077331271735e-01 -1.03660027500853055282e-02 -9.44598932127485857446e-02 -1.03660027500853055282e-02 -9.44598932127485857446e-02 9.92937724538533905694e-01 -6.43547760899075560470e-02
9.92914360258373498917e+08 9.84718104306372743473e-01 -1.38947992911082923717e-01 -1.04114343362392645226e-02 -9.46641655818426241975e-02 -1.04114343362392645226e-02 -9.46641655818426241975e-02 9.92906772359202438594e-01 -6.44939452348989999964e-02
9.92930001847207069397e+08 9.84650983354623976496e-01 -1.39249102182032319375e-01 -1.04571633083333278419e-02 -9.48693089400602651562e-02 -1.04571633083333278419e-02 -9.48693089400602651562e-02 9.92875617573188540277e-01 -6.46337077778725982435e-02
9.92945643436040639877e+08 9.84583422100146710143e-01 -1.39551497973283006315e-01 -1.05031922551843057145e-02 -9.50753287943558733630e-02 -1.05031922551843057145e-02 -9.50753287943558733630e-02 9.92844258416751945795e-01 -6.47740674706726721199e-02
9.92961285024874329567e+08 9.84515416701825962775e-01 -1.39855188435202282271e-01 -1.05495237937133414657e-02 -9.52822306975100313808e-02 -1.05495237937133414657e-02 -9.52822306975100313808e-02 9.92812693107004817783e-01 -6.49150280963645964771e-02
9.92976926613707900047e+08 9.84446963276759401396e-01 -1.40160181786109727664e-01 -1.05961605693110343801e-02 -9.54900202485986643319e-02 -1.05961605693110343801e-02 -9.54900202485986643319e-02 9.92780919841663722636e-01 -6.50565934695544051403e-02
9.92992568202541470528e+08 9.84378057899710556811e-01 -1.40466486312985028295e-01 -1.06431052562098379943e-02 -9.56987030934753624134e-02 -1.06431052562098379943e-02 -9.56987030934753624134e-02 9.92748936798795167391e-01 -6.51987674367173475343e-02
9.93008209791375160217e+08 9.84308696602555155408e-01 -1.40774110372180349948e-01 -1.06903605578614179644e-02 -9.59082849252565622367e-02 -1.06903605578614179644e-02 -9.59082849252565622367e-02 9.92716742136559027188e-01 -6.53415538765285131007e-02
9.93023851380208730698e+08 9.84238875373726451734e-01 -1.41083062390105373751e-01 -1.07379292073142822844e-02 -9.61187714847883262204e-02 -1.07379292073142822844e-02 -9.61187714847883262204e-02 9.92684333992950973524e-01 -6.54849567001807991717e-02
9.93039492969042420387e+08 9.84168590157637468430e-01 -1.41393350863989991639e-01 -1.07858139676077751518e-02 -9.63301685611660102326e-02 -1.07858139676077751518e-02 -9.63301685611660102326e-02 9.92651710485534244377e-01 -6.56289798517389610932e-02
9.93055134557875990868e+08 9.84097836854110785687e-01 -1.41704984362578390034e-01 -1.08340176321600964449e-02 -9.65424819922070798217e-02 -1.08340176321600964449e-02 -9.65424819922070798217e-02 9.92618869711175189074e-01 -6.57736273084617295570e-02
9.93070776146709561348e+08 9.84026611317784238864e-01 -1.42017971526906178203e-01 -1.08825430251737829274e-02 -9.67557176649805339430e-02 -1.08825430251737829274e-02 -9.67557176649805339430e-02 9.92585809745767044809e-01 -6.59189030811625220618e-02
9.93086417735543251038e+08 9.83954909357520279833e-01 -1.42332321071023309988e-01 -1.09313930020375430635e-02 -9.69698815162995247929e-02 -1.09313930020375430635e-02 -9.69698815162995247929e-02 9.92552528643956155641e-01 -6.60648112145450494559e-02
9.93102059324376821518e+08 9.83882726735799573170e-01 -1.42648041782761053620e-01 -1.09805704497396815211e-02 -9.71849795332437871309e-02 -1.09805704497396815211e-02 -9.71849795332437871309e-02 9.92519024438860197890e-01 -6.62113557875592811941e-02
9.93117700913210391998e+08 9.83810059168104378280e-01 -1.42965142524509480904e-01 -1.10300782872881104196e-02 -9.74010177536893811956e-02 -1.10300782872881104196e-02 -9.74010177536893811956e-02 9.92485295141782186690e-01 -6.63585409137622539433e-02
9.93133342502044081688e+08 9.83736902322296158374e-01 -1.43283632233990071425e-01 -1.10799194661345742213e-02 -9.76180022668350771964e-02 -1.10799194661345742213e-02 -9.76180022668350771964e-02 9.92451338741921595954e-01 -6.65063707416768262748e-02
9.93148984090877652168e+08 9.83663251817983752545e-01 -1.43603519925033312754e-01 -1.11300969706047050284e-02 -9.78359392137321121075e-02 -1.11300969706047050284e-02 -9.78359392137321121075e-02 9.92417153206080926431e-01 -6.66548494551524733920e-02
9.93164625679711222649e+08 9.83589103225877670056e-01 -1.43924814688389440809e-01 -1.11806138183384324442e-02 -9.80548347878364978669e-02 -1.11806138183384324442e-02 -9.80548347878364978669e-02 9.92382736478366167532e-01 -6.68039812737416804911e-02
9.93180267268544912338e+08 9.83514452067135724889e-01 -1.44247525692536654462e-01 -1.12314730607352922936e-02 -9.82746952355597336304e-02 -1.12314730607352922936e-02 -9.82746952355597336304e-02 9.92348086479882929289e-01 -6.69537704530750454879e-02
9.93195908857378482819e+08 9.83439293812703563269e-01 -1.44571662184483834546e-01 -1.12826777834041866444e-02 -9.84955268568156044884e-02 -1.12826777834041866444e-02 -9.84955268568156044884e-02 9.92313201108430242847e-01 -6.71042212852338976203e-02
9.93211550446212053299e+08 9.83363623882637427620e-01 -1.44897233490609844697e-01 -1.13342311066243726925e-02 -9.87173360055920989797e-02 -1.13342311066243726925e-02 -9.87173360055920989797e-02 9.92278078238186811433e-01 -6.72553380991398191968e-02
9.93227192035045742989e+08 9.83287437645419259979e-01 -1.45224249017506051862e-01 -1.13861361858125023638e-02 -9.89401290905252972507e-02 -1.13861361858125023638e-02 -9.89401290905252972507e-02 9.92242715719392043283e-01 -6.74071252609457632898e-02
9.93242833623879313469e+08 9.83210730417266587366e-01 -1.45552718252799917487e-01 -1.14383962119923351247e-02 -9.91639125754605332830e-02 -1.14383962119923351247e-02 -9.91639125754605332830e-02 9.92207111378026973547e-01 -6.75595871744182896457e-02
9.93258475212712883949e+08 9.83133497461421201891e-01 -1.45882650766038374224e-01 -1.14910144122796677862e-02 -9.93886929800542606728e-02 -1.14910144122796677862e-02 -9.93886929800542606728e-02 9.92171263015483084757e-01 -6.77127282813476394363e-02
9.93274116801546573639e+08 9.83055733987432733834e-01 -1.46214056209554299492e-01 -1.15439940503704353836e-02 -9.96144768803643027022e-02 -1.15439940503704353836e-02 -9.96144768803643027022e-02 9.92135168408230350146e-01 -6.78665530619498441611e-02
9.93289758390380144119e+08 9.82977435150434120104e-01 -1.46546944319328326101e-01 -1.15973384270340613283e-02 -9.98412709094370492968e-02 -1.15973384270340613283e-02 -9.98412709094370492968e-02 9.92098825307480614022e-01 -6.80210660352667945139e-02
9.93305399979213833809e+08 9.82898596050396866630e-01 -1.46881324915902250483e-01 -1.16510508806210930088e-02 -1.00069081757929709275e-01 -1.16510508806210930088e-02 -1.00069081757929709275e-01 9.92062231438842090370e-01 -6.81762717595902206780e-02
9.93321041568047404289e+08 9.82819211731384978492e-01 -1.47217207905257607692e-01 -1.17051347875714861768e-02 -1.00297916174708998116e-01 -1.17051347875714861768e-02 -1.00297916174708998116e-01 9.92025384501973084284e-01 -6.83321748328694494878e-02
9.93336683156880974770e+08 9.82739277180786019450e-01 -1.47554603279751450629e-01 -1.17595935629382936788e-02 -1.00527780967488489239e-01 -1.17595935629382936788e-02 -1.00527780967488489239e-01 9.91988282170225055268e-01 -6.84887798931457653095e-02
9.93352324745714664459e+08 9.82658787328536953432e-01 -1.47893521119035226130e-01 -1.18144306609151723136e-02 -1.00758683003454793670e-01 -1.18144306609151723136e-02 -1.00758683003454793670e-01 9.91950922090283238042e-01 -6.86460916189789438491e-02
9.93367966334548234940e+08 9.82577737046340216054e-01 -1.48233971590976121302e-01 -1.18696495753707158272e-02 -1.00990629209895169116e-01 -1.18696495753707158272e-02 -1.00990629209895169116e-01 9.91913301881802711435e-01 -6.88041147298748545502e-02
9.93383607923381805420e+08 9.82496121146857359641e-01 -1.48575964952627759263e-01 -1.19252538403974671366e-02 -1.01223626574858893701e-01 -1.19252538403974671366e-02 -1.01223626574858893701e-01 9.91875419137034253225e-01 -6.89628539867360446092e-02
9.93399249512215495110e+08 9.82413934382899145525e-01 -1.48919511551176025899e-01 -1.19812470308637234601e-02 -1.01457682147801667161e-01 -1.19812470308637234601e-02 -1.01457682147801667161e-01 9.91837271420448307602e-01 -6.91223141923007766696e-02
