! File generated for n1 = 13, n2 = 3
! b1 = 0.010000
! b2 = 0.002154
! Q0 = 10000.000000
! f0 = 1000000000.000000
! n = 1001
! rel_span = 10.000000
# Hz S RI R 50
9.99493922782655000687e+08 9.99804456157038168307e-01 -1.95593348157245593491e-03 -9.07634117973407590673e-05 -9.07863900735607809618e-04 -9.07634117973407590673e-05 -9.07863900735607809618e-04 9.99957871356130123530e-01 -4.21393094409453720234e-04
9.99494934937089681625e+08 9.99803679226537123093e-01 -1.95977635145468424491e-03 -9.11240309911534270872e-05 -9.09647602929045421757e-04 -9.11240309911534270872e-05 -9.09647602929045421757e-04 9.99957703971527722686e-01 -4.22221015627808856415e-04
9.99495947091524362564e+08 9.99802897672901869086e-01 -1.96363419041662053133e-03 -9.14867960537983578072e-05 -9.11438253153805410557e-04 -9.14867960537983578072e-05 -9.11438253153805410557e-04 9.99957535590901391842e-01 -4.23052161836624059012e-04
9.99496959245959043503e+08 9.99802111459506592794e-01 -1.96750708512976072925e-03 -9.18517239854364331113e-05 -9.13235891639232479598e-04 -9.18517239854364331113e-05 -9.13235891639232479598e-04 9.99957366206360109828e-01 -4.23886551708707094190e-04
9.99497971400393724442e+08 9.99801320549363214951e-01 -1.97139512292912252867e-03 -9.22188319544238807720e-05 -9.15040558922650560519e-04 -9.22188319544238807720e-05 -9.15040558922650560519e-04 9.99957195809935139863e-01 -4.24724204059817079821e-04
9.99498983554828405380e+08 9.99800524905117282692e-01 -1.97529839181780769719e-03 -9.25881372991440475739e-05 -9.16852295851481560902e-04 -9.25881372991440475739e-05 -9.16852295851481560902e-04 9.99957024393578697286e-01 -4.25565137849647640023e-04
9.99499995709263086319e+08 9.99799724489043639686e-01 -1.97921698047417863112e-03 -9.29596575301060623533e-05 -9.18671143586574840724e-04 -9.29596575301060623533e-05 -9.18671143586574840724e-04 9.99956851949163172399e-01 -4.26409372183372760608e-04
9.99501007863697886467e+08 9.99798919263041763195e-01 -1.98315097825848022858e-03 -9.33334103320129787476e-05 -9.20497143605282009717e-04 -9.33334103320129787476e-05 -9.20497143605282009717e-04 9.99956678468480020250e-01 -4.27256926313073544937e-04
9.99502020018132567406e+08 9.99798109188631434208e-01 -1.98710047521801630444e-03 -9.37094135657140031798e-05 -9.22330337703859085702e-04 -9.37094135657140031798e-05 -9.22330337703859085702e-04 9.99956503943238872445e-01 -4.28107819638853586905e-04
9.99503032172567248344e+08 9.99797294226948629614e-01 -1.99106556209454558376e-03 -9.40876852703887421071e-05 -9.24170768000899187089e-04 -9.40876852703887421071e-05 -9.24170768000899187089e-04 9.99956328365066871022e-01 -4.28962071710431989188e-04
9.99504044327001929283e+08 9.99796474338739971088e-01 -1.99504633033221459235e-03 -9.44682436658065167187e-05 -9.26018476941015784495e-04 -9.44682436658065167187e-05 -9.26018476941015784495e-04 9.99956151725507003114e-01 -4.29819702228853150073e-04
9.99505056481436610222e+08 9.99795649484359061354e-01 -1.99904287208141828378e-03 -9.48511071542186209871e-05 -9.27873507296632935373e-04 -9.48511071542186209871e-05 -9.27873507296632935373e-04 9.99955974016017767880e-01 -4.30680731047317696004e-04
9.99506068635871291161e+08 9.99794819623760822047e-01 -2.00305528020862594688e-03 -9.52362943228439635685e-05 -9.29735902172547389911e-04 -9.52362943228439635685e-05 -9.29735902172547389911e-04 9.99955795227971622197e-01 -4.31545178173299874211e-04
9.99507080790305972099e+08 9.99793984716497718956e-01 -2.00708364829971404319e-03 -9.56238239457561623423e-05 -9.31605705007474988594e-04 -9.56238239457561623423e-05 -9.31605705007474988594e-04 9.99955615352654647587e-01 -4.32413063769265619812e-04
9.99508092944740653038e+08 9.99793144721714210910e-01 -2.01112807067084769369e-03 -9.60137149865184673977e-05 -9.33482959579101851701e-04 -9.60137149865184673977e-05 -9.33482959579101851701e-04 9.99955434381264440802e-01 -4.33284408155016817748e-04
9.99509105099175333977e+08 9.99792299598141864792e-01 -2.01518864237239768433e-03 -9.64059866001740851721e-05 -9.35367710005901502150e-04 -9.64059866001740851721e-05 -9.35367710005901502150e-04 9.99955252304910335859e-01 -4.34159231808534866286e-04
9.99510117253610014915e+08 9.99791449304094581585e-01 -2.01926545919734346662e-03 -9.68006581356921521047e-05 -9.37260000751037017537e-04 -9.68006581356921521047e-05 -9.37260000751037017537e-04 9.99955069114611072578e-01 -4.35037555367791836745e-04
9.99511129408044695854e+08 9.99790593797463489345e-01 -2.02335861768798740482e-03 -9.71977491382755402760e-05 -9.39159876625475075612e-04 -9.71977491382755402760e-05 -9.39159876625475075612e-04 9.99954884801294796581e-01 -4.35919399632195986045e-04
9.99512141562479376793e+08 9.99789733035711725151e-01 -2.02746821514409670054e-03 -9.75972793518332042790e-05 -9.41067382791766892519e-04 -9.75972793518332042790e-05 -9.41067382791766892519e-04 9.99954699355796949867e-01 -4.36804785564346808972e-04
9.99513153716914057732e+08 9.99788866975869106035e-01 -2.03159434962888081622e-03 -9.79992687212675089902e-05 -9.42982564766822696153e-04 -9.79992687212675089902e-05 -9.42982564766822696153e-04 9.99954512768860159788e-01 -4.37693734291322365630e-04
9.99514165871348857880e+08 9.99787995574527355025e-01 -2.03573711997752631458e-03 -9.84037373950361993029e-05 -9.44905468425872316698e-04 -9.84037373950361993029e-05 -9.44905468425872316698e-04 9.99954325031132129631e-01 -4.38586267106518088322e-04
9.99515178025783538818e+08 9.99787118787834105937e-01 -2.03989662580332910616e-03 -9.88107057275068129077e-05 -9.46836140005311651009e-04 -9.88107057275068129077e-05 -9.46836140005311651009e-04 9.99954136133165416567e-01 -4.39482405470968044529e-04
9.99516190180218219757e+08 9.99786236571487796354e-01 -2.04407296750754984699e-03 -9.92201942817021105862e-05 -9.48774626107277995780e-04 -9.92201942817021105862e-05 -9.48774626107277995780e-04 9.99953946065415322231e-01 -4.40382171015468075817e-04
9.99517202334652900696e+08 9.99785348880732116505e-01 -2.04826624628480719395e-03 -9.96322238316363014993e-05 -9.50720973702152169320e-04 -9.96322238316363014993e-05 -9.50720973702152169320e-04 9.99953754818239559654e-01 -4.41285585541737791510e-04
9.99518214489087581635e+08 9.99784455670350236112e-01 -2.05247656413242883164e-03 -1.00046815365067181982e-04 -9.52675230132900307568e-04 -1.00046815365067181982e-04 -9.52675230132900307568e-04 9.99953562381896254863e-01 -4.42192671024435450013e-04
9.99519226643522262573e+08 9.99783556894659919401e-01 -2.05670402385599521491e-03 -1.00463990085901600695e-04 -9.54637443117645700073e-04 -1.00463990085901600695e-04 -9.54637443117645700073e-04 9.99953368746543724832e-01 -4.43103449612351882238e-04
9.99520238797956943512e+08 9.99782652507506197637e-01 -2.06094872908143796411e-03 -1.00883769417276313962e-04 -9.56607660755285065662e-04 -1.00883769417276313962e-04 -9.56607660755285065662e-04 9.99953173902238034998e-01 -4.44017943631017238896e-04
9.99521250952391624451e+08 9.99781742462257372317e-01 -2.06521078425843385151e-03 -1.01306175003809561977e-04 -9.58585931527063464519e-04 -1.01306175003809561977e-04 -9.58585931527063464519e-04 9.99952977838932666188e-01 -4.44936175583432176432e-04
9.99522263106826305389e+08 9.99780826711797687700e-01 -2.06949029467130753840e-03 -1.01731228714623309463e-04 -9.60572304301636004445e-04 -1.01731228714623309463e-04 -9.60572304301636004445e-04 9.99952780546476849288e-01 -4.45858168152416997881e-04
9.99523275261260986328e+08 9.99779905208522001736e-01 -2.07378736644631828101e-03 -1.02158952646038477408e-04 -9.62566828338448274814e-04 -1.02158952646038477408e-04 -9.62566828338448274814e-04 9.99952582014614455019e-01 -4.46783944202180981296e-04
9.99524287415695667267e+08 9.99778977904329568815e-01 -2.07810210656138479035e-03 -1.02589369124543719003e-04 -9.64569553292251723360e-04 -1.02589369124543719003e-04 -9.64569553292251723360e-04 9.99952382232982439625e-01 -4.47713526780418142551e-04
9.99525299570130348206e+08 9.99778044750617822523e-01 -2.08243462285166323553e-03 -1.03022500709382082082e-04 -9.66580529215691755182e-04 -1.03022500709382082082e-04 -9.66580529215691755182e-04 9.99952181191109623626e-01 -4.48646939119508531349e-04
9.99526311724565029144e+08 9.99777105698276269408e-01 -2.08678502402040964847e-03 -1.03458370195695886599e-04 -9.68599806564350682310e-04 -1.03458370195695886599e-04 -9.68599806564350682310e-04 9.99951978878415581597e-01 -4.49584204638858752658e-04
9.99527323878999829292e+08 9.99776160697679494582e-01 -2.09115341964736210778e-03 -1.03897000617457363762e-04 -9.70627436200637298998e-04 -1.03897000617457363762e-04 -9.70627436200637298998e-04 9.99951775284208865813e-01 -4.50525346946707813851e-04
9.99528336033434510231e+08 9.99775209698681610604e-01 -2.09553992019648931480e-03 -1.04338415250368517369e-04 -9.72663469397383722431e-04 -1.04338415250368517369e-04 -9.72663469397383722431e-04 9.99951570397685673974e-01 -4.51470389841796091324e-04
9.99529348187869191170e+08 9.99774252650609485116e-01 -2.09994463702430815902e-03 -1.04782637614850580908e-04 -9.74707957841706887185e-04 -1.04782637614850580908e-04 -9.74707957841706887185e-04 9.99951364207929072059e-01 -4.52419357315158167203e-04
9.99530360342303872108e+08 9.99773289502255413375e-01 -2.10436768239169328179e-03 -1.05229691479419477733e-04 -9.76760953640488536684e-04 -1.05229691479419477733e-04 -9.76760953640488536684e-04 9.99951156703906440804e-01 -4.53372273552666096592e-04
9.99531372496738553047e+08 9.99772320201870901002e-01 -2.10880916946975952367e-03 -1.05679600863499718725e-04 -9.78822509323107412677e-04 -1.05679600863499718725e-04 -9.78822509323107412677e-04 9.99950947874469142640e-01 -4.54329162936297490435e-04
9.99532384651173233986e+08 9.99771344697160224690e-01 -2.11326921235043202821e-03 -1.06132390040744839206e-04 -9.80892677846343860604e-04 -1.06132390040744839206e-04 -9.80892677846343860604e-04 9.99950737708350190225e-01 -4.55290050046412611128e-04
9.99533396805607914925e+08 9.99770362935272549620e-01 -2.11774792605568624657e-03 -1.06588083542260325426e-04 -9.82971512598669475494e-04 -1.06588083542260325426e-04 -9.82971512598669475494e-04 9.99950526194163358262e-01 -4.56254959663744696658e-04
9.99534408960042595863e+08 9.99769374862795712211e-01 -2.12224542654589933000e-03 -1.07046706159772629088e-04 -9.85059067404123449990e-04 -1.07046706159772629088e-04 -9.85059067404123449990e-04 9.99950313320401407147e-01 -4.57223916771199736207e-04
9.99535421114477276802e+08 9.99768380425748670604e-01 -2.12676183073077932142e-03 -1.07508282949096771160e-04 -9.87155396527385556316e-04 -1.07508282949096771160e-04 -9.87155396527385556316e-04 9.99950099075434306606e-01 -4.58196946556210815173e-04
9.99536433268911957741e+08 9.99767379569574288212e-01 -2.13129725647794813354e-03 -1.07972839233403801961e-04 -9.89260554677759505054e-04 -1.07972839233403801961e-04 -9.89260554677759505054e-04 9.99949883447508125478e-01 -4.59174074412587221970e-04
9.99537445423346638680e+08 9.99766372239131895228e-01 -2.13585182262361226654e-03 -1.08440400606739294708e-04 -9.91374597014126014358e-04 -1.08440400606739294708e-04 -9.91374597014126014358e-04 9.99949666424743144333e-01 -4.60155325942813552952e-04
9.99538457577781319618e+08 9.99765358378690183194e-01 -2.14042564897986295827e-03 -1.08910992937235186033e-04 -9.93497579148331592253e-04 -1.08910992937235186033e-04 -9.93497579148331592253e-04 9.99949447995132523204e-01 -4.61140726959622401868e-04
9.99539469732216000557e+08 9.99764337931919433444e-01 -2.14501885634706688025e-03 -1.09384642370883260329e-04 -9.95629557150940012328e-04 -1.09384642370883260329e-04 -9.95629557150940012328e-04 9.99949228146540303186e-01 -4.62130303488663882455e-04
9.99540481886650800705e+08 9.99763310841883190427e-01 -2.14963156652518434103e-03 -1.09861375335241250929e-04 -9.97770587556484189057e-04 -1.09861375335241250929e-04 -9.97770587556484189057e-04 9.99949006866699852125e-01 -4.63124081770943836489e-04
9.99541494041085481644e+08 9.99762277051031711395e-01 -2.15426390231835676245e-03 -1.10341218542484083179e-04 -9.99920727365597502428e-04 -1.10341218542484083179e-04 -9.99920727365597502428e-04 9.99948784143212643372e-01 -4.64122088263812517753e-04
9.99542506195520162582e+08 9.99761236501192973591e-01 -2.15891598755123693271e-03 -1.10824198993709336128e-04 -1.00208003405259258797e-03 -1.10824198993709336128e-04 -1.00208003405259258797e-03 9.99948559963545702267e-01 -4.65124349644482665452e-04
9.99543518349954843521e+08 9.99760189133565124742e-01 -2.16358794707584463357e-03 -1.11310343982306888676e-04 -1.00424856556864368698e-03 -1.11310343982306888676e-04 -1.00424856556864368698e-03 9.99948334315030606945e-01 -4.66130892811506675460e-04
9.99544530504389524460e+08 9.99759134888708156375e-01 -2.16827990678386713086e-03 -1.11799681097934688933e-04 -1.00642638034749540461e-03 -1.11799681097934688933e-04 -1.00642638034749540461e-03 9.99948107184861489927e-01 -4.67141744887426227806e-04
9.99545542658824205399e+08 9.99758073706535577152e-01 -2.17299199361525039245e-03 -1.12292238230153677532e-04 -1.00861353730945170655e-03 -1.12292238230153677532e-04 -1.00861353730945170655e-03 9.99947878560092928701e-01 -4.68156933220623670301e-04
9.99546554813258886337e+08 9.99757005526306197218e-01 -2.17772433557206603408e-03 -1.12788043572657165439e-04 -1.01081009586781087571e-03 -1.12788043572657165439e-04 -1.01081009586781087571e-03 9.99947648427638835500e-01 -4.69176485388309374991e-04
9.99547566967693567276e+08 9.99755930286615579483e-01 -2.18247706172527717455e-03 -1.13287125626804018432e-04 -1.01301611593200731332e-03 -1.13287125626804018432e-04 -1.01301611593200731332e-03 9.99947416774269903783e-01 -4.70200429197979339561e-04
9.99548579122128248215e+08 9.99754847925386713747e-01 -2.18725030223096850862e-03 -1.13789513206189179129e-04 -1.01523165791514370822e-03 -1.13789513206189179129e-04 -1.01523165791514370822e-03 9.99947183586611942907e-01 -4.71228792690912010391e-04
9.99549591276562929153e+08 9.99753758379862467187e-01 -2.19204418833578596609e-03 -1.14295235440129526049e-04 -1.01745678273651701112e-03 -1.14295235440129526049e-04 -1.01745678273651701112e-03 9.99946948851144545856e-01 -4.72261604143340088264e-04
9.99550603430997610092e+08 9.99752661586595148258e-01 -2.19685885239347252970e-03 -1.14804321778363375029e-04 -1.01969155182929263441e-03 -1.14804321778363375029e-04 -1.01969155182929263441e-03 9.99946712554198313683e-01 -4.73298892070013054074e-04
9.99551615585432291031e+08 9.99751557481438957176e-01 -2.20169442787157944655e-03 -1.15316801994764888111e-04 -1.02193602714361979865e-03 -1.15316801994764888111e-04 -1.02193602714361979865e-03 9.99946474681953301200e-01 -4.74340685225643115056e-04
9.99552627739866971970e+08 9.99750445999539327779e-01 -2.20655104936833554655e-03 -1.15832706192180807849e-04 -1.02419027115446250806e-03 -1.15832706192180807849e-04 -1.02419027115446250806e-03 9.99946235220437129598e-01 -4.75387012608539775722e-04
9.99553639894301772118e+08 9.99749327075324600855e-01 -2.21142885261934587712e-03 -1.16352064806241455052e-04 -1.02645434686470752444e-03 -1.16352064806241455052e-04 -1.02645434686470752444e-03 9.99945994155522766000e-01 -4.76437903462052477280e-04
9.99554652048736453056e+08 9.99748200642496365198e-01 -2.21632797451156663554e-03 -1.16874908609993727955e-04 -1.02872831781165136565e-03 -1.16874908609993727955e-04 -1.02872831781165136565e-03 9.99945751472926636083e-01 -4.77493387277581914953e-04
9.99555664203171133995e+08 9.99747066634019243558e-01 -2.22124855309586023006e-03 -1.17401268718436862007e-04 -1.03101224807282854275e-03 -1.17401268718436862007e-04 -1.03101224807282854275e-03 9.99945507158206403631e-01 -4.78553493797284959770e-04
9.99556676357605814934e+08 9.99745924982111566770e-01 -2.22619072759917000295e-03 -1.17931176593071850608e-04 -1.03330620227166133755e-03 -1.17931176593071850608e-04 -1.03330620227166133755e-03 9.99945261196759083155e-01 -4.79618253016697072572e-04
9.99557688512040495872e+08 9.99744775618235381742e-01 -2.23115463843602448296e-03 -1.18464664046433220453e-04 -1.03561024558280079938e-03 -1.18464664046433220453e-04 -1.03561024558280079938e-03 9.99945013573818486385e-01 -4.80687695187211603328e-04
9.99558700666475176811e+08 9.99743618473086348430e-01 -2.23614042722044973135e-03 -1.19001763246718181787e-04 -1.03792444373765487507e-03 -1.19001763246718181787e-04 -1.03792444373765487507e-03 9.99944764274453334885e-01 -4.81761850818645338736e-04
9.99559712820909857750e+08 9.99742453476583303740e-01 -2.24114823677966628485e-03 -1.19542506722664901211e-04 -1.04024886303074682106e-03 -1.19542506722664901211e-04 -1.04024886303074682106e-03 9.99944513283565372674e-01 -4.82840750682190296850e-04
9.99560724975344538689e+08 9.99741280557858047473e-01 -2.24617821116742310758e-03 -1.20086927368449991973e-04 -1.04258357032590382937e-03 -1.20086927368449991973e-04 -1.04258357032590382937e-03 9.99944260585886368631e-01 -4.83924425813285832843e-04
9.99561737129779219627e+08 9.99740099645244573168e-01 -2.25123049567583751254e-03 -1.20635058448482720452e-04 -1.04492863306175284843e-03 -1.20635058448482720452e-04 -1.04492863306175284843e-03 9.99944006165976340128e-01 -4.85012907514169658296e-04
9.99562749284213900566e+08 9.99738910666268631999e-01 -2.25630523684764100825e-03 -1.21186933602301642634e-04 -1.04728411925740462138e-03 -1.21186933602301642634e-04 -1.04728411925740462138e-03 9.99943750008221221570e-01 -4.86106227356516301403e-04
9.99563761438648581505e+08 9.99737713547636186462e-01 -2.26140258249249654146e-03 -1.21742586849973944492e-04 -1.04965009752002727192e-03 -1.21742586849973944492e-04 -1.04965009752002727192e-03 9.99943492096830199856e-01 -4.87204417184952253035e-04
9.99564773593083262444e+08 9.99736508215223418361e-01 -2.26652268169595487446e-03 -1.22302052596756643957e-04 -1.05202663704900335230e-03 -1.22302052596756643957e-04 -1.05202663704900335230e-03 9.99943232415833938020e-01 -4.88307509118985792404e-04
9.99565785747517943382e+08 9.99735294594064072271e-01 -2.27166568483864192776e-03 -1.22865365638934924755e-04 -1.05441380764483678099e-03 -1.22865365638934924755e-04 -1.05441380764483678099e-03 9.99942970949081244569e-01 -4.89415535557140616262e-04
9.99566797901952624321e+08 9.99734072608339241484e-01 -2.27683174360383561857e-03 -1.23432561168456870300e-04 -1.05681167971266760930e-03 -1.23432561168456870300e-04 -1.05681167971266760930e-03 9.99942707680237630186e-01 -4.90528529178588267902e-04
9.99567810056387424469e+08 9.99732842181364711465e-01 -2.28202101099731456679e-03 -1.24003674778976047659e-04 -1.05922032427148795665e-03 -1.24003674778976047659e-04 -1.05922032427148795665e-03 9.99942442592781866040e-01 -4.91646522947424501580e-04
9.99568822210822105408e+08 9.99731603235580523759e-01 -2.28723364135580099418e-03 -1.24578742470709207630e-04 -1.06163981295805814886e-03 -1.24578742470709207630e-04 -1.06163981295805814886e-03 9.99942175670004207433e-01 -4.92769550114488140077e-04
9.99569834365256786346e+08 9.99730355692537542289e-01 -2.29246979036577336677e-03 -1.25157800656501203267e-04 -1.06407021803564018347e-03 -1.25157800656501203267e-04 -1.06407021803564018347e-03 9.99941906895003285172e-01 -4.93897644221414256101e-04
9.99570846519691467285e+08 9.99729099472885796018e-01 -2.29772961507623742911e-03 -1.25740886167294816950e-04 -1.06651161239992506302e-03 -1.25740886167294816950e-04 -1.06651161239992506302e-03 9.99941636250683774101e-01 -4.95030839103385226878e-04
9.99571858674126148224e+08 9.99727834496362377514e-01 -2.30301327391365480077e-03 -1.26328036257908202710e-04 -1.06896406958596279849e-03 -1.26328036257908202710e-04 -1.06896406958596279849e-03 9.99941363719753284478e-01 -4.96169168892347887262e-04
9.99572870828560829163e+08 9.99726560681778675388e-01 -2.30832092669503016399e-03 -1.26919288612678185643e-04 -1.07142766377423545934e-03 -1.26919288612678185643e-04 -1.07142766377423545934e-03 9.99941089284720585617e-01 -4.97312668019831804860e-04
