! File generated for n1 = 1, n2 = 1
! b1 = 100.000000
! b2 = 100.000000
! Q0 = 10000.000000
! f0 = 1000000000.000000
! n = 1001
! rel_span = 10.000000
# Hz S RI R 50
8.99500000000000000000e+08 9.91154151579316522458e-01 -9.34001616180558519309e-02 -8.84584842068346366428e-03 -9.34001616180558519309e-02 -8.84584842068346366428e-03 -9.34001616180558519309e-02 9.91154151579316522458e-01 -9.34001616180558519309e-02
8.99701000000000000000e+08 9.91116907735639762755e-01 -9.35948099378682701888e-02 -8.88309226436023550988e-03 -9.35948099378682701888e-02 -8.88309226436023550988e-03 -9.35948099378682701888e-02 9.91116907735639762755e-01 -9.35948099378682701888e-02
8.99902000000000000000e+08 9.91079438178139371374e-01 -9.37902153428419455006e-02 -8.92056182186067546380e-03 -9.37902153428419455006e-02 -8.92056182186067546380e-03 -9.37902153428419455006e-02 9.91079438178139371374e-01 -9.37902153428419455006e-02
9.00103000000000000000e+08 9.91041741101672979397e-01 -9.39863822242724689104e-02 -8.95825889832697896953e-03 -9.39863822242724689104e-02 -8.95825889832697896953e-03 -9.39863822242724689104e-02 9.91041741101672979397e-01 -9.39863822242724689104e-02
9.00304000000000000000e+08 9.91003814683142802977e-01 -9.41833150070757879613e-02 -8.99618531685719181878e-03 -9.41833150070757879613e-02 -8.99618531685719181878e-03 -9.41833150070757879613e-02 9.91003814683142802977e-01 -9.41833150070757879613e-02
9.00505000000000000000e+08 9.90965657081281148244e-01 -9.43810181501061884468e-02 -9.03434291871879797953e-03 -9.43810181501061884468e-02 -9.03434291871879797953e-03 -9.43810181501061884468e-02 9.90965657081281148244e-01 -9.43810181501061884468e-02
9.00706000000000000000e+08 9.90927266436434694974e-01 -9.45794961464783284777e-02 -9.07273356356534145528e-03 -9.45794961464783284777e-02 -9.07273356356534145528e-03 -9.45794961464783284777e-02 9.90927266436434694974e-01 -9.45794961464783284777e-02
9.00907000000000000000e+08 9.90888640870344006295e-01 -9.47787535238923395386e-02 -9.11135912965596247992e-03 -9.47787535238923395386e-02 -9.11135912965596247992e-03 -9.47787535238923395386e-02 9.90888640870344006295e-01 -9.47787535238923395386e-02
9.01108000000000000000e+08 9.90849778485921928173e-01 -9.49787948449632157821e-02 -9.15022151407810131751e-03 -9.49787948449632157821e-02 -9.15022151407810131751e-03 -9.49787948449632157821e-02 9.90849778485921928173e-01 -9.49787948449632157821e-02
9.01309000000000000000e+08 9.90810677367026881868e-01 -9.51796247075532009241e-02 -9.18932263297316323514e-03 -9.51796247075532009241e-02 -9.18932263297316323514e-03 -9.51796247075532009241e-02 9.90810677367026881868e-01 -9.51796247075532009241e-02
9.01510000000000000000e+08 9.90771335578234602082e-01 -9.53812477451083801094e-02 -9.22866442176542046971e-03 -9.53812477451083801094e-02 -9.22866442176542046971e-03 -9.53812477451083801094e-02 9.90771335578234602082e-01 -9.53812477451083801094e-02
9.01711000000000000000e+08 9.90731751164605878301e-01 -9.55836686269988800024e-02 -9.26824883539406618738e-03 -9.55836686269988800024e-02 -9.26824883539406618738e-03 -9.55836686269988800024e-02 9.90731751164605878301e-01 -9.55836686269988800024e-02
9.01912000000000000000e+08 9.90691922151451298539e-01 -9.57868920588634820135e-02 -9.30807784854865982727e-03 -9.57868920588634820135e-02 -9.30807784854865982727e-03 -9.57868920588634820135e-02 9.90691922151451298539e-01 -9.57868920588634820135e-02
9.02113000000000000000e+08 9.90651846544092440361e-01 -9.59909227829568167945e-02 -9.34815345590756657801e-03 -9.59909227829568167945e-02 -9.34815345590756657801e-03 -9.59909227829568167945e-02 9.90651846544092440361e-01 -9.59909227829568167945e-02
9.02314000000000000000e+08 9.90611522327619953288e-01 -9.61957655785020543382e-02 -9.38847767238009528468e-03 -9.61957655785020543382e-02 -9.38847767238009528468e-03 -9.61957655785020543382e-02 9.90611522327619953288e-01 -9.61957655785020543382e-02
9.02515000000000000000e+08 9.90570947466648088486e-01 -9.64014252620468692356e-02 -9.42905253335187161501e-03 -9.64014252620468692356e-02 -9.42905253335187161501e-03 -9.64014252620468692356e-02 9.90570947466648088486e-01 -9.64014252620468692356e-02
9.02716000000000000000e+08 9.90530119905066341879e-01 -9.66079066878231390580e-02 -9.46988009493363903923e-03 -9.66079066878231390580e-02 -9.46988009493363903923e-03 -9.66079066878231390580e-02 9.90530119905066341879e-01 -9.66079066878231390580e-02
9.02917000000000000000e+08 9.90489037565786323292e-01 -9.68152147481113473093e-02 -9.51096243421368364723e-03 -9.68152147481113473093e-02 -9.51096243421368364723e-03 -9.68152147481113473093e-02 9.90489037565786323292e-01 -9.68152147481113473093e-02
9.03118000000000000000e+08 9.90447698350486294139e-01 -9.70233543736087195031e-02 -9.55230164951371106541e-03 -9.70233543736087195031e-02 -9.55230164951371106541e-03 -9.70233543736087195031e-02 9.90447698350486294139e-01 -9.70233543736087195031e-02
9.03319000000000000000e+08 9.90406100139351375233e-01 -9.72323305338022303435e-02 -9.59389986064857445969e-03 -9.72323305338022303435e-02 -9.59389986064857445969e-03 -9.72323305338022303435e-02 9.90406100139351375233e-01 -9.72323305338022303435e-02
9.03520000000000000000e+08 9.90364240790810534953e-01 -9.74421482373449554526e-02 -9.63575920918941820903e-03 -9.74421482373449554526e-02 -9.63575920918941820903e-03 -9.74421482373449554526e-02 9.90364240790810534953e-01 -9.74421482373449554526e-02
9.03721000000000000000e+08 9.90322118141269247538e-01 -9.76528125324372109350e-02 -9.67788185873071082899e-03 -9.76528125324372109350e-02 -9.67788185873071082899e-03 -9.76528125324372109350e-02 9.90322118141269247538e-01 -9.76528125324372109350e-02
9.03922000000000000000e+08 9.90279730004838709689e-01 -9.78643285072128693569e-02 -9.72026999516124347311e-03 -9.78643285072128693569e-02 -9.72026999516124347311e-03 -9.78643285072128693569e-02 9.90279730004838709689e-01 -9.78643285072128693569e-02
9.04123000000000000000e+08 9.90237074173061393445e-01 -9.80767012901282014825e-02 -9.76292582693861696330e-03 -9.80767012901282014825e-02 -9.76292582693861696330e-03 -9.80767012901282014825e-02 9.90237074173061393445e-01 -9.80767012901282014825e-02
9.04324000000000000000e+08 9.90194148414631936106e-01 -9.82899360503572405712e-02 -9.80585158536806909824e-03 -9.82899360503572405712e-02 -9.80585158536806909824e-03 -9.82899360503572405712e-02 9.90194148414631936106e-01 -9.82899360503572405712e-02
9.04525000000000000000e+08 9.90150950475114921545e-01 -9.85040379981906161211e-02 -9.84904952488508365904e-03 -9.85040379981906161211e-02 -9.84904952488508365904e-03 -9.85040379981906161211e-02 9.90150950475114921545e-01 -9.85040379981906161211e-02
9.04726000000000000000e+08 9.90107478076657887556e-01 -9.87190123854390089164e-02 -9.89252192334206560675e-03 -9.87190123854390089164e-02 -9.89252192334206560675e-03 -9.87190123854390089164e-02 9.90107478076657887556e-01 -9.87190123854390089164e-02
9.04927000000000000000e+08 9.90063728917700780485e-01 -9.89348645058418657561e-02 -9.93627108229927502592e-03 -9.89348645058418657561e-02 -9.93627108229927502592e-03 -9.89348645058418657561e-02 9.90063728917700780485e-01 -9.89348645058418657561e-02
9.05128000000000000000e+08 9.90019700672680191822e-01 -9.91515996954802358854e-02 -9.98029932731983593364e-03 -9.91515996954802358854e-02 -9.98029932731983593364e-03 -9.91515996954802358854e-02 9.90019700672680191822e-01 -9.91515996954802358854e-02
9.05329000000000000000e+08 9.89975390991730930246e-01 -9.93692233331949781316e-02 -1.00246090082691079182e-02 -9.93692233331949781316e-02 -1.00246090082691079182e-02 -9.93692233331949781316e-02 9.89975390991730930246e-01 -9.93692233331949781316e-02
9.05530000000000000000e+08 9.89930797500381709497e-01 -9.95877408410092423985e-02 -1.00692024996183130542e-02 -9.95877408410092423985e-02 -1.00692024996183130542e-02 -9.95877408410092423985e-02 9.89930797500381709497e-01 -9.95877408410092423985e-02
9.05731000000000000000e+08 9.89885917799247283533e-01 -9.98071576845565022751e-02 -1.01140822007526765686e-02 -9.98071576845565022751e-02 -1.01140822007526765686e-02 -9.98071576845565022751e-02 9.89885917799247283533e-01 -9.98071576845565022751e-02
9.05932000000000000000e+08 9.89840749463716029766e-01 -1.00027479373513347727e-01 -1.01592505362840136024e-02 -1.00027479373513347727e-01 -1.01592505362840136024e-02 -1.00027479373513347727e-01 9.89840749463716029766e-01 -1.00027479373513347727e-01
9.06133000000000000000e+08 9.89795290043632203236e-01 -1.00248711462037065623e-01 -1.02047099563678158457e-02 -1.00248711462037065623e-01 -1.02047099563678158457e-02 -1.00248711462037065623e-01 9.89795290043632203236e-01 -1.00248711462037065623e-01
9.06334000000000000000e+08 9.89749537062974971136e-01 -1.00470859549208493822e-01 -1.02504629370250045783e-02 -1.00470859549208493822e-01 -1.02504629370250045783e-02 -1.00470859549208493822e-01 9.89749537062974971136e-01 -1.00470859549208493822e-01
9.06535000000000000000e+08 9.89703488019531452125e-01 -1.00693929279480925976e-01 -1.02965119804685652227e-02 -1.00693929279480925976e-01 -1.02965119804685652227e-02 -1.00693929279480925976e-01 9.89703488019531452125e-01 -1.00693929279480925976e-01
9.06736000000000000000e+08 9.89657140384565314761e-01 -1.00917926343132693945e-01 -1.03428596154346574831e-02 -1.00917926343132693945e-01 -1.03428596154346574831e-02 -1.00917926343132693945e-01 9.89657140384565314761e-01 -1.00917926343132693945e-01
9.06937000000000000000e+08 9.89610491602481046058e-01 -1.01142856476726647474e-01 -1.03895083975189123082e-02 -1.01142856476726647474e-01 -1.03895083975189123082e-02 -1.01142856476726647474e-01 9.89610491602481046058e-01 -1.01142856476726647474e-01
9.07138000000000000000e+08 9.89563539090482557903e-01 -1.01368725463574158030e-01 -1.04364609095174802611e-02 -1.01368725463574158030e-01 -1.04364609095174802611e-02 -1.01368725463574158030e-01 9.89563539090482557903e-01 -1.01368725463574158030e-01
9.07339000000000000000e+08 9.89516280238226797472e-01 -1.01595539134204715381e-01 -1.04837197617731799765e-02 -1.01595539134204715381e-01 -1.04837197617731799765e-02 -1.01595539134204715381e-01 9.89516280238226797472e-01 -1.01595539134204715381e-01
9.07540000000000000000e+08 9.89468712407473249826e-01 -1.01823303366841297346e-01 -1.05312875925267623173e-02 -1.01823303366841297346e-01 -1.05312875925267623173e-02 -1.01823303366841297346e-01 9.89468712407473249826e-01 -1.01823303366841297346e-01
9.07741000000000000000e+08 9.89420832931726446091e-01 -1.02052024087881831882e-01 -1.05791670682735174797e-02 -1.02052024087881831882e-01 -1.05791670682735174797e-02 -1.02052024087881831882e-01 9.89420832931726446091e-01 -1.02052024087881831882e-01
9.07942000000000000000e+08 9.89372639115875140980e-01 -1.02281707272385224972e-01 -1.06273608841249041224e-02 -1.02281707272385224972e-01 -1.06273608841249041224e-02 -1.02281707272385224972e-01 9.89372639115875140980e-01 -1.02281707272385224972e-01
9.08143000000000000000e+08 9.89324128235824162836e-01 -1.02512358944564035967e-01 -1.06758717641757851224e-02 -1.02512358944564035967e-01 -1.06758717641757851224e-02 -1.02512358944564035967e-01 9.89324128235824162836e-01 -1.02512358944564035967e-01
9.08344000000000000000e+08 9.89275297538122933005e-01 -1.02743985178283148141e-01 -1.07247024618771155668e-02 -1.02743985178283148141e-01 -1.07247024618771155668e-02 -1.02743985178283148141e-01 9.89275297538122933005e-01 -1.02743985178283148141e-01
9.08545000000000000000e+08 9.89226144239585880591e-01 -1.02976592097563907080e-01 -1.07738557604141419605e-02 -1.02976592097563907080e-01 -1.07738557604141419605e-02 -1.02976592097563907080e-01 9.89226144239585880591e-01 -1.02976592097563907080e-01
9.08746000000000000000e+08 9.89176665526909748571e-01 -1.03210185877094323681e-01 -1.08233344730902496938e-02 -1.03210185877094323681e-01 -1.08233344730902496938e-02 -1.03210185877094323681e-01 9.89176665526909748571e-01 -1.03210185877094323681e-01
9.08947000000000000000e+08 9.89126858556283350410e-01 -1.03444772742745910721e-01 -1.08731414437166825498e-02 -1.03444772742745910721e-01 -1.08731414437166825498e-02 -1.03444772742745910721e-01 9.89126858556283350410e-01 -1.03444772742745910721e-01
9.09148000000000000000e+08 9.89076720452991886567e-01 -1.03680358972096431369e-01 -1.09232795470080874117e-02 -1.03680358972096431369e-01 -1.09232795470080874117e-02 -1.03680358972096431369e-01 9.89076720452991886567e-01 -1.03680358972096431369e-01
9.09349000000000000000e+08 9.89026248311016153991e-01 -1.03916950894958504126e-01 -1.09737516889838789685e-02 -1.03916950894958504126e-01 -1.09737516889838789685e-02 -1.03916950894958504126e-01 9.89026248311016153991e-01 -1.03916950894958504126e-01
9.09550000000000000000e+08 9.88975439192624095064e-01 -1.04154554893915285430e-01 -1.10245608073758667722e-02 -1.04154554893915285430e-01 -1.10245608073758667722e-02 -1.04154554893915285430e-01 9.88975439192624095064e-01 -1.04154554893915285430e-01
9.09751000000000000000e+08 9.88924290127958016683e-01 -1.04393177404862591562e-01 -1.10757098720420249505e-02 -1.04393177404862591562e-01 -1.10757098720420249505e-02 -1.04393177404862591562e-01 9.88924290127958016683e-01 -1.04393177404862591562e-01
9.09952000000000000000e+08 9.88872798114613593690e-01 -1.04632824917556765953e-01 -1.11272018853863612076e-02 -1.04632824917556765953e-01 -1.11272018853863612076e-02 -1.04632824917556765953e-01 9.88872798114613593690e-01 -1.04632824917556765953e-01
9.10153000000000000000e+08 9.88820960117214542429e-01 -1.04873503976170359686e-01 -1.11790398827854280811e-02 -1.04873503976170359686e-01 -1.11790398827854280811e-02 -1.04873503976170359686e-01 9.88820960117214542429e-01 -1.04873503976170359686e-01
9.10354000000000000000e+08 9.88768773066978967634e-01 -1.05115221179853446376e-01 -1.12312269330210792034e-02 -1.05115221179853446376e-01 -1.12312269330210792034e-02 -1.05115221179853446376e-01 9.88768773066978967634e-01 -1.05115221179853446376e-01
9.10555000000000000000e+08 9.88716233861279936157e-01 -1.05357983183302653107e-01 -1.12837661387200412916e-02 -1.05357983183302653107e-01 -1.12837661387200412916e-02 -1.05357983183302653107e-01 9.88716233861279936157e-01 -1.05357983183302653107e-01
9.10756000000000000000e+08 9.88663339363199833443e-01 -1.05601796697336811071e-01 -1.13366606368001283933e-02 -1.05601796697336811071e-01 -1.13366606368001283933e-02 -1.05601796697336811071e-01 9.88663339363199833443e-01 -1.05601796697336811071e-01
9.10957000000000000000e+08 9.88610086401076837426e-01 -1.05846668489478920594e-01 -1.13899135989231469618e-02 -1.05846668489478920594e-01 -1.13899135989231469618e-02 -1.05846668489478920594e-01 9.88610086401076837426e-01 -1.05846668489478920594e-01
9.11158000000000000000e+08 9.88556471768044842108e-01 -1.06092605384547039593e-01 -1.14435282319551578922e-02 -1.06092605384547039593e-01 -1.14435282319551578922e-02 -1.06092605384547039593e-01 9.88556471768044842108e-01 -1.06092605384547039593e-01
9.11359000000000000000e+08 9.88502492221566719799e-01 -1.06339614265249932101e-01 -1.14975077784332680580e-02 -1.06339614265249932101e-01 -1.14975077784332680580e-02 -1.06339614265249932101e-01 9.88502492221566719799e-01 -1.06339614265249932101e-01
9.11560000000000000000e+08 9.88448144482959811796e-01 -1.06587702072792764318e-01 -1.15518555170402281024e-02 -1.06587702072792764318e-01 -1.15518555170402281024e-02 -1.06587702072792764318e-01 9.88448144482959811796e-01 -1.06587702072792764318e-01
9.11761000000000000000e+08 9.88393425236914202614e-01 -1.06836875807487338697e-01 -1.16065747630857505485e-02 -1.06836875807487338697e-01 -1.16065747630857505485e-02 -1.06836875807487338697e-01 9.88393425236914202614e-01 -1.06836875807487338697e-01
9.11962000000000000000e+08 9.88338331131004110830e-01 -1.07087142529373000044e-01 -1.16616688689959377423e-02 -1.07087142529373000044e-01 -1.16616688689959377423e-02 -1.07087142529373000044e-01 9.88338331131004110830e-01 -1.07087142529373000044e-01
9.12163000000000000000e+08 9.88282858775190287126e-01 -1.07338509358842051911e-01 -1.17171412248096590974e-02 -1.07338509358842051911e-01 -1.17171412248096590974e-02 -1.07338509358842051911e-01 9.88282858775190287126e-01 -1.07338509358842051911e-01
9.12364000000000000000e+08 9.88227004741316861214e-01 -1.07590983477275220492e-01 -1.17729952586831231737e-02 -1.07590983477275220492e-01 -1.17729952586831231737e-02 -1.07590983477275220492e-01 9.88227004741316861214e-01 -1.07590983477275220492e-01
9.12565000000000000000e+08 9.88170765562597752663e-01 -1.07844572127684237839e-01 -1.18292344374022022346e-02 -1.07844572127684237839e-01 -1.18292344374022022346e-02 -1.07844572127684237839e-01 9.88170765562597752663e-01 -1.07844572127684237839e-01
9.12766000000000000000e+08 9.88114137733097419591e-01 -1.08099282615361710902e-01 -1.18858622669025370405e-02 -1.08099282615361710902e-01 -1.18858622669025370405e-02 -1.08099282615361710902e-01 9.88114137733097419591e-01 -1.08099282615361710902e-01
9.12967000000000000000e+08 9.88057117707201837398e-01 -1.08355122308540274823e-01 -1.19428822927981469898e-02 -1.08355122308540274823e-01 -1.19428822927981469898e-02 -1.08355122308540274823e-01 9.88057117707201837398e-01 -1.08355122308540274823e-01
9.13168000000000000000e+08 9.87999701899082038992e-01 -1.08612098639058685112e-01 -1.20002981009179679472e-02 -1.08612098639058685112e-01 -1.20002981009179679472e-02 -1.08612098639058685112e-01 9.87999701899082038992e-01 -1.08612098639058685112e-01
9.13369000000000000000e+08 9.87941886682148773247e-01 -1.08870219103037721431e-01 -1.20581133178512302229e-02 -1.08870219103037721431e-01 -1.20581133178512302229e-02 -1.08870219103037721431e-01 9.87941886682148773247e-01 -1.08870219103037721431e-01
9.13570000000000000000e+08 9.87883668388498947799e-01 -1.09129491261562863724e-01 -1.21163316115010209761e-02 -1.09129491261562863724e-01 -1.21163316115010209761e-02 -1.09129491261562863724e-01 9.87883668388498947799e-01 -1.09129491261562863724e-01
9.13771000000000000000e+08 9.87825043308353079041e-01 -1.09389922741376641180e-01 -1.21749566916468671823e-02 -1.09389922741376641180e-01 -1.21749566916468671823e-02 -1.09389922741376641180e-01 9.87825043308353079041e-01 -1.09389922741376641180e-01
9.13972000000000000000e+08 9.87766007689483860332e-01 -1.09651521235579557656e-01 -1.22339923105161778316e-02 -1.09651521235579557656e-01 -1.22339923105161778316e-02 -1.09651521235579557656e-01 9.87766007689483860332e-01 -1.09651521235579557656e-01
9.14173000000000000000e+08 9.87706557736635404332e-01 -1.09914294504338788672e-01 -1.22934422633645418915e-02 -1.09914294504338788672e-01 -1.22934422633645418915e-02 -1.09914294504338788672e-01 9.87706557736635404332e-01 -1.09914294504338788672e-01
9.14374000000000000000e+08 9.87646689610934269687e-01 -1.10178250375607772460e-01 -1.23533103890657094959e-02 -1.10178250375607772460e-01 -1.23533103890657094959e-02 -1.10178250375607772460e-01 9.87646689610934269687e-01 -1.10178250375607772460e-01
9.14575000000000000000e+08 9.87586399429289718555e-01 -1.10443396745852254193e-01 -1.24136005707103230788e-02 -1.10443396745852254193e-01 -1.24136005707103230788e-02 -1.10443396745852254193e-01 9.87586399429289718555e-01 -1.10443396745852254193e-01
9.14776000000000000000e+08 9.87525683263785092336e-01 -1.10709741580787987547e-01 -1.24743167362148694999e-02 -1.10709741580787987547e-01 -1.24743167362148694999e-02 -1.10709741580787987547e-01 9.87525683263785092336e-01 -1.10709741580787987547e-01
9.14977000000000000000e+08 9.87464537141060083592e-01 -1.10977292916126235589e-01 -1.25354628589399441640e-02 -1.10977292916126235589e-01 -1.25354628589399441640e-02 -1.10977292916126235589e-01 9.87464537141060083592e-01 -1.10977292916126235589e-01
9.15178000000000000000e+08 9.87402957041681572647e-01 -1.11246058858328611407e-01 -1.25970429583184568428e-02 -1.11246058858328611407e-01 -1.25970429583184568428e-02 -1.11246058858328611407e-01 9.87402957041681572647e-01 -1.11246058858328611407e-01
