! File generated for n1 = 5, n2 = 1
! b1 = 4.641589
! b2 = 4.641589
! Q0 = 10000.000000
! f0 = 1000000000.000000
! n = 1001
! rel_span = 10.000000
# Hz S RI R 50
9.94858411166387200356e+08 9.91107405731752710842e-01 -8.91557344944443885826e-02 -8.89259426824727007566e-03 -8.91557344944443885826e-02 -8.89259426824727007566e-03 -8.91557344944443885826e-02 9.91107405731752710842e-01 -8.91557344944443885826e-02
9.94868694344054460526e+08 9.91071989590530333381e-01 -8.93313265998925964961e-02 -8.92801040946966661949e-03 -8.93313265998925964961e-02 -8.92801040946966661949e-03 -8.93313265998925964961e-02 9.91071989590530333381e-01 -8.93313265998925964961e-02
9.94878977521721601486e+08 9.91036362533087245019e-01 -8.95076027310167388062e-02 -8.96363746691275151135e-03 -8.95076027310167388062e-02 -8.96363746691275151135e-03 -8.95076027310167388062e-02 9.91036362533087245019e-01 -8.95076027310167388062e-02
9.94889260699388861656e+08 9.91000522887767298919e-01 -8.96845668486742075842e-02 -8.99947711223269414260e-03 -8.96845668486742075842e-02 -8.99947711223269414260e-03 -8.96845668486742075842e-02 9.91000522887767298919e-01 -8.96845668486742075842e-02
9.94899543877056121826e+08 9.90964468966380906956e-01 -8.98622229439979547383e-02 -9.03553103361906355395e-03 -8.98622229439979547383e-02 -9.03553103361906355395e-03 -8.98622229439979547383e-02 9.90964468966380906956e-01 -8.98622229439979547383e-02
9.94909827054723381996e+08 9.90928199064009640473e-01 -9.00405750386806535968e-02 -9.07180093599035432261e-03 -9.00405750386806535968e-02 -9.07180093599035432261e-03 -9.00405750386806535968e-02 9.90928199064009640473e-01 -9.00405750386806535968e-02
9.94920110232390522957e+08 9.90891711458806723201e-01 -9.02196271852675896197e-02 -9.10828854119333231054e-03 -9.02196271852675896197e-02 -9.10828854119333231054e-03 -9.02196271852675896197e-02 9.90891711458806723201e-01 -9.02196271852675896197e-02
9.94930393410057783127e+08 9.90855004411795414754e-01 -9.03993834674502727555e-02 -9.14499558820461300179e-03 -9.03993834674502727555e-02 -9.14499558820461300179e-03 -9.03993834674502727555e-02 9.90855004411795414754e-01 -9.03993834674502727555e-02
9.94940676587725043297e+08 9.90818076166665173687e-01 -9.05798480003621592216e-02 -9.18192383333481590424e-03 -9.05798480003621592216e-02 -9.18192383333481590424e-03 -9.05798480003621592216e-02 9.90818076166665173687e-01 -9.05798480003621592216e-02
9.94950959765392184258e+08 9.90780924949566710325e-01 -9.07610249308670874457e-02 -9.21907505043333477812e-03 -9.07610249308670874457e-02 -9.21907505043333477812e-03 -9.07610249308670874457e-02 9.90780924949566710325e-01 -9.07610249308670874457e-02
9.94961242943059444427e+08 9.90743548968897602691e-01 -9.09429184378821309220e-02 -9.25645103110239210464e-03 -9.09429184378821309220e-02 -9.25645103110239210464e-03 -9.09429184378821309220e-02 9.90743548968897602691e-01 -9.09429184378821309220e-02
9.94971526120726704597e+08 9.90705946415094018676e-01 -9.11255327326650488295e-02 -9.29405358490601601895e-03 -9.11255327326650488295e-02 -9.29405358490601601895e-03 -9.11255327326650488295e-02 9.90705946415094018676e-01 -9.11255327326650488295e-02
9.94981809298393964767e+08 9.90668115460413445383e-01 -9.13088720591273411697e-02 -9.33188453958657890275e-03 -9.13088720591273411697e-02 -9.33188453958657890275e-03 -9.13088720591273411697e-02 9.90668115460413445383e-01 -9.13088720591273411697e-02
9.94992092476061105728e+08 9.90630054258714864979e-01 -9.14929406941550754651e-02 -9.36994574128517665468e-03 -9.14929406941550754651e-02 -9.36994574128517665468e-03 -9.14929406941550754651e-02 9.90630054258714864979e-01 -9.14929406941550754651e-02
9.95002375653728365898e+08 9.90591760945237376212e-01 -9.16777429479212480068e-02 -9.40823905476266368619e-03 -9.16777429479212480068e-02 -9.40823905476266368619e-03 -9.16777429479212480068e-02 9.90591760945237376212e-01 -9.16777429479212480068e-02
9.95012658831395626068e+08 9.90553233636375818350e-01 -9.18632831642039460185e-02 -9.44676636362421287552e-03 -9.18632831642039460185e-02 -9.44676636362421287552e-03 -9.18632831642039460185e-02 9.90553233636375818350e-01 -9.18632831642039460185e-02
9.95022942009062767029e+08 9.90514470429453841582e-01 -9.20495657207037604186e-02 -9.48552957054613586629e-03 -9.20495657207037604186e-02 -9.48552957054613586629e-03 -9.20495657207037604186e-02 9.90514470429453841582e-01 -9.20495657207037604186e-02
9.95033225186730027199e+08 9.90475469402488428727e-01 -9.22365950293921599279e-02 -9.52453059751159729351e-03 -9.22365950293921599279e-02 -9.52453059751159729351e-03 -9.22365950293921599279e-02 9.90475469402488428727e-01 -9.22365950293921599279e-02
9.95043508364397287369e+08 9.90436228613960634171e-01 -9.24243755368145403217e-02 -9.56377138603937970718e-03 -9.24243755368145403217e-02 -9.56377138603937970718e-03 -9.24243755368145403217e-02 9.90436228613960634171e-01 -9.24243755368145403217e-02
9.95053791542064428329e+08 9.90396746102573444226e-01 -9.26129117244480354332e-02 -9.60325389742659567271e-03 -9.26129117244480354332e-02 -9.60325389742659567271e-03 -9.26129117244480354332e-02 9.90396746102573444226e-01 -9.26129117244480354332e-02
9.95064074719731688499e+08 9.90357019887012968162e-01 -9.28022081090261186098e-02 -9.64298011298703704186e-03 -9.28022081090261186098e-02 -9.64298011298703704186e-03 -9.28022081090261186098e-02 9.90357019887012968162e-01 -9.28022081090261186098e-02
9.95074357897398948669e+08 9.90317047965701968693e-01 -9.29922692428913066909e-02 -9.68295203429801222550e-03 -9.29922692428913066909e-02 -9.68295203429801222550e-03 -9.29922692428913066909e-02 9.90317047965701968693e-01 -9.29922692428913066909e-02
9.95084641075066208839e+08 9.90276828316554058596e-01 -9.31830997143292955043e-02 -9.72317168344597783369e-03 -9.31830997143292955043e-02 -9.72317168344597783369e-03 -9.31830997143292955043e-02 9.90276828316554058596e-01 -9.31830997143292955043e-02
9.95094924252733349800e+08 9.90236358896719126577e-01 -9.33747041479317807511e-02 -9.76364110328084046364e-03 -9.33747041479317807511e-02 -9.76364110328084046364e-03 -9.33747041479317807511e-02 9.90236358896719126577e-01 -9.33747041479317807511e-02
9.95105207430400609970e+08 9.90195637642329540284e-01 -9.35670872049468860254e-02 -9.80436235767047532808e-03 -9.35670872049468860254e-02 -9.80436235767047532808e-03 -9.35670872049468860254e-02 9.90195637642329540284e-01 -9.35670872049468860254e-02
9.95115490608067870140e+08 9.90154662468241242301e-01 -9.37602535836335321262e-02 -9.84533753175880106678e-03 -9.37602535836335321262e-02 -9.84533753175880106678e-03 -9.37602535836335321262e-02 9.90154662468241242301e-01 -9.37602535836335321262e-02
9.95125773785735011101e+08 9.90113431267771515465e-01 -9.39542080196242301859e-02 -9.88656873222850361704e-03 -9.39542080196242301859e-02 -9.88656873222850361704e-03 -9.39542080196242301859e-02 9.90113431267771515465e-01 -9.39542080196242301859e-02
9.95136056963402271271e+08 9.90071941912429642763e-01 -9.41489552863054995901e-02 -9.92805808757038846246e-03 -9.41489552863054995901e-02 -9.92805808757038846246e-03 -9.41489552863054995901e-02 9.90071941912429642763e-01 -9.41489552863054995901e-02
9.95146340141069531441e+08 9.90030192251650231761e-01 -9.43445001951704192988e-02 -9.96980774834973701437e-03 -9.43445001951704192988e-02 -9.96980774834973701437e-03 -9.43445001951704192988e-02 9.90030192251650231761e-01 -9.43445001951704192988e-02
9.95156623318736791611e+08 9.89988180112517213161e-01 -9.45408475962044997365e-02 -1.00118198874827347977e-02 -9.45408475962044997365e-02 -1.00118198874827347977e-02 -9.45408475962044997365e-02 9.89988180112517213161e-01 -9.45408475962044997365e-02
9.95166906496403932571e+08 9.89945903299486951177e-01 -9.47380023782580932279e-02 -1.00540967005130731093e-02 -9.47380023782580932279e-02 -1.00540967005130731093e-02 -9.47380023782580932279e-02 9.89945903299486951177e-01 -9.47380023782580932279e-02
9.95177189674071192741e+08 9.89903359594101694974e-01 -9.49359694694499323120e-02 -1.00966404058982772707e-02 -9.49359694694499323120e-02 -1.00966404058982772707e-02 -9.49359694694499323120e-02 9.89903359594101694974e-01 -9.49359694694499323120e-02
9.95187472851738452911e+08 9.89860546754709913486e-01 -9.51347538375283824363e-02 -1.01394532452901246777e-02 -9.51347538375283824363e-02 -1.01394532452901246777e-02 -9.51347538375283824363e-02 9.89860546754709913486e-01 -9.51347538375283824363e-02
9.95197756029405593872e+08 9.89817462516170532005e-01 -9.53343604902848335003e-02 -1.01825374838294419738e-02 -9.53343604902848335003e-02 -1.01825374838294419738e-02 -9.53343604902848335003e-02 9.89817462516170532005e-01 -9.53343604902848335003e-02
9.95208039207072854042e+08 9.89774104589560721479e-01 -9.55347944759442763152e-02 -1.02258954104392264794e-02 -9.55347944759442763152e-02 -1.02258954104392264794e-02 -9.55347944759442763152e-02 9.89774104589560721479e-01 -9.55347944759442763152e-02
9.95218322384740114212e+08 9.89730470661876582383e-01 -9.57360608835668702721e-02 -1.02695293381234453722e-02 -9.57360608835668702721e-02 -1.02695293381234453722e-02 -9.57360608835668702721e-02 9.89730470661876582383e-01 -9.57360608835668702721e-02
9.95228605562407374382e+08 9.89686558395727722370e-01 -9.59381648434639994205e-02 -1.03134416042723279366e-02 -9.59381648434639994205e-02 -1.03134416042723279366e-02 -9.59381648434639994205e-02 9.89686558395727722370e-01 -9.59381648434639994205e-02
9.95238888740074515343e+08 9.89642365429033055158e-01 -9.61411115275952327108e-02 -1.03576345709669049439e-02 -9.61411115275952327108e-02 -1.03576345709669049439e-02 -9.61411115275952327108e-02 9.89642365429033055158e-01 -9.61411115275952327108e-02
9.95249171917741775513e+08 9.89597889374705275145e-01 -9.63449061500005338177e-02 -1.04021106252946970994e-02 -9.63449061500005338177e-02 -1.04021106252946970994e-02 -9.63449061500005338177e-02 9.89597889374705275145e-01 -9.63449061500005338177e-02
9.95259455095409035683e+08 9.89553127820334887943e-01 -9.65495539672146796395e-02 -1.04468721796650565459e-02 -9.65495539672146796395e-02 -1.04468721796650565459e-02 -9.65495539672146796395e-02 9.89553127820334887943e-01 -9.65495539672146796395e-02
9.95269738273076176643e+08 9.89508078327870466140e-01 -9.67550602786886732032e-02 -1.04919216721295893713e-02 -9.67550602786886732032e-02 -1.04919216721295893713e-02 -9.67550602786886732032e-02 9.89508078327870466140e-01 -9.67550602786886732032e-02
9.95280021450743436813e+08 9.89462738433287802842e-01 -9.69614304272382737659e-02 -1.05372615667122075667e-02 -9.69614304272382737659e-02 -1.05372615667122075667e-02 -9.69614304272382737659e-02 9.89462738433287802842e-01 -9.69614304272382737659e-02
9.95290304628410696983e+08 9.89417105646262506902e-01 -9.71686697994679493551e-02 -1.05828943537374774858e-02 -9.71686697994679493551e-02 -1.05828943537374774858e-02 -9.71686697994679493551e-02 9.89417105646262506902e-01 -9.71686697994679493551e-02
9.95300587806077957153e+08 9.89371177449833161255e-01 -9.73767838262132590099e-02 -1.06288225501667867035e-02 -9.73767838262132590099e-02 -1.06288225501667867035e-02 -9.73767838262132590099e-02 9.89371177449833161255e-01 -9.73767838262132590099e-02
9.95310870983745098114e+08 9.89324951300060262405e-01 -9.75857779829894106394e-02 -1.06750486999397133092e-02 -9.75857779829894106394e-02 -1.06750486999397133092e-02 -9.75857779829894106394e-02 9.89324951300060262405e-01 -9.75857779829894106394e-02
9.95321154161412358284e+08 9.89278424625676722215e-01 -9.77956577904578461258e-02 -1.07215753743232951323e-02 -9.77956577904578461258e-02 -1.07215753743232951323e-02 -9.77956577904578461258e-02 9.89278424625676722215e-01 -9.77956577904578461258e-02
9.95331437339079618454e+08 9.89231594827740479126e-01 -9.80064288148666251654e-02 -1.07684051722594983230e-02 -9.80064288148666251654e-02 -1.07684051722594983230e-02 -9.80064288148666251654e-02 9.89231594827740479126e-01 -9.80064288148666251654e-02
9.95341720516746759415e+08 9.89184459279278338606e-01 -9.82180966685131801031e-02 -1.08155407207216128218e-02 -9.82180966685131801031e-02 -1.08155407207216128218e-02 -9.82180966685131801031e-02 9.89184459279278338606e-01 -9.82180966685131801031e-02
9.95352003694414019585e+08 9.89137015324918156267e-01 -9.84306670102385317112e-02 -1.08629846750818211815e-02 -9.84306670102385317112e-02 -1.08629846750818211815e-02 -9.84306670102385317112e-02 9.89137015324918156267e-01 -9.84306670102385317112e-02
9.95362286872081279755e+08 9.89089260280528348446e-01 -9.86441455458707955328e-02 -1.09107397194716602279e-02 -9.86441455458707955328e-02 -1.09107397194716602279e-02 -9.86441455458707955328e-02 9.89089260280528348446e-01 -9.86441455458707955328e-02
9.95372570049748420715e+08 9.89041191432840749442e-01 -9.88585380287251430653e-02 -1.09588085671592852521e-02 -9.88585380287251430653e-02 -1.09588085671592852521e-02 -9.88585380287251430653e-02 9.89041191432840749442e-01 -9.88585380287251430653e-02
9.95382853227415680885e+08 9.88992806039071581381e-01 -9.90738502600917447793e-02 -1.10071939609284446399e-02 -9.90738502600917447793e-02 -1.10071939609284446399e-02 -9.90738502600917447793e-02 9.88992806039071581381e-01 -9.90738502600917447793e-02
9.95393136405082941055e+08 9.88944101326539759533e-01 -9.92900880897167187333e-02 -1.10558986734602456709e-02 -9.92900880897167187333e-02 -1.10558986734602456709e-02 -9.92900880897167187333e-02 9.88944101326539759533e-01 -9.92900880897167187333e-02
9.95403419582750201225e+08 9.88895074492275649725e-01 -9.95072574163050893592e-02 -1.11049255077244040518e-02 -9.95072574163050893592e-02 -1.11049255077244040518e-02 -9.95072574163050893592e-02 9.88895074492275649725e-01 -9.95072574163050893592e-02
9.95413702760417342186e+08 9.88845722702624940759e-01 -9.97253641880241625817e-02 -1.11542772973750696497e-02 -9.97253641880241625817e-02 -1.11542772973750696497e-02 -9.97253641880241625817e-02 9.88845722702624940759e-01 -9.97253641880241625817e-02
9.95423985938084602356e+08 9.88796043092842746880e-01 -9.99444144030327691341e-02 -1.12039569071572583242e-02 -9.99444144030327691341e-02 -1.12039569071572583242e-02 -9.99444144030327691341e-02 9.88796043092842746880e-01 -9.99444144030327691341e-02
9.95434269115751862526e+08 9.88746032766693372373e-01 -1.00164414109960880905e-01 -1.12539672333066727294e-02 -1.00164414109960880905e-01 -1.12539672333066727294e-02 -1.00164414109960880905e-01 9.88746032766693372373e-01 -1.00164414109960880905e-01
9.95444552293419003487e+08 9.88695688796028648859e-01 -1.00385369408463986929e-01 -1.13043112039713546102e-02 -1.00385369408463986929e-01 -1.13043112039713546102e-02 -1.00385369408463986929e-01 9.88695688796028648859e-01 -1.00385369408463986929e-01
9.95454835471086263657e+08 9.88645008220368937124e-01 -1.00607286449745925161e-01 -1.13549917796310385898e-02 -1.00607286449745925161e-01 -1.13549917796310385898e-02 -1.00607286449745925161e-01 9.88645008220368937124e-01 -1.00607286449745925161e-01
9.95465118648753523827e+08 9.88593988046478799880e-01 -1.00830171437080395869e-01 -1.14060119535212157321e-02 -1.00830171437080395869e-01 -1.14060119535212157321e-02 -1.00830171437080395869e-01 9.88593988046478799880e-01 -1.00830171437080395869e-01
9.95475401826420783997e+08 9.88542625247928574694e-01 -1.01054030626372651214e-01 -1.14573747520713992848e-02 -1.01054030626372651214e-01 -1.14573747520713992848e-02 -1.01054030626372651214e-01 9.88542625247928574694e-01 -1.01054030626372651214e-01
9.95485685004087924957e+08 9.88490916764657501226e-01 -1.01278870326694261927e-01 -1.15090832353424484674e-02 -1.01278870326694261927e-01 -1.15090832353424484674e-02 -1.01278870326694261927e-01 9.88490916764657501226e-01 -1.01278870326694261927e-01
9.95495968181755185127e+08 9.88438859502522193523e-01 -1.01504696900855895247e-01 -1.15611404974778515797e-02 -1.01504696900855895247e-01 -1.15611404974778515797e-02 -1.01504696900855895247e-01 9.88438859502522193523e-01 -1.01504696900855895247e-01
9.95506251359422445297e+08 9.88386450332847443789e-01 -1.01731516765946078396e-01 -1.16135496671525267204e-02 -1.01731516765946078396e-01 -1.16135496671525267204e-02 -1.01731516765946078396e-01 9.88386450332847443789e-01 -1.01731516765946078396e-01
9.95516534537089586258e+08 9.88333686091961927112e-01 -1.01959336393917562869e-01 -1.16663139080380399287e-02 -1.01959336393917562869e-01 -1.16663139080380399287e-02 -1.01959336393917562869e-01 9.88333686091961927112e-01 -1.01959336393917562869e-01
9.95526817714756846428e+08 9.88280563580727355877e-01 -1.02188162312170524593e-01 -1.17194364192726632051e-02 -1.02188162312170524593e-01 -1.17194364192726632051e-02 -1.02188162312170524593e-01 9.88280563580727355877e-01 -1.02188162312170524593e-01
9.95537100892424106598e+08 9.88227079564067856232e-01 -1.02418001104114211874e-01 -1.17729204359321056039e-02 -1.02418001104114211874e-01 -1.17729204359321056039e-02 -1.02418001104114211874e-01 9.88227079564067856232e-01 -1.02418001104114211874e-01
9.95547384070091366768e+08 9.88173230770482691199e-01 -1.02648859409777706841e-01 -1.18267692295173192096e-02 -1.02648859409777706841e-01 -1.18267692295173192096e-02 -1.02648859409777706841e-01 9.88173230770482691199e-01 -1.02648859409777706841e-01
9.95557667247758507729e+08 9.88119013891558317653e-01 -1.02880743926392417831e-01 -1.18809861084416615307e-02 -1.02880743926392417831e-01 -1.18809861084416615307e-02 -1.02880743926392417831e-01 9.88119013891558317653e-01 -1.02880743926392417831e-01
9.95567950425425767899e+08 9.88064425581465344273e-01 -1.03113661409020174187e-01 -1.19355744185346210329e-02 -1.03113661409020174187e-01 -1.19355744185346210329e-02 -1.03113661409020174187e-01 9.88064425581465344273e-01 -1.03113661409020174187e-01
9.95578233603093028069e+08 9.88009462456458154023e-01 -1.03347618671139368507e-01 -1.19905375435418060787e-02 -1.03347618671139368507e-01 -1.19905375435418060787e-02 -1.03347618671139368507e-01 9.88009462456458154023e-01 -1.03347618671139368507e-01
9.95588516780760169029e+08 9.87954121094355763866e-01 -1.03582622585287206785e-01 -1.20458789056442552162e-02 -1.03582622585287206785e-01 -1.20458789056442552162e-02 -1.03582622585287206785e-01 9.87954121094355763866e-01 -1.03582622585287206785e-01
9.95598799958427429199e+08 9.87898398034019908920e-01 -1.03818680083684833360e-01 -1.21016019659800633246e-02 -1.03818680083684833360e-01 -1.21016019659800633246e-02 -1.03818680083684833360e-01 9.87898398034019908920e-01 -1.03818680083684833360e-01
9.95609083136094689369e+08 9.87842289774828796745e-01 -1.04055798158857598645e-01 -1.21577102251712153985e-02 -1.04055798158857598645e-01 -1.21577102251712153985e-02 -1.04055798158857598645e-01 9.87842289774828796745e-01 -1.04055798158857598645e-01
9.95619366313761949539e+08 9.87785792776131876813e-01 -1.04293983864302525211e-01 -1.22142072238681093088e-02 -1.04293983864302525211e-01 -1.22142072238681093088e-02 -1.04293983864302525211e-01 9.87785792776131876813e-01 -1.04293983864302525211e-01
9.95629649491429090500e+08 9.87728903456705720210e-01 -1.04533244315128420743e-01 -1.22710965432942849945e-02 -1.04533244315128420743e-01 -1.22710965432942849945e-02 -1.04533244315128420743e-01 9.87728903456705720210e-01 -1.04533244315128420743e-01
9.95639932669096350670e+08 9.87671618194196576646e-01 -1.04773586688719416715e-01 -1.23283818058034372322e-02 -1.04773586688719416715e-01 -1.23283818058034372322e-02 -1.04773586688719416715e-01 9.87671618194196576646e-01 -1.04773586688719416715e-01
9.95650215846763610840e+08 9.87613933324554937876e-01 -1.05015018225405501462e-01 -1.23860666754450430421e-02 -1.05015018225405501462e-01 -1.23860666754450430421e-02 -1.05015018225405501462e-01 9.87613933324554937876e-01 -1.05015018225405501462e-01
9.95660499024430751801e+08 9.87555845141462884662e-01 -1.05257546229133899796e-01 -1.24441548585371430935e-02 -1.05257546229133899796e-01 -1.24441548585371430935e-02 -1.05257546229133899796e-01 9.87555845141462884662e-01 -1.05257546229133899796e-01
