! File generated for n1 = 3, n2 = 4
! b1 = 21.544347
! b2 = 2.154435
! Q0 = 10000.000000
! f0 = 1000000000.000000
! n = 1001
! rel_span = 10.000000
# Hz S RI R 50
9.87650609204824686050e+08 9.82938929979731090825e-01 -1.71677341680456646555e-01 -5.39518405836647910179e-03 -5.42891422353201716366e-02 -5.39518405836647910179e-03 -5.42891422353201716366e-02 9.98293892997973109082e-01 -1.71677341680456611861e-02
9.87675307986415028572e+08 9.82870725705725312160e-01 -1.72016756987744656726e-01 -5.41675214356811610128e-03 -5.43964747796957803772e-02 -5.41675214356811610128e-03 -5.43964747796957803772e-02 9.98287072570572586727e-01 -1.72016756987744615093e-02
9.87700006768005371094e+08 9.82802114731886167220e-01 -1.72357494602949384843e-01 -5.43844883854953387026e-03 -5.45042254745498819246e-02 -5.43844883854953387026e-03 -5.45042254745498819246e-02 9.98280211473188572313e-01 -1.72357494602949357088e-02
9.87724705549595713615e+08 9.82733093832690141056e-01 -1.72699562183789012693e-01 -5.46027516331075955802e-03 -5.46123967414655769881e-02 -5.46027516331075955802e-03 -5.46123967414655769881e-02 9.98273309383268969697e-01 -1.72699562183788977998e-02
9.87749404331186056137e+08 9.82663659750698692541e-01 -1.73042967446522338859e-01 -5.48223214794435389358e-03 -5.47209910205381580561e-02 -5.48223214794435389358e-03 -5.47209910205381580561e-02 9.98266365975069902561e-01 -1.73042967446522290287e-02
9.87774103112776398659e+08 9.82593809196179668319e-01 -1.73387718166500504058e-01 -5.50432083275494317409e-03 -5.48300107705495531896e-02 -5.50432083275494317409e-03 -5.48300107705495531896e-02 9.98259380919617966832e-01 -1.73387718166500455486e-02
9.87798801894366741180e+08 9.82523538846722277462e-01 -1.73733822178735397568e-01 -5.52654226838106624187e-03 -5.49394584691480572514e-02 -5.52654226838106624187e-03 -5.49394584691480572514e-02 9.98252353884672261053e-01 -1.73733822178735348996e-02
9.87823500675957083702e+08 9.82452845346850733854e-01 -1.74081287378453158921e-01 -5.54889751591734932401e-03 -5.50493366130234001998e-02 -5.54889751591734932401e-03 -5.50493366130234001998e-02 9.98245284534685084488e-01 -1.74081287378453110348e-02
9.87848199457547545433e+08 9.82381725307627684529e-01 -1.74430121721677516833e-01 -5.57138764703990312099e-03 -5.51596477180911898275e-02 -5.57138764703990312099e-03 -5.51596477180911898275e-02 9.98238172530762746248e-01 -1.74430121721677461322e-02
9.87872898239137887955e+08 9.82310175306256971872e-01 -1.74780333225795170282e-01 -5.59401374413184653001e-03 -5.52703943196717131792e-02 -5.59401374413184653001e-03 -5.52703943196717131792e-02 9.98231017530625708289e-01 -1.74780333225795121710e-02
9.87897597020728230476e+08 9.82238191885675737680e-01 -1.75131929970156974274e-01 -5.61677690041251839043e-03 -5.53815789726800414283e-02 -5.61677690041251839043e-03 -5.53815789726800414283e-02 9.98223819188567618177e-01 -1.75131929970156925702e-02
9.87922295802318572998e+08 9.82165771554145750066e-01 -1.75484920096654700705e-01 -5.63967822006643942911e-03 -5.54932042518084187033e-02 -5.63967822006643942911e-03 -5.54932042518084187033e-02 9.98216577155414563904e-01 -1.75484920096654652133e-02
9.87946994583908915520e+08 9.82092910784835293470e-01 -1.75839311810329995689e-01 -5.66271881837576013252e-03 -5.56052727517188302708e-02 -5.66271881837576013252e-03 -5.56052727517188302708e-02 9.98209291078483551551e-01 -1.75839311810329947117e-02
9.87971693365499258041e+08 9.82019606015398061061e-01 -1.76195113379970264011e-01 -5.68589982185325505670e-03 -5.57177870872314559558e-02 -5.68589982185325505670e-03 -5.57177870872314559558e-02 9.98201960601539761697e-01 -1.76195113379970201561e-02
9.87996392147089600563e+08 9.81945853647543831499e-01 -1.76552333138728062556e-01 -5.70922236837826616723e-03 -5.58307498935205065438e-02 -5.70922236837826616723e-03 -5.58307498935205065438e-02 9.98194585364754360945e-01 -1.76552333138728020923e-02
9.88021090928679943085e+08 9.81871650046604260709e-01 -1.76910979484735414458e-01 -5.73268760733377721883e-03 -5.59441638263085197491e-02 -5.73268760733377721883e-03 -5.59441638263085197491e-02 9.98187165004660426071e-01 -1.76910979484735352008e-02
9.88045789710270285606e+08 9.81796991541092900491e-01 -1.77271060881730918579e-01 -5.75629669974579184777e-03 -5.60580315620646321695e-02 -5.75629669974579184777e-03 -5.60580315620646321695e-02 9.98179699154109312254e-01 -1.77271060881730863068e-02
9.88070488491860628128e+08 9.81721874422257223536e-01 -1.77632585859696240371e-01 -5.78005081842481935328e-03 -5.61723557982058835369e-02 -5.78005081842481935328e-03 -5.61723557982058835369e-02 9.98172187442225689047e-01 -1.77632585859696170982e-02
9.88095187273450970650e+08 9.81646294943627761853e-01 -1.77995563015487245906e-01 -5.80395114810854009096e-03 -5.62871392532968209399e-02 -5.80395114810854009096e-03 -5.62871392532968209399e-02 9.98164629494362798390e-01 -1.77995563015487176517e-02
9.88119886055041313171e+08 9.81570249320557031147e-01 -1.78360001013488755905e-01 -5.82799888560755433714e-03 -5.64023846672564929672e-02 -5.82799888560755433714e-03 -5.64023846672564929672e-02 9.98157024932055714217e-01 -1.78360001013488714272e-02
9.88144584836631655693e+08 9.81493733729753237149e-01 -1.78725908586271964307e-01 -5.85219523995289536700e-03 -5.65180948015663736639e-02 -5.85219523995289536700e-03 -5.65180948015663736639e-02 9.98149373372975268204e-01 -1.78725908586271908796e-02
9.88169283618221998215e+08 9.81416744308809763098e-01 -1.79093294535246333465e-01 -5.87654143254476377806e-03 -5.66342724394765101303e-02 -5.87654143254476377806e-03 -5.66342724394765101303e-02 9.98141674430880976310e-01 -1.79093294535246291832e-02
9.88193982399812459946e+08 9.81339277155722888857e-01 -1.79462167731344990340e-01 -5.90103869730511723657e-03 -5.67509203862222796899e-02 -5.90103869730511723657e-03 -5.67509203862222796899e-02 9.98133927715572299988e-01 -1.79462167731344948707e-02
9.88218681181402802467e+08 9.81261328328410065147e-01 -1.79832537115679841344e-01 -5.92568828082987771738e-03 -5.68680414692315228109e-02 -5.92568828082987771738e-03 -5.68680414692315228109e-02 9.98126132832841017617e-01 -1.79832537115679792772e-02
9.88243379962993144989e+08 9.81182893844211534429e-01 -1.80204411700254640838e-01 -5.95049144254668638948e-03 -5.69856385383500432806e-02 -5.95049144254668638948e-03 -5.69856385383500432806e-02 9.98118289384421153443e-01 -1.80204411700254571449e-02
9.88268078744583487511e+08 9.81103969679393950187e-01 -1.80577800568637425460e-01 -5.97544945487166970916e-03 -5.71037144660542922425e-02 -5.97544945487166970916e-03 -5.71037144660542922425e-02 9.98110396967939350610e-01 -1.80577800568637383827e-02
9.88292777526173830032e+08 9.81024551768642116834e-01 -1.80952712876670945841e-01 -6.00056360337044517733e-03 -5.72222721476759454973e-02 -6.00056360337044517733e-03 -5.72222721476759454973e-02 9.98102455176864244990e-01 -1.80952712876670876452e-02
9.88317476307764172554e+08 9.80944636004544623376e-01 -1.81329157853177380666e-01 -6.02583518692053309029e-03 -5.73413145016248362862e-02 -6.02583518692053309029e-03 -5.73413145016248362862e-02 9.98094463600454506746e-01 -1.81329157853177304338e-02
9.88342175089354515076e+08 9.80864218237069707129e-01 -1.81707144800687753206e-01 -6.05126551787719957343e-03 -5.74608444696195694301e-02 -6.05126551787719957343e-03 -5.74608444696195694301e-02 9.98086421823706992917e-01 -1.81707144800687704633e-02
9.88366873870944857597e+08 9.80783294273039341071e-01 -1.82086683096150808714e-01 -6.07685592223975584725e-03 -5.75808650169116892359e-02 -6.07685592223975584725e-03 -5.75808650169116892359e-02 9.98078329427303900800e-01 -1.82086683096150774019e-02
9.88391572652535200119e+08 9.80701859875589332383e-01 -1.82467782191680000237e-01 -6.10260773982227496676e-03 -5.77013791325219210782e-02 -6.10260773982227496676e-03 -5.77013791325219210782e-02 9.98070185987558922136e-01 -1.82467782191679944725e-02
9.88416271434125542641e+08 9.80619910763624869077e-01 -1.82850451615296116792e-01 -6.12852232442588889388e-03 -5.78223898294750043858e-02 -6.12852232442588889388e-03 -5.78223898294750043858e-02 9.98061991076362509112e-01 -1.82850451615296089036e-02
9.88440970215715885162e+08 9.80537442611268295067e-01 -1.83234700971671521375e-01 -6.15460104401311172695e-03 -5.79439001450349974731e-02 -6.15460104401311172695e-03 -5.79439001450349974731e-02 9.98053744261126807302e-01 -1.83234700971671472802e-02
9.88465668997306227684e+08 9.80454451047297226296e-01 -1.83620539942900951047e-01 -6.18084528088592554534e-03 -5.80659131409491172104e-02 -6.18084528088592554534e-03 -5.80659131409491172104e-02 9.98045445104729700425e-01 -1.83620539942900874719e-02
9.88490367778896570206e+08 9.80370931654576560632e-01 -1.84007978289261076021e-01 -6.20725643186507535648e-03 -5.81884319036878386311e-02 -6.20725643186507535648e-03 -5.81884319036878386311e-02 9.98037093165457633859e-01 -1.84007978289261013571e-02
9.88515066560486912727e+08 9.80286879969478830432e-01 -1.84397025850001144986e-01 -6.23383590847347533737e-03 -5.83114595446949726676e-02 -6.23383590847347533737e-03 -5.83114595446949726676e-02 9.98028687996947883043e-01 -1.84397025850001096414e-02
9.88539765342077255249e+08 9.80202291481302223630e-01 -1.84787692544113590909e-01 -6.26058513712033672116e-03 -5.84349992006313323500e-02 -6.26058513712033672116e-03 -5.84349992006313323500e-02 9.98020229148130266772e-01 -1.84787692544113556214e-02
9.88564464123667716980e+08 9.80117161631670397171e-01 -1.85179988371154430338e-01 -6.28750555929074705225e-03 -5.85590540336341919270e-02 -6.28750555929074705225e-03 -5.85590540336341919270e-02 9.98011716163167084126e-01 -1.85179988371154402582e-02
9.88589162905258059502e+08 9.80031485813936176221e-01 -1.85573923412021279944e-01 -6.31459863173448529561e-03 -5.86836272315632637153e-02 -6.31459863173448529561e-03 -5.86836272315632637153e-02 9.98003148581393606520e-01 -1.85573923412021245249e-02
9.88613861686848402023e+08 9.79945259372562493816e-01 -1.85969507829799762799e-01 -6.34186582666167956296e-03 -5.88087220082684214439e-02 -6.34186582666167956296e-03 -5.88087220082684214439e-02 9.97994525937256238279e-01 -1.85969507829799700349e-02
9.88638560468438744545e+08 9.79858477602506439119e-01 -1.86366751870563951421e-01 -6.36930863193750119999e-03 -5.89343416038427825310e-02 -6.36930863193750119999e-03 -5.89343416038427825310e-02 9.97985847760250677219e-01 -1.86366751870563895910e-02
9.88663259250029087067e+08 9.79771135748585764169e-01 -1.86765665864227631277e-01 -6.39692855128258172637e-03 -5.90604892848919094117e-02 -6.39692855128258172637e-03 -5.90604892848919094117e-02 9.97977113574858631928e-01 -1.86765665864227596582e-02
9.88687958031619429588e+08 9.79683229004840616660e-01 -1.87166260225384600835e-01 -6.42472710447495546499e-03 -5.91871683447995136640e-02 -6.42472710447495546499e-03 -5.91871683447995136640e-02 9.97968322900484094973e-01 -1.87166260225384538385e-02
9.88712656813209772110e+08 9.79594752513884170497e-01 -1.87568545454160462427e-01 -6.45270582755509344852e-03 -5.93143821039968793807e-02 -6.45270582755509344852e-03 -5.93143821039968793807e-02 9.97959475251388394845e-01 -1.87568545454160420793e-02
9.88737355594800114632e+08 9.79505701366243486383e-01 -1.87972532137085590609e-01 -6.48086627303475892176e-03 -5.94421339102388368580e-02 -6.48086627303475892176e-03 -5.94421339102388368580e-02 9.97950570136624359741e-01 -1.87972532137085507342e-02
9.88762054376390457153e+08 9.79416070599691157561e-01 -1.88378230947963798414e-01 -6.50921001010795838987e-03 -5.95704271388785497332e-02 -6.50921001010795838987e-03 -5.95704271388785497332e-02 9.97941607059969149063e-01 -1.88378230947963756781e-02
9.88786753157980799675e+08 9.79325855198566519455e-01 -1.88785652648764512573e-01 -6.53773862486593283772e-03 -5.96992651931495393880e-02 -6.53773862486593283772e-03 -5.96992651931495393880e-02 9.97932585519856640843e-01 -1.88785652648764470940e-02
9.88811451939571142197e+08 9.79235050093085868106e-01 -1.89194808090519778210e-01 -6.56645372051500690602e-03 -5.98286515044494371374e-02 -6.56645372051500690602e-03 -5.98286515044494371374e-02 9.97923505009308597913e-01 -1.89194808090519701882e-02
9.88836150721161484718e+08 9.79143650158645129089e-01 -1.89605708214226675867e-01 -6.59535691759728474881e-03 -5.99585895326253115467e-02 -6.59535691759728474881e-03 -5.99585895326253115467e-02 9.97914365015864501807e-01 -1.89605708214226620356e-02
9.88860849502751827240e+08 9.79051650215108537623e-01 -1.90018364051772581380e-01 -6.62444985421553091121e-03 -6.00890827662662607711e-02 -6.62444985421553091121e-03 -6.00890827662662607711e-02 9.97905165021510831558e-01 -1.90018364051772539747e-02
9.88885548284342169762e+08 9.78959045026089325070e-01 -1.90432786726860509008e-01 -6.65373418626065415982e-03 -6.02201347229960326501e-02 -6.65373418626065415982e-03 -6.02201347229960326501e-02 9.97895904502608899200e-01 -1.90432786726860460436e-02
9.88910247065932631493e+08 9.78865829298217415833e-01 -1.90848987455953800207e-01 -6.68321158764320893270e-03 -6.03517489497717857239e-02 -6.68321158764320893270e-03 -6.03517489497717857239e-02 9.97886582929821797094e-01 -1.90848987455953730819e-02
9.88934945847522974014e+08 9.78771997680399019615e-01 -1.91266977549222172428e-01 -6.71288375052767928575e-03 -6.04839290231832110711e-02 -6.71288375052767928575e-03 -6.04839290231832110711e-02 9.97877199768039901961e-01 -1.91266977549222096100e-02
9.88959644629113316536e+08 9.78677544763060014432e-01 -1.91686768411516883504e-01 -6.74275238557157235997e-03 -6.06166785497609592048e-02 -6.74275238557157235997e-03 -6.06166785497609592048e-02 9.97867754476306045852e-01 -1.91686768411516821053e-02
9.88984343410703659058e+08 9.78582465077384666685e-01 -1.92108371543331407638e-01 -6.77281922216627172567e-03 -6.07500011662803623969e-02 -6.77281922216627172567e-03 -6.07500011662803623969e-02 9.97858246507738466669e-01 -1.92108371543331345188e-02
9.89009042192294001579e+08 9.78486753094534367214e-01 -1.92531798541808629732e-01 -6.80308600868405506656e-03 -6.08839005400800270529e-02 -6.80308600868405506656e-03 -6.08839005400800270529e-02 9.97848675309453425619e-01 -1.92531798541808567282e-02
9.89033740973884344101e+08 9.78390403224864257936e-01 -1.92957061101718008178e-01 -6.83355451272583350880e-03 -6.10183803693707740856e-02 -6.83355451272583350880e-03 -6.10183803693707740856e-02 9.97839040322486381385e-01 -1.92957061101717945728e-02
9.89058439755474686623e+08 9.78293409817118431171e-01 -1.93384171016485806316e-01 -6.86422652137565203478e-03 -6.11534443835614408003e-02 -6.86422652137565203478e-03 -6.11534443835614408003e-02 9.97829340981711832015e-01 -1.93384171016485750805e-02
9.89083138537065029144e+08 9.78195767157619577858e-01 -1.93813140179208281966e-01 -6.89510384145693763086e-03 -6.12890963435792843206e-02 -6.89510384145693763086e-03 -6.12890963435792843206e-02 9.97819576715761935581e-01 -1.93813140179208247271e-02
9.89107837318655371666e+08 9.78097469469442648560e-01 -1.94243980583691633335e-01 -6.92618829979374864281e-03 -6.14253400421988435265e-02 -6.92618829979374864281e-03 -6.14253400421988435265e-02 9.97809746946944242652e-01 -1.94243980583691591701e-02
9.89132536100245714188e+08 9.77998510911576524052e-01 -1.94676704325504351667e-01 -6.95748174347598277029e-03 -6.15621793043747214669e-02 -6.95748174347598277029e-03 -6.15621793043747214669e-02 9.97799851091157652405e-01 -1.94676704325504289217e-02
9.89157234881836056709e+08 9.77898885578075027780e-01 -1.95111323603030573093e-01 -6.98898604012785067824e-03 -6.16996179875746869614e-02 -6.98898604012785067824e-03 -6.16996179875746869614e-02 9.97789888557807480574e-01 -1.95111323603030517582e-02
9.89181933663426399231e+08 9.77798587497189619633e-01 -1.95547850718558097194e-01 -7.02070307818202822558e-03 -6.18376599821237396548e-02 -7.02070307818202822558e-03 -6.18376599821237396548e-02 9.97779858749718973066e-01 -1.95547850718558041683e-02
9.89206632445016741753e+08 9.77697610630495095307e-01 -1.95986298079353998824e-01 -7.05263476715622342900e-03 -6.19763092115442060237e-02 -7.05263476715622342900e-03 -6.19763092115442060237e-02 9.97769761063049487326e-01 -1.95986298079353950252e-02
9.89231331226607084274e+08 9.77595948871995745755e-01 -1.96426678198778181805e-01 -7.08478303793580628522e-03 -6.21155696329079368145e-02 -7.08478303793580628522e-03 -6.21155696329079368145e-02 9.97759594887199563473e-01 -1.96426678198778105477e-02
9.89256030008197426796e+08 9.77493596047223745060e-01 -1.96869003697385164253e-01 -7.11714984305897822858e-03 -6.22554452371847089065e-02 -7.11714984305897822858e-03 -6.22554452371847089065e-02 9.97749359604722330097e-01 -1.96869003697385108742e-02
9.89280728789787888527e+08 9.77390545912315444887e-01 -1.97313287304072021433e-01 -7.14973715700875644963e-03 -6.23959400496051988516e-02 -7.14973715700875644963e-03 -6.23959400496051988516e-02 9.97739054591231577795e-01 -1.97313287304071958983e-02
9.89305427571378231049e+08 9.77286792153084782342e-01 -1.97759541857193965608e-01 -7.18254697650611787646e-03 -6.25370581300137978742e-02 -7.18254697650611787646e-03 -6.25370581300137978742e-02 9.97728679215308500439e-01 -1.97759541857193930914e-02
9.89330126352968573570e+08 9.77182328384066711813e-01 -1.98207780305757447215e-01 -7.21558132081239443634e-03 -6.26788035732458725935e-02 -7.21558132081239443634e-03 -6.26788035732458725935e-02 9.97718232838406660079e-01 -1.98207780305757405581e-02
9.89354825134558916092e+08 9.77077148147562191127e-01 -1.98658015710559243683e-01 -7.24884223203134999552e-03 -6.28211805094880393341e-02 -7.24884223203134999552e-03 -6.28211805094880393341e-02 9.97707714814756174704e-01 -1.98658015710559202049e-02
9.89379523916149258614e+08 9.76971244912654857018e-01 -1.99110261245394576379e-01 -7.28233177542005408189e-03 -6.29641931046601016631e-02 -7.28233177542005408189e-03 -6.29641931046601016631e-02 9.97697124491265463497e-01 -1.99110261245394534746e-02
9.89404222697739601135e+08 9.76864612074221261295e-01 -1.99564530198243716974e-01 -7.31605203970193528756e-03 -6.31078455607903959779e-02 -7.31605203970193528756e-03 -6.31078455607903959779e-02 9.97686461207422103925e-01 -1.99564530198243668402e-02
9.89428921479329943657e+08 9.76757242951918347451e-01 -2.00020835972502752931e-01 -7.35000513738696004823e-03 -6.32521421164049107988e-02 -7.35000513738696004823e-03 -6.32521421164049107988e-02 9.97675724295191801438e-01 -2.00020835972502669664e-02
9.89453620260920286179e+08 9.76649130789161601385e-01 -2.00479192088201474409e-01 -7.38419320509477519754e-03 -6.33970870469124786473e-02 -7.38419320509477519754e-03 -6.33970870469124786473e-02 9.97664913078916137934e-01 -2.00479192088201425836e-02
9.89478319042510628700e+08 9.76540268752082329939e-01 -2.00939612183255900124e-01 -7.41861840388441298039e-03 -6.35426846650007925987e-02 -7.41861840388441298039e-03 -6.35426846650007925987e-02 9.97654026875208210789e-01 -2.00939612183255837674e-02
9.89503017824100971222e+08 9.76430649928468730181e-01 -2.01402110014735014065e-01 -7.45328291958911523518e-03 -6.36889393210370718945e-02 -7.45328291958911523518e-03 -6.36889393210370718945e-02 9.97643064992846828609e-01 -2.01402110014734965493e-02
9.89527716605691313744e+08 9.76320267326693636001e-01 -2.01866699460131138189e-01 -7.48818896315558719251e-03 -6.38358554034696851209e-02 -7.48818896315558719251e-03 -6.38358554034696851209e-02 9.97632026732669374702e-01 -2.01866699460131054922e-02
9.89552415387281656265e+08 9.76209113874620615370e-01 -2.02333394518660475425e-01 -7.52333877098970184305e-03 -6.39834373392395155955e-02 -7.52333877098970184305e-03 -6.39834373392395155955e-02 9.97620911387462117048e-01 -2.02333394518660406036e-02
9.89577114168871998787e+08 9.76097182418496078782e-01 -2.02802209312569786670e-01 -7.55873460530698260129e-03 -6.41316895941931031100e-02 -7.55873460530698260129e-03 -6.41316895941931031100e-02 9.97609718241849630083e-01 -2.02802209312569724220e-02
