! File generated for n1 = 3, n2 = 14
! b1 = 21.544347
! b2 = 0.001000
! Q0 = 10000.000000
! f0 = 1000000000.000000
! n = 1001
! rel_span = 10.000000
# Hz S RI R 50
9.88727326549840569496e+08 9.81289033213916361831e-01 -1.88176304803361033047e-01 -1.27476332757657376867e-04 -1.28203024047163368325e-03 -1.27476332757657376867e-04 -1.28203024047163368325e-03 9.99999131513854999653e-01 -8.73437035125794640294e-06
9.88749871896740913391e+08 9.81214275531005042374e-01 -1.88548125146217632198e-01 -1.27985650922343371667e-04 -1.28456342297865976076e-03 -1.27985650922343371667e-04 -1.28456342297865976076e-03 9.99999128043910778807e-01 -8.75162872277307934043e-06
9.88772417243641257286e+08 9.81139072155591374091e-01 -1.88921394027591643683e-01 -1.28498005554700364846e-04 -1.28710647426372236206e-03 -1.28498005554700364846e-04 -1.28710647426372236206e-03 9.99999124553279217231e-01 -8.76895432949028644199e-06
9.88794962590541481972e+08 9.81063419553255156025e-01 -1.89296119836078302612e-01 -1.29013420734453332535e-04 -1.28965945147765524877e-03 -1.29013420734453332535e-04 -1.28965945147765524877e-03 9.99999121041796557030e-01 -8.78634756077366781927e-06
9.88817507937441825867e+08 9.80987314154605272165e-01 -1.89672311024404849356e-01 -1.29531920779579756697e-04 -1.29222241220821893598e-03 -1.29531920779579756697e-04 -1.29222241220821893598e-03 9.99999117509296819861e-01 -8.80380880896406841111e-06
9.88840053284342169762e+08 9.80910752354867909730e-01 -1.90049976110025720111e-01 -1.30053530249118169540e-04 -1.29479541448415474102e-03 -1.30053530249118169540e-04 -1.29479541448415474102e-03 9.99999113955612917159e-01 -8.82133846940670142205e-06
9.88862598631242513657e+08 9.80833730513464119305e-01 -1.90429123675745104460e-01 -1.30578273946044704510e-04 -1.29737851677942726651e-03 -1.30578273946044704510e-04 -1.29737851677942726651e-03 9.99999110380575650936e-01 -8.83893694048004569831e-06
9.88885143978142857552e+08 9.80756244953583711244e-01 -1.90809762370336699622e-01 -1.31106176920175288665e-04 -1.29997177801744563316e-03 -1.31106176920175288665e-04 -1.29997177801744563316e-03 9.99999106784014601956e-01 -8.85660462362461943704e-06
9.88907689325043082237e+08 9.80678291961755155270e-01 -1.91191900909161882627e-01 -1.31637264471096810357e-04 -1.30257525757527560517e-03 -1.31637264471096810357e-04 -1.30257525757527560517e-03 9.99999103165757241563e-01 -8.87434192337166072187e-06
9.88930234671943426132e+08 9.80599867787404821939e-01 -1.91575548074817109123e-01 -1.32171562151169410572e-04 -1.30518901528805034151e-03 -1.32171562151169410572e-04 -1.30518901528805034151e-03 9.99999099525629486784e-01 -8.89214924737318533415e-06
9.88952780018843770027e+08 9.80520968642416446137e-01 -1.91960712717759052204e-01 -1.32709095768529722944e-04 -1.30781311145322914208e-03 -1.32709095768529722944e-04 -1.30781311145322914208e-03 9.99999095863455589317e-01 -8.91002700643100271352e-06
9.88975325365744113922e+08 9.80441590700678600179e-01 -1.92347403756962603838e-01 -1.33249891390171688443e-04 -1.31044760683508084050e-03 -1.33249891390171688443e-04 -1.31044760683508084050e-03 9.99999092179057913476e-01 -8.92797561452725657789e-06
9.88997870712644338608e+08 9.80361730097629169300e-01 -1.92735630180570577386e-01 -1.33793975345048728838e-04 -1.31309256266910930055e-03 -1.33793975345048728838e-04 -1.31309256266910930055e-03 9.99999088472257047222e-01 -8.94599548885457760230e-06
9.89020416059544682503e+08 9.80281382929791611502e-01 -1.93125401046564837415e-01 -1.34341374227238776785e-04 -1.31574804066662679781e-03 -1.34341374227238776785e-04 -1.31574804066662679781e-03 9.99999084742871913178e-01 -8.96408704984724406697e-06
9.89042961406445026398e+08 9.80200545254307331611e-01 -1.93516725483424356646e-01 -1.34892114899124593167e-04 -1.31841410301923632822e-03 -1.34892114899124593167e-04 -1.31841410301923632822e-03 9.99999080990719435569e-01 -8.98225072121171400693e-06
9.89065506753345370293e+08 9.80119213088457286176e-01 -1.93909612690815247316e-01 -1.35446224494653502234e-04 -1.32109081240353379294e-03 -1.35446224494653502234e-04 -1.32109081240353379294e-03 9.99999077215614651237e-01 -9.00048692995866169212e-06
9.89088052100245714188e+08 9.80037382409181923038e-01 -1.94304071940267747420e-01 -1.36003730422613335581e-04 -1.32377823198571932702e-03 -1.36003730422613335581e-04 -1.32377823198571932702e-03 9.99999073417371042716e-01 -9.01879610643440254977e-06
9.89110597447145938873e+08 9.79955049152591017858e-01 -1.94700112575867639864e-01 -1.36564660369963968576e-04 -1.32647642542630794099e-03 -1.36564660369963968576e-04 -1.32647642542630794099e-03 9.99999069595799761068e-01 -9.03717868435297538431e-06
9.89133142794046282768e+08 9.79872209213464628874e-01 -1.95097744014975676974e-01 -1.37129042305244615426e-04 -1.32918545688503206628e-03 -1.37129042305244615426e-04 -1.32918545688503206628e-03 9.99999065750710403044e-01 -9.05563510082954766271e-06
9.89155688140946626663e+08 9.79788858444754939825e-01 -1.95496975748908147219e-01 -1.37696904481962475965e-04 -1.33190539102547673631e-03 -1.37696904481962475965e-04 -1.33190539102547673631e-03 9.99999061881910455973e-01 -9.07416579641199629090e-06
9.89178233487846970558e+08 9.79704992657071227491e-01 -1.95897817343678337654e-01 -1.38268275442104737532e-04 -1.33463629302013131808e-03 -1.38268275442104737532e-04 -1.33463629302013131808e-03 9.99999057989205408781e-01 -9.09277121511532425652e-06
9.89200778834747314453e+08 9.79620607618163830033e-01 -1.96300278440712266947e-01 -1.38843184019652040543e-04 -1.33737822855526712097e-03 -1.38843184019652040543e-04 -1.33737822855526712097e-03 9.99999054072398863013e-01 -9.11145180445488634324e-06
9.89223324181647539139e+08 9.79535699052400121722e-01 -1.96704368757579045601e-01 -1.39421659344150951744e-04 -1.34013126383591171624e-03 -1.39421659344150951744e-04 -1.34013126383591171624e-03 9.99999050131292310795e-01 -9.13020801548028569530e-06
9.89245869528547883034e+08 9.79450262640228386246e-01 -1.97110098088748769696e-01 -1.40003730844364608459e-04 -1.34289546559101299200e-03 -1.40003730844364608459e-04 -1.34289546559101299200e-03 9.99999046165685356868e-01 -9.14904030281055278986e-06
9.89268414875448226929e+08 9.79364294017642911250e-01 -1.97517476306319050838e-01 -1.40589428251918375492e-04 -1.34567090107838896983e-03 -1.40589428251918375492e-04 -1.34567090107838896983e-03 9.99999042175375385533e-01 -9.16794912466786412455e-06
9.89290960222348570824e+08 9.79277788775630875229e-01 -1.97926513360797140528e-01 -1.41178781605065197967e-04 -1.34845763809005644157e-03 -1.41178781605065197967e-04 -1.34845763809005644157e-03 9.99999038160157782684e-01 -9.18693494291385790807e-06
9.89313505569248914719e+08 9.79190742459619456461e-01 -1.98337219281858656572e-01 -1.41771821252458679087e-04 -1.35125574495740001166e-03 -1.41771821252458679087e-04 -1.35125574495740001166e-03 9.99999034119825602751e-01 -9.20599822308483505537e-06
9.89336050916149139404e+08 9.79103150568911506646e-01 -1.98749604179121797110e-01 -1.42368577856989502427e-04 -1.35406529055644674064e-03 -1.42368577856989502427e-04 -1.35406529055644674064e-03 9.99999030054170234827e-01 -9.22513943442770726602e-06
9.89358596263049483299e+08 9.79015008556113230931e-01 -1.99163678242940789254e-01 -1.42969082399692489979e-04 -1.35688634431327132673e-03 -1.42969082399692489979e-04 -1.35688634431327132673e-03 9.99999025962980403470e-01 -9.24435904993681585226e-06
9.89381141609949827194e+08 9.78926311826553319229e-01 -1.99579451745200253665e-01 -1.43573366183697895661e-04 -1.35971897620940974406e-03 -1.43573366183697895661e-04 -1.35971897620940974406e-03 9.99999021846042945860e-01 -9.26365754639081155359e-06
9.89403686956850171089e+08 9.78837055737696637436e-01 -1.99996935040112067128e-01 -1.44181460838229861610e-04 -1.36256325678728589142e-03 -1.44181460838229861610e-04 -1.36256325678728589142e-03 9.99999017703142256686e-01 -9.28303540438963768928e-06
9.89426232303750395775e+08 9.78747235598544929047e-01 -2.00416138565038426389e-01 -1.44793398322687355160e-04 -1.36541925715582038690e-03 -1.44793398322687355160e-04 -1.36541925715582038690e-03 9.99999013534060732233e-01 -9.30249310839272965025e-06
9.89448777650650739670e+08 9.78656846669030300312e-01 -2.00837072841318686756e-01 -1.45409210930776524109e-04 -1.36828704899606451613e-03 -1.45409210930776524109e-04 -1.36828704899606451613e-03 9.99999009338578215278e-01 -9.32203114675740412629e-06
9.89471322997551083565e+08 9.78565884159405152687e-01 -2.01259748475083183328e-01 -1.46028931294669072835e-04 -1.37116670456674245686e-03 -1.46028931294669072835e-04 -1.37116670456674245686e-03 9.99999005116472550192e-01 -9.34165001177661983483e-06
9.89493868344451427460e+08 9.78474343229612242290e-01 -2.01684176158123090739e-01 -1.46652592389289983732e-04 -1.37405829671017969650e-03 -1.46652592389289983732e-04 -1.37405829671017969650e-03 9.99999000867519027835e-01 -9.36135019971936066378e-06
9.89516413691351771355e+08 9.78382218988657514913e-01 -2.02110366668720425887e-01 -1.47280227536594505045e-04 -1.37696189885795714641e-03 -1.47280227536594505045e-04 -1.37696189885795714641e-03 9.99998996591490496577e-01 -9.38113221086916381213e-06
9.89538959038251996040e+08 9.78289506493965954625e-01 -2.02538330872519656278e-01 -1.47911870409953965502e-04 -1.37987758503684823305e-03 -1.47911870409953965502e-04 -1.37987758503684823305e-03 9.99998992288157695363e-01 -9.40099654956456900134e-06
9.89561504385152339935e+08 9.78196200750727440365e-01 -2.02968079723414129845e-01 -1.48547555038613173384e-04 -1.38280542987485985558e-03 -1.48547555038613173384e-04 -1.38280542987485985558e-03 9.99998987957288698603e-01 -9.42094372424026564182e-06
9.89584049732052683830e+08 9.78102296711240937199e-01 -2.03399624264406636565e-01 -1.49187315812159796043e-04 -1.38574550860709445020e-03 -1.49187315812159796043e-04 -1.38574550860709445020e-03 9.99998983598649360260e-01 -9.44097424746703890676e-06
9.89606595078953027725e+08 9.78007789274241923216e-01 -2.03832975628510909560e-01 -1.49831187485104328026e-04 -1.38869789708189134494e-03 -1.49831187485104328026e-04 -1.38869789708189134494e-03 9.99998979212002647721e-01 -9.46108863599361146562e-06
9.89629140425853371620e+08 9.77912673284219158276e-01 -2.04268145039668197471e-01 -1.50479205181535113109e-04 -1.39166267176707219785e-03 -1.50479205181535113109e-04 -1.39166267176707219785e-03 9.99998974797109529966e-01 -9.48128741078918656096e-06
9.89651685772753596306e+08 9.77816943530727789025e-01 -2.04705143813647155726e-01 -1.51131404399800606904e-04 -1.39463990975607129291e-03 -1.51131404399800606904e-04 -1.39463990975607129291e-03 9.99998970353727978377e-01 -9.50157109708521859122e-06
9.89674231119653940201e+08 9.77720594747686466697e-01 -2.05143983358977072262e-01 -1.51787821017295180767e-04 -1.39762968877429416895e-03 -1.51787821017295180767e-04 -1.39762968877429416895e-03 9.99998965881613632867e-01 -9.52194022441873037560e-06
9.89696776466554284096e+08 9.77623621612665028024e-01 -2.05584675177890391362e-01 -1.52448491295312986513e-04 -1.40063208718553783121e-03 -1.52448491295312986513e-04 -1.40063208718553783121e-03 9.99998961380519357789e-01 -9.54239532667605562955e-06
9.89719321813454627991e+08 9.77526018746166958096e-01 -2.06027230867251914814e-01 -1.53113451883937437157e-04 -1.40364718399832270890e-03 -1.53113451883937437157e-04 -1.40364718399832270890e-03 9.99998956850195686030e-01 -9.56293694213597835277e-06
9.89741867160354971886e+08 9.77427780710891980220e-01 -2.06471662119539434155e-01 -1.53782739827064207161e-04 -1.40667505887257264161e-03 -1.53782739827064207161e-04 -1.40667505887257264161e-03 9.99998952290389930830e-01 -9.58356561351524052132e-06
9.89764412507255196571e+08 9.77328902010994760019e-01 -2.06917980723804434406e-01 -1.54456392567451310628e-04 -1.40971579212616020781e-03 -1.54456392567451310628e-04 -1.40971579212616020781e-03 9.99998947700847296005e-01 -9.60428188801314176046e-06
9.89786957854155540466e+08 9.77229377091329176608e-01 -2.07366198566660248082e-01 -1.55134447951869359778e-04 -1.41276946474163940352e-03 -1.55134447951869359778e-04 -1.41276946474163940352e-03 9.99998943081309765724e-01 -9.62508631735739601429e-06
9.89809503201055884361e+08 9.77129200336683489958e-01 -2.07816327633269598563e-01 -1.55816944236310072182e-04 -1.41583615837297376733e-03 -1.55816944236310072182e-04 -1.41583615837297376733e-03 9.99998938431516659620e-01 -9.64597945784998313332e-06
9.89832048547956228256e+08 9.77028366071002296600e-01 -2.08268380008354958566e-01 -1.56503920091288968065e-04 -1.41891595535241824520e-03 -1.56503920091288968065e-04 -1.41891595535241824520e-03 9.99998933751204632792e-01 -9.66696187041402537178e-06
9.89854593894856452942e+08 9.76926868556598382298e-01 -2.08722367877211045784e-01 -1.57195414607214176833e-04 -1.42200893869742013738e-03 -1.57195414607214176833e-04 -1.42200893869742013738e-03 9.99998929040107342736e-01 -9.68803412064080618656e-06
9.89877139241756796837e+08 9.76824701993346700135e-01 -2.09178303526757092268e-01 -1.57891467299876592928e-04 -1.42511519211778524101e-03 -1.57891467299876592928e-04 -1.42511519211778524101e-03 9.99998924297955560370e-01 -9.70919677883859491032e-06
9.89899684588657140732e+08 9.76721860517878459618e-01 -2.09636199346548895983e-01 -1.58592118115943853498e-04 -1.42823480002257467703e-03 -1.58592118115943853498e-04 -1.42823480002257467703e-03 9.99998919524477170029e-01 -9.73045042007963166910e-06
9.89922229935557484627e+08 9.76618338202750790877e-01 -2.10096067829853794251e-01 -1.59297407438613883518e-04 -1.43136784752742802530e-03 -1.59297407438613883518e-04 -1.43136784752742802530e-03 9.99998914719396947426e-01 -9.75179562425001592886e-06
9.89944775282457828522e+08 9.76514129055607749130e-01 -2.10557921574723833080e-01 -1.60007376093332354637e-04 -1.43451442046187496726e-03 -1.60007376093332354637e-04 -1.43451442046187496726e-03 9.99998909882436781693e-01 -9.77323297609952558527e-06
9.89967320629358053207e+08 9.76409227018333769621e-01 -2.11021773285058417136e-01 -1.60722065353560640728e-04 -1.43767460537657428693e-03 -1.60722065353560640728e-04 -1.43767460537657428693e-03 9.99998905013315564361e-01 -9.79476306529093799819e-06
9.89989865976258397102e+08 9.76303625966184585039e-01 -2.11487635771720611233e-01 -1.61441516946694667289e-04 -1.44084848955091998288e-03 -1.61441516946694667289e-04 -1.44084848955091998288e-03 9.99998900111748856290e-01 -9.81638648645184130296e-06
9.90012411323158740997e+08 9.76197319706914368176e-01 -2.11955521953628517329e-01 -1.62165773060014850333e-04 -1.44403616100047650986e-03 -1.62165773060014850333e-04 -1.44403616100047650986e-03 9.99998895177449442784e-01 -9.83810383922529545101e-06
9.90034956670059084892e+08 9.76090301979883112615e-01 -2.12425444858884676647e-01 -1.62894876346764919811e-04 -1.44723770848467357848e-03 -1.62894876346764919811e-04 -1.44723770848467357848e-03 9.99998890210126556433e-01 -9.85991572832225507894e-06
9.90057502016959428787e+08 9.75982566455151578921e-01 -2.12897417625915269523e-01 -1.63628869932318400790e-04 -1.45045322151456644068e-03 -1.63628869932318400790e-04 -1.45045322151456644068e-03 9.99998885209486432224e-01 -9.88182276357443961103e-06
9.90080047363859653473e+08 9.75874106732567137001e-01 -2.13371453504603209028e-01 -1.64367797420408710178e-04 -1.45368279036055649336e-03 -1.64367797420408710178e-04 -1.45368279036055649336e-03 9.99998880175232085499e-01 -9.90382555998693739341e-06
9.90102592710759997368e+08 9.75764916340824850494e-01 -2.13847565857478161266e-01 -1.65111702899521856688e-04 -1.45692650606049872546e-03 -1.65111702899521856688e-04 -1.45692650606049872546e-03 9.99998875107063089906e-01 -9.92592473779343224219e-06
9.90125138057660341263e+08 9.75654988736527561954e-01 -2.14325768160867680123e-01 -1.65860630949305322499e-04 -1.46018446042754396902e-03 -1.65860630949305322499e-04 -1.46018446042754396902e-03 9.99998870004675688428e-01 -9.94812092250963936400e-06
9.90147683404560685158e+08 9.75544317303219443716e-01 -2.14806074006108210783e-01 -1.66614626647146405738e-04 -1.46345674605838946096e-03 -1.66614626647146405738e-04 -1.46345674605838946096e-03 9.99998864867762793374e-01 -9.97041474498951276828e-06
9.90170228751461029053e+08 9.75432895350413664559e-01 -2.15288497100737691303e-01 -1.67373735574801547552e-04 -1.46674345634140428779e-03 -1.67373735574801547552e-04 -1.46674345634140428779e-03 9.99998859696013875364e-01 -9.99280684148060395261e-06
9.90192774098361253738e+08 9.75320716112597962955e-01 -2.15773051269729371215e-01 -1.68138003825169614130e-04 -1.47004468546503433771e-03 -1.68138003825169614130e-04 -1.47004468546503433771e-03 9.99998854489114852306e-01 -1.00152978536813281062e-05
9.90215319445261597633e+08 9.75207772748227563753e-01 -2.16259750456728849777e-01 -1.68907478009152050430e-04 -1.47336052842623132196e-03 -1.68907478009152050430e-04 -1.47336052842623132196e-03 9.99998849246748311437e-01 -1.00378884287983793911e-05
9.90237864792161941528e+08 9.75094058338706992650e-01 -2.16748608725288366417e-01 -1.69682205262591746971e-04 -1.47669108103886141323e-03 -1.69682205262591746971e-04 -1.47669108103886141323e-03 9.99998843968592954212e-01 -1.00605792196040310271e-05
9.90260410139062285423e+08 9.74979565887345356323e-01 -2.17239640260159766472e-01 -1.70462233253388740009e-04 -1.48003643994251373774e-03 -1.70462233253388740009e-04 -1.48003643994251373774e-03 9.99998838654324151420e-01 -1.00833708844961391060e-05
9.90282955485962510109e+08 9.74864288318306848602e-01 -2.17732859368555214941e-01 -1.71247610188651039863e-04 -1.48339670261109029224e-03 -1.71247610188651039863e-04 -1.48339670261109029224e-03 9.99998833303613388068e-01 -1.01062640875566657912e-05
9.90305500832862854004e+08 9.74748218475532945959e-01 -2.18228280481473441155e-01 -1.72038384822037227493e-04 -1.48677196736184103441e-03 -1.72038384822037227493e-04 -1.48677196736184103441e-03 9.99998827916128485427e-01 -1.01292594986132399791e-05
9.90328046179763197899e+08 9.74631349121661383350e-01 -2.18725918154985349284e-01 -1.72834606461123364320e-04 -1.49016233336412206797e-03 -1.72834606461123364320e-04 -1.49016233336412206797e-03 9.99998822491533601031e-01 -1.01523577932988189114e-05
9.90350591526663541794e+08 9.74513672936916597322e-01 -2.19225787071581662557e-01 -1.73636324974959745842e-04 -1.49356790064857883511e-03 -1.73636324974959745842e-04 -1.49356790064857883511e-03 9.99998817029488895614e-01 -1.01755596531142534166e-05
9.90373136873563885689e+08 9.74395182517984514980e-01 -2.19727902041531947264e-01 -1.74443590801738081242e-04 -1.49698877011640281778e-03 -1.74443590801738081242e-04 -1.49698877011640281778e-03 9.99998811529650866170e-01 -1.01988657654913647598e-05
9.90395682220464110374e+08 9.74275870376878128098e-01 -2.20232278004222098433e-01 -1.75256454956518873322e-04 -1.50042504354844555801e-03 -1.75256454956518873322e-04 -1.50042504354844555801e-03 9.99998805991671901872e-01 -1.02222768238550169108e-05
9.90418227567364454269e+08 9.74155728939771203834e-01 -2.20738930029570401548e-01 -1.76074969039180517782e-04 -1.50387682361486502147e-03 -1.76074969039180517782e-04 -1.50387682361486502147e-03 9.99998800415200395086e-01 -1.02457935276888564656e-05
9.90440772914264798164e+08 9.74034750545825334100e-01 -2.21247873319406984649e-01 -1.76899185242407542195e-04 -1.50734421388452432926e-03 -1.76899185242407542195e-04 -1.50734421388452432926e-03 9.99998794799880741380e-01 -1.02694165825993330904e-05
9.90463318261165142059e+08 9.73912927445994336395e-01 -2.21759123208889685763e-01 -1.77729156359836460875e-04 -1.51082731883463747095e-03 -1.77729156359836460875e-04 -1.51082731883463747095e-03 9.99998789145353339514e-01 -1.02931467003814191137e-05
9.90485863608065485954e+08 9.73790251801805117893e-01 -2.22272695167956640949e-01 -1.78564935794363392708e-04 -1.51432624386066633573e-03 -1.78564935794363392708e-04 -1.51432624386066633573e-03 9.99998783451254369403e-01 -1.03169845990860384316e-05
