! File generated for n1 = 3, n2 = 8
! b1 = 21.544347
! b2 = 0.100000
! Q0 = 10000.000000
! f0 = 1000000000.000000
! n = 1001
! rel_span = 10.000000
# Hz S RI R 50
9.88677826549840569496e+08 9.81371765437418885902e-01 -1.87348982790739693183e-01 -1.26912684680379416434e-03 -1.27639376121407403797e-02 -1.26912684680379416434e-03 -1.27639376121407403797e-02 9.99913535394464370043e-01 -8.69596946510209551674e-04
9.88700470896740913391e+08 9.81297336368811001783e-01 -1.87719178209558662518e-01 -1.27419764021878263553e-03 -1.27891587324250339402e-02 -1.27419764021878263553e-03 -1.27891587324250339402e-02 9.99913189925330625485e-01 -8.71315241432454217277e-04
9.88723115243641257286e+08 9.81222463562950175664e-01 -1.88090815837184899273e-01 -1.27929866510089547578e-03 -1.28144781092515615967e-02 -1.27929866510089547578e-03 -1.28144781092515615967e-02 9.99912842396550982649e-01 -8.73040230494994567469e-04
9.88745759590541481972e+08 9.81147143500905594138e-01 -1.88463904025562789535e-01 -1.28443016119208315226e-03 -1.28398963116316666006e-02 -1.28443016119208315226e-03 -1.28398963116316666006e-02 9.99912492791792062441e-01 -8.74771952464122102937e-04
9.88768403937441825867e+08 9.81071372628928628501e-01 -1.88838451190492362386e-01 -1.28959237060643789469e-03 -1.28654139129271340852e-02 -1.28959237060643789469e-03 -1.28654139129271340852e-02 9.99912141094558837295e-01 -8.76510446402520683809e-04
9.88791048284342169762e+08 9.80995147358043051433e-01 -1.89214465812214488460e-01 -1.29478553785805443853e-03 -1.28910314908900446029e-02 -1.29478553785805443853e-03 -1.28910314908900446029e-02 9.99911787288192632772e-01 -8.78255751671981155053e-04
9.88813692631242513657e+08 9.80918464063623596338e-01 -1.89591956436037850642e-01 -1.30000990988977027304e-03 -1.29167496277055038334e-02 -1.30000990988977027304e-03 -1.29167496277055038334e-02 9.99911431355869573245e-01 -8.80007907936313188250e-04
9.88836336978142857552e+08 9.80841319084973406461e-01 -1.89970931672949844282e-01 -1.30526573610197441089e-03 -1.29425689100332568654e-02 -1.30526573610197441089e-03 -1.29425689100332568654e-02 9.99911073280598028390e-01 -8.81766955164179711338e-04
9.88858981325043082237e+08 9.80763708724894600621e-01 -1.90351400200233777937e-01 -1.31055326838181232518e-03 -1.29684899290497257507e-02 -1.31055326838181232518e-03 -1.29684899290497257507e-02 9.99910713045217391937e-01 -8.83532933631961804426e-04
9.88881625671943426132e+08 9.80685629249249957162e-01 -1.90733370762115189700e-01 -1.31587276113310559268e-03 -1.29945132804920680109e-02 -1.31587276113310559268e-03 -1.29945132804920680109e-02 9.99910350632395084070e-01 -8.85305883926759446152e-04
9.88904270018843770027e+08 9.80607076886522710524e-01 -1.91116852170387152565e-01 -1.32122447130628996835e-03 -1.30206395647007554250e-02 -1.32122447130628996835e-03 -1.30206395647007554250e-02 9.99909986024625330181e-01 -8.87085846949292730276e-04
9.88926914365744113922e+08 9.80528047827368909317e-01 -1.91501853305055147469e-01 -1.32660865842894803643e-03 -1.30468693866635180451e-02 -1.32660865842894803643e-03 -1.30468693866635180451e-02 9.99909619204226829403e-01 -8.88872863916895998397e-04
9.88949558712644338608e+08 9.80448538224161336707e-01 -1.91888383114997007617e-01 -1.33202558463687593948e-03 -1.30732033560603047584e-02 -1.33202558463687593948e-03 -1.30732033560603047584e-02 9.99909250153340423140e-01 -8.90666976366580494251e-04
9.88972203059544682503e+08 9.80368544190528989901e-01 -1.92276450618619976218e-01 -1.33747551470544002311e-03 -1.30996420873080478275e-02 -1.33747551470544002311e-03 -1.30996420873080478275e-02 9.99908878853927207686e-01 -8.92468226158084874944e-04
9.88994847406445026398e+08 9.80288061800891119546e-01 -1.92666064904524064749e-01 -1.34295871608135718688e-03 -1.31261861996058628449e-02 -1.34295871608135718688e-03 -1.31261861996058628449e-02 9.99908505287766202763e-01 -8.94276655476953369339e-04
9.89017491753345370293e+08 9.80207087089982276318e-01 -1.93057235132178955928e-01 -1.34847545891500345851e-03 -1.31528363169811507438e-02 -1.34847545891500345851e-03 -1.31528363169811507438e-02 9.99908129436452242089e-01 -8.96092306837678012794e-04
9.89040136100245714188e+08 9.80125616052371251286e-01 -1.93449970532612064433e-01 -1.35402601609323040843e-03 -1.31795930683364891089e-02 -1.35402601609323040843e-03 -1.31795930683364891089e-02 9.99907751281393752940e-01 -8.97915223086892815181e-04
9.89062780447145938873e+08 9.80043644641976241516e-01 -1.93844280409086744399e-01 -1.35961066327239103214e-03 -1.32064570874958295971e-02 -1.35961066327239103214e-03 -1.32064570874958295971e-02 9.99907370803810535698e-01 -8.99745447406520874531e-04
9.89085424794046282768e+08 9.79961168771566915048e-01 -1.94240174137817189770e-01 -1.36522967891224427002e-03 -1.32334290132532141765e-02 -1.36522967891224427002e-03 -1.32334290132532141765e-02 9.99906987984731432384e-01 -9.01583023317093445147e-04
9.89108069140946626663e+08 9.79878184312266586886e-01 -1.94637661168660019984e-01 -1.37088334430988728271e-03 -1.32605094894198746042e-02 -1.37088334430988728271e-03 -1.32605094894198746042e-02 9.99906602804991773148e-01 -9.03427994680959392873e-04
9.89130713487846970558e+08 9.79794687093042737658e-01 -1.95036751025832455486e-01 -1.37657194363444406598e-03 -1.32876991648731828527e-02 -1.37657194363444406598e-03 -1.32876991648731828527e-02 9.99906215245231377864e-01 -9.05280405705619225197e-04
9.89153357834747314453e+08 9.79710672900191426038e-01 -1.95437453308638542371e-01 -1.38229576396223284920e-03 -1.33149986936061028725e-02 -1.38229576396223284920e-03 -1.33149986936061028725e-02 9.99905825285892002618e-01 -9.07140300947095008441e-04
9.89176002181647539139e+08 9.79626137476815039840e-01 -1.95839777692194405567e-01 -1.38805509531231231410e-03 -1.33424087347766250067e-02 -1.38805509531231231410e-03 -1.33424087347766250067e-02 9.99905432907214786198e-01 -9.09007725313298008130e-04
9.89198646528547883034e+08 9.79541076522290277140e-01 -1.96243733928176317116e-01 -1.39385023068273341228e-03 -1.33699299527587234931e-02 -1.39385023068273341228e-03 -1.33699299527587234931e-02 9.99905038089238140664e-01 -9.10882724067499870667e-04
9.89221290875448226929e+08 9.79455485691732463671e-01 -1.96649331845558994480e-01 -1.39968146608704900602e-03 -1.33975630171926495676e-02 -1.39968146608704900602e-03 -1.33975630171926495676e-02 9.99904640811794753752e-01 -9.12765342831760003242e-04
9.89243935222348570824e+08 9.79369360595448879003e-01 -1.97056581351375437183e-01 -1.40554910059153409518e-03 -1.34253086030367008163e-02 -1.40554910059153409518e-03 -1.34253086030367008163e-02 9.99904241054509590469e-01 -9.14655627590451832977e-04
9.89266579569248914719e+08 9.79282696798385532411e-01 -1.97465492431483174984e-01 -1.41145343635290542762e-03 -1.34531673906194328832e-02 -1.41145343635290542762e-03 -1.34531673906194328832e-02 9.99903838796796784472e-01 -9.16553624693820507933e-04
9.89289223916149139404e+08 9.79195489819566833312e-01 -1.97876075151332042612e-01 -1.41739477865647500732e-03 -1.34811400656919596480e-02 -1.41739477865647500732e-03 -1.34811400656919596480e-02 9.99903434017857750682e-01 -9.18459380861545368613e-04
9.89311868263049483299e+08 9.79107735131523160277e-01 -1.98288339656761292140e-01 -1.42337343595515274965e-03 -1.35092273194822674182e-02 -1.42337343595515274965e-03 -1.35092273194822674182e-02 9.99903026696677632579e-01 -9.20372943186440655230e-04
9.89334512609949827194e+08 9.79019428159716875726e-01 -1.98702296174775527859e-01 -1.42938971990856688102e-03 -1.35374298487480598102e-02 -1.42938971990856688102e-03 -1.35374298487480598102e-02 9.99902616812023303794e-01 -9.22294359138056685232e-04
9.89357156956850171089e+08 9.78930564281953907724e-01 -1.99117955014355918486e-01 -1.43544394542313626800e-03 -1.35657483558320572647e-02 -1.43544394542313626800e-03 -1.35657483558320572647e-02 9.99902204342440592555e-01 -9.24223676566445504280e-04
9.89379801303750395775e+08 9.78841138827790557819e-01 -1.99535326567263804343e-01 -1.44153643069246995868e-03 -1.35941835487167119595e-02 -1.44153643069246995868e-03 -1.35941835487167119595e-02 9.99901789266251062038e-01 -9.26160943705890433303e-04
9.89402445650650739670e+08 9.78751147077928540519e-01 -1.99954421308872920537e-01 -1.44766749723863582047e-03 -1.36227361410809297976e-02 -1.44766749723863582047e-03 -1.36227361410809297976e-02 9.99901371561549789924e-01 -9.28106209178769080842e-04
9.89425089997551083565e+08 9.78660584263605581867e-01 -2.00375249798982635330e-01 -1.45383746995361370913e-03 -1.36514068523554688017e-02 -1.45383746995361370913e-03 -1.36514068523554688017e-02 9.99900951206202148747e-01 -9.30059521999328535011e-04
9.89447734344451427460e+08 9.78569445565973139445e-01 -2.00797822682667825855e-01 -1.46004667714174220065e-03 -1.36801964077808355102e-02 -1.46004667714174220065e-03 -1.36801964077808355102e-02 9.99900528177840919319e-01 -9.32020931577629257320e-04
9.89470378691351771355e+08 9.78477726115465462620e-01 -2.01222150691129780808e-01 -1.46629545056266232146e-03 -1.37091055384652646398e-02 -1.46629545056266232146e-03 -1.37091055384652646398e-02 9.99900102453863626195e-01 -9.33990487723495481712e-04
9.89493023038251996040e+08 9.78385420991163989868e-01 -2.01648244642542412430e-01 -1.47258412547466850488e-03 -1.37381349814423639466e-02 -1.47258412547466850488e-03 -1.37381349814423639466e-02 9.99899674011429318021e-01 -9.35968240650442194831e-04
9.89515667385152339935e+08 9.78292525220143760478e-01 -2.02076115442940879019e-01 -1.47891304067917410750e-03 -1.37672854797316595449e-02 -1.47891304067917410750e-03 -1.37672854797316595449e-02 9.99899242827455903004e-01 -9.37954240979800742128e-04
9.89538311732052683830e+08 9.78199033776819493191e-01 -2.02505774087087087043e-01 -1.48528253856533782110e-03 -1.37965577823975608929e-02 -1.48528253856533782110e-03 -1.37965577823975608929e-02 9.99898808878616485174e-01 -9.39948539744734929552e-04
9.89560956078953027725e+08 9.78104941582276454781e-01 -2.02937231659361394520e-01 -1.49169296515557999773e-03 -1.38259526446101090741e-02 -1.49169296515557999773e-03 -1.38259526446101090741e-02 9.99898372141337032915e-01 -9.41951188394380941118e-04
9.89583600425853371620e+08 9.78010243503592890946e-01 -2.03370499334666443580e-01 -1.49814467015179676734e-03 -1.38554708277065594807e-02 -1.49814467015179676734e-03 -1.38554708277065594807e-02 9.99897932591792382162e-01 -9.43962238798042333962e-04
9.89606244772753596306e+08 9.77914934353152354163e-01 -2.03805588379336349858e-01 -1.50463800698217263496e-03 -1.38851130992533218500e-02 -1.50463800698217263496e-03 -1.38851130992533218500e-02 9.99897490205904015959e-01 -9.45981743249409427927e-04
9.89628889119653940201e+08 9.77819008887945040343e-01 -2.04242510152064959961e-01 -1.51117333284881880627e-03 -1.39148802331091961393e-02 -1.51117333284881880627e-03 -1.39148802331091961393e-02 9.99897044959335845604e-01 -9.48009754470868900786e-04
9.89651533466554284096e+08 9.77722461808861353916e-01 -2.04681276104828335782e-01 -1.51775100877586080657e-03 -1.39447730094882319657e-02 -1.51775100877586080657e-03 -1.39447730094882319657e-02 9.99896596827491657145e-01 -9.50046325617784760513e-04
9.89674177813454627991e+08 9.77625287759972261270e-01 -2.05121897783835299700e-01 -1.52437139965849906276e-03 -1.39747922150244771600e-02 -1.52437139965849906276e-03 -1.39747922150244771600e-02 9.99896145785511336612e-01 -9.52091510282911264972e-04
9.89696822160354971886e+08 9.77527481327800096267e-01 -2.05564386830480672064e-01 -1.53103487431267186805e-03 -1.40049386428369275481e-02 -1.53103487431267186805e-03 -1.40049386428369275481e-02 9.99895691808267983447e-01 -9.54145362500816358355e-04
9.89719466507255196571e+08 9.77429037040578152506e-01 -2.06008754982313163628e-01 -1.53774180552550786272e-03 -1.40352130925954689949e-02 -1.53774180552550786272e-03 -1.40352130925954689949e-02 9.99895234870363691648e-01 -9.56207936752375147089e-04
9.89742110854155540466e+08 9.77329949367498285184e-01 -2.06455014074018144976e-01 -1.54449257010658646226e-03 -1.40656163705878307912e-02 -1.54449257010658646226e-03 -1.40656163705878307912e-02 9.99894774946126774218e-01 -9.58279287969331246798e-04
9.89764755201055884361e+08 9.77230212717949298096e-01 -2.06903176038401415138e-01 -1.55128754893980001783e-03 -1.40961492897866066953e-02 -1.55128754893980001783e-03 -1.40961492897866066953e-02 9.99894312009607877378e-01 -9.60359471538862574484e-04
9.89787399547956228256e+08 9.77129821440743673300e-01 -2.07353252907389984383e-01 -1.55812712703607813419e-03 -1.41268126699174417088e-02 -1.55812712703607813419e-03 -1.41268126699174417088e-02 9.99893846034576649906e-01 -9.62448543308227263265e-04
9.89810043894856452942e+08 9.77028769823331311173e-01 -2.07805256813046346220e-01 -1.56501169358692470562e-03 -1.41576073375281313166e-02 -1.56501169358692470562e-03 -1.41576073375281313166e-02 9.99893376994517635303e-01 -9.64546559589471159783e-04
9.89832688241756796837e+08 9.76927052090998615519e-01 -2.08259199988611254373e-01 -1.57194164201901465105e-03 -1.41885341260596670870e-02 -1.57194164201901465105e-03 -1.41885341260596670870e-02 9.99892904862627052154e-01 -9.66653577164268027963e-04
9.89855332588657140732e+08 9.76824662406062804720e-01 -2.08715094769520465023e-01 -1.57891737004902440317e-03 -1.42195938759155041803e-02 -1.57891737004902440317e-03 -1.42195938759155041803e-02 9.99892429611808797318e-01 -9.68769653288638647390e-04
9.89877976935557484627e+08 9.76721594867049458522e-01 -2.09172953594462751603e-01 -1.58593927973973633505e-03 -1.42507874345336408434e-02 -1.58593927973973633505e-03 -1.42507874345336408434e-02 9.99891951214670560155e-01 -9.70894845697861707048e-04
9.89900621282457828522e+08 9.76617843507856076002e-01 -2.09632789006449465896e-01 -1.59300777755698084147e-03 -1.42821156564594958782e-02 -1.59300777755698084147e-03 -1.42821156564594958782e-02 9.99891469643520269805e-01 -9.73029212611439017593e-04
9.89923265629358053207e+08 9.76513402296906085631e-01 -2.10094613653887180016e-01 -1.60012327442728293468e-03 -1.43135794034189769292e-02 -1.60012327442728293468e-03 -1.43135794034189769292e-02 9.99890984870361765324e-01 -9.75172812738073083519e-04
9.89945909976258397102e+08 9.76408265136287756292e-01 -2.10558440291672033240e-01 -1.60728618579653536290e-03 -1.43451795443930406326e-02 -1.60728618579653536290e-03 -1.43451795443930406326e-02 9.99890496866891020922e-01 -9.77325705280747457707e-04
9.89968554323158740997e+08 9.76302425860882783226e-01 -2.11024281782284467424e-01 -1.61449693168935629398e-03 -1.43769169556922787878e-02 -1.61449693168935629398e-03 -1.43769169556922787878e-02 9.99890005604492149160e-01 -9.79487949941807529639e-04
9.89991198670059084892e+08 9.76195878237477332462e-01 -2.11492151096917074815e-01 -1.62175593676967019600e-03 -1.44087925210337579329e-02 -1.62175593676967019600e-03 -1.44087925210337579329e-02 9.99889511054233071086e-01 -9.81659606928196462952e-04
9.90013843016959428787e+08 9.76088615963864425495e-01 -2.11962061316591676707e-01 -1.62906363040183277055e-03 -1.44408071316171164600e-02 -1.62906363040183277055e-03 -1.44408071316171164600e-02 9.99889013186861630444e-01 -9.83840736956638440766e-04
9.90036487363859653473e+08 9.75980632667926784052e-01 -2.12434025633318285253e-01 -1.63642044671313846051e-03 -1.44729616862035361663e-02 -1.63642044671313846051e-03 -1.44729616862035361663e-02 9.99888511972801041772e-01 -9.86031401259020428424e-04
9.90059131710759997368e+08 9.75871921906710126926e-01 -2.12908057351246821076e-01 -1.64382682465695484364e-03 -1.45052570911942003279e-02 -1.64382682465695484364e-03 -1.45052570911942003279e-02 9.99888007382145671542e-01 -9.88231661587735772320e-04
9.90081776057660341263e+08 9.75762477165481034724e-01 -2.13384169887837288337e-01 -1.65128320807690198019e-03 -1.45376942607100146515e-02 -1.65128320807690198019e-03 -1.45376942607100146515e-02 9.99887499384656819323e-01 -9.90441580221117136990e-04
9.90104420404560685158e+08 9.75652291856769049438e-01 -2.13862376775050461175e-01 -1.65879004577211813104e-03 -1.45702741166727385569e-02 -1.65879004577211813104e-03 -1.45702741166727385569e-02 9.99886987949758276883e-01 -9.92661219968962683577e-04
9.90127064751461029053e+08 9.75541359319396561567e-01 -2.14342691660541179166e-01 -1.66634779156335185481e-03 -1.46029975888862691147e-02 -1.66634779156335185481e-03 -1.46029975888862691147e-02 9.99886473046531554232e-01 -9.94890644178074174536e-04
9.90149709098361253738e+08 9.75429672817488269132e-01 -2.14825128308890112017e-01 -1.67395690436045142466e-03 -1.46358656151205721724e-02 -1.67395690436045142466e-03 -1.46358656151205721724e-02 9.99885954643711438727e-01 -9.97129916737976356930e-04
9.90172353445261597633e+08 9.75317225539469645490e-01 -2.15309700602829529048e-01 -1.68161784823057480591e-03 -1.46688791411951867383e-02 -1.68161784823057480591e-03 -1.46688791411951867383e-02 9.99885432709681443164e-01 -9.99379102086603602825e-04
9.90194997792161941528e+08 9.75204010597051973441e-01 -2.15796422544478477823e-01 -1.68933109246737259666e-03 -1.47020391210633781520e-02 -1.68933109246737259666e-03 -1.47020391210633781520e-02 9.99884907212468920790e-01 -1.00163826521603577246e-03
9.90217642139062285423e+08 9.75090021024194841814e-01 -2.16285308256618902245e-01 -1.69709711166165719276e-03 -1.47353465168990806905e-02 -1.69709711166165719276e-03 -1.47353465168990806905e-02 9.99884378119740402369e-01 -1.00390747167841947601e-03
9.90240286485962510109e+08 9.74975249776056873685e-01 -2.16776371983969096124e-01 -1.70491638577288792331e-03 -1.47688022991836545583e-02 -1.70491638577288792331e-03 -1.47688022991836545583e-02 9.99883845398796600179e-01 -1.00618678759188044484e-03
9.90262930832862854004e+08 9.74859689727928468983e-01 -2.17269628094478861602e-01 -1.71278940020187157682e-03 -1.48024074467941208627e-02 -1.71278940020187157682e-03 -1.48024074467941208627e-02 9.99883309016567634053e-01 -1.00847627964653369786e-03
9.90285575179763197899e+08 9.74743333674149670109e-01 -2.17765091080634687337e-01 -1.72071664586451265194e-03 -1.48361629470920956819e-02 -1.72071664586451265194e-03 -1.48361629470920956819e-02 9.99882768939607702308e-01 -1.01077601511054314745e-03
9.90308219526663541794e+08 9.74626174327007377407e-01 -2.18262775560793403917e-01 -1.72869861926691821032e-03 -1.48700697960146323295e-02 -1.72869861926691821032e-03 -1.48700697960146323295e-02 9.99882225134090196761e-01 -1.01308606183631022546e-03
9.90330863873563885689e+08 9.74508204315619797065e-01 -2.18762696280515311908e-01 -1.73673582258141844664e-03 -1.49041289981650618840e-02 -1.73673582258141844664e-03 -1.49041289981650618840e-02 9.99881677565802595709e-01 -1.01540648826666315974e-03
9.90353508220464110374e+08 9.74389416184797463316e-01 -2.19264868113937666516e-01 -1.74482876372416976021e-03 -1.49383415669065537645e-02 -1.74482876372416976021e-03 -1.49383415669065537645e-02 9.99881126200141023830e-01 -1.01773736344123099870e-03
9.90376152567364454269e+08 9.74269802393890493875e-01 -2.19769306065144248707e-01 -1.75297795643365272693e-03 -1.49727085244554438542e-02 -1.75297795643365272693e-03 -1.49727085244554438542e-02 9.99880571002104812095e-01 -1.02007875700280224024e-03
9.90398796914264798164e+08 9.74149355315618969975e-01 -2.20276025269552089281e-01 -1.76118392035041625328e-03 -1.50072309019756867238e-02 -1.76118392035041625328e-03 -1.50072309019756867238e-02 9.99880011936291279717e-01 -1.02243073920375870424e-03
9.90421441261165142059e+08 9.74028067234878336400e-01 -2.20785040995334413960e-01 -1.76944718109839685925e-03 -1.50419097396758145307e-02 -1.76944718109839685925e-03 -1.50419097396758145307e-02 9.99879448966890072015e-01 -1.02479338091268331115e-03
9.90444085608065485954e+08 9.73905930347530590652e-01 -2.21296368644849111851e-01 -1.77776827036734081169e-03 -1.50767460869062550066e-02 -1.77776827036734081169e-03 -1.50767460869062550066e-02 9.99878882057677609296e-01 -1.02716675362098802671e-03
