!Agilent Technologies,E5071C,MY46214390,A.10.06
!Date: Mon Mar 04 15:21:06 2019
!Data & Calibration Information:
!Freq	S11:SOLT2(ON)	S21:SOLT2(ON)	S12:SOLT2(ON)	S22:SOLT2(ON)
!PortZ  Port1:50+j0    Port2:50+j0
!Above PortZ is port z conversion or system Z0 setting when saving the data.
!When reading, reference impedance value at option line is always used.
# Hz S dB R 50
9003374375	-3.659890e+000	-5.177475e+001	-7.308135e+001	-1.123647e+002	-7.226711e+001	-1.100853e+002	-3.576772e+000	2.422100e+001
9003395000	-3.659554e+000	-5.183301e+001	-7.267854e+001	-1.087951e+002	-7.182026e+001	-1.141850e+002	-3.576492e+000	2.416098e+001
9003415625	-3.659009e+000	-5.189250e+001	-7.273701e+001	-1.147632e+002	-7.199163e+001	-1.108553e+002	-3.576042e+000	2.410003e+001
9003436250	-3.659005e+000	-5.195089e+001	-7.241315e+001	-1.118500e+002	-7.268338e+001	-1.117444e+002	-3.576068e+000	2.403835e+001
9003456875	-3.658550e+000	-5.201031e+001	-7.212673e+001	-1.090760e+002	-7.212218e+001	-1.117740e+002	-3.575304e+000	2.397613e+001
9003477500	-3.657747e+000	-5.207206e+001	-7.226212e+001	-1.130204e+002	-7.266060e+001	-1.103528e+002	-3.575683e+000	2.391343e+001
9003498125	-3.657775e+000	-5.213085e+001	-7.200369e+001	-1.096253e+002	-7.243996e+001	-1.122431e+002	-3.575542e+000	2.384960e+001
9003518750	-3.657323e+000	-5.218779e+001	-7.187446e+001	-1.105183e+002	-7.195079e+001	-1.135055e+002	-3.575635e+000	2.378825e+001
9003539375	-3.656290e+000	-5.225070e+001	-7.193614e+001	-1.086298e+002	-7.220028e+001	-1.111264e+002	-3.575545e+000	2.372863e+001
9003560000	-3.656578e+000	-5.231013e+001	-7.255432e+001	-1.134281e+002	-7.218692e+001	-1.112210e+002	-3.574790e+000	2.366776e+001
9003580625	-3.655913e+000	-5.237077e+001	-7.263217e+001	-1.130272e+002	-7.223805e+001	-1.143443e+002	-3.574507e+000	2.360517e+001
9003601250	-3.655501e+000	-5.243318e+001	-7.270756e+001	-1.084345e+002	-7.224468e+001	-1.133196e+002	-3.574132e+000	2.354484e+001
9003621875	-3.655235e+000	-5.249439e+001	-7.222602e+001	-1.096865e+002	-7.174252e+001	-1.120530e+002	-3.574450e+000	2.348233e+001
9003642500	-3.654393e+000	-5.255075e+001	-7.242134e+001	-1.079623e+002	-7.246384e+001	-1.093653e+002	-3.573885e+000	2.341823e+001
9003663125	-3.655189e+000	-5.261334e+001	-7.239577e+001	-1.118519e+002	-7.170807e+001	-1.137582e+002	-3.573599e+000	2.335486e+001
9003683750	-3.654264e+000	-5.267311e+001	-7.242414e+001	-1.148277e+002	-7.222801e+001	-1.108882e+002	-3.573430e+000	2.329456e+001
9003704375	-3.653784e+000	-5.273058e+001	-7.185267e+001	-1.142779e+002	-7.221430e+001	-1.077660e+002	-3.573596e+000	2.323047e+001
9003725000	-3.653465e+000	-5.279162e+001	-7.223496e+001	-1.129836e+002	-7.213549e+001	-1.106610e+002	-3.573141e+000	2.316867e+001
9003745625	-3.653238e+000	-5.285268e+001	-7.207930e+001	-1.081045e+002	-7.239217e+001	-1.086551e+002	-3.572988e+000	2.310406e+001
9003766250	-3.652479e+000	-5.291181e+001	-7.241300e+001	-1.127835e+002	-7.117925e+001	-1.136282e+002	-3.573009e+000	2.304045e+001
9003786875	-3.652253e+000	-5.296858e+001	-7.197733e+001	-1.168425e+002	-7.192746e+001	-1.111471e+002	-3.572205e+000	2.297507e+001
9003807500	-3.651703e+000	-5.302749e+001	-7.240941e+001	-1.131666e+002	-7.242202e+001	-1.112564e+002	-3.571929e+000	2.291333e+001
9003828125	-3.650873e+000	-5.308882e+001	-7.162732e+001	-1.130184e+002	-7.261780e+001	-1.112766e+002	-3.572561e+000	2.285195e+001
9003848750	-3.651336e+000	-5.314849e+001	-7.199537e+001	-1.134498e+002	-7.234815e+001	-1.108398e+002	-3.571600e+000	2.278935e+001
9003869375	-3.650701e+000	-5.320566e+001	-7.228758e+001	-1.121919e+002	-7.178742e+001	-1.131958e+002	-3.571928e+000	2.272644e+001
9003890000	-3.649852e+000	-5.326818e+001	-7.187896e+001	-1.117589e+002	-7.230861e+001	-1.118494e+002	-3.571216e+000	2.266387e+001
9003910625	-3.649747e+000	-5.332766e+001	-7.241096e+001	-1.131513e+002	-7.226715e+001	-1.137784e+002	-3.571728e+000	2.259900e+001
9003931250	-3.649160e+000	-5.338660e+001	-7.175501e+001	-1.123789e+002	-7.256938e+001	-1.180067e+002	-3.571696e+000	2.253662e+001
9003951875	-3.649388e+000	-5.344538e+001	-7.256243e+001	-1.164228e+002	-7.138797e+001	-1.112821e+002	-3.571359e+000	2.247718e+001
9003972500	-3.648562e+000	-5.350471e+001	-7.209608e+001	-1.146202e+002	-7.225139e+001	-1.122808e+002	-3.570991e+000	2.241598e+001
9003993125	-3.647925e+000	-5.356247e+001	-7.165489e+001	-1.150117e+002	-7.180679e+001	-1.140096e+002	-3.570762e+000	2.235301e+001
9004013750	-3.646839e+000	-5.362456e+001	-7.154645e+001	-1.150077e+002	-7.235748e+001	-1.151552e+002	-3.570644e+000	2.229110e+001
9004034375	-3.647431e+000	-5.368170e+001	-7.212145e+001	-1.153338e+002	-7.182544e+001	-1.133757e+002	-3.570108e+000	2.222831e+001
9004055000	-3.646654e+000	-5.374212e+001	-7.216413e+001	-1.134581e+002	-7.165894e+001	-1.146049e+002	-3.569979e+000	2.216652e+001
9004075625	-3.646186e+000	-5.380282e+001	-7.181335e+001	-1.123278e+002	-7.165886e+001	-1.129829e+002	-3.569897e+000	2.210288e+001
9004096250	-3.645975e+000	-5.386042e+001	-7.186197e+001	-1.129439e+002	-7.189689e+001	-1.158893e+002	-3.569013e+000	2.204315e+001
9004116875	-3.645390e+000	-5.392083e+001	-7.212762e+001	-1.102909e+002	-7.188894e+001	-1.149247e+002	-3.568884e+000	2.198186e+001
9004137500	-3.645627e+000	-5.397917e+001	-7.170552e+001	-1.126065e+002	-7.240699e+001	-1.159247e+002	-3.568843e+000	2.191763e+001
9004158125	-3.645214e+000	-5.403767e+001	-7.193217e+001	-1.159843e+002	-7.175787e+001	-1.128161e+002	-3.568583e+000	2.185548e+001
9004178750	-3.644864e+000	-5.409838e+001	-7.195495e+001	-1.133977e+002	-7.175999e+001	-1.162802e+002	-3.568233e+000	2.179256e+001
9004199375	-3.643938e+000	-5.415611e+001	-7.171293e+001	-1.149142e+002	-7.130688e+001	-1.157013e+002	-3.568855e+000	2.172730e+001
9004220000	-3.643420e+000	-5.421467e+001	-7.203753e+001	-1.105841e+002	-7.148774e+001	-1.193514e+002	-3.568057e+000	2.166793e+001
9004240625	-3.643277e+000	-5.427326e+001	-7.165606e+001	-1.134345e+002	-7.163379e+001	-1.144770e+002	-3.567426e+000	2.160668e+001
9004261250	-3.643153e+000	-5.433643e+001	-7.220104e+001	-1.134663e+002	-7.215673e+001	-1.159120e+002	-3.567890e+000	2.154520e+001
9004281875	-3.642930e+000	-5.439810e+001	-7.204773e+001	-1.149300e+002	-7.200052e+001	-1.141589e+002	-3.567477e+000	2.148393e+001
9004302500	-3.642499e+000	-5.445595e+001	-7.202009e+001	-1.180311e+002	-7.215211e+001	-1.130842e+002	-3.567265e+000	2.141998e+001
9004323125	-3.641461e+000	-5.451416e+001	-7.190513e+001	-1.145902e+002	-7.211564e+001	-1.142385e+002	-3.567828e+000	2.135821e+001
9004343750	-3.641877e+000	-5.457265e+001	-7.184857e+001	-1.147716e+002	-7.217171e+001	-1.158995e+002	-3.566819e+000	2.129885e+001
9004364375	-3.641004e+000	-5.463183e+001	-7.198077e+001	-1.133917e+002	-7.195484e+001	-1.169203e+002	-3.566817e+000	2.123659e+001
9004385000	-3.640663e+000	-5.468975e+001	-7.202476e+001	-1.150559e+002	-7.211071e+001	-1.138779e+002	-3.566557e+000	2.117428e+001
9004405625	-3.640450e+000	-5.475053e+001	-7.188237e+001	-1.143212e+002	-7.173449e+001	-1.150972e+002	-3.566297e+000	2.111380e+001
9004426250	-3.640039e+000	-5.480984e+001	-7.199113e+001	-1.169410e+002	-7.214661e+001	-1.161011e+002	-3.565881e+000	2.105285e+001
9004446875	-3.639391e+000	-5.487146e+001	-7.202188e+001	-1.166118e+002	-7.217851e+001	-1.157310e+002	-3.566117e+000	2.099081e+001
9004467500	-3.639372e+000	-5.492823e+001	-7.249822e+001	-1.169780e+002	-7.204927e+001	-1.128189e+002	-3.565788e+000	2.092930e+001
9004488125	-3.638768e+000	-5.498729e+001	-7.186527e+001	-1.113002e+002	-7.144332e+001	-1.119624e+002	-3.565576e+000	2.086689e+001
9004508750	-3.638229e+000	-5.504530e+001	-7.186235e+001	-1.148346e+002	-7.144554e+001	-1.136624e+002	-3.565323e+000	2.080497e+001
9004529375	-3.637642e+000	-5.510620e+001	-7.191147e+001	-1.155797e+002	-7.212460e+001	-1.136569e+002	-3.564700e+000	2.074568e+001
9004550000	-3.637300e+000	-5.516775e+001	-7.206290e+001	-1.122411e+002	-7.201319e+001	-1.132735e+002	-3.564497e+000	2.068451e+001
9004570625	-3.637457e+000	-5.522452e+001	-7.177664e+001	-1.140763e+002	-7.204078e+001	-1.146040e+002	-3.564366e+000	2.062330e+001
9004591250	-3.636626e+000	-5.528356e+001	-7.150248e+001	-1.152667e+002	-7.214129e+001	-1.156063e+002	-3.563844e+000	2.056122e+001
9004611875	-3.636245e+000	-5.534444e+001	-7.223963e+001	-1.177052e+002	-7.168325e+001	-1.143359e+002	-3.564193e+000	2.050050e+001
9004632500	-3.635404e+000	-5.540455e+001	-7.163956e+001	-1.141184e+002	-7.169100e+001	-1.147611e+002	-3.563936e+000	2.043636e+001
9004653125	-3.635074e+000	-5.546312e+001	-7.150132e+001	-1.140479e+002	-7.160394e+001	-1.194087e+002	-3.563656e+000	2.037646e+001
9004673750	-3.635253e+000	-5.552289e+001	-7.167899e+001	-1.170327e+002	-7.181088e+001	-1.139640e+002	-3.563147e+000	2.031522e+001
9004694375	-3.634852e+000	-5.558038e+001	-7.142623e+001	-1.147904e+002	-7.169221e+001	-1.111031e+002	-3.562699e+000	2.025176e+001
9004715000	-3.633771e+000	-5.564221e+001	-7.250717e+001	-1.147697e+002	-7.162265e+001	-1.167402e+002	-3.562988e+000	2.019195e+001
9004735625	-3.634306e+000	-5.570102e+001	-7.160116e+001	-1.102727e+002	-7.181688e+001	-1.165389e+002	-3.562764e+000	2.012867e+001
9004756250	-3.633643e+000	-5.575852e+001	-7.167191e+001	-1.157261e+002	-7.187159e+001	-1.157459e+002	-3.562295e+000	2.006450e+001
9004776875	-3.633038e+000	-5.581886e+001	-7.223634e+001	-1.166669e+002	-7.189519e+001	-1.136428e+002	-3.562239e+000	2.000196e+001
9004797500	-3.632955e+000	-5.587554e+001	-7.223857e+001	-1.164648e+002	-7.134419e+001	-1.123533e+002	-3.562151e+000	1.994131e+001
9004818125	-3.632392e+000	-5.593808e+001	-7.211915e+001	-1.151433e+002	-7.168247e+001	-1.176492e+002	-3.562157e+000	1.987963e+001
9004838750	-3.631718e+000	-5.599538e+001	-7.208495e+001	-1.160517e+002	-7.200220e+001	-1.156187e+002	-3.562226e+000	1.981782e+001
9004859375	-3.630840e+000	-5.605435e+001	-7.149001e+001	-1.133820e+002	-7.147857e+001	-1.177692e+002	-3.562046e+000	1.975421e+001
9004880000	-3.630485e+000	-5.611363e+001	-7.224119e+001	-1.161599e+002	-7.196109e+001	-1.157298e+002	-3.560959e+000	1.969251e+001
9004900625	-3.630383e+000	-5.617295e+001	-7.137419e+001	-1.157068e+002	-7.201253e+001	-1.159586e+002	-3.560579e+000	1.963100e+001
9004921250	-3.630544e+000	-5.623208e+001	-7.120222e+001	-1.187442e+002	-7.143858e+001	-1.164064e+002	-3.560063e+000	1.956526e+001
9004941875	-3.629083e+000	-5.628990e+001	-7.170355e+001	-1.161197e+002	-7.136031e+001	-1.160496e+002	-3.560157e+000	1.950500e+001
9004962500	-3.629093e+000	-5.634935e+001	-7.179123e+001	-1.133827e+002	-7.222932e+001	-1.138102e+002	-3.559456e+000	1.944582e+001
9004983125	-3.628372e+000	-5.640833e+001	-7.198013e+001	-1.196280e+002	-7.155956e+001	-1.177479e+002	-3.559791e+000	1.938516e+001
9005003750	-3.628216e+000	-5.646834e+001	-7.173782e+001	-1.149102e+002	-7.171795e+001	-1.149373e+002	-3.559481e+000	1.932170e+001
9005024375	-3.627554e+000	-5.652641e+001	-7.129716e+001	-1.171546e+002	-7.161244e+001	-1.173049e+002	-3.559209e+000	1.925934e+001
9005045000	-3.627704e+000	-5.658630e+001	-7.176409e+001	-1.167672e+002	-7.155299e+001	-1.136242e+002	-3.558849e+000	1.919735e+001
9005065625	-3.626965e+000	-5.664646e+001	-7.167901e+001	-1.169809e+002	-7.153600e+001	-1.180171e+002	-3.558159e+000	1.913188e+001
9005086250	-3.626479e+000	-5.670479e+001	-7.140481e+001	-1.146718e+002	-7.155537e+001	-1.152416e+002	-3.557939e+000	1.907156e+001
9005106875	-3.625614e+000	-5.676276e+001	-7.157030e+001	-1.193763e+002	-7.113796e+001	-1.185288e+002	-3.558498e+000	1.901194e+001
9005127500	-3.625565e+000	-5.682326e+001	-7.181369e+001	-1.128107e+002	-7.145012e+001	-1.136775e+002	-3.557967e+000	1.894903e+001
9005148125	-3.625109e+000	-5.688174e+001	-7.132716e+001	-1.202693e+002	-7.162976e+001	-1.161788e+002	-3.557417e+000	1.888728e+001
9005168750	-3.625044e+000	-5.694021e+001	-7.189066e+001	-1.178170e+002	-7.160702e+001	-1.176785e+002	-3.557226e+000	1.882210e+001
9005189375	-3.624639e+000	-5.699863e+001	-7.141329e+001	-1.156304e+002	-7.183695e+001	-1.175385e+002	-3.557083e+000	1.876054e+001
9005210000	-3.624180e+000	-5.705613e+001	-7.160476e+001	-1.152524e+002	-7.087840e+001	-1.146421e+002	-3.555982e+000	1.870007e+001
9005230625	-3.623560e+000	-5.711697e+001	-7.146241e+001	-1.158397e+002	-7.143846e+001	-1.161125e+002	-3.556073e+000	1.863673e+001
9005251250	-3.623265e+000	-5.717471e+001	-7.132348e+001	-1.148701e+002	-7.132143e+001	-1.167744e+002	-3.555945e+000	1.857537e+001
9005271875	-3.622844e+000	-5.723599e+001	-7.123073e+001	-1.166638e+002	-7.159666e+001	-1.164656e+002	-3.555189e+000	1.851490e+001
9005292500	-3.622219e+000	-5.729456e+001	-7.173639e+001	-1.139285e+002	-7.095500e+001	-1.164632e+002	-3.555204e+000	1.845079e+001
9005313125	-3.621799e+000	-5.735294e+001	-7.116733e+001	-1.192096e+002	-7.120956e+001	-1.167545e+002	-3.555445e+000	1.838758e+001
9005333750	-3.622048e+000	-5.741040e+001	-7.132473e+001	-1.177174e+002	-7.162495e+001	-1.174251e+002	-3.554663e+000	1.832768e+001
9005354375	-3.621155e+000	-5.746977e+001	-7.109535e+001	-1.160710e+002	-7.097598e+001	-1.180946e+002	-3.554313e+000	1.826621e+001
9005375000	-3.620644e+000	-5.752853e+001	-7.153288e+001	-1.147197e+002	-7.162593e+001	-1.196619e+002	-3.554067e+000	1.820535e+001
9005395625	-3.620204e+000	-5.759028e+001	-7.134458e+001	-1.175787e+002	-7.099809e+001	-1.182485e+002	-3.554398e+000	1.814374e+001
9005416250	-3.619813e+000	-5.764655e+001	-7.204714e+001	-1.153738e+002	-7.123288e+001	-1.169363e+002	-3.553969e+000	1.808151e+001
9005436875	-3.618882e+000	-5.770827e+001	-7.145430e+001	-1.203450e+002	-7.133584e+001	-1.181329e+002	-3.552888e+000	1.802247e+001
9005457500	-3.618924e+000	-5.776550e+001	-7.147063e+001	-1.129472e+002	-7.104981e+001	-1.181397e+002	-3.553180e+000	1.796091e+001
9005478125	-3.618751e+000	-5.782575e+001	-7.177228e+001	-1.204776e+002	-7.125635e+001	-1.179095e+002	-3.552377e+000	1.789695e+001
9005498750	-3.618424e+000	-5.788359e+001	-7.158528e+001	-1.173769e+002	-7.149034e+001	-1.190390e+002	-3.552419e+000	1.783736e+001
9005519375	-3.617825e+000	-5.794546e+001	-7.209110e+001	-1.180569e+002	-7.096336e+001	-1.184338e+002	-3.552675e+000	1.777612e+001
9005540000	-3.617000e+000	-5.800017e+001	-7.214956e+001	-1.164697e+002	-7.114016e+001	-1.179777e+002	-3.552066e+000	1.771511e+001
9005560625	-3.616935e+000	-5.806128e+001	-7.174407e+001	-1.183992e+002	-7.068439e+001	-1.182262e+002	-3.551568e+000	1.765434e+001
9005581250	-3.616678e+000	-5.812087e+001	-7.113527e+001	-1.195283e+002	-7.058758e+001	-1.175817e+002	-3.551176e+000	1.759417e+001
9005601875	-3.616479e+000	-5.818152e+001	-7.142998e+001	-1.167146e+002	-7.128393e+001	-1.152833e+002	-3.551026e+000	1.753517e+001
9005622500	-3.615898e+000	-5.823675e+001	-7.119589e+001	-1.163217e+002	-7.140552e+001	-1.182884e+002	-3.551242e+000	1.747171e+001
9005643125	-3.615007e+000	-5.829855e+001	-7.128803e+001	-1.181129e+002	-7.088825e+001	-1.187183e+002	-3.550820e+000	1.741204e+001
9005663750	-3.614913e+000	-5.835569e+001	-7.134295e+001	-1.172679e+002	-7.122674e+001	-1.184290e+002	-3.550685e+000	1.735241e+001
9005684375	-3.614083e+000	-5.841592e+001	-7.141774e+001	-1.195452e+002	-7.086098e+001	-1.206784e+002	-3.550000e+000	1.729207e+001
9005705000	-3.614305e+000	-5.847550e+001	-7.128874e+001	-1.201255e+002	-7.144160e+001	-1.205307e+002	-3.549987e+000	1.723034e+001
9005725625	-3.614081e+000	-5.853192e+001	-7.093157e+001	-1.173860e+002	-7.086453e+001	-1.186568e+002	-3.549491e+000	1.716570e+001
9005746250	-3.613278e+000	-5.859147e+001	-7.121437e+001	-1.181213e+002	-7.093778e+001	-1.186234e+002	-3.548908e+000	1.710607e+001
9005766875	-3.613169e+000	-5.865094e+001	-7.129099e+001	-1.164315e+002	-7.117598e+001	-1.186192e+002	-3.549131e+000	1.704419e+001
9005787500	-3.612456e+000	-5.870849e+001	-7.134614e+001	-1.196065e+002	-7.082735e+001	-1.174818e+002	-3.548844e+000	1.698393e+001
9005808125	-3.611538e+000	-5.876835e+001	-7.141614e+001	-1.194445e+002	-7.144545e+001	-1.167254e+002	-3.548831e+000	1.692142e+001
9005828750	-3.611815e+000	-5.882781e+001	-7.080202e+001	-1.194962e+002	-7.086370e+001	-1.177282e+002	-3.548437e+000	1.685686e+001
9005849375	-3.611555e+000	-5.888732e+001	-7.135199e+001	-1.205121e+002	-7.060552e+001	-1.211267e+002	-3.547933e+000	1.679619e+001
9005870000	-3.611003e+000	-5.894777e+001	-7.131522e+001	-1.193476e+002	-7.093006e+001	-1.187118e+002	-3.547785e+000	1.673366e+001
9005890625	-3.610190e+000	-5.900334e+001	-7.092247e+001	-1.184558e+002	-7.102077e+001	-1.158176e+002	-3.547448e+000	1.667124e+001
9005911250	-3.610038e+000	-5.906229e+001	-7.147685e+001	-1.197206e+002	-7.053086e+001	-1.176924e+002	-3.547139e+000	1.660744e+001
9005931875	-3.608998e+000	-5.911989e+001	-7.082748e+001	-1.173566e+002	-7.053893e+001	-1.195206e+002	-3.547789e+000	1.654802e+001
9005952500	-3.608588e+000	-5.918244e+001	-7.101626e+001	-1.194770e+002	-7.081113e+001	-1.174722e+002	-3.546607e+000	1.648413e+001
9005973125	-3.608296e+000	-5.923964e+001	-7.128987e+001	-1.189155e+002	-7.067752e+001	-1.188388e+002	-3.546213e+000	1.642120e+001
9005993750	-3.607841e+000	-5.929839e+001	-7.157798e+001	-1.182460e+002	-7.096581e+001	-1.186820e+002	-3.546867e+000	1.635922e+001
9006014375	-3.607738e+000	-5.935744e+001	-7.111634e+001	-1.184402e+002	-7.053313e+001	-1.197254e+002	-3.546771e+000	1.629963e+001
9006035000	-3.607567e+000	-5.941514e+001	-7.152094e+001	-1.193590e+002	-7.113529e+001	-1.188812e+002	-3.544674e+000	1.623563e+001
9006055625	-3.606924e+000	-5.947386e+001	-7.192925e+001	-1.183568e+002	-7.114137e+001	-1.195580e+002	-3.545805e+000	1.617491e+001
9006076250	-3.606365e+000	-5.953336e+001	-7.087866e+001	-1.173988e+002	-7.045654e+001	-1.172145e+002	-3.545459e+000	1.611218e+001
9006096875	-3.606402e+000	-5.959195e+001	-7.077818e+001	-1.193143e+002	-7.072942e+001	-1.192538e+002	-3.544554e+000	1.605057e+001
9006117500	-3.605872e+000	-5.965176e+001	-7.143673e+001	-1.240160e+002	-7.096350e+001	-1.227708e+002	-3.544357e+000	1.598719e+001
9006138125	-3.605412e+000	-5.971049e+001	-7.128723e+001	-1.201712e+002	-7.104810e+001	-1.196991e+002	-3.544193e+000	1.592527e+001
9006158750	-3.604841e+000	-5.976784e+001	-7.098274e+001	-1.199718e+002	-7.090524e+001	-1.190353e+002	-3.544198e+000	1.586353e+001
9006179375	-3.604543e+000	-5.982772e+001	-7.116767e+001	-1.209600e+002	-7.105578e+001	-1.186277e+002	-3.543680e+000	1.580097e+001
9006200000	-3.604453e+000	-5.988789e+001	-7.071975e+001	-1.188831e+002	-7.059939e+001	-1.236265e+002	-3.543728e+000	1.573733e+001
9006220625	-3.603349e+000	-5.994320e+001	-7.111321e+001	-1.185064e+002	-7.068516e+001	-1.206502e+002	-3.543295e+000	1.567780e+001
9006241250	-3.602833e+000	-6.000484e+001	-7.123800e+001	-1.199339e+002	-7.067018e+001	-1.217724e+002	-3.542570e+000	1.561651e+001
9006261875	-3.602345e+000	-6.006219e+001	-7.104536e+001	-1.183929e+002	-7.082217e+001	-1.228050e+002	-3.542787e+000	1.555433e+001
9006282500	-3.602491e+000	-6.011996e+001	-7.123788e+001	-1.201055e+002	-7.106344e+001	-1.197365e+002	-3.541943e+000	1.549186e+001
9006303125	-3.602092e+000	-6.018067e+001	-7.104323e+001	-1.244483e+002	-7.071669e+001	-1.255288e+002	-3.542169e+000	1.542876e+001
9006323750	-3.601349e+000	-6.024097e+001	-7.115162e+001	-1.193908e+002	-7.099574e+001	-1.202660e+002	-3.541635e+000	1.536761e+001
9006344375	-3.600842e+000	-6.029975e+001	-7.084176e+001	-1.186147e+002	-7.085137e+001	-1.185077e+002	-3.541642e+000	1.530689e+001
9006365000	-3.600847e+000	-6.035492e+001	-7.113907e+001	-1.221872e+002	-7.056987e+001	-1.192909e+002	-3.541214e+000	1.524618e+001
9006385625	-3.599917e+000	-6.041463e+001	-7.117896e+001	-1.196099e+002	-7.067258e+001	-1.197247e+002	-3.541393e+000	1.518569e+001
9006406250	-3.600049e+000	-6.047486e+001	-7.102545e+001	-1.187985e+002	-7.081254e+001	-1.192773e+002	-3.540682e+000	1.512541e+001
9006426875	-3.599652e+000	-6.053213e+001	-7.097151e+001	-1.214418e+002	-7.093285e+001	-1.220473e+002	-3.540320e+000	1.506417e+001
9006447500	-3.599007e+000	-6.059069e+001	-7.098893e+001	-1.214316e+002	-7.088725e+001	-1.223956e+002	-3.540253e+000	1.499992e+001
