! Created Tue Mar  9 10:57:58 2021
# hz S db R 50
! 2 Port Network Data from SP1.SP block
! freq  dbS11  angS11  dbS21  angS21  dbS12  angS12  dbS22  angS22  
!     
         999000000       -32.0698823        -94.2870157       -0.013503336        -1.42603999       -0.013503336        -1.42603999        -32.0698823        -94.2870157
         999010000       -31.9830357        -94.3301766      -0.0137765156        -1.44033645      -0.0137765156        -1.44033645        -31.9830357        -94.3301766
         999020000       -31.8953179        -94.3742133       -0.014058055        -1.45492111       -0.014058055        -1.45492111        -31.8953179        -94.3742133
         999030000       -31.8067114        -94.4191526      -0.0143482982        -1.46980274      -0.0143482982        -1.46980274        -31.8067114        -94.4191526
         999040000       -31.7171981        -94.4650225      -0.0146476071        -1.48499046      -0.0146476071        -1.48499046        -31.7171981        -94.4650225
         999050000       -31.6267593        -94.5118522      -0.0149563627        -1.50049377      -0.0149563627        -1.50049377        -31.6267593        -94.5118522
         999060000       -31.5353759         -94.559672       -0.015274966        -1.51632256       -0.015274966        -1.51632256        -31.5353759         -94.559672
         999070000        -31.443028        -94.6085136      -0.0156038396        -1.53248714      -0.0156038396        -1.53248714         -31.443028        -94.6085136
         999080000       -31.3496951        -94.6584101      -0.0159434291        -1.54899827      -0.0159434291        -1.54899827        -31.3496951        -94.6584101
         999090000       -31.2553562        -94.7093959      -0.0162942041        -1.56586714      -0.0162942041        -1.56586714        -31.2553562        -94.7093959
         999100000       -31.1599894        -94.7615069      -0.0166566607        -1.58310546      -0.0166566607        -1.58310546        -31.1599894        -94.7615069
         999110000       -31.0635724        -94.8147809      -0.0170313222        -1.60072543      -0.0170313222        -1.60072543        -31.0635724        -94.8147809
         999120000       -30.9660818         -94.869257      -0.0174187418         -1.6187398      -0.0174187418         -1.6187398        -30.9660818         -94.869257
         999130000       -30.8674936        -94.9249763      -0.0178195044        -1.63716189      -0.0178195044        -1.63716189        -30.8674936        -94.9249763
         999140000       -30.7677831        -94.9819817      -0.0182342286        -1.65600563      -0.0182342286        -1.65600563        -30.7677831        -94.9819817
         999150000       -30.6669246        -95.0403182      -0.0186635692        -1.67528556      -0.0186635692        -1.67528556        -30.6669246        -95.0403182
         999160000       -30.5648915        -95.1000328      -0.0191082198        -1.69501694      -0.0191082198        -1.69501694        -30.5648915        -95.1000328
         999170000       -30.4616563        -95.1611747      -0.0195689156        -1.71521569      -0.0195689156        -1.71521569        -30.4616563        -95.1611747
         999180000       -30.3571908        -95.2237958      -0.0200464362        -1.73589853      -0.0200464362        -1.73589853        -30.3571908        -95.2237958
         999190000       -30.2514653          -95.28795      -0.0205416093        -1.75708296      -0.0205416093        -1.75708296        -30.2514653          -95.28795
         999200000       -30.1444494        -95.3536943      -0.0210553138        -1.77878733      -0.0210553138        -1.77878733        -30.1444494        -95.3536943
         999210000       -30.0361115        -95.4210883      -0.0215884839        -1.80103089      -0.0215884839        -1.80103089        -30.0361115        -95.4210883
         999220000       -29.9264188        -95.4901948      -0.0221421134        -1.82383385      -0.0221421134        -1.82383385        -29.9264188        -95.4901948
         999230000       -29.8153373        -95.5610796        -0.02271726        -1.84721742        -0.02271726        -1.84721742        -29.8153373        -95.5610796
         999240000       -29.7028318         -95.633812      -0.0233150507        -1.87120391      -0.0233150507        -1.87120391        -29.7028318         -95.633812
         999250000       -29.5888656         -95.708465      -0.0239366869        -1.89581677      -0.0239366869        -1.89581677        -29.5888656         -95.708465
         999260000       -29.4734007        -95.7851154      -0.0245834505        -1.92108067      -0.0245834505        -1.92108067        -29.4734007        -95.7851154
         999270000       -29.3563975        -95.8638442      -0.0252567108        -1.94702157      -0.0252567108        -1.94702157        -29.3563975        -95.8638442
         999280000       -29.2378149        -95.9447368      -0.0259579309        -1.97366685      -0.0259579309        -1.97366685        -29.2378149        -95.9447368
         999290000       -29.1176103        -96.0278832      -0.0266886766        -2.00104533      -0.0266886766        -2.00104533        -29.1176103        -96.0278832
         999300000        -28.995739        -96.1133786       -0.027450624        -2.02918745       -0.027450624        -2.02918745         -28.995739        -96.1133786
         999310000       -28.8721549        -96.2013237      -0.0282455699        -2.05812532      -0.0282455699        -2.05812532        -28.8721549        -96.2013237
         999320000       -28.7468096        -96.2918247      -0.0290754417        -2.08789287      -0.0290754417        -2.08789287        -28.7468096        -96.2918247
         999330000       -28.6196528        -96.3849943      -0.0299423092        -2.11852595      -0.0299423092        -2.11852595        -28.6196528        -96.3849943
         999340000       -28.4906322        -96.4809518      -0.0308483974        -2.15006249      -0.0308483974        -2.15006249        -28.4906322        -96.4809518
         999350000       -28.3596929        -96.5798236      -0.0317961004        -2.18254267      -0.0317961004        -2.18254267        -28.3596929        -96.5798236
         999360000       -28.2267779        -96.6817439      -0.0327879974        -2.21600904      -0.0327879974        -2.21600904        -28.2267779        -96.6817439
         999370000       -28.0918275        -96.7868553      -0.0338268696         -2.2505067      -0.0338268696         -2.2505067        -28.0918275        -96.7868553
         999380000       -27.9547793        -96.8953093      -0.0349157198        -2.28608355      -0.0349157198        -2.28608355        -27.9547793        -96.8953093
         999390000       -27.8155681         -97.007267      -0.0360577938        -2.32279044      -0.0360577938        -2.32279044        -27.8155681         -97.007267
         999400000       -27.6741255        -97.1229002      -0.0372566038        -2.36068142      -0.0372566038        -2.36068142        -27.6741255        -97.1229002
         999410000       -27.5303801        -97.2423918      -0.0385159559        -2.39981402      -0.0385159559        -2.39981402        -27.5303801        -97.2423918
         999420000       -27.3842569        -97.3659372       -0.039839979        -2.44024949       -0.039839979        -2.44024949        -27.3842569        -97.3659372
         999430000       -27.2356774         -97.493745      -0.0412331587        -2.48205311      -0.0412331587        -2.48205311        -27.2356774         -97.493745
         999440000        -27.084559        -97.6260383      -0.0427003747        -2.52529455      -0.0427003747        -2.52529455         -27.084559        -97.6260383
         999450000       -26.9308152        -97.7630561      -0.0442469425         -2.5700482      -0.0442469425         -2.5700482        -26.9308152        -97.7630561
         999460000       -26.7743549        -97.9050542      -0.0458786612        -2.61639359      -0.0458786612        -2.61639359        -26.7743549        -97.9050542
         999470000       -26.6150825        -98.0523075      -0.0476018666        -2.66441584      -0.0476018666        -2.66441584        -26.6150825        -98.0523075
         999480000       -26.4528972         -98.205111       -0.049423492        -2.71420614       -0.049423492        -2.71420614        -26.4528972         -98.205111
         999490000       -26.2876928        -98.3637825      -0.0513511363        -2.76586225      -0.0513511363        -2.76586225        -26.2876928        -98.3637825
         999500000       -26.1193576        -98.5286638      -0.0533931422        -2.81948919      -0.0533931422        -2.81948919        -26.1193576        -98.5286638
         999510000       -25.9477734        -98.7001239      -0.0555586842        -2.87519981      -0.0555586842        -2.87519981        -25.9477734        -98.7001239
         999520000       -25.7728156        -98.8785612      -0.0578578699        -2.93311556      -0.0578578699        -2.93311556        -25.7728156        -98.8785612
         999530000       -25.5943524         -99.064407      -0.0603018557        -2.99336729      -0.0603018557        -2.99336729        -25.5943524         -99.064407
         999540000       -25.4122446        -99.2581281      -0.0629029784        -3.05609618      -0.0629029784        -3.05609618        -25.4122446        -99.2581281
         999550000       -25.2263445        -99.4602312      -0.0656749081        -3.12145471      -0.0656749081        -3.12145471        -25.2263445        -99.4602312
         999560000       -25.0364957         -99.671267       -0.068632823        -3.18960779       -0.068632823        -3.18960779        -25.0364957         -99.671267
         999570000       -24.8425325        -99.8918351      -0.0717936123        -3.26073403      -0.0717936123        -3.26073403        -24.8425325        -99.8918351
         999580000       -24.6442785        -100.122589      -0.0751761106        -3.33502711      -0.0751761106        -3.33502711        -24.6442785        -100.122589
         999590000       -24.4415465        -100.364243      -0.0788013711        -3.41269737      -0.0788013711        -3.41269737        -24.4415465        -100.364243
         999600000       -24.2341374        -100.617579      -0.0826929834        -3.49397352      -0.0826929834        -3.49397352        -24.2341374        -100.617579
         999610000        -24.021839        -100.883455      -0.0868774459        -3.57910465      -0.0868774459        -3.57910465         -24.021839        -100.883455
         999620000       -23.8044251        -101.162812       -0.091384602        -3.66836239       -0.091384602        -3.66836239        -23.8044251        -101.162812
         999630000       -23.5816542        -101.456688      -0.0962481548         -3.7620434      -0.0962481548         -3.7620434        -23.5816542        -101.456688
         999640000       -23.3532686        -101.766229       -0.101506274        -3.86047217       -0.101506274        -3.86047217        -23.3532686        -101.766229
         999650000       -23.1189923        -102.092702       -0.107202318        -3.96400408       -0.107202318        -3.96400408        -23.1189923        -102.092702
         999660000       -22.8785302        -102.437513       -0.113385689        -4.07302895       -0.113385689        -4.07302895        -22.8785302        -102.437513
         999670000        -22.631566        -102.802223       -0.120112864        -4.18797495       -0.120112864        -4.18797495         -22.631566        -102.802223
         999680000       -22.3777603        -103.188574       -0.127448619        -4.30931299       -0.127448619        -4.30931299        -22.3777603        -103.188574
         999690000        -22.116749        -103.598512       -0.135467522        -4.43756165       -0.135467522        -4.43756165         -22.116749        -103.598512
         999700000       -21.8481408        -104.034221       -0.144255723        -4.57329263       -0.144255723        -4.57329263        -21.8481408        -104.034221
         999710000       -21.5715153        -104.498153       -0.153913148        -4.71713678       -0.153913148        -4.71713678        -21.5715153        -104.498153
         999720000       -21.2864199        -104.993074       -0.164556164        -4.86979075       -0.164556164        -4.86979075        -21.2864199        -104.993074
         999730000       -20.9923681        -105.522116       -0.176320871        -5.03202411       -0.176320871        -5.03202411        -20.9923681        -105.522116
         999740000       -20.6888363        -106.088833        -0.18936715        -5.20468697        -0.18936715        -5.20468697        -20.6888363        -106.088833
         999750000       -20.3752613        -106.697273       -0.203883694        -5.38871779       -0.203883694        -5.38871779        -20.3752613        -106.697273
         999760000        -20.051038        -107.352067       -0.220094282          -5.585151       -0.220094282          -5.585151         -20.051038        -107.352067
         999770000       -19.7155171         -108.05853       -0.238265644         -5.7951238       -0.238265644         -5.7951238        -19.7155171         -108.05853
         999780000       -19.3680037        -108.822785       -0.258717376        -6.01988103       -0.258717376        -6.01988103        -19.3680037        -108.822785
         999790000       -19.0077567        -109.651918       -0.281834506        -6.26077624       -0.281834506        -6.26077624        -19.0077567        -109.651918
         999800000       -18.6339902        -110.554161       -0.308083478        -6.51926612       -0.308083478        -6.51926612        -18.6339902        -110.554161
         999810000       -18.2458773        -111.539117       -0.338032605         -6.7968937       -0.338032605         -6.7968937        -18.2458773        -111.539117
         999820000       -17.8425582        -112.618034       -0.372378311        -7.09525293       -0.372378311        -7.09525293        -17.8425582        -112.618034
         999830000       -17.4231548        -113.804145       -0.411978882        -7.41592295       -0.411978882        -7.41592295        -17.4231548        -113.804145
         999840000       -16.9867941        -115.113073       -0.457897912        -7.76035362       -0.457897912        -7.76035362        -16.9867941        -115.113073
         999850000       -16.5326464        -116.563332       -0.511460077        -8.12967259       -0.511460077        -8.12967259        -16.5326464        -116.563332
         999860000       -16.0599841        -118.176921       -0.574322206         -8.5243669       -0.574322206         -8.5243669        -16.0599841        -118.176921
         999870000       -15.5682715        -119.980027        -0.64856246        -8.94376407        -0.64856246        -8.94376407        -15.5682715        -119.980027
         999880000       -15.0572999        -122.003838         -0.7367889        -9.38519367         -0.7367889        -9.38519367        -15.0572999        -122.003838
         999890000       -14.5273884         -124.28541       -0.842264074        -9.84264255       -0.842264074        -9.84264255        -14.5273884         -124.28541
         999900000       -13.9796781        -126.868522        -0.96903064        -10.3046173        -0.96903064        -10.3046173        -13.9796781        -126.868522
         999910000       -13.4165541        -129.804303        -1.12199687        -10.7507935        -1.12199687        -10.7507935        -13.4165541        -129.804303
         999920000       -12.8422356        -133.151246        -1.30688585         -11.146893        -1.30688585         -11.146893        -12.8422356        -133.151246
         999930000       -12.2635624        -136.973934        -1.52984408        -11.4372044        -1.52984408        -11.4372044        -12.2635624        -136.973934
         999940000       -11.6909653        -141.339353         -1.7963133        -11.5346275         -1.7963133        -11.5346275        -11.6909653        -141.339353
         999950000       -11.1395003        -146.309271        -2.10849189        -11.3099876        -2.10849189        -11.3099876        -11.1395003        -146.309271
         999960000       -10.6296168        -151.927037        -2.46051063        -10.5874045        -2.46051063        -10.5874045        -10.6296168        -151.927037
         999970000        -10.187023        -158.198294        -2.83099947        -9.16242985        -2.83099947        -9.16242985         -10.187023        -158.198294
         999980000        -9.8407761         -165.06844        -3.17558432        -6.87004723        -3.17558432        -6.87004723         -9.8407761         -165.06844
         999990000       -9.61895549        -172.405319        -3.42802052        -3.71530666        -3.42802052        -3.71530666        -9.61895549        -172.405319
             1e+09       -9.54242509                180        -3.52182518     1.11819821e-08        -3.52182518     1.11819821e-08        -9.54242509                180
       1.00001e+09       -9.61895398         172.405394        -3.42802234         3.71527155        -3.42802234         3.71527155        -9.61895398         172.405394
       1.00002e+09       -9.84076457         165.068725        -3.17559675         6.86993739        -3.17559675         6.86993739        -9.84076457         165.068725
       1.00003e+09        -10.186987         158.198887        -2.83103251         9.16226425        -2.83103251         9.16226425         -10.186987         158.198887
       1.00004e+09       -10.6295399         151.927989        -2.46056927         10.5872382        -2.46056927         10.5872382        -10.6295399         151.927989
       1.00005e+09       -11.1393667         146.310594        -2.10857541         11.3098774        -2.10857541         11.3098774        -11.1393667         146.310594
       1.00006e+09       -11.6907619          141.34103        -1.79641749         11.5346138        -1.79641749         11.5346138        -11.6907619          141.34103
       1.00007e+09       -12.2632794         136.975934        -1.52996361          11.437308        -1.52996361          11.437308        -12.2632794         136.975934
       1.00008e+09       -12.8418658         133.153533        -1.30701571           11.14712        -1.30701571           11.14712        -12.8418658         133.153533
       1.00009e+09       -13.4160927         129.806839        -1.12213288         10.7511404        -1.12213288         10.7511404        -13.4160927         129.806839
        1.0001e+09       -13.9791222         126.871273       -0.969169613         10.3050756       -0.969169613         10.3050756        -13.9791222         126.871273
       1.00011e+09       -14.5267362         124.288344       -0.842403679         9.84320178       -0.842403679         9.84320178        -14.5267362         124.288344
       1.00012e+09       -15.0565504         122.006928       -0.736927495         9.38584278       -0.736927495         9.38584278        -15.0565504         122.006928
       1.00013e+09       -15.5674243         119.983251       -0.648698927         8.94449254       -0.648698927         8.94449254        -15.5674243         119.983251
       1.00014e+09       -16.0590392         118.180259       -0.574455811         8.52516512       -0.574455811         8.52516512        -16.0590392         118.180259
       1.00015e+09       -16.5316041          116.56677       -0.511590365         8.13053202       -0.511590365         8.13053202        -16.5316041          116.56677
