! File generated for n1 = 7, n2 = 6
! b1 = 1.000000
! b2 = 0.021544
! Q0 = 10000.000000
! f0 = 1000000000.000000
! n = 1001
! rel_span = 10.000000
# Hz S RI R 50
9.98989227826549887657e+08 9.90214333955664716136e-01 -9.79061658767432924089e-02 -1.43633934530694212968e-03 -1.43706598569568622797e-02 -1.43633934530694212968e-03 -1.43706598569568622797e-02 9.99789174216090148484e-01 -2.10932440132871558067e-03
9.98991249370896816254e+08 9.90175443726507231723e-01 -9.80985750774433229449e-02 -1.44204765029445295538e-03 -1.43989016653439886456e-02 -1.44204765029445295538e-03 -1.43989016653439886456e-02 9.99788336351502215926e-01 -2.11346973189541036120e-03
9.98993270915243744850e+08 9.90136322060048756910e-01 -9.82917337727887835408e-02 -1.44778992563204247576e-03 -1.44272534845002794318e-02 -1.44778992563204247576e-03 -1.44272534845002794318e-02 9.99787493500748691844e-01 -2.11763120983474596032e-03
9.98995292459590554237e+08 9.90096967122693794039e-01 -9.84856463024183642618e-02 -1.45356644045473376928e-03 -1.44557159513975831688e-02 -1.45356644045473376928e-03 -1.44557159513975831688e-02 9.99786645624326064663e-01 -2.12180892864140399276e-03
9.98997314003937482834e+08 9.90057377062701804427e-01 -9.86803170392096667962e-02 -1.45937746656086392814e-03 -1.44842897078865540800e-02 -1.45937746656086392814e-03 -1.44842897078865540800e-02 9.99785792682339802262e-01 -2.12600298252617640402e-03
9.98999335548284411430e+08 9.90017550009999580674e-01 -9.88757503894594769189e-02 -1.46522327843965098279e-03 -1.45129754007231135532e-02 -1.46522327843965098279e-03 -1.45129754007231135532e-02 9.99784934634500355166e-01 -2.13021346641984951620e-03
9.99001357092631340027e+08 9.89977484075943880981e-01 -9.90719507932966564345e-02 -1.47110415330601457251e-03 -1.45417736816290509710e-02 -1.47110415330601457251e-03 -1.45417736816290509710e-02 9.99784071440118160545e-01 -2.13444047598210055738e-03
9.99003378636978149414e+08 9.89937177353113706424e-01 -9.92689227249380773399e-02 -1.47702037113105308537e-03 -1.45706852073295891475e-02 -1.47702037113105308537e-03 -1.45706852073295891475e-02 9.99783203058099090299e-01 -2.13868410760700931178e-03
9.99005400181325078011e+08 9.89896627915069049486e-01 -9.94666706930990018876e-02 -1.48297221467748904615e-03 -1.45997106396136260703e-02 -1.48297221467748904615e-03 -1.45997106396136260703e-02 9.99782329446939233009e-01 -2.14294445843190130632e-03
9.99007421725672006607e+08 9.89855833816142727244e-01 -9.96651992412289911005e-02 -1.48895996953022561986e-03 -1.46288506453683530423e-02 -1.48895996953022561986e-03 -1.46288506453683530423e-02 9.99781450564720453045e-01 -2.14722162634243055046e-03
9.99009443270018935204e+08 9.89814793091201239328e-01 -9.98645129478863968764e-02 -1.49498392413141079418e-03 -1.46581058966342315381e-02 -1.49498392413141079418e-03 -1.46581058966342315381e-02 9.99780566369105283542e-01 -2.15151570998064643400e-03
9.99011464814365744591e+08 9.89773503755413730509e-01 -1.00064616427062463844e-01 -1.50104436981435035610e-03 -1.46874770706525558522e-02 -1.50104436981435035610e-03 -1.46874770706525558522e-02 9.99779676817331819372e-01 -2.15582680875197598910e-03
9.99013486358712673187e+08 9.89731963804009073904e-01 -1.00265514328553309586e-01 -1.50714160083923278712e-03 -1.47169648499200639291e-02 -1.50714160083923278712e-03 -1.47169648499200639291e-02 9.99778781866208499096e-01 -2.16015502283324091481e-03
9.99015507903059601784e+08 9.89690171212049052407e-01 -1.00467211338236508955e-01 -1.51327591442633100326e-03 -1.47465699222295194837e-02 -1.51327591442633100326e-03 -1.47465699222295194837e-02 9.99777881472109442029e-01 -2.16450045317861288277e-03
9.99017529447406530380e+08 9.89648123934169454685e-01 -1.00669712178495046606e-01 -1.51944761079404896086e-03 -1.47762929807319521452e-02 -1.51944761079404896086e-03 -1.47762929807319521452e-02 9.99776975590968675078e-01 -2.16886320152874859102e-03
9.99019550991753339767e+08 9.89605819904354255812e-01 -1.00873021608467727805e-01 -1.52565699319207677583e-03 -1.48061347239734093090e-02 -1.52565699319207677583e-03 -1.48061347239734093090e-02 9.99776064178275025718e-01 -2.17324337041618605507e-03
9.99021572536100268364e+08 9.89563257035652732441e-01 -1.01077144424559908775e-01 -1.53190436794286319148e-03 -1.48360958559699152720e-02 -1.53190436794286319148e-03 -1.48360958559699152720e-02 9.99775147189066681896e-01 -2.17764106317634622417e-03
9.99023594080447196960e+08 9.89520433219963635452e-01 -1.01282085460623338946e-01 -1.53819004447339094215e-03 -1.48661770862338754595e-02 -1.53819004447339094215e-03 -1.48661770862338754595e-02 9.99774224577925862967e-01 -2.18205638395140748623e-03
9.99025615624794125557e+08 9.89477346327751638988e-01 -1.01487849588441814142e-01 -1.54451433535668499961e-03 -1.48963791298453614165e-02 -1.54451433535668499961e-03 -1.48963791298453614165e-02 9.99773296298973157548e-01 -2.18648943770076995344e-03
9.99027637169140934944e+08 9.89433994207798539477e-01 -1.01694441718041747591e-01 -1.55087755634837989351e-03 -1.49267027074976889323e-02 -1.55087755634837989351e-03 -1.49267027074976889323e-02 9.99772362305862083431e-01 -2.19094033020774672446e-03
9.99029658713487863541e+08 9.89390374686931917125e-01 -1.01901866798097248679e-01 -1.55728002642659731775e-03 -1.49571485455568791573e-02 -1.55728002642659731775e-03 -1.49571485455568791573e-02 9.99771422551772870335e-01 -2.19540916808828867612e-03
9.99031680257834792137e+08 9.89346485569759570566e-01 -1.02110129816288280891e-01 -1.56372206783080610476e-03 -1.49877173761142363367e-02 -1.56372206783080610476e-03 -1.49877173761142363367e-02 9.99770476989407352875e-01 -2.19989605879870398289e-03
9.99033701802181720734e+08 9.89302324638405505830e-01 -1.02319235799645968932e-01 -1.57020400610069933017e-03 -1.50184099370370156140e-02 -1.57020400610069933017e-03 -1.50184099370370156140e-02 9.99769525570982864338e-01 -2.20440111064309400904e-03
9.99035723346528649330e+08 9.89257889652217947685e-01 -1.02529189815010607356e-01 -1.57672617011900121665e-03 -1.50492269720356695861e-02 -1.57672617011900121665e-03 -1.50492269720356695861e-02 9.99768568248225908413e-01 -2.20892443278322475261e-03
9.99037744890875458717e+08 9.89213178347502219978e-01 -1.02739996969357288981e-01 -1.58328889215061442176e-03 -1.50801692307116243230e-02 -1.58328889215061442176e-03 -1.50801692307116243230e-02 9.99767604972366719096e-01 -2.21346613524553903138e-03
9.99039766435222387314e+08 9.89168188437226536536e-01 -1.02951662410240493695e-01 -1.58989250788590962861e-03 -1.51112374686225500731e-02 -1.58989250788590962861e-03 -1.51112374686225500731e-02 9.99766635694132710377e-01 -2.21802632893073519219e-03
9.99041787979569315910e+08 9.89122917610748442208e-01 -1.03164191326121923442e-01 -1.59653735648083495470e-03 -1.51424324473304790228e-02 -1.59653735648083495470e-03 -1.51424324473304790228e-02 9.99765660363742592054e-01 -2.22260512562083394072e-03
9.99043809523916244507e+08 9.89077363533507503135e-01 -1.03377588946842166595e-01 -1.60322378060197279215e-03 -1.51737549344710259680e-02 -1.60322378060197279215e-03 -1.51737549344710259680e-02 9.99764678930899819420e-01 -2.22720263798933341276e-03
9.99045831068263053894e+08 9.89031523846742088857e-01 -1.03591860543968933284e-01 -1.60995212646821675602e-03 -1.52052057038045140835e-02 -1.60995212646821675602e-03 -1.52052057038045140835e-02 9.99763691344786376014e-01 -2.23181897960871792469e-03
9.99047852612609982491e+08 9.88985396167167629677e-01 -1.03807011431302359528e-01 -1.61672274389785121211e-03 -1.52367855352901378219e-02 -1.61672274389785121211e-03 -1.52367855352901378219e-02 9.99762697554055890237e-01 -2.23645426496134076128e-03
9.99049874156956911087e+08 9.88938978086705611226e-01 -1.04023046965138324382e-01 -1.62353598634851496903e-03 -1.52684952151246142865e-02 -1.62353598634851496903e-03 -1.52684952151246142865e-02 9.99761697506827973214e-01 -2.24110860944509802245e-03
9.99051895701303839684e+08 9.88892267172137628961e-01 -1.04239972544854314629e-01 -1.63039221096780619774e-03 -1.53003355358281769444e-02 -1.63039221096780619774e-03 -1.53003355358281769444e-02 9.99760691150680447237e-01 -2.24578212938605220605e-03
9.99053917245650649071e+08 9.88845260964822503347e-01 -1.04457793613193461457e-01 -1.63729177863488500368e-03 -1.53323072962862627655e-02 -1.63729177863488500368e-03 -1.53323072962862627655e-02 9.99759678432643572599e-01 -2.25047494204454884281e-03
9.99055938789997577667e+08 9.88797956980352332756e-01 -1.04676515656814184130e-01 -1.64423505401096992605e-03 -1.53644113018301924772e-02 -1.64423505401096992605e-03 -1.53644113018301924772e-02 9.99758659299192387060e-01 -2.25518716562706032086e-03
9.99057960334344506264e+08 9.88750352708244628630e-01 -1.04896144206654870490e-01 -1.65122240558451685924e-03 -1.53966483642906989265e-02 -1.65122240558451685924e-03 -1.53966483642906989265e-02 9.99757633696240155530e-01 -2.25991891929404201469e-03
9.99059981878691434860e+08 9.88702445611614133547e-01 -1.05116684838374621624e-01 -1.65825420571931989901e-03 -1.54290193020626131837e-02 -1.65825420571931989901e-03 -1.54290193020626131837e-02 9.99756601569131375662e-01 -2.26467032316942772779e-03
9.99062003423038244247e+08 9.88654233126833315026e-01 -1.05338143172835504990e-01 -1.66533083070448547323e-03 -1.54615249401756620767e-02 -1.66533083070448547323e-03 -1.54615249401756620767e-02 9.99755562862634339361e-01 -2.26944149835101981888e-03
9.99064024967385172844e+08 9.88605712663194857726e-01 -1.05560524876548489370e-01 -1.67245266080379715104e-03 -1.54941661103599089000e-02 -1.67245266080379715104e-03 -1.54941661103599089000e-02 9.99754517520933916330e-01 -2.27423256692009653421e-03
9.99066046511732101440e+08 9.88556881602578374491e-01 -1.05783835662093664287e-01 -1.67962008030481460552e-03 -1.55269436511074401808e-02 -1.67962008030481460552e-03 -1.55269436511074401808e-02 9.99753465487624559671e-01 -2.27904365195046422835e-03
9.99068068056079030037e+08 9.88507737299096578276e-01 -1.06008081288606545445e-01 -1.68683347757064860430e-03 -1.55598584077437478157e-02 -1.68683347757064860430e-03 -1.55598584077437478157e-02 9.99752406705702090228e-01 -2.28387487751893726237e-03
9.99070089600425958633e+08 9.88458277078742009181e-01 -1.06233267562252126082e-01 -1.69409324509192638596e-03 -1.55929112324972984210e-02 -1.69409324509192638596e-03 -1.55929112324972984210e-02 9.99751341117557035254e-01 -2.28872636871554771890e-03
9.99072111144772768021e+08 9.88408498239028987520e-01 -1.06459400336698067902e-01 -1.70139977953932060480e-03 -1.56261029845690090079e-02 -1.70139977953932060480e-03 -1.56261029845690090079e-02 9.99750268664965968668e-01 -2.29359825165374254033e-03
9.99074132689119696617e+08 9.88358398048627129207e-01 -1.06686485513606432729e-01 -1.70875348181727306635e-03 -1.56594345302044010704e-02 -1.70875348181727306635e-03 -1.56594345302044010704e-02 9.99749189289084183585e-01 -2.29849065348097661779e-03
9.99076154233466625214e+08 9.88307973747007295628e-01 -1.06914529043055706037e-01 -1.71615475711606483775e-03 -1.56929067427555614389e-02 -1.71615475711606483775e-03 -1.56929067427555614389e-02 9.99748102930437920755e-01 -2.30340370238780491052e-03
9.99078175777813553810e+08 9.88257222544050684121e-01 -1.07143536924105983732e-01 -1.72360401496914083554e-03 -1.57265205027640880830e-02 -1.72360401496914083554e-03 -1.57265205027640880830e-02 9.99747009528915819843e-01 -2.30833752762005890366e-03
9.99080197322160363197e+08 9.88206141619682787436e-01 -1.07373515205232486491e-01 -1.73110166930679257834e-03 -1.57602766980247353812e-02 -1.73110166930679257834e-03 -1.57602766980247353812e-02 9.99745909023761258894e-01 -2.31329225948818722677e-03
9.99082218866507291794e+08 9.88154728123469383583e-01 -1.07604469984915906977e-01 -1.73864813851558851210e-03 -1.57941762236720496804e-02 -1.73864813851558851210e-03 -1.57941762236720496804e-02 9.99744801353563472546e-01 -2.31826802937997377904e-03
9.99084240410854220390e+08 9.88102979174252604722e-01 -1.07836407412024465335e-01 -1.74624384549165192169e-03 -1.58282199822364598452e-02 -1.74624384549165192169e-03 -1.58282199822364598452e-02 9.99743686456249780470e-01 -2.32326496976876769110e-03
9.99086261955201148987e+08 9.88050891859723501298e-01 -1.08069333686467136668e-01 -1.75388921770347114802e-03 -1.58624088837401484853e-02 -1.75388921770347114802e-03 -1.58624088837401484853e-02 9.99742564269076483541e-01 -2.32828321422755973868e-03
9.99088283499547958374e+08 9.87998463236053225955e-01 -1.08303255059561703844e-01 -1.76158468724603466983e-03 -1.58967438457510851224e-02 -1.76158468724603466983e-03 -1.58967438457510851224e-02 9.99741434728620648187e-01 -2.33332289743690829420e-03
9.99090305043894886971e+08 9.87945690327444059342e-01 -1.08538177834740137695e-01 -1.76933069090672804441e-03 -1.59312257934865475484e-02 -1.76933069090672804441e-03 -1.59312257934865475484e-02 9.99740297770770558472e-01 -2.33838415520013767276e-03
9.99092326588241815567e+08 9.87892570125748270549e-01 -1.08774108367928196150e-01 -1.77712767022122474642e-03 -1.59658556598688619599e-02 -1.77712767022122474642e-03 -1.59658556598688619599e-02 9.99739153330717833512e-01 -2.34346712445151865445e-03
9.99094348132588744164e+08 9.87839099590037461596e-01 -1.09011053068129290522e-01 -1.78497607153678904644e-03 -1.60006343856110705426e-02 -1.78497607153678904644e-03 -1.60006343856110705426e-02 9.99738001342947546490e-01 -2.34857194326884306107e-03
9.99096369676935553551e+08 9.87785275646165583652e-01 -1.09249018398009378750e-01 -1.79287634607635409413e-03 -1.60355629193028141610e-02 -1.79287634607635409413e-03 -1.60355629193028141610e-02 9.99736841741229231850e-01 -2.35369875088602825697e-03
9.99098391221282482147e+08 9.87731095186337615388e-01 -1.09488010874437061148e-01 -1.80082895000185775648e-03 -1.60706422174895849353e-02 -1.80082895000185775648e-03 -1.60706422174895849353e-02 9.99735674458607448400e-01 -2.35884768770475237304e-03
9.99100412765629410744e+08 9.87676555068677242133e-01 -1.09728037069003581117e-01 -1.80883434447765261560e-03 -1.61058732447490714212e-02 -1.80883434447765261560e-03 -1.61058732447490714212e-02 9.99734499427392564463e-01 -2.36401889530565715095e-03
9.99102434309976339340e+08 9.87621652116772330565e-01 -1.09969103608621554535e-01 -1.81689299573728328153e-03 -1.61412569737790188851e-02 -1.81689299573728328153e-03 -1.61412569737790188851e-02 9.99733316579150876890e-01 -2.36921251646124647952e-03
9.99104455854323148727e+08 9.87566383119220181364e-01 -1.10211217176098122406e-01 -1.82500537515020060456e-03 -1.61767943854813633919e-02 -1.82500537515020060456e-03 -1.61767943854813633919e-02 9.99732125844694841099e-01 -2.37442869514823502383e-03
9.99106477398670077324e+08 9.87510744829169229142e-01 -1.10454384510701747457e-01 -1.83317195928904834619e-03 -1.62124864690454464911e-02 -1.83317195928904834619e-03 -1.62124864690454464911e-02 9.99730927154072968044e-01 -2.37966757655976154581e-03
9.99108498943017005920e+08 9.87454733963844422107e-01 -1.10698612408776070337e-01 -1.84139322999932468668e-03 -1.62483342220380820586e-02 -1.84139322999932468668e-03 -1.62483342220380820586e-02 9.99729720436560276298e-01 -2.38492930711861053292e-03
9.99110520487363934517e+08 9.87398347204083370876e-01 -1.10943907724280699245e-01 -1.84966967446740940609e-03 -1.62843386504829615302e-02 -1.84966967446740940609e-03 -1.62843386504829615302e-02 9.99728505620647411867e-01 -2.39021403448886520307e-03
9.99112542031710863113e+08 9.87341581193843298436e-01 -1.11190277369439344257e-01 -1.85800178529302892176e-03 -1.63205007689557791972e-02 -1.85800178529302892176e-03 -1.63205007689557791972e-02 9.99727282634030656183e-01 -2.39552190758987159497e-03
9.99114563576057672501e+08 9.87284432539714762456e-01 -1.11437728315328887785e-01 -1.86639006056057554089e-03 -1.63568216006706873555e-02 -1.86639006056057554089e-03 -1.63568216006706873555e-02 9.99726051403601156942e-01 -2.40085307660892807030e-03
9.99116585120404601097e+08 9.87226897810410952694e-01 -1.11686267592550264593e-01 -1.87483500391407049979e-03 -1.63933021775787730878e-02 -1.87483500391407049979e-03 -1.63933021775787730878e-02 9.99724811855434269958e-01 -2.40620769301573989712e-03
9.99118606664751529694e+08 9.87168973536290295101e-01 -1.11935902291729907909e-01 -1.88333712462724505755e-03 -1.64299435404416660500e-02 -1.88333712462724505755e-03 -1.64299435404416660500e-02 9.99723563914778678985e-01 -2.41158590957322267398e-03
9.99120628209098458290e+08 9.87110656208808223688e-01 -1.12186639564301832150e-01 -1.89189693768404164007e-03 -1.64667467389463285932e-02 -1.89189693768404164007e-03 -1.64667467389463285932e-02 9.99722307506045071435e-01 -2.41698788035435213270e-03
9.99122649753445267677e+08 9.87051942280033012267e-01 -1.12438486622982447560e-01 -1.90051496384957704054e-03 -1.65037128317747465445e-02 -1.90051496384957704054e-03 -1.65037128317747465445e-02 9.99721042552795702285e-01 -2.42241376075239250171e-03
9.99124671297792196274e+08 9.86992828162075452880e-01 -1.12691450742596885326e-01 -1.90919172975401109545e-03 -1.65408428867252210726e-02 -1.90919172975401109545e-03 -1.65408428867252210726e-02 9.99719768977731737536e-01 -2.42786370749869953936e-03
9.99126692842139124870e+08 9.86933310226579929569e-01 -1.12945539260604077558e-01 -1.91792776796707669339e-03 -1.65781379807894320433e-02 -1.91792776796707669339e-03 -1.65781379807894320433e-02 9.99718486702682596068e-01 -2.43333787867403440047e-03
9.99128714386486053467e+08 9.86873384804169306861e-01 -1.13200759577801290945e-01 -1.92672361707969699678e-03 -1.66155992002558657028e-02 -1.92672361707969699678e-03 -1.66155992002558657028e-02 9.99717195648594070256e-01 -2.43883643372374029831e-03
9.99130735930832862854e+08 9.86813048183896035503e-01 -1.13457119158968083861e-01 -1.93557982178449807832e-03 -1.66532276408043189431e-02 -1.93557982178449807832e-03 -1.66532276408043189431e-02 9.99715895735516113518e-01 -2.44435953347161855770e-03
9.99132757475179791451e+08 9.86752296612651402796e-01 -1.13714625533659283163e-01 -1.94449693296246746595e-03 -1.66910244076222957776e-02 -1.94449693296246746595e-03 -1.66910244076222957776e-02 9.99714586882590405814e-01 -2.44990734013700913602e-03
9.99134779019526720047e+08 9.86691126294634957006e-01 -1.13973286296717810084e-01 -1.95347550776094882816e-03 -1.67289906154802804628e-02 -1.95347550776094882816e-03 -1.67289906154802804628e-02 9.99713269008039029373e-01 -2.45548001734584298017e-03
9.99136800563873648643e+08 9.86629533390735335985e-01 -1.14233109109127192737e-01 -1.96251610968440357366e-03 -1.67671273888568804489e-02 -1.96251610968440357366e-03 -1.67671273888568804489e-02 9.99711942029150923972e-01 -2.46107773014900711034e-03
9.99138822108220458031e+08 9.86567514017969937612e-01 -1.14494101698590242111e-01 -1.97161930867673865914e-03 -1.68054358620237445643e-02 -1.97161930867673865914e-03 -1.68054358620237445643e-02 9.99710605862269452437e-01 -2.46670064503481164392e-03
9.99140843652567386627e+08 9.86505064248850538355e-01 -1.14756271860386560579e-01 -1.98078568121440399402e-03 -1.68439171791714484283e-02 -1.98078568121440399402e-03 -1.68439171791714484283e-02 9.99709260422779744104e-01 -2.47234892994746460054e-03
9.99142865196914315224e+08 9.86442180110800093118e-01 -1.15019627457982720475e-01 -1.99001581039195876016e-03 -1.68825724944990269993e-02 -1.99001581039195876016e-03 -1.68825724944990269993e-02 9.99707905625095039071e-01 -2.47802275430021676922e-03
9.99144886741261243820e+08 9.86378857585533452834e-01 -1.15284176423764442299e-01 -1.99931028601299043759e-03 -1.69214029723214857970e-02 -1.99931028601299043759e-03 -1.69214029723214857970e-02 9.99706541382644031657e-01 -2.48372228899113858466e-03
9.99146908285608053207e+08 9.86315092608410659558e-01 -1.15549926759851345759e-01 -2.00866970468506792977e-03 -1.69604097871893545746e-02 -2.00866970468506792977e-03 -1.69604097871893545746e-02 9.99705167607856881595e-01 -2.48944770642067119207e-03
