! File generated for n1 = 10, n2 = 5
! b1 = 0.100000
! b2 = 0.004642
! Q0 = 10000.000000
! f0 = 1000000000.000000
! n = 1001
! rel_span = 10.000000
# Hz S RI R 50
9.99447679205583214760e+08 9.98208364587595098349e-01 -1.79213046457959053470e-02 -3.85996148437476281623e-04 -3.86102804195322547171e-03 -3.85996148437476281623e-04 -3.86102804195322547171e-03 9.99916839650758726421e-01 -8.31833275276990793609e-04
9.99448783847172021866e+08 9.98201245932890501855e-01 -1.79565159149132659577e-02 -3.87529816101660760149e-04 -3.86861407991987479166e-03 -3.87529816101660760149e-04 -3.86861407991987479166e-03 9.99916509232076866631e-01 -8.33467637612515582432e-04
9.99449888488760828972e+08 9.98194084918202051426e-01 -1.79918643421108220837e-02 -3.89072609947736867530e-04 -3.87622966769912225340e-03 -3.89072609947736867530e-04 -3.87622966769912225340e-03 9.99916176847218785007e-01 -8.35108366262174981777e-04
9.99450993130349755287e+08 9.98186881207939191718e-01 -1.80273507215468510589e-02 -3.90624602276459179789e-04 -3.88387497638718447862e-03 -3.90624602276459179789e-04 -3.88387497638718447862e-03 9.99915842480607608422e-01 -8.36755498087531296783e-04
9.99452097771938562393e+08 9.98179634463195908367e-01 -1.80629758534371111234e-02 -3.92185866102933323053e-04 -3.89155017838531793253e-03 -3.92185866102933323053e-04 -3.89155017838531793253e-03 9.99915506116512808887e-01 -8.38409070231309404113e-04
9.99453202413527369499e+08 9.98172344341704431692e-01 -1.80987405441443323373e-02 -3.93756475166494302170e-04 -3.89925544741910818161e-03 -3.93756475166494302170e-04 -3.89925544741910818161e-03 9.99915167739047650031e-01 -8.40069120121552065199e-04
9.99454307055116176605e+08 9.98165010497801707956e-01 -1.81346456062076721860e-02 -3.95336503938043838918e-04 -3.90699095854480857315e-03 -3.95336503938043838918e-04 -3.90699095854480857315e-03 9.99914827332167965857e-01 -8.41735685472985587299e-04
9.99455411696705102921e+08 9.98157632582385878628e-01 -1.81706918584120698246e-02 -3.96926027629225107625e-04 -3.91475688816428791378e-03 -3.96926027629225107625e-04 -3.91475688816428791378e-03 9.99914484879669940298e-01 -8.43408804290240988154e-04
9.99456516338293910027e+08 9.98150210242878754840e-01 -1.82068801258366413931e-02 -3.98525122200765670889e-04 -3.92255341403545312179e-03 -3.98525122200765670889e-04 -3.92255341403545312179e-03 9.99914140365188108817e-01 -8.45088514870097860798e-04
9.99457620979882717133e+08 9.98142743123179965181e-01 -1.82432112399309072359e-02 -4.00133864372142870891e-04 -3.93038071528867185428e-03 -4.00133864372142870891e-04 -3.93038071528867185428e-03 9.99913793772194026133e-01 -8.46774855805024293659e-04
9.99458725621471524239e+08 9.98135230863624767217e-01 -1.82796860385774154190e-02 -4.01752331630747939843e-04 -3.93823897244026822212e-03 -4.01752331630747939843e-04 -3.93823897244026822212e-03 9.99913445083993379647e-01 -8.48467865986083399736e-04
9.99459830263060331345e+08 9.98127673100946299911e-01 -1.83163053661311164833e-02 -4.03380602240110703455e-04 -3.94612836740100125094e-03 -4.03380602240110703455e-04 -3.94612836740100125094e-03 9.99913094283724768196e-01 -8.50167584604759980424e-04
9.99460934904649257660e+08 9.98120069468227733012e-01 -1.83530700734996256307e-02 -4.05018755250036383356e-04 -3.95404908349336094153e-03 -4.05018755250036383356e-04 -3.95404908349336094153e-03 9.99912741354357592627e-01 -8.51874051156687253639e-04
9.99462039546238064766e+08 9.98112419594861854932e-01 -1.83899810181912086449e-02 -4.06666870505405632450e-04 -3.96200130546190028291e-03 -4.06666870505405632450e-04 -3.96200130546190028291e-03 9.99912386278689613306e-01 -8.53587305443872720878e-04
9.99463144187826871872e+08 9.98104723106502222940e-01 -1.84270390644003592695e-02 -4.08325028656753583403e-04 -3.96998521949167969963e-03 -4.08325028656753583403e-04 -3.96998521949167969963e-03 9.99912029039345395809e-01 -8.55307387578671551344e-04
9.99464248829415678978e+08 9.98096979625021196725e-01 -1.84642450830534952944e-02 -4.09993311169171798999e-04 -3.97800101321810900545e-03 -4.09993311169171798999e-04 -3.97800101321810900545e-03 9.99911669618773646384e-01 -8.57034337985907606651e-04
9.99465353471004605293e+08 9.98089188768462642898e-01 -1.85015999518850123018e-02 -4.11671800332669450204e-04 -3.98604887574333013184e-03 -4.11671800332669450204e-04 -3.98604887574333013184e-03 9.99911307999245546618e-01 -8.58768197406401976798e-04
9.99466458112593412399e+08 9.98081350151000079585e-01 -1.85391045554765786230e-02 -4.13360579270990807169e-04 -3.99412899764468604796e-03 -4.13360579270990807169e-04 -3.99412899764468604796e-03 9.99910944162852644013e-01 -8.60509006898798776627e-04
9.99467562754182219505e+08 9.98073463382880166073e-01 -1.85767597853723417933e-02 -4.15059731953952972070e-04 -4.00224157099954205158e-03 -4.15059731953952972070e-04 -4.00224157099954205158e-03 9.99910578091504298470e-01 -8.62256807844911780415e-04
9.99468667395771026611e+08 9.98065528070384289094e-01 -1.86145665401009560713e-02 -4.16769343205702566535e-04 -4.01038678939002763563e-03 -4.16769343205702566535e-04 -4.01038678939002763563e-03 9.99910209766925572872e-01 -8.64011641950746499263e-04
9.99469772037359833717e+08 9.98057543815775272122e-01 -1.86525257252641574190e-02 -4.18489498716077411473e-04 -4.01856484792212191592e-03 -4.18489498716077411473e-04 -4.01856484792212191592e-03 9.99909839170655234675e-01 -8.65773551250612017835e-04
9.99470876678948760033e+08 9.98049510217248414534e-01 -1.86906382536074014422e-02 -4.20220285051276865387e-04 -4.02677594324087236022e-03 -4.20220285051276865387e-04 -4.02677594324087236022e-03 9.99909466284043091377e-01 -8.67542578110399513307e-04
9.99471981320537567139e+08 9.98041426868886416557e-01 -1.87289050450663539793e-02 -4.21961789663547381848e-04 -4.03502027354041108154e-03 -4.21961789663547381848e-04 -4.03502027354041108154e-03 9.99909091088248103141e-01 -8.69318765229740142951e-04
9.99473085962126374245e+08 9.98033293360601425626e-01 -1.87673270268715643161e-02 -4.23714100903629042015e-04 -4.04329803858650277393e-03 -4.23714100903629042015e-04 -4.04329803858650277393e-03 9.99908713564235718252e-01 -8.71102155646863570912e-04
9.99474190603715181351e+08 9.98025109278087962927e-01 -1.88059051336005103594e-02 -4.25477308030930087297e-04 -4.05160943972776230182e-03 -4.25477308030930087297e-04 -4.05160943972776230182e-03 9.99908333692775652679e-01 -8.72892792741013462225e-04
9.99475295245304107666e+08 9.98016874202771075986e-01 -1.88446403072494023112e-02 -4.27251501224720276785e-04 -4.05995467991112062717e-03 -4.27251501224720276785e-04 -4.05995467991112062717e-03 9.99907951454439336558e-01 -8.74690720235781079238e-04
9.99476399886892914772e+08 9.98008587711755601468e-01 -1.88835334972941547294e-02 -4.29036771594945370249e-04 -4.06833396369496273770e-03 -4.29036771594945370249e-04 -4.06833396369496273770e-03 9.99907566829597693747e-01 -8.76495982201934073497e-04
9.99477504528481721878e+08 9.98000249377766990300e-01 -1.89225856607950736199e-02 -4.30833211195174778894e-04 -4.07674749727167991947e-03 -4.30833211195174778894e-04 -4.07674749727167991947e-03 9.99907179798418366268e-01 -8.78308623062276855667e-04
9.99478609170070528984e+08 9.97991858769099682291e-01 -1.89617977624538941450e-02 -4.32640913033493948285e-04 -4.08519548847996200741e-03 -4.32640913033493948285e-04 -4.08519548847996200741e-03 9.99906790340863382838e-01 -8.80128687594297675137e-04
9.99479713811659336090e+08 9.97983415449565702815e-01 -1.90011707746771743577e-02 -4.34459971083808954920e-04 -4.09367814681845052643e-03 -4.34459971083808954920e-04 -4.09367814681845052643e-03 9.99906398436686716380e-01 -8.81956220933110494192e-04
9.99480818453248262405e+08 9.97974918978433600536e-01 -1.90407056776720901015e-02 -4.36290480298776918184e-04 -4.10219568346637929873e-03 -4.36290480298776918184e-04 -4.10219568346637929873e-03 9.99906004065431397443e-01 -8.83791268575902060067e-04
9.99481923094837069511e+08 9.97966368910374934664e-01 -1.90804034595136208508e-02 -4.38132536621553168258e-04 -4.11074831129805071117e-03 -4.38132536621553168258e-04 -4.11074831129805071117e-03 9.99905607206427071709e-01 -8.85633876385050395653e-04
9.99483027736425876617e+08 9.97957764795405988245e-01 -1.91202651162225185921e-02 -4.39986236998167684967e-04 -4.11933624489963044063e-03 -4.39986236998167684967e-04 -4.11933624489963044063e-03 9.99905207838787446484e-01 -8.87484090591743866351e-04
9.99484132378014683723e+08 9.97949106178828260205e-01 -1.91602916518521237954e-02 -4.41851679390453178694e-04 -4.12795970058785124251e-03 -4.41851679390453178694e-04 -4.12795970058785124251e-03 9.99904805941407182068e-01 -8.89341957800009533242e-04
9.99485237019603610039e+08 9.97940392601170733755e-01 -1.92004840785601794961e-02 -4.43728962788416921373e-04 -4.13661889642549188834e-03 -4.43728962788416921373e-04 -4.13661889642549188834e-03 9.99904401492959671316e-01 -8.91207524990048701070e-04
9.99486341661192417145e+08 9.97931623598131922748e-01 -1.92408434166814155952e-02 -4.45618187222784315100e-04 -4.14531405223700355478e-03 -4.45618187222784315100e-04 -4.14531405223700355478e-03 9.99903994471893819984e-01 -8.93080839521604016515e-04
9.99487446302781224251e+08 9.97922798700513702386e-01 -1.92813706948334329105e-02 -4.47519453779247097618e-04 -4.15404538963133097840e-03 -4.47519453779247097618e-04 -4.15404538963133097840e-03 9.99903584856431382200e-01 -8.94961949138875132413e-04
9.99488550944370031357e+08 9.97913917434163799669e-01 -1.93220669499791670998e-02 -4.49432864610830457019e-04 -4.16281313201536697088e-03 -4.49432864610830457019e-04 -4.16281313201536697088e-03 9.99903172624564184900e-01 -8.96850901973418189635e-04
9.99489655585958838463e+08 9.97904979319912399660e-01 -1.93629332275124278750e-02 -4.51358522951483343358e-04 -4.17161750461237951920e-03 -4.51358522951483343358e-04 -4.17161750461237951920e-03 9.99902757754051130235e-01 -8.98747746548115189653e-04
9.99490760227547764778e+08 9.97895983873506309259e-01 -1.94039705813568164050e-02 -4.53296533130458242054e-04 -4.18045873448332633293e-03 -4.53296533130458242054e-04 -4.18045873448332633293e-03 9.99902340222415308979e-01 -9.00652531781766566531e-04
9.99491864869136571884e+08 9.97886930605547783912e-01 -1.94451800740308503035e-02 -4.55247000585249121055e-04 -4.18933705054088095093e-03 -4.55247000585249121055e-04 -4.18933705054088095093e-03 9.99901920006940669872e-01 -9.02565306992112858370e-04
9.99492969510725378990e+08 9.97877819021426359924e-01 -1.94865627767509472235e-02 -4.57210031876476605088e-04 -4.19825268357162679350e-03 -4.57210031876476605088e-04 -4.19825268357162679350e-03 9.99901497084669466098e-01 -9.04486121900616038896e-04
9.99494074152314186096e+08 9.97868648621254683562e-01 -1.95281197695066875697e-02 -4.59185734701619829856e-04 -4.20720586625226381644e-03 -4.59185734701619829856e-04 -4.20720586625226381644e-03 9.99901071432399146666e-01 -9.06415026635951949496e-04
9.99495178793903112411e+08 9.97859418899796346558e-01 -1.95698521411703484085e-02 -4.61174217910539615065e-04 -4.21619683317321289340e-03 -4.61174217910539615065e-04 -4.21619683317321289340e-03 9.99900643026678470626e-01 -9.08352071739094014784e-04
9.99496283435491919518e+08 9.97850129346406045094e-01 -1.96117609895489659888e-02 -4.63175591518435493532e-04 -4.22522582084983080314e-03 -4.63175591518435493532e-04 -4.22522582084983080314e-03 9.99900211843805619694e-01 -9.10297308165731772385e-04
9.99497388077080726624e+08 9.97840779444949754762e-01 -1.96538474215212678742e-02 -4.65189966723009119473e-04 -4.23429306775191006962e-03 -4.65189966723009119473e-04 -4.23429306775191006962e-03 9.99899777859823757353e-01 -9.12250787292624080831e-04
9.99498492718669533730e+08 9.97831368673743668296e-01 -1.96961125530874907319e-02 -4.67217455917648980066e-04 -4.24339881431441343085e-03 -4.67217455917648980066e-04 -4.24339881431441343085e-03 9.99899341050518253304e-01 -9.14212560919913674352e-04
9.99499597360258340836e+08 9.97821896505474370542e-01 -1.97385575094983015121e-02 -4.69258172708568053935e-04 -4.25254330296524849647e-03 -4.69258172708568053935e-04 -4.25254330296524849647e-03 9.99898901391413574835e-01 -9.16182681277109682051e-04
9.99500702001847267151e+08 9.97812362407133557340e-01 -1.97811834253170601428e-02 -4.71312231928926303384e-04 -4.26172677813867889496e-03 -4.71312231928926303384e-04 -4.26172677813867889496e-03 9.99898458857769623087e-01 -9.18161201025978327729e-04
9.99501806643436074257e+08 9.97802765839938987646e-01 -1.98239914445384676767e-02 -4.73379749655840613865e-04 -4.27094948630089496500e-03 -4.73379749655840613865e-04 -4.27094948630089496500e-03 9.99898013424578291364e-01 -9.20148173266050026405e-04
9.99502911285024881363e+08 9.97793106259261097790e-01 -1.98669827206786227258e-02 -4.75460843226207044172e-04 -4.28021167596940362715e-03 -4.75460843226207044172e-04 -4.28021167596940362715e-03 9.99897565066560134461e-01 -9.22143651538799092107e-04
9.99504015926613688469e+08 9.97783383114550281867e-01 -1.99101584168573687850e-02 -4.77555631252331769156e-04 -4.28951359773078067655e-03 -4.77555631252331769156e-04 -4.28951359773078067655e-03 9.99897113758161038000e-01 -9.24147689831466417898e-04
9.99505120568202614784e+08 9.97773595849251626611e-01 -1.99535197059339287906e-02 -4.79664233640335465822e-04 -4.29885550426988439360e-03 -4.79664233640335465822e-04 -4.29885550426988439360e-03 9.99896659473547777530e-01 -9.26160342583354570523e-04
9.99506225209791421890e+08 9.97763743900739297210e-01 -1.99970677705502385135e-02 -4.81786771604274341885e-04 -4.30823765037919702986e-03 -4.81786771604274341885e-04 -4.30823765037919702986e-03 9.99896202186605687068e-01 -9.28181664687839635963e-04
9.99507329851380228996e+08 9.97753826700224277779e-01 -2.00408038032886814950e-02 -4.83923367686012152137e-04 -4.31766029299280457154e-03 -4.83923367686012152137e-04 -4.31766029299280457154e-03 9.99895741870933996154e-01 -9.30211711499692511448e-04
9.99508434492969036102e+08 9.97743843672679875390e-01 -2.00847290067484168796e-02 -4.86074145771342447375e-04 -4.32712369120284018331e-03 -4.86074145771342447375e-04 -4.32712369120284018331e-03 9.99895278499842277142e-01 -9.32250538838621210791e-04
9.99509539134557843208e+08 9.97733794236760673790e-01 -2.01288445936422498439e-02 -4.88239231107305559926e-04 -4.33662810628035987059e-03 -4.88239231107305559926e-04 -4.33662810628035987059e-03 9.99894812046346781464e-01 -9.34298202993768135000e-04
9.99510643776146769524e+08 9.97723677804715380901e-01 -2.01731517869213894389e-02 -4.90418750321082452803e-04 -4.34617380170221247887e-03 -4.90418750321082452803e-04 -4.34617380170221247887e-03 9.99894342483166664870e-01 -9.36354760729499928720e-04
9.99511748417735576630e+08 9.97713493782307225821e-01 -2.02176518198594404319e-02 -4.92612831437100394220e-04 -4.35576104316914240050e-03 -4.92612831437100394220e-04 -4.35576104316914240050e-03 9.99893869782719657557e-01 -9.38420269289306488089e-04
9.99512853059324383736e+08 9.97703241568726251209e-01 -2.02623459361685673286e-02 -4.94821603895931197772e-04 -4.36539009863081209351e-03 -4.94821603895931197772e-04 -4.36539009863081209351e-03 9.99893393917118955549e-01 -9.40494786401192698136e-04
9.99513957700913190842e+08 9.97692920556498386020e-01 -2.03072353901263200071e-02 -4.97045198573942332600e-04 -4.37506123831312918049e-03 -4.97045198573942332600e-04 -4.37506123831312918049e-03 9.99892914858167891623e-01 -9.42578370283565650581e-04
9.99515062342502117157e+08 9.97682530131401401619e-01 -2.03523214466633343978e-02 -4.99283747801238029888e-04 -4.38477473473713758728e-03 -4.99283747801238029888e-04 -4.38477473473713758728e-03 9.99892432577356826684e-01 -9.44671079649304088269e-04
9.99516166984090924263e+08 9.97672069672376204963e-01 -2.03976053814746358106e-02 -5.01537385380990173925e-04 -4.39453086274299836028e-03 -5.01537385380990173925e-04 -4.39453086274299836028e-03 9.99891947045858708876e-01 -9.46772973710925821143e-04
9.99517271625679731369e+08 9.97661538551433912936e-01 -2.04430884811368784870e-02 -5.03806246609293079640e-04 -4.40432989951524984235e-03 -5.03806246609293079640e-04 -4.40432989951524984235e-03 9.99891458234524965754e-01 -9.48884112186029553791e-04
9.99518376267268538475e+08 9.97650936133558263741e-01 -2.04887720432455067154e-02 -5.06090468296255019572e-04 -4.41417212461235521775e-03 -5.06090468296255019572e-04 -4.41417212461235521775e-03 9.99890966113880841348e-01 -9.51004555303660127977e-04
9.99519480908857345581e+08 9.97640261776621461998e-01 -2.05346573764868985112e-02 -5.08390188784084125564e-04 -4.42405781998224823665e-03 -5.08390188784084125564e-04 -4.42405781998224823665e-03 9.99890470654121177319e-01 -9.53134363807658598934e-04
9.99520585550446271896e+08 9.97629514831279151643e-01 -2.05807458007990287663e-02 -5.10705547969837118753e-04 -4.43398726999694441780e-03 -5.10705547969837118753e-04 -4.43398726999694441780e-03 9.99889971825106194103e-01 -9.55273598964118510549e-04
9.99521690192035079002e+08 9.97618694640883263425e-01 -2.06270386474437621149e-02 -5.13036687323993210660e-04 -4.44396076146811886548e-03 -5.13036687323993210660e-04 -4.44396076146811886548e-03 9.99889469596357050030e-01 -9.57422322564742043181e-04
9.99522794833623886108e+08 9.97607800541373768155e-01 -2.06735372591730914849e-02 -5.15383749913994192345e-04 -4.45397858368291790082e-03 -5.15383749913994192345e-04 -4.45397858368291790082e-03 9.99888963937050623265e-01 -9.59580596934555521589e-04
9.99523899475212693214e+08 9.97596831861185306956e-01 -2.07202429903181363502e-02 -5.17746880424163613554e-04 -4.46404102842313642990e-03 -5.17746880424163613554e-04 -4.46404102842313642990e-03 9.99888454816015848081e-01 -9.61748484936041200984e-04
9.99525004116801619530e+08 9.97585787921138833489e-01 -2.07671572069449104914e-02 -5.20126225179252076047e-04 -4.47414838999877530201e-03 -5.20126225179252076047e-04 -4.47414838999877530201e-03 9.99887942201727830671e-01 -9.63926049976366293437e-04
9.99526108758390426636e+08 9.97574668034351796919e-01 -2.08142812869175838908e-02 -5.22521932163568739865e-04 -4.48430096526167189935e-03 -5.22521932163568739865e-04 -4.48430096526167189935e-03 9.99887426062304407459e-01 -9.66113356010320722088e-04
9.99527213399979233742e+08 9.97563471506115906351e-01 -2.08616166201023162108e-02 -5.24934151047506004223e-04 -4.49449905364941205976e-03 -5.24934151047506004223e-04 -4.49449905364941205976e-03 9.99886906365500038874e-01 -9.68310467549776568257e-04
9.99528318041568040848e+08 9.97552197633802872900e-01 -2.09091646084406494743e-02 -5.27363033207732447710e-04 -4.50474295720114555064e-03 -5.27363033207732447710e-04 -4.50474295720114555064e-03 9.99886383078701701521e-01 -9.70517449667096152553e-04
9.99529422683156847954e+08 9.97540845706753054323e-01 -2.09569266660928066326e-02 -5.29808731751206605370e-04 -4.51503298058845720792e-03 -5.29808731751206605370e-04 -4.51503298058845720792e-03 9.99885856168923337073e-01 -9.72734368001782531005e-04
9.99530527324745774269e+08 9.97529415006160102841e-01 -2.10049042195926197185e-02 -5.32271401540087814655e-04 -4.52536943114874301575e-03 -5.32271401540087814655e-04 -4.52536943114874301575e-03 9.99885325602800967282e-01 -9.74961288767670465963e-04
9.99531631966334581375e+08 9.97517904804972710409e-01 -2.10530987079223207148e-02 -5.34751199212828284488e-04 -4.53575261890132742232e-03 -5.34751199212828284488e-04 -4.53575261890132742232e-03 9.99884791346587920025e-01 -9.77198278756398691983e-04
9.99532736607923388481e+08 9.97506314367765267725e-01 -2.11015115827140921356e-02 -5.37248283212065714035e-04 -4.54618285659088346845e-03 -5.37248283212065714035e-04 -4.54618285659088346845e-03 9.99884253366148834097e-01 -9.79445405346764412166e-04
9.99533841249512195587e+08 9.97494642950635279632e-01 -2.11501443083327994588e-02 -5.39762813806718031936e-04 -4.55666045970525793868e-03 -5.39762813806718031936e-04 -4.55666045970525793868e-03 9.99883711626954552187e-01 -9.81702736508563867518e-04
