! File generated for n1 = 8, n2 = 3
! b1 = 0.464159
! b2 = 0.100000
! Q0 = 10000.000000
! f0 = 1000000000.000000
! n = 1001
! rel_span = 10.000000
# Hz S RI R 50
9.99217920558319330215e+08 9.94128380089806085174e-01 -5.87391774389313461868e-02 -2.72536454103744583272e-03 -2.72643110096143399812e-02 -2.72536454103744583272e-03 -2.72643110096143399812e-02 9.98734997837879667770e-01 -1.26549721538371864882e-02
9.99219484717202663422e+08 9.94105047806599029236e-01 -5.88546003147636317965e-02 -2.73619442755711986953e-03 -2.73178855627750002966e-02 -2.73619442755711986953e-03 -2.73178855627750002966e-02 9.98729971049845732800e-01 -1.26798392586088166933e-02
9.99221048876085996628e+08 9.94081576677629641381e-01 -5.89704727976335316142e-02 -2.74708876057077038685e-03 -2.73716688050361922624e-02 -2.74708876057077038685e-03 -2.73716688050361922624e-02 9.98724914348399162023e-01 -1.27048032282803206178e-02
9.99222613034969449043e+08 9.94057965602889614942e-01 -5.90867974908240167764e-02 -2.75804805065706700601e-03 -2.74256619447348325147e-02 -2.75804805065706700601e-03 -2.74256619447348325147e-02 9.98719827496550305312e-01 -1.27298646237120113150e-02
9.99224177193852782249e+08 9.94034213471498673265e-01 -5.92035770174910505603e-02 -2.76907281344095004133e-03 -2.74798661994320597701e-02 -2.76907281344095004133e-03 -2.74798661994320597701e-02 9.98714710254967164005e-01 -1.27550240100457075443e-02
9.99225741352736115456e+08 9.94010319161567346136e-01 -5.93208140208928078052e-02 -2.78016356965732000517e-03 -2.75342827960196427639e-02 -2.78016356965732000517e-03 -2.75342827960196427639e-02 9.98709562381946192033e-01 -1.27802819567541213475e-02
9.99227305511619448662e+08 9.93986281540071847651e-01 -5.94385111645549107928e-02 -2.79132084520933472505e-03 -2.75889129707966550276e-02 -2.79132084520933472505e-03 -2.75889129707966550276e-02 9.98704383633384540353e-01 -1.28056390376764511058e-02
9.99228869670502901077e+08 9.93962099462713299936e-01 -5.95566711325002801081e-02 -2.80254517123345019830e-03 -2.76437579695761846688e-02 -2.80254517123345019830e-03 -2.76437579695761846688e-02 9.98699173762750747052e-01 -1.28310958310679061600e-02
9.99230433829386234283e+08 9.93937771773801714836e-01 -5.96752966293555980881e-02 -2.81383708415339954881e-03 -2.76988190477347254181e-02 -2.81383708415339954881e-03 -2.76988190477347254181e-02 9.98693932521058758134e-01 -1.28566529196226433246e-02
9.99231997988269567490e+08 9.93913297306096121808e-01 -5.97943903806651411159e-02 -2.82519712575452159112e-03 -2.77540974703578656457e-02 -2.82519712575452159112e-03 -2.77540974703578656457e-02 9.98688659656834287759e-01 -1.28823108905413742653e-02
9.99233562147152900696e+08 9.93888674880684774848e-01 -5.99139551329972500082e-02 -2.83662584323905904438e-03 -2.78095945122897071633e-02 -2.83662584323905904438e-03 -2.78095945122897071633e-02 9.98683354916088394937e-01 -1.29080703355543106869e-02
9.99235126306036353111e+08 9.93863903306835827500e-01 -6.00339936541958649197e-02 -2.84812378929592477372e-03 -2.78653114582495947671e-02 -2.84812378929592477372e-03 -2.78653114582495947671e-02 9.98678018042285731148e-01 -1.29339318509753518904e-02
9.99236690464919686317e+08 9.93838981381862995867e-01 -6.01545087335412856366e-02 -2.85969152216250651830e-03 -2.79212496029067613890e-02 -2.85969152216250651830e-03 -2.79212496029067613890e-02 9.98672648776315341479e-01 -1.29598960377367254659e-02
9.99238254623803019524e+08 9.93813907890970460457e-01 -6.02755031820154732469e-02 -2.87132960569717529675e-03 -2.79774102510034552993e-02 -2.87132960569717529675e-03 -2.79774102510034552993e-02 9.98667246856457468951e-01 -1.29859635014461308189e-02
9.99239818782686352730e+08 9.93788681607116641814e-01 -6.03969798324587858751e-02 -2.88303860944210885164e-03 -2.80337947174276909401e-02 -2.88303860944210885164e-03 -2.80337947174276909401e-02 9.98661812018353911569e-01 -1.30121348524205263791e-02
9.99241382941569805145e+08 9.93763301290861544857e-01 -6.05189415398059843421e-02 -2.89481910869443656228e-03 -2.80904043273228001820e-02 -2.89481910869443656228e-03 -2.80904043273228001820e-02 9.98656343994975492784e-01 -1.30384107057369569987e-02
9.99242947100453138351e+08 9.93737765690225316462e-01 -6.06413911812554370928e-02 -2.90667168457168015316e-03 -2.81472404161659667254e-02 -2.90667168457168015316e-03 -2.81472404161659667254e-02 9.98650842516591419340e-01 -1.30647916812690247784e-02
9.99244511259336471558e+08 9.93712073540520379744e-01 -6.07643316565622745862e-02 -2.91859692408991816537e-03 -2.82043043299042943406e-02 -2.91859692408991816537e-03 -2.82043043299042943406e-02 9.98645307310732754935e-01 -1.30912784037500312673e-02
9.99246075418219804764e+08 9.93686223564207993242e-01 -6.08877658881996630669e-02 -2.93059542022997649921e-03 -2.82615974250296636550e-02 -2.93059542022997649921e-03 -2.82615974250296636550e-02 9.98639738102162333178e-01 -1.31178715028077326477e-02
9.99247639577103137970e+08 9.93660214470742708670e-01 -6.10116968215786634189e-02 -2.94266777201003439796e-03 -2.83191210686807789965e-02 -2.94266777201003439796e-03 -2.83191210686807789965e-02 9.98634134612840562717e-01 -1.31445716130117080944e-02
9.99249203735986590385e+08 9.93634044956405060312e-01 -6.11361274253102160436e-02 -2.95481458456312321911e-03 -2.83768766387647863869e-02 -2.95481458456312321911e-03 -2.83768766387647863869e-02 9.98628496561889567040e-01 -1.31713793739297955337e-02
9.99250767894869923592e+08 9.93607713704155126599e-01 -6.12610606913597810497e-02 -2.96703646920496713277e-03 -2.84348655240290321133e-02 -2.96703646920496713277e-03 -2.84348655240290321133e-02 9.98622823665561654138e-01 -1.31982954301614122117e-02
9.99252332053753256798e+08 9.93581219383449232296e-01 -6.13864996353722103262e-02 -2.97933404351924478043e-03 -2.84930891242118587703e-02 -2.97933404351924478043e-03 -2.84930891242118587703e-02 9.98617115637199903588e-01 -1.32253204314075455822e-02
9.99253896212636590004e+08 9.93554560650092732921e-01 -6.15124472968135715956e-02 -2.99170793142579946947e-03 -2.85515488501084449546e-02 -2.99170793142579946947e-03 -2.85515488501084449546e-02 9.98611372187206303153e-01 -1.32524550325013121960e-02
9.99255460371520042419e+08 9.93527736146061157818e-01 -6.16389067392573222759e-02 -3.00415876326379184189e-03 -2.86102461237036261033e-02 -3.00415876326379184189e-03 -2.86102461237036261033e-02 9.98605593023003446085e-01 -1.32796998934696028338e-02
9.99257024530403375626e+08 9.93500744499339116800e-01 -6.17658810505751915132e-02 -3.01668717586637494948e-03 -2.86691823782604937598e-02 -3.01668717586637494948e-03 -2.86691823782604937598e-02 9.98599777848999559104e-01 -1.33070556795742145351e-02
9.99258588689286708832e+08 9.93473584323734226764e-01 -6.18933733432384600159e-02 -3.02929381264708218191e-03 -2.87283590584602455120e-02 -3.02929381264708218191e-03 -2.87283590584602455120e-02 9.98593926366548534368e-01 -1.33345230613767587458e-02
9.99260152848170042038e+08 9.93446254218714908113e-01 -6.20213867544960884004e-02 -3.04197932367497765604e-03 -2.87877776204848549735e-02 -3.04197932367497765604e-03 -2.87877776204848549735e-02 9.98588038273914957443e-01 -1.33621027147770334020e-02
9.99261717007053494453e+08 9.93418752769221757859e-01 -6.21499244466729508507e-02 -3.05474436576255248613e-03 -2.88474395321555027172e-02 -3.05474436576255248613e-03 -2.88474395321555027172e-02 9.98582113266233473148e-01 -1.33897953210772822918e-02
9.99263281165936827660e+08 9.93391078545501016173e-01 -6.22789896073483242867e-02 -3.06758960254266237200e-03 -2.89073462730154301381e-02 -3.06758960254266237200e-03 -2.89073462730154301381e-02 9.98576151035473147388e-01 -1.34176015670206382618e-02
9.99264845324820160866e+08 9.93363230102907390773e-01 -6.24085854496737660324e-02 -3.08051570456022941885e-03 -2.89674993344774707460e-02 -3.08051570456022941885e-03 -2.89674993344774707460e-02 9.98570151270394390508e-01 -1.34455221448596222433e-02
9.99266409483703494072e+08 9.93335205981722424440e-01 -6.25387152126077733305e-02 -3.09352334935663990378e-03 -2.90279002199329838607e-02 -3.09352334935663990378e-03 -2.90279002199329838607e-02 9.98564113656510543571e-01 -1.34735577524066861554e-02
9.99267973642586946487e+08 9.93307004706969531860e-01 -6.26693821611528090187e-02 -3.10661322155531037861e-03 -2.90885504448618777140e-02 -3.10661322155531037861e-03 -2.90885504448618777140e-02 9.98558037876047466241e-01 -1.35017090930852918379e-02
9.99269537801470279694e+08 9.93278624788225483755e-01 -6.28005895866044078213e-02 -3.11978601294941003397e-03 -2.91494515369481940747e-02 -3.11978601294941003397e-03 -2.91494515369481940747e-02 9.98551923607903235691e-01 -1.35299768759835591092e-02
9.99271101960353612900e+08 9.93250064719420677761e-01 -6.29323408068402090354e-02 -3.13304242259459641423e-03 -2.92106050362143342125e-02 -3.13304242259459641423e-03 -2.92106050362143342125e-02 9.98545770527604958922e-01 -1.35583618159165631561e-02
9.99272666119236946106e+08 9.93221322978639853396e-01 -6.30646391665943273352e-02 -3.14638315690129012972e-03 -2.92720124951483320896e-02 -3.14638315690129012972e-03 -2.92720124951483320896e-02 9.98539578307265918156e-01 -1.35868646334854226848e-02
9.99274230278120279312e+08 9.93192398027928025073e-01 -6.31974880377017406152e-02 -3.15980892972496374416e-03 -2.93336754788173573183e-02 -3.15980892972496374416e-03 -2.93336754788173573183e-02 9.98533346615543826452e-01 -1.36154860551299626559e-02
9.99275794437003731728e+08 9.93163288313090975024e-01 -6.33308908193547931420e-02 -3.17332046245866802175e-03 -2.93955955649867275992e-02 -3.17332046245866802175e-03 -2.93955955649867275992e-02 9.98527075117597640030e-01 -1.36442268131839704315e-02
9.99277358595887064934e+08 9.93133992263483866836e-01 -6.34648509384054815285e-02 -3.18691848413123765896e-03 -2.94577743442602374424e-02 -3.18691848413123765896e-03 -2.94577743442602374424e-02 9.98520763475042261170e-01 -1.36730876459403294376e-02
9.99278922754770398140e+08 9.93104508291806298281e-01 -6.35993718496237897542e-02 -3.20060373150214206098e-03 -2.95202134202000691932e-02 -3.20060373150214206098e-03 -2.95202134202000691932e-02 9.98514411345904018269e-01 -1.37020692977066725626e-02
9.99280486913653731346e+08 9.93074834793883143291e-01 -6.37344570360164341949e-02 -3.21437694916356557842e-03 -2.95829144094747267801e-02 -3.21437694916356557842e-03 -2.95829144094747267801e-02 9.98508018384574036475e-01 -1.37311725188740459819e-02
9.99282051072537183762e+08 9.93044970148457717407e-01 -6.38701100090727919012e-02 -3.22823888963620457548e-03 -2.96458789419732048065e-02 -3.22823888963620457548e-03 -2.96458789419732048065e-02 9.98501584241763051608e-01 -1.37603980659699032252e-02
9.99283615231420516968e+08 9.93014912716980502339e-01 -6.40063343090229996957e-02 -3.24219031346738469079e-03 -2.97091086609247642669e-02 -3.24219031346738469079e-03 -2.97091086609247642669e-02 9.98495108564456224087e-01 -1.37897467017137082684e-02
9.99285179390303850174e+08 9.92984660843371003125e-01 -6.41431335052055073831e-02 -3.25623198934154537559e-03 -2.97726052230695564793e-02 -3.25623198934154537559e-03 -2.97726052230695564793e-02 9.98488590995861957644e-01 -1.38192191950961135172e-02
9.99286743549187183380e+08 9.92954212853800921579e-01 -6.42805111963278830167e-02 -3.27036469418099653636e-03 -2.98363702987796720889e-02 -3.27036469418099653636e-03 -2.98363702987796720889e-02 9.98482031175364825870e-01 -1.38488163214351683167e-02
9.99288307708070635796e+08 9.92923567056469336123e-01 -6.44184710107499614029e-02 -3.28458921325013248130e-03 -2.99004055721905533105e-02 -3.28458921325013248130e-03 -2.99004055721905533105e-02 9.98475428738477277513e-01 -1.38785388624372962169e-02
9.99289871866953969002e+08 9.92892721741376327316e-01 -6.45570166067650219599e-02 -3.29890634026062945505e-03 -2.99647127413315284006e-02 -3.29890634026062945505e-03 -2.99647127413315284006e-02 9.98468783316791230753e-01 -1.39083876062578958022e-02
9.99291436025837302208e+08 9.92861675180072955627e-01 -6.46961516729733232545e-02 -3.31331687748742014302e-03 -3.00292935182991660437e-02 -3.31331687748742014302e-03 -3.00292935182991660437e-02 9.98462094537923339210e-01 -1.39383633475817989011e-02
9.99293000184720635414e+08 9.92830425625433998782e-01 -6.48358799285417009006e-02 -3.32782163587418957848e-03 -3.00941496293778004700e-02 -3.32782163587418957848e-03 -3.00941496293778004700e-02 9.98455362025467141329e-01 -1.39684668876792136838e-02
9.99294564343604087830e+08 9.92798971311416367236e-01 -6.49762051235155679851e-02 -3.34242143514551504069e-03 -3.01592828151843288242e-02 -3.34242143514551504069e-03 -3.01592828151843288242e-02 9.98448585398940102742e-01 -1.39986990344729347879e-02
9.99296128502487421036e+08 9.92767310452809303989e-01 -6.51171310391547158991e-02 -3.35711710392280369628e-03 -3.02246948308240587222e-02 -3.35711710392280369628e-03 -3.02246948308240587222e-02 9.98441764273730103518e-01 -1.40290606026106812881e-02
9.99297692661370754242e+08 9.92735441244988914278e-01 -6.52586614882381538250e-02 -3.37190947983833765739e-03 -3.02903874460322478090e-02 -3.37190947983833765739e-03 -3.02903874460322478090e-02 9.98434898261042924617e-01 -1.40595524135307976127e-02
9.99299256820254087448e+08 9.92703361863663813480e-01 -6.54008003153926653628e-02 -3.38679940965311895157e-03 -3.03563624453265720748e-02 -3.38679940965311895157e-03 -3.03563624453265720748e-02 9.98427986967846736732e-01 -1.40901752955330111794e-02
9.99300820979137420654e+08 9.92671070464619997864e-01 -6.55435513974153144412e-02 -3.40178774937545825435e-03 -3.04226216281568186128e-02 -3.40178774937545825435e-03 -3.04226216281568186128e-02 9.98421029996817810392e-01 -1.41209300838479288875e-02
9.99302385138020873070e+08 9.92638565183452281637e-01 -6.56869186436404711715e-02 -3.41687536438564122554e-03 -3.04891668090752701592e-02 -3.41687536438564122554e-03 -3.04891668090752701592e-02 9.98414026946282118224e-01 -1.41518176207161110181e-02
9.99303949296904206276e+08 9.92605844135317716415e-01 -6.58309059961941500649e-02 -3.43206312955015441224e-03 -3.05559998178547322090e-02 -3.43206312955015441224e-03 -3.05559998178547322090e-02 9.98406977410162599362e-01 -1.41828387554428607398e-02
9.99305513455787539482e+08 9.92572905414649597766e-01 -6.59755174304147151698e-02 -3.44735192935484652602e-03 -3.06231224996838177765e-02 -3.44735192935484652602e-03 -3.06231224996838177765e-02 9.98399880977917320024e-01 -1.42139943444888651458e-02
9.99307077614670872688e+08 9.92539747094890678625e-01 -6.61207569551663376650e-02 -3.46274265802829720601e-03 -3.06905367153124525315e-02 -3.46274265802829720601e-03 -3.06905367153124525315e-02 9.98392737234482074982e-01 -1.42452852515377280385e-02
9.99308641773554325104e+08 9.92506367228216945797e-01 -6.62666286131869397558e-02 -3.47823621967029801214e-03 -3.07582443412133567373e-02 -3.47823621967029801214e-03 -3.07582443412133567373e-02 9.98385545760211101651e-01 -1.42767123475709342695e-02
9.99310205932437658310e+08 9.92472763845256622517e-01 -6.64131364814403990504e-02 -3.49383352838230449786e-03 -3.08262472697455221227e-02 -3.49383352838230449786e-03 -3.08262472697455221227e-02 9.98378306130815906805e-01 -1.43082765109437213408e-02
9.99311770091320991516e+08 9.92438934954811835532e-01 -6.65602846714416079843e-02 -3.50953550839654343854e-03 -3.08945474093051189457e-02 -3.50953550839654343854e-03 -3.08945474093051189457e-02 9.98371017917305869638e-01 -1.43399786274551240689e-02
9.99313334250204324722e+08 9.92404878543546975500e-01 -6.67080773297112905595e-02 -3.52534309422052613905e-03 -3.09631466845365702079e-02 -3.52534309422052613905e-03 -3.09631466845365702079e-02 9.98363680685921184299e-01 -1.43718195904459465628e-02
9.99314898409087777138e+08 9.92370592575720134043e-01 -6.68565186380318948745e-02 -3.54125723076196630493e-03 -3.10320470364513489869e-02 -3.54125723076196630493e-03 -3.10320470364513489869e-02 9.98356293998074462159e-01 -1.44038003008539090832e-02
9.99316462567971110344e+08 9.92336074992873462541e-01 -6.70056128138639406355e-02 -3.55727887347242338612e-03 -3.11012504226212196934e-02 -3.55727887347242338612e-03 -3.11012504226212196934e-02 9.98348857410284340475e-01 -1.44359216673033349809e-02
9.99318026726854443550e+08 9.92301323713526861603e-01 -6.71553641107311555247e-02 -3.57340898848930443865e-03 -3.11707588173570082635e-02 -3.57340898848930443865e-03 -3.11707588173570082635e-02 9.98341370474109646160e-01 -1.44681846061881346638e-02
9.99319590885737776756e+08 9.92266336632870338264e-01 -6.73057768185996163623e-02 -3.58964855277892330027e-03 -3.12405742118845759780e-02 -3.58964855277892330027e-03 -3.12405742118845759780e-02 9.98333832736082671389e-01 -1.45005900417534781127e-02
9.99321155044621229172e+08 9.92231111622450479004e-01 -6.74568552642616225956e-02 -3.60599855428181143707e-03 -3.13106986145230206664e-02 -3.60599855428181143707e-03 -3.13106986145230206664e-02 9.98326243737642227138e-01 -1.45331389061785134359e-02
9.99322719203504562378e+08 9.92195646529867802954e-01 -6.76086038116597842773e-02 -3.62245999205325396389e-03 -3.13811340508350425371e-02 -3.62245999205325396389e-03 -3.13811340508350425371e-02 9.98318603015067695949e-01 -1.45658321396461669373e-02
9.99324283362387895584e+08 9.92159939178434480134e-01 -6.77610268623655420672e-02 -3.63903387642235858282e-03 -3.14518825638491414387e-02 -3.63903387642235858282e-03 -3.14518825638491414387e-02 9.98310910099405979246e-01 -1.45986706904462620188e-02
9.99325847521271228790e+08 9.92123987366847925884e-01 -6.79141288559672456904e-02 -3.65572122914317862094e-03 -3.15229462142396915647e-02 -3.65572122914317862094e-03 -3.15229462142396915647e-02 9.98303164516400776130e-01 -1.46316555150591172396e-02
9.99327411680154561996e+08 9.92087788868867392900e-01 -6.80679142704354589455e-02 -3.67252308354518467934e-03 -3.15943270804965106735e-02 -3.67252308354518467934e-03 -3.15943270804965106735e-02 9.98295365786423194443e-01 -1.46647875782342420464e-02
9.99328975839038014412e+08 9.92051341432976685475e-01 -6.82223876225251518735e-02 -3.68944048468960658638e-03 -3.16660272591115371510e-02 -3.68944048468960658638e-03 -3.16660272591115371510e-02 9.98287513424398587070e-01 -1.46980678530769966195e-02
9.99330539997921347618e+08 9.92014642782032995960e-01 -6.83775534682216218352e-02 -3.70647448953248656242e-03 -3.17380488647858241547e-02 -3.70647448953248656242e-03 -3.17380488647858241547e-02 9.98279606939731500859e-01 -1.47314973211446591239e-02
9.99332104156804680824e+08 9.91977690612911300327e-01 -6.85334164031866782674e-02 -3.72362616708976981728e-03 -3.18103940306366100854e-02 -3.72362616708976981728e-03 -3.18103940306366100854e-02 9.98271645836228738169e-01 -1.47650769725425484724e-02
9.99333668315688014030e+08 9.91940482596174621932e-01 -6.86899810630774432241e-02 -3.74089659859035833511e-03 -3.18830649083453529502e-02 -3.74089659859035833511e-03 -3.18830649083453529502e-02 9.98263629612028302596e-01 -1.47988078059927211094e-02
9.99335232474571466446e+08 9.91903016375684898343e-01 -6.88472521240968970968e-02 -3.75828687765666696538e-03 -3.19560636684131857410e-02 -3.75828687765666696538e-03 -3.19560636684131857410e-02 9.98255557759515577132e-01 -1.48326908289525636470e-02
9.99336796633454799652e+08 9.91865289568258035047e-01 -6.90052343033393800198e-02 -3.77579811046470630725e-03 -3.20293925003213575398e-02 -3.77579811046470630725e-03 -3.20293925003213575398e-02 9.98247429765249050249e-01 -1.48667270576892489309e-02
9.99338360792338132858e+08 9.91827299763279102152e-01 -6.91639323592862648171e-02 -3.79343141592280259575e-03 -3.21030536127612647901e-02 -3.79343141592280259575e-03 -3.21030536127612647901e-02 9.98239245109877715301e-01 -1.49009175173865065361e-02
9.99339924951221466064e+08 9.91789044522332741138e-01 -6.93233510922176554558e-02 -3.81118792584320435421e-03 -3.21770492338255761910e-02 -3.81118792584320435421e-03 -3.21770492338255761910e-02 9.98231003268060579359e-01 -1.49352632422333399947e-02
