! File generated for n1 = 6, n2 = 5
! b1 = 2.154435
! b2 = 0.100000
! Q0 = 10000.000000
! f0 = 1000000000.000000
! n = 1001
! rel_span = 10.000000
# Hz S RI R 50
9.98372782654984116554e+08 9.86912224418801775627e-01 -1.30984412642992875675e-01 -2.81967577274855893746e-03 -2.82197362451514673076e-02 -2.81967577274855893746e-03 -2.82197362451514673076e-02 9.99392519270054791036e-01 -6.07975787101044072569e-03
9.98376037089674115181e+08 9.86860194512411359469e-01 -1.31241911364233909687e-01 -2.83088527627322868521e-03 -2.82752126629195188467e-02 -2.83088527627322868521e-03 -2.82752126629195188467e-02 9.99390104255729605498e-01 -6.09170990290225974201e-03
9.98379291524364233017e+08 9.86807854940414785894e-01 -1.31500413133454951975e-01 -2.84216149523030398028e-03 -2.83309051808239634185e-02 -2.84216149523030398028e-03 -2.83309051808239634185e-02 9.99387674868000286388e-01 -6.10370849215711563235e-03
9.98382545959054231644e+08 9.86755203249296997114e-01 -1.31759923758473673772e-01 -2.85350495821360414586e-03 -2.83868150501211842507e-02 -2.85350495821360414586e-03 -2.83868150501211842507e-02 9.99385230992984707754e-01 -6.11575390835002348500e-03
9.98385800393744230270e+08 9.86702236961276790694e-01 -1.32020449091521718810e-01 -2.86491619904491760448e-03 -2.84429435316362645703e-02 -2.86491619904491760448e-03 -2.84429435316362645703e-02 9.99382772515674311364e-01 -6.12784642311751427679e-03
9.98389054828434228897e+08 9.86648953574027265390e-01 -1.32281995029624482862e-01 -2.87639575683419634888e-03 -2.84992918958448145095e-02 -2.87639575683419634888e-03 -2.84992918958448145095e-02 9.99380299319921561185e-01 -6.13998631017525879627e-03
9.98392309263124346733e+08 9.86595350560374950710e-01 -1.32544567515073735686e-01 -2.88794417604447319764e-03 -2.85558614229747959046e-02 -2.88794417604447319764e-03 -2.85558614229747959046e-02 9.99377811288425399461e-01 -6.15217384534001189567e-03
9.98395563697814345360e+08 9.86541425368020474806e-01 -1.32808172535776702894e-01 -2.89956200655198817820e-03 -2.86126534030816948029e-02 -2.89956200655198817820e-03 -2.86126534030816948029e-02 9.99375308302718590170e-01 -6.16440930654580266507e-03
9.98398818132504343987e+08 9.86487175419223483175e-01 -1.33072816125764908923e-01 -2.91124980371403963356e-03 -2.86696691361582114976e-02 -2.91124980371403963356e-03 -2.86696691361582114976e-02 9.99372790243152953060e-01 -6.17669297386756743773e-03
9.98402072567194461823e+08 9.86432598110499325728e-01 -1.33338504365633547799e-01 -2.92300812843444574735e-03 -2.87269099322288654075e-02 -2.92300812843444574735e-03 -2.87269099322288654075e-02 9.99370256988885596883e-01 -6.18902512954153279090e-03
9.98405327001884460449e+08 9.86377690812328844494e-01 -1.33605243382894395276e-01 -2.93483754722587749514e-03 -2.87843771114260453536e-02 -2.93483754722587749514e-03 -2.87843771114260453536e-02 9.99367708417864819559e-01 -6.20140605798160087642e-03
9.98408581436574459076e+08 9.86322450868823086267e-01 -1.33873039352541689517e-01 -2.94673863228230937042e-03 -2.88420720041119259258e-02 -2.94673863228230937042e-03 -2.88420720041119259258e-02 9.99365144406815342215e-01 -6.21383604580561486885e-03
9.98411835871264457703e+08 9.86266875597421655009e-01 -1.34141898497428913029e-01 -2.95871196154382518420e-03 -2.88999959509596664187e-02 -2.95871196154382518420e-03 -2.88999959509596664187e-02 9.99362564831223765260e-01 -6.22631538185284758025e-03
9.98415090305954575539e+08 9.86210962288563974809e-01 -1.34411827088768226490e-01 -2.97075811876757389304e-03 -2.89581503030609463401e-02 -2.97075811876757389304e-03 -2.89581503030609463401e-02 9.99359969565323358331e-01 -6.23884435720718083518e-03
9.98418344740644574165e+08 9.86154708205373764507e-01 -1.34682831446544026832e-01 -2.98287769359565279811e-03 -2.90165364220151510144e-02 -2.98287769359565279811e-03 -2.90165364220151510144e-02 9.99357358482079516371e-01 -6.25142326521630712494e-03
9.98421599175334572792e+08 9.86098110583318088196e-01 -1.34954917940037028012e-01 -2.99507128162865721849e-03 -2.90751556800421945281e-02 -2.99507128162865721849e-03 -2.90751556800421945281e-02 9.99354731453174105482e-01 -6.26405240151604609383e-03
9.98424853610024571419e+08 9.86041166629878951255e-01 -1.35228092988266518359e-01 -3.00733948449635225819e-03 -2.91340094600778670708e-02 -3.00733948449635225819e-03 -2.91340094600778670708e-02 9.99352088348989808786e-01 -6.27673206405088193044e-03
9.98428108044714689255e+08 9.85983873524207132810e-01 -1.35502363060502839520e-01 -3.01968290993225854310e-03 -2.91930991558842188593e-02 -3.01968290993225854310e-03 -2.91930991558842188593e-02 9.99349429038594583297e-01 -6.28946255309774555908e-03
9.98431362479404687881e+08 9.85926228416794780962e-01 -1.35777734676673395020e-01 -3.03210217184423118028e-03 -2.92524261721370179568e-02 -3.03210217184423118028e-03 -2.92524261721370179568e-02 9.99346753389725783734e-01 -6.30224417128485720624e-03
9.98434616914094686508e+08 9.85868228429099935362e-01 -1.36054214407979601198e-01 -3.04459789039534557686e-03 -2.93119919245586925405e-02 -3.04459789039534557686e-03 -2.93119919245586925405e-02 9.99344061268773398155e-01 -6.31507722362036841984e-03
9.98437871348784804344e+08 9.85809870653214903591e-01 -1.36331808877285937109e-01 -3.05717069207532294445e-03 -2.93717978400021458019e-02 -3.05717069207532294445e-03 -2.93717978400021458019e-02 9.99341352540764393808e-01 -6.32796201751041707123e-03
9.98441125783474802971e+08 9.85751152151501441878e-01 -1.36610524759649964999e-01 -3.06982120977913408924e-03 -2.94318453565649423842e-02 -3.06982120977913408924e-03 -2.94318453565649423842e-02 9.99338627069345619702e-01 -6.34089886278373180556e-03
9.98444380218164801598e+08 9.85692069956221827987e-01 -1.36890368782854016105e-01 -3.08255008288651740148e-03 -2.94921359237038313572e-02 -3.08255008288651740148e-03 -2.94921359237038313572e-02 9.99335884716766820191e-01 -6.35388807171630414644e-03
9.98447634652854800224e+08 9.85632621069169934103e-01 -1.37171347727914311188e-01 -3.09535795734135893431e-03 -2.95526710023444778852e-02 -3.09535795734135893431e-03 -2.95526710023444778852e-02 9.99333125343863759582e-01 -6.36692995905502583803e-03
9.98450889087544918060e+08 9.85572802461301189503e-01 -1.37453468429581837640e-01 -3.10824548573153131709e-03 -2.96134520649893422106e-02 -3.10824548573153131709e-03 -2.96134520649893422106e-02 9.99330348810040458574e-01 -6.38002484204093587433e-03
9.98454143522234916687e+08 9.85512611072353550412e-01 -1.37736737776862905314e-01 -3.12121332737052116849e-03 -2.96744805958298399351e-02 -3.12121332737052116849e-03 -2.96744805958298399351e-02 9.99327554973252318860e-01 -6.39317304043338086039e-03
9.98457397956924915314e+08 9.85452043810452815720e-01 -1.38021162713594436333e-01 -3.13426214838246133820e-03 -2.97357580908702984201e-02 -3.13426214838246133820e-03 -2.97357580908702984201e-02 9.99324743689987138318e-01 -6.40637487653672281496e-03
9.98460652391615033150e+08 9.85391097551731487414e-01 -1.38306750238933767738e-01 -3.14739262178415080129e-03 -2.97972860580334383829e-02 -3.14739262178415080129e-03 -2.97972860580334383829e-02 9.99321914815247791530e-01 -6.41963067522306404800e-03
9.98463906826305031776e+08 9.85329769139929756427e-01 -1.38593507407917176932e-01 -3.16060542757116242837e-03 -2.98590660172807567663e-02 -3.16060542757116242837e-03 -2.98590660172807567663e-02 9.99319068202533800083e-01 -6.43294076395818127667e-03
9.98467161260995030403e+08 9.85268055385987717720e-01 -1.38881441332034782921e-01 -3.17390125280564124391e-03 -2.99210995007363582399e-02 -3.17390125280564124391e-03 -2.99210995007363582399e-02 9.99316203703822014681e-01 -6.44630547282820740712e-03
9.98470415695685029030e+08 9.85205953067644357724e-01 -1.39170559179753600132e-01 -3.18728079170266893547e-03 -2.99833880527996324283e-02 -3.18728079170266893547e-03 -2.99833880527996324283e-02 9.99313321169548296474e-01 -6.45972513456390552006e-03
9.98473670130375146866e+08 9.85143458929018445147e-01 -1.39460868177105096199e-01 -3.20074474572059827771e-03 -3.00459332302718783170e-02 -3.20074474572059827771e-03 -3.00459332302718783170e-02 9.99310420448588199172e-01 -6.47320008456794653007e-03
9.98476924565065145493e+08 9.85080569680194750859e-01 -1.39752375608226009351e-01 -3.21429382365018495929e-03 -3.01087366024727735858e-02 -3.21429382365018495929e-03 -3.01087366024727735858e-02 9.99307501388237318096e-01 -6.48673066094000543014e-03
9.98480178999755144119e+08 9.85017281996786064902e-01 -1.40045088815989149378e-01 -3.22792874170893225386e-03 -3.01717997513763179496e-02 -3.22792874170893225386e-03 -3.01717997513763179496e-02 9.99304563834191084126e-01 -6.50031720450604949546e-03
9.98483433434445142746e+08 9.84953592519516973880e-01 -1.40339015202512629177e-01 -3.24165022363078489734e-03 -3.02351242717205058452e-02 -3.24165022363078489734e-03 -3.02351242717205058452e-02 9.99301607630526000925e-01 -6.51396005884196521718e-03
9.98486687869135260582e+08 9.84889497853766782143e-01 -1.40634162229834908109e-01 -3.25545900076460587025e-03 -3.02987117711527968733e-02 -3.25545900076460587025e-03 -3.02987117711527968733e-02 9.99298632619677662525e-01 -6.52765957030489521462e-03
9.98489942303825259209e+08 9.84824994569148293166e-01 -1.40930537420401597037e-01 -3.26935581216490937437e-03 -3.03625638703349624847e-02 -3.26935581216490937437e-03 -3.03625638703349624847e-02 9.99295638642421435449e-01 -6.54141608805583734537e-03
9.98493196738515257835e+08 9.84760079199026749919e-01 -1.41228148357805560753e-01 -3.28334140469552964239e-03 -3.04266822031025695183e-02 -3.28334140469552964239e-03 -3.04266822031025695183e-02 9.99292625537850587314e-01 -6.55522996409399049539e-03
9.98496451173205375671e+08 9.84694748240083073121e-01 -1.41527002687298009143e-01 -3.29741653312365682812e-03 -3.04910684165750414665e-02 -3.29741653312365682812e-03 -3.04910684165750414665e-02 9.99289593143355414639e-01 -6.56910155328048039197e-03
9.98499705607895374298e+08 9.84628998151847234510e-01 -1.41827108116416300554e-01 -3.31158196022045487120e-03 -3.05557241712909738451e-02 -3.31158196022045487120e-03 -3.05557241712909738451e-02 9.99286541294601704521e-01 -6.58303121336750035608e-03
9.98502960042585372925e+08 9.84562825356216975159e-01 -1.42128472415651047056e-01 -3.32583845686466612196e-03 -3.06206511413518248088e-02 -3.32583845686466612196e-03 -3.06206511413518248088e-02 9.99283469825508863238e-01 -6.59701930502927611638e-03
9.98506214477275371552e+08 9.84496226236978078106e-01 -1.42431103419084853501e-01 -3.34018680214604683082e-03 -3.06858510145595203555e-02 -3.34018680214604683082e-03 -3.06858510145595203555e-02 9.99280378568226934632e-01 -6.61106619189170963136e-03
9.98509468911965489388e+08 9.84429197139332856636e-01 -1.42735009024966386093e-01 -3.35462778346690354905e-03 -3.07513254925401505191e-02 -3.35462778346690354905e-03 -3.07513254925401505191e-02 9.99277267353115394855e-01 -6.62517224055902964608e-03
9.98512723346655488014e+08 9.84361734369396557121e-01 -1.43040197196404955671e-01 -3.36916219665052939225e-03 -3.08170762908936204938e-02 -3.36916219665052939225e-03 -3.08170762908936204938e-02 9.99274136008719171542e-01 -6.63933782064603066064e-03
9.98515977781345486641e+08 9.84293834193695316159e-01 -1.43346675962037345409e-01 -3.38379084604953578666e-03 -3.08831051393372753300e-02 -3.38379084604953578666e-03 -3.08831051393372753300e-02 9.99270984361745884250e-01 -6.65356330480901692753e-03
9.98519232216035604477e+08 9.84225492838657234351e-01 -1.43654453416692085010e-01 -3.39851454465532913304e-03 -3.09494137818490631930e-02 -3.39851454465532913304e-03 -3.09494137818490631930e-02 9.99267812237041641588e-01 -6.66784906877664930447e-03
9.98522486650725603104e+08 9.84156706490113442065e-01 -1.43963537721988221740e-01 -3.41333411420566583058e-03 -3.10160039767965051150e-02 -3.41333411420566583058e-03 -3.10160039767965051150e-02 9.99264619457568614713e-01 -6.68219549137772424879e-03
9.98525741085415601730e+08 9.84087471292750426421e-01 -1.44273937107125216350e-01 -3.42825038530265900974e-03 -3.10828774971068783062e-02 -3.42825038530265900974e-03 -3.10828774971068783062e-02 9.99261405844378836072e-01 -6.69660295457784587175e-03
9.98528995520105600357e+08 9.84017783349594110653e-01 -1.44585659869503252439e-01 -3.44326419752395565879e-03 -3.11500361304008592522e-02 -3.44326419752395565879e-03 -3.11500361304008592522e-02 9.99258171216590995733e-01 -6.71107184350821454194e-03
9.98532249954795718193e+08 9.83947638721465622780e-01 -1.44898714375440745838e-01 -3.45837639953990028108e-03 -3.12174816791471083921e-02 -3.45837639953990028108e-03 -3.12174816791471083921e-02 9.99254915391364351152e-01 -6.72560254649893010659e-03
9.98535504389485716820e+08 9.83877033426440394948e-01 -1.45213109060852524346e-01 -3.47358784923014127233e-03 -3.12852159608083893461e-02 -3.47358784923014127233e-03 -3.12852159608083893461e-02 9.99251638183874524302e-01 -6.74019545511047625530e-03
9.98538758824175715446e+08 9.83805963439281616623e-01 -1.45528852432011246432e-01 -3.48889941380563705850e-03 -3.13532408080055835509e-02 -3.48889941380563705850e-03 -3.13532408080055835509e-02 9.99248339407286523262e-01 -6.75485096416905076572e-03
9.98542013258865833282e+08 9.83734424690883790809e-01 -1.45845953066237599138e-01 -3.50431196992861179046e-03 -3.14215580686664219812e-02 -3.50431196992861179046e-03 -3.14215580686664219812e-02 9.99245018872729207082e-01 -6.76956947179861712183e-03
9.98545267693555831909e+08 9.83662413067703633729e-01 -1.46164419612614615573e-01 -3.51982640383508059781e-03 -3.14901696061793551218e-02 -3.51982640383508059781e-03 -3.14901696061793551218e-02 9.99241676389268751457e-01 -6.78435137945404553861e-03
9.98548522128245830536e+08 9.83589924411168325946e-01 -1.46484260792775822235e-01 -3.53544361146242288804e-03 -3.15590772995633581099e-02 -3.53544361146242288804e-03 -3.15590772995633581099e-02 9.99238311763881337235e-01 -6.79919709195770348431e-03
9.98551776562935829163e+08 9.83516954517096197996e-01 -1.46805485401605234630e-01 -3.55116449857412370961e-03 -3.16282830436187545331e-02 -3.55116449857412370961e-03 -3.16282830436187545331e-02 9.99234924801426172003e-01 -6.81410701753194531644e-03
9.98555030997625946999e+08 9.83443499135086662832e-01 -1.47128102308043989810e-01 -3.56698998089121808650e-03 -3.16977887491010010268e-02 -3.56698998089121808650e-03 -3.16977887491010010268e-02 9.99231515304617179396e-01 -6.82908156783655368588e-03
9.98558285432315945625e+08 9.83369553967927134686e-01 -1.47452120455791646503e-01 -3.58292098422009633665e-03 -3.17675963428717400561e-02 -3.58292098422009633665e-03 -3.17675963428717400561e-02 9.99228083073995354546e-01 -6.84412115800128728615e-03
9.98561539867005944252e+08 9.83295114670961645231e-01 -1.47777548864142571627e-01 -3.59895844458847907060e-03 -3.18377077680790515624e-02 -3.59895844458847907060e-03 -3.18377077680790515624e-02 9.99224627907899565216e-01 -6.85922620666470743422e-03
9.98564794301695942879e+08 9.83220176851465565981e-01 -1.48104396628766649124e-01 -3.61510330838025117570e-03 -3.19081249843255962406e-02 -3.61510330838025117570e-03 -3.19081249843255962406e-02 9.99221149602437685999e-01 -6.87439713601041123975e-03
9.98568048736386060715e+08 9.83144736068014668540e-01 -1.48432672922477082444e-01 -3.63135653247125076565e-03 -3.19788499678340873422e-02 -3.63135653247125076565e-03 -3.19788499678340873422e-02 9.99217647951456955369e-01 -6.88963437180267323362e-03
9.98571303171076059341e+08 9.83068787829844081827e-01 -1.48762386996012713203e-01 -3.64771908436738959841e-03 -3.20498847116157670190e-02 -3.64771908436738959841e-03 -3.20498847116157670190e-02 9.99214122746514776807e-01 -6.90493834342275226296e-03
9.98574557605766057968e+08 9.82992327596175829996e-01 -1.49093548178925783265e-01 -3.66419194234967812718e-03 -3.21212312256617671391e-02 -3.66419194234967812718e-03 -3.21212312256617671391e-02 9.99210573776846633365e-01 -6.92030948391010678616e-03
9.98577812040456175804e+08 9.82915350775561691421e-01 -1.49426165880362449290e-01 -3.68077609561561196888e-03 -3.21928915371111415422e-02 -3.68077609561561196888e-03 -3.21928915371111415422e-02 9.99207000829336555725e-01 -6.93574822999860982758e-03
9.98581066475146174431e+08 9.82837852725209737415e-01 -1.49760249589886512700e-01 -3.69747254442443721439e-03 -3.22648676904284600897e-02 -3.69747254442443721439e-03 -3.22648676904284600897e-02 9.99203403688485147782e-01 -6.95125502215479702806e-03
9.98584320909836173058e+08 9.82759828750288222388e-01 -1.50095808878358855099e-01 -3.71428230024692905553e-03 -3.23371617475931849572e-02 -3.71428230024692905553e-03 -3.23371617475931849572e-02 9.99199782136377612218e-01 -6.96683030461868035149e-03
9.98587575344526171684e+08 9.82681274103235136153e-01 -1.50432853398765081776e-01 -3.73120638591438067919e-03 -3.24097757882780210248e-02 -3.73120638591438067919e-03 -3.24097757882780210248e-02 9.99196135952651776080e-01 -6.98247452544215919945e-03
9.98590829779216289520e+08 9.82602183983038668380e-01 -1.50771392887122351878e-01 -3.74824583577337789794e-03 -3.24827119100442734956e-02 -3.74824583577337789794e-03 -3.24827119100442734956e-02 9.99192464914464228976e-01 -6.99818813653112041517e-03
9.98594084213906288147e+08 9.82522553534540987741e-01 -1.51111437163258671701e-01 -3.76540169583600018224e-03 -3.25559722285097621897e-02 -3.76540169583600018224e-03 -3.25559722285097621897e-02 9.99188768796458570698e-01 -7.01397159368160379861e-03
9.98597338648596286774e+08 9.82442377847671188817e-01 -1.51452996131851091999e-01 -3.78267502394494898807e-03 -3.26295588775724620945e-02 -3.78267502394494898807e-03 -3.26295588775724620945e-02 9.99185047370729551020e-01 -7.02982535662799272458e-03
9.98600593083286404610e+08 9.82361651956729531321e-01 -1.51796079783209858505e-01 -3.80006688992779416425e-03 -3.27034740095794723702e-02 -3.80006688992779416425e-03 -3.27034740095794723702e-02 9.99181300406789763002e-01 -7.04574988907941124339e-03
9.98603847517976403236e+08 9.82280370839633154567e-01 -1.52140698194187934389e-01 -3.81757837575948111297e-03 -3.27777197955229637749e-02 -3.81757837575948111297e-03 -3.27777197955229637749e-02 9.99177527671534781994e-01 -7.06174565876194464814e-03
9.98607101952666401863e+08 9.82198529417123489260e-01 -1.52486861529214645650e-01 -3.83521057573312906114e-03 -3.28522984252628269530e-02 -3.83521057573312906114e-03 -3.28522984252628269530e-02 9.99173728929206306226e-01 -7.07781313746660457886e-03
9.98610356387356400490e+08 9.82116122552020298642e-01 -1.52834580041088158309e-01 -3.85296459662063002505e-03 -3.29272121076974802478e-02 -3.85296459662063002505e-03 -3.29272121076974802478e-02 9.99169903941357628874e-01 -7.09395280108613031367e-03
9.98613610822046518326e+08 9.82033145048410660571e-01 -1.53183864072008596446e-01 -3.87084155784751674304e-03 -3.30024630709864000289e-02 -3.87084155784751674304e-03 -3.30024630709864000289e-02 9.99166052466815668431e-01 -7.11016512966292698467e-03
9.98616865256736516953e+08 9.81949591650846165258e-01 -1.53534724054529808646e-01 -3.88884259166581052261e-03 -3.30780535627551650069e-02 -3.88884259166581052261e-03 -3.30780535627551650069e-02 9.99162174261644220330e-01 -7.12645060743324725017e-03
9.98620119691426515579e+08 9.81865457043545553084e-01 -1.53887170512450210946e-01 -3.90696884332589026989e-03 -3.31539858502874276724e-02 -3.90696884332589026989e-03 -3.31539858502874276724e-02 9.99158269079106542421e-01 -7.14280972286854363290e-03
9.98623374126116514206e+08 9.81780735849530628023e-01 -1.54241214061937970126e-01 -3.92522147126254418448e-03 -3.32302622207672690435e-02 -3.92522147126254418448e-03 -3.32302622207672690435e-02 9.99154336669625386946e-01 -7.15924296872769410499e-03
9.98626628560806632042e+08 9.81695422629817238125e-01 -1.54596865412386902383e-01 -3.94360164726942352686e-03 -3.33068849814636552820e-02 -3.94360164726942352686e-03 -3.33068849814636552820e-02 9.99150376780745586025e-01 -7.17575084209672465346e-03
