! File generated for n1 = 14, n2 = 3
! b1 = 0.004642
! b2 = 0.001000
! Q0 = 10000.000000
! f0 = 1000000000.000000
! n = 1001
! rel_span = 10.000000
# Hz S RI R 50
9.99497179205583214760e+08 9.99908648481527495555e-01 -9.13744967479735619234e-04 -4.24016188075462769963e-05 -4.24122843782381289332e-04 -4.24016188075462769963e-05 -4.24122843782381289332e-04 9.99980318911961596484e-01 -1.96860385578039774829e-04
9.99498184847172021866e+08 9.99908285526285189881e-01 -9.15540221303509107152e-04 -4.25700877075175460680e-05 -4.24956126792573986913e-04 -4.25700877075175460680e-05 -4.24956126792573986913e-04 9.99980240715625079417e-01 -1.97247161289574744671e-04
9.99499190488760828972e+08 9.99907920411274631078e-01 -9.17342468155145319628e-04 -4.27395590831198456333e-05 -4.25792655678770858886e-04 -4.27395590831198456333e-05 -4.25792655678770858886e-04 9.99980162053980659032e-01 -1.97635443603291348792e-04
9.99500196130349755287e+08 9.99907553119385505980e-01 -9.19151748524817320020e-04 -4.29100408762656028720e-05 -4.26632449234845318072e-04 -4.29100408762656028720e-05 -4.26632449234845318072e-04 9.99980082923341839773e-01 -1.98025241242532842618e-04
9.99501201771938562393e+08 9.99907183633338192408e-01 -9.20968103211975189747e-04 -4.30815411073766349795e-05 -4.27475526398224565938e-04 -4.30815411073766349795e-05 -4.27475526398224565938e-04 9.99980003319986154864e-01 -1.98416562997274348703e-04
9.99502207413527369499e+08 9.99906811935682204862e-01 -9.22791573328470373684e-04 -4.32540678763331919859e-05 -4.28321906251339604588e-04 -4.32540678763331919859e-05 -4.28321906251339604588e-04 9.99979923240153723007e-01 -1.98809417724795712591e-04
9.99503213055116176605e+08 9.99906438008793529981e-01 -9.24622200301914863758e-04 -4.34276293634553223525e-05 -4.29171608023184590532e-04 -4.34276293634553223525e-05 -4.29171608023184590532e-04 9.99979842680047581460e-01 -1.99203814350405397507e-04
9.99504218696705102921e+08 9.99906061834872739169e-01 -9.26460025878678692692e-04 -4.36022338304602777000e-05 -4.30024651090708137126e-04 -4.36022338304602777000e-05 -4.30024651090708137126e-04 9.99979761635833241940e-01 -1.99599761868086180957e-04
9.99505224338293910027e+08 9.99905683395943656322e-01 -9.28305092124881978989e-04 -4.37778896212386389340e-05 -4.30881054979273395763e-04 -4.37778896212386389340e-05 -4.30881054979273395763e-04 9.99979680103637469379e-01 -1.99997269340708905185e-04
9.99506229979882717133e+08 9.99905302673849916140e-01 -9.30157441432695876286e-04 -4.39546051631454858357e-05 -4.31740839365583341757e-04 -4.39546051631454858357e-05 -4.31740839365583341757e-04 9.99979598079548837042e-01 -2.00396345901390006720e-04
9.99507235621471524239e+08 9.99904919650253853902e-01 -9.32017116520999274604e-04 -4.41323889677654507724e-05 -4.32604024077985055679e-04 -4.41323889677654507724e-05 -4.32604024077985055679e-04 9.99979515559616616294e-01 -2.00797000753632896332e-04
9.99508241263060331345e+08 9.99904534306634062979e-01 -9.33884160439623560272e-04 -4.43112496320296637758e-05 -4.33470629098440152389e-04 -4.43112496320296637758e-05 -4.33470629098440152389e-04 9.99979432539850443540e-01 -2.01199243172242619093e-04
9.99509246904649257660e+08 9.99904146624282952338e-01 -9.35758616572210789701e-04 -4.44911958392112873053e-05 -4.34340674563851519233e-04 -4.44911958392112873053e-05 -4.34340674563851519233e-04 9.99979349016219876134e-01 -2.01603082503941491476e-04
9.99510252546238064766e+08 9.99903756584304859167e-01 -9.37640528639201425304e-04 -4.46722363599443478060e-05 -4.35214180767450010620e-04 -4.46722363599443478060e-05 -4.35214180767450010620e-04 9.99979264984653948289e-01 -2.02008528168012927708e-04
9.99511258187826871872e+08 9.99903364167613273317e-01 -9.39529940701274075311e-04 -4.48543800532966147445e-05 -4.36091168160390989933e-04 -4.48543800532966147445e-05 -4.36091168160390989933e-04 9.99979180441040615968e-01 -2.02415589657042329329e-04
9.99512263829415678978e+08 9.99902969354929282986e-01 -9.41426897162825240643e-04 -4.50376358678581666952e-05 -4.36971657353369519715e-04 -4.50376358678581666952e-05 -4.36971657353369519715e-04 9.99979095381226312789e-01 -2.02824276537666919407e-04
9.99513269471004605293e+08 9.99902572126778355077e-01 -9.43331442775070133124e-04 -4.52220128428047226212e-05 -4.37855669118059748473e-04 -4.52220128428047226212e-05 -4.37855669118059748473e-04 9.99979009801015505943e-01 -2.03234598451243746609e-04
9.99514275112593412399e+08 9.99902172463488891907e-01 -9.45243622639176561857e-04 -4.54075201089756302127e-05 -4.38743224388569313683e-04 -4.54075201089756302127e-05 -4.38743224388569313683e-04 9.99978923696170030055e-01 -2.03646565114524899206e-04
9.99515280754182219505e+08 9.99901770345189122580e-01 -9.47163482209644933506e-04 -4.55941668899872398746e-05 -4.39634344263008399172e-04 -4.55941668899872398746e-05 -4.39634344263008399172e-04 9.99978837062408532077e-01 -2.04060186320385573934e-04
9.99516286395771026611e+08 9.99901365751804771520e-01 -9.49091067299003823474e-04 -4.57819625034867167760e-05 -4.40529050005669035699e-04 -4.57819625034867167760e-05 -4.40529050005669035699e-04 9.99978749895406249237e-01 -2.04475471938835880572e-04
9.99517292037359833717e+08 9.99900958663057060072e-01 -9.51026424078832270138e-04 -4.59709163620604802981e-05 -4.41427363047499873080e-04 -4.59709163620604802981e-05 -4.41427363047499873080e-04 9.99978662190794342912e-01 -2.04892431917240962084e-04
9.99518297678948760033e+08 9.99900549058459486851e-01 -9.52969599085918693711e-04 -4.61610379746551661778e-05 -4.42329304988964679222e-04 -4.61610379746551661778e-05 -4.42329304988964679222e-04 9.99978573944158899423e-01 -2.05311076281647949659e-04
9.99519303320537567139e+08 9.99900136917316273433e-01 -9.54920639223131076899e-04 -4.63523369474953358840e-05 -4.43234897600446205428e-04 -4.63523369474953358840e-05 -4.43234897600446205428e-04 9.99978485151041263101e-01 -2.05731415136973448373e-04
9.99520308962126374245e+08 9.99899722218718589595e-01 -9.56879591765678340874e-04 -4.65448229855410441371e-05 -4.44144162825152715585e-04 -4.65448229855410441371e-05 -4.44144162825152715585e-04 9.99978395806936815049e-01 -2.06153458668352447319e-04
9.99521314603715181351e+08 9.99899304941542776959e-01 -9.58846504362585402327e-04 -4.67385058934898111227e-05 -4.45057122779802280359e-04 -4.67385058934898111227e-05 -4.45057122779802280359e-04 9.99978305907294529042e-01 -2.06577217141456153477e-04
9.99522320245304107666e+08 9.99898885064447573434e-01 -9.60821425041868178857e-04 -4.69333955771547925310e-05 -4.45973799757025315006e-04 -4.69333955771547925310e-05 -4.45973799757025315006e-04 9.99978215447516527448e-01 -2.07002700903606985227e-04
9.99523325886892914772e+08 9.99898462565871226637e-01 -9.62804402213159418213e-04 -4.71295020446057803701e-05 -4.46894216226582734718e-04 -4.71295020446057803701e-05 -4.46894216226582734718e-04 9.99978124422957637130e-01 -2.07429920384344092200e-04
9.99524331528481721878e+08 9.99898037424028718334e-01 -9.64795484671889165031e-04 -4.73268354074769201931e-05 -4.47818394837307001775e-04 -4.73268354074769201931e-05 -4.47818394837307001775e-04 9.99978032828924279229e-01 -2.07858886096324245972e-04
9.99525337170070528984e+08 9.99897609616909432972e-01 -9.66794721603079576858e-04 -4.75254058822503251550e-05 -4.48746358418862924082e-04 -4.75254058822503251550e-05 -4.48746358418862924082e-04 9.99977940660674358142e-01 -2.08289608636139192974e-04
9.99526342811659336090e+08 9.99897179122273827012e-01 -9.68802162585737786094e-04 -4.77252237916135513426e-05 -4.49678129983787256297e-04 -4.77252237916135513426e-05 -4.49678129983787256297e-04 9.99977847913416706405e-01 -2.08722098685262244305e-04
9.99527348453248262405e+08 9.99896745917650875413e-01 -9.70817857595746057722e-04 -4.79262995656821305917e-05 -4.50613732728829586866e-04 -4.79262995656821305917e-05 -4.50613732728829586866e-04 9.99977754582309974474e-01 -2.09156367010670851724e-04
9.99528354094837069511e+08 9.99896309980335185053e-01 -9.72841857009558376619e-04 -4.81286437433159410026e-05 -4.51553190036668575854e-04 -4.81286437433159410026e-05 -4.51553190036668575854e-04 9.99977660662462408681e-01 -2.09592424465642981251e-04
9.99529359736425876617e+08 9.99895871287384108150e-01 -9.74874211609956910565e-04 -4.83322669736569647623e-05 -4.52496525478583754357e-04 -4.83322669736569647623e-05 -4.52496525478583754357e-04 9.99977566148931185097e-01 -2.10030281990997440451e-04
9.99530365378014683723e+08 9.99895429815614300573e-01 -9.76914972588516618626e-04 -4.85371800173534066075e-05 -4.53443762815599249374e-04 -4.85371800173534066075e-05 -4.53443762815599249374e-04 9.99977471036721632380e-01 -2.10469950615624649612e-04
9.99531371019603610039e+08 9.99894985541599279344e-01 -9.78964191550569162378e-04 -4.87433937480490487963e-05 -4.54394926000788363946e-04 -4.87433937480490487963e-05 -4.54394926000788363946e-04 9.99977375320786676660e-01 -2.10911441457556396916e-04
9.99532376661192417145e+08 9.99894538441666536066e-01 -9.81021920517508678669e-04 -4.89509191536208814409e-05 -4.55350039180343142600e-04 -4.89509191536208814409e-05 -4.55350039180343142600e-04 9.99977278996026175406e-01 -2.11354765724462186202e-04
9.99533382302781224251e+08 9.99894088491893318071e-01 -9.83088211933894930150e-04 -4.91597673379158453099e-05 -4.56309126696871918041e-04 -4.91597673379158453099e-05 -4.56309126696871918041e-04 9.99977182057286140271e-01 -2.11799934715179940690e-04
9.99534387944370031357e+08 9.99893635668104852066e-01 -9.85163118668948203233e-04 -4.93699495219387108334e-05 -4.57272213090093092129e-04 -4.93699495219387108334e-05 -4.57272213090093092129e-04 9.99977084499358293002e-01 -2.12246959820037902613e-04
9.99535393585958838463e+08 9.99893179945870014258e-01 -9.87246694022975157523e-04 -4.95814770455540315686e-05 -4.58239323099817288162e-04 -4.95814770455540315686e-05 -4.58239323099817288162e-04 9.99976986316979177261e-01 -2.12695852522238996758e-04
9.99536399227547764778e+08 9.99892721300498998893e-01 -9.89338991729968959474e-04 -4.97943613688179917008e-05 -4.59210481667154881043e-04 -4.97943613688179917008e-05 -4.59210481667154881043e-04 9.99976887504829381470e-01 -2.13146624398421173250e-04
9.99537404869136571884e+08 9.99892259707039543493e-01 -9.91440065962189386040e-04 -5.00086140735270939794e-05 -4.60185713936641521433e-04 -5.00086140735270939794e-05 -4.60185713936641521433e-04 9.99976788057533205745e-01 -2.13599287119643977328e-04
9.99538410510725378990e+08 9.99891795140273487164e-01 -9.93549971335970895717e-04 -5.02242468649099216824e-05 -4.61165045258933841820e-04 -5.02242468649099216824e-05 -4.61165045258933841820e-04 9.99976687969657551669e-01 -2.14053852452639908378e-04
9.99539416152314186096e+08 9.99891327574713550952e-01 -9.95668762915269487529e-04 -5.04412715731068848467e-05 -4.62148501192456413831e-04 -5.04412715731068848467e-05 -4.62148501192456413831e-04 9.99976587235711256163e-01 -2.14510332260578755366e-04
9.99540421793903112411e+08 9.99890856984600118196e-01 -9.97796496215481694761e-04 -5.06597001546939715538e-05 -4.63136107505173497210e-04 -5.06597001546939715538e-05 -4.63136107505173497210e-04 9.99976485850144758416e-01 -2.14968738503890045496e-04
9.99541427435491919518e+08 9.99890383343897348745e-01 -9.99933227208947127823e-04 -5.08795446943977728075e-05 -4.64127890177143799608e-04 -5.08795446943977728075e-05 -4.64127890177143799608e-04 9.99976383807348767618e-01 -2.15429083241448863237e-04
9.99542433077080726624e+08 9.99889906626289848290e-01 -1.00207901232982109566e-03 -5.11008174067648218426e-05 -4.65123875402782013897e-04 -5.11008174067648218426e-05 -4.65123875402782013897e-04 9.99976281101653596828e-01 -2.15891378631625439335e-04
9.99543438718669533730e+08 9.99889426805179115654e-01 -1.00423390847781770531e-03 -5.13235306377333281333e-05 -4.66124089592595601626e-04 -5.13235306377333281333e-05 -4.66124089592595601626e-04 9.99976177727329051947e-01 -2.16355636933091417763e-04
9.99544444360258340836e+08 9.99888943853679879048e-01 -1.00639797302329758906e-03 -5.15476968663624459765e-05 -4.67128559375547269556e-04 -5.15476968663624459765e-05 -4.67128559375547269556e-04 9.99976073678582655369e-01 -2.16821870505916390690e-04
9.99545450001847267151e+08 9.99888457744615988254e-01 -1.00857126381290597254e-03 -5.17733287066383181425e-05 -4.68137311601671203716e-04 -5.17733287066383181425e-05 -4.68137311601671203716e-04 9.99975968949559645971e-01 -2.17290091812782286233e-04
9.99546455643436074257e+08 9.99887968450517417018e-01 -1.01075383917275350709e-03 -5.20004389090455320559e-05 -4.69150373343549915387e-04 -5.20004389090455320559e-05 -4.69150373343549915387e-04 9.99975863534341646854e-01 -2.17760313419668719752e-04
9.99547461285024881363e+08 9.99887475943615822160e-01 -1.01294575791524934551e-03 -5.22290403625374200750e-05 -4.70167771899485478250e-04 -5.22290403625374200750e-05 -4.70167771899485478250e-04 9.99975757426946332274e-01 -2.18232547997325150666e-04
9.99548466926613688469e+08 9.99886980195840990859e-01 -1.01514707934214753332e-03 -5.24591460961334958677e-05 -4.71189534794913761698e-04 -5.24591460961334958677e-05 -4.71189534794913761698e-04 9.99975650621325984346e-01 -2.18706808321927150028e-04
9.99549472568202614784e+08 9.99886481178816621807e-01 -1.01735786325151495932e-03 -5.26907692809463907018e-05 -4.72215689785638822757e-04 -5.26907692809463907018e-05 -4.72215689785638822757e-04 9.99975543111367159987e-01 -2.19183107276577695275e-04
9.99550478209791421890e+08 9.99885978863856661469e-01 -1.01957816994112837779e-03 -5.29239232318573252722e-05 -4.73246264859409390257e-04 -5.29239232318573252722e-05 -4.73246264859409390257e-04 9.99975434890889580686e-01 -2.19661457852039006689e-04
9.99551483851380228996e+08 9.99885473221961196266e-01 -1.02180806021435403690e-03 -5.31586214094723627857e-05 -4.74281288238648018538e-04 -5.31586214094723627857e-05 -4.74281288238648018538e-04 9.99975325953645577393e-01 -2.20141873147999220803e-04
9.99552489492969036102e+08 9.99884964223811789630e-01 -1.02404759538610948960e-03 -5.33948774221104833799e-05 -4.75320788383218296655e-04 -5.33948774221104833799e-05 -4.75320788383218296655e-04 9.99975216293318536209e-01 -2.20624366374356844708e-04
9.99553495134557843208e+08 9.99884451839768373382e-01 -1.02629683728654511055e-03 -5.36327050275736254845e-05 -4.76364793992133876265e-04 -5.36327050275736254845e-05 -4.76364793992133876265e-04 9.99975105903522787365e-01 -2.21108950852014012577e-04
9.99554500776146769524e+08 9.99883936039863807643e-01 -1.02855584826799491618e-03 -5.38721181352842717199e-05 -4.77413334006784460979e-04 -5.38721181352842717199e-05 -4.77413334006784460979e-04 9.99974994777802050905e-01 -2.21595640014373850175e-04
9.99555506417735576630e+08 9.99883416793800661182e-01 -1.03082469120914987579e-03 -5.41131308081530074680e-05 -4.78466437612873058804e-04 -5.41131308081530074680e-05 -4.78466437612873058804e-04 9.99974882909628881578e-01 -2.22084447408239685044e-04
9.99556512059324383736e+08 9.99882894070946104392e-01 -1.03310342952077794526e-03 -5.43557572646328264910e-05 -4.79524134243070922212e-04 -5.43557572646328264910e-05 -4.79524134243070922212e-04 9.99974770292403780658e-01 -2.22575386695047296474e-04
9.99557517700913190842e+08 9.99882367840327690445e-01 -1.03539212715227394931e-03 -5.46000118808866204806e-05 -4.80586453580057705245e-04 -5.46000118808866204806e-05 -4.80586453580057705245e-04 9.99974656919453863679e-01 -2.23068471652276194370e-04
9.99558523342502117157e+08 9.99881838070628692350e-01 -1.03769084859640101440e-03 -5.48459091927866850338e-05 -4.81653425558722393923e-04 -5.48459091927866850338e-05 -4.81653425558722393923e-04 9.99974542784032194298e-01 -2.23563716174470964804e-04
9.99559528984090924263e+08 9.99881304730184217178e-01 -1.03999965889433015724e-03 -5.50934638979701230260e-05 -4.82725080368502201377e-04 -5.50934638979701230260e-05 -4.82725080368502201377e-04 9.99974427879316563050e-01 -2.24061134274327098488e-04
9.99560534625679731369e+08 9.99880767786975543920e-01 -1.04231862364265767500e-03 -5.53426908581313087895e-05 -4.83801448456640053285e-04 -5.53426908581313087895e-05 -4.83801448456640053285e-04 9.99974312198409043262e-01 -2.24560740084202856495e-04
9.99561540267268538475e+08 9.99880227208626015667e-01 -1.04464780899898098017e-03 -5.55936051011866603816e-05 -4.84882560530772578448e-04 -5.55936051011866603816e-05 -4.84882560530772578448e-04 9.99974195734334214691e-01 -2.25062547857320593373e-04
9.99562545908857345581e+08 9.99879682962396265644e-01 -1.04698728168754122241e-03 -5.58462218234723580456e-05 -4.85968447561548782306e-04 -5.58462218234723580456e-05 -4.85968447561548782306e-04 9.99974078480038497396e-01 -2.25566571968982201987e-04
9.99563551550446271896e+08 9.99879135015179110191e-01 -1.04933710900466880232e-03 -5.61005563919474633540e-05 -4.87059140785158569027e-04 -5.61005563919474633540e-05 -4.87059140785158569027e-04 9.99973960428389152533e-01 -2.26072826917742626847e-04
9.99564557192035079002e+08 9.99878583333494663776e-01 -1.05169735882533737364e-03 -5.63566243465434124215e-05 -4.88154671706373820186e-04 -5.63566243465434124215e-05 -4.88154671706373820186e-04 9.99973841572173283154e-01 -2.26581327326821630862e-04
9.99565562833623886108e+08 9.99878027883485565042e-01 -1.05406809960980328046e-03 -5.66144414025516730339e-05 -4.89255072101630510487e-04 -5.66144414025516730339e-05 -4.89255072101630510487e-04 9.99973721904096501945e-01 -2.27092087945534291688e-04
9.99566568475212693214e+08 9.99877468630911314662e-01 -1.05644940040915016714e-03 -5.68740234529209318830e-05 -4.90360374021602657933e-04 -5.68740234529209318830e-05 -4.90360374021602657933e-04 9.99973601416781820994e-01 -2.27605123650485656993e-04
9.99567574116801619530e+08 9.99876905541143723433e-01 -1.05884133087168945744e-03 -5.71353865706754481695e-05 -4.91470609794172766729e-04 -5.71353865706754481695e-05 -4.91470609794172766729e-04 9.99973480102768985667e-01 -2.28120449446949551467e-04
9.99568579758390426636e+08 9.99876338579161472175e-01 -1.06124396124850951806e-03 -5.73985470112697509864e-05 -4.92585812027007403750e-04 -5.73985470112697509864e-05 -4.92585812027007403750e-04 9.99973357954512698242e-01 -2.28638080470064072348e-04
9.99569585399979233742e+08 9.99875767709544449602e-01 -1.06365736240175245801e-03 -5.76635212152717618688e-05 -4.93706013611399448411e-04 -5.76635212152717618688e-05 -4.93706013611399448411e-04 9.99973234964382062806e-01 -2.29158031986615020681e-04
9.99570591041568040848e+08 9.99875192896468534265e-01 -1.06608160580980615602e-03 -5.79303258107390135908e-05 -4.94831247724677623576e-04 -5.79303258107390135908e-05 -4.94831247724677623576e-04 9.99973111124658919913e-01 -2.29680319396154228751e-04
9.99571596683156847954e+08 9.99874614103700265488e-01 -1.06851676357375114344e-03 -5.81989776157626424713e-05 -4.95961547833198893552e-04 -5.81989776157626424713e-05 -4.95961547833198893552e-04 9.99972986427537069432e-01 -2.30204958232388585699e-04
9.99572602324745774269e+08 9.99874031294590737140e-01 -1.07096290842551033519e-03 -5.84694936412310874749e-05 -4.97096947696131462313e-04 -5.84694936412310874749e-05 -4.97096947696131462313e-04 9.99972860865120827256e-01 -2.30731964164935902939e-04
9.99573607966334581375e+08 9.99873444432070934695e-01 -1.07342011373137008468e-03 -5.87418910931142602429e-05 -4.98237481367088666170e-04 -5.87418910931142602429e-05 -4.98237481367088666170e-04 9.99972734429423693037e-01 -2.31261353000083340684e-04
9.99574613607923388481e+08 9.99872853478644518788e-01 -1.07588845350340897578e-03 -5.90161873756555650393e-05 -4.99383183199434517105e-04 -5.90161873756555650393e-05 -4.99383183199434517105e-04 9.99972607112367462001e-01 -2.31793140683249956338e-04
9.99575619249512195587e+08 9.99872258396382940226e-01 -1.07836800240264374384e-03 -5.92924000936800974122e-05 -5.00534087847742930472e-04 -5.92924000936800974122e-05 -5.00534087847742930472e-04 9.99972478905780670644e-01 -2.32327343299664086911e-04
