! File generated for n1 = 9, n2 = 7
! b1 = 0.215443
! b2 = 0.002154
! Q0 = 10000.000000
! f0 = 1000000000.000000
! n = 1001
! rel_span = 10.000000
# Hz S RI R 50
9.99391201048153400421e+08 9.96498322360689470223e-01 -3.50274419746812171184e-02 -3.50167763931055590638e-04 -3.50274419746812075774e-03 -3.50167763931055590638e-04 -3.50274419746812075774e-03 9.99964983223606940221e-01 -3.50274419746812043248e-04
9.99392418646057128906e+08 9.96484408841532554035e-01 -3.50962649195574669103e-02 -3.51559115846741473965e-04 -3.50962649195574617061e-03 -3.51559115846741473965e-04 -3.50962649195574617061e-03 9.99964844088415349965e-01 -3.50962649195574595377e-04
9.99393636243960738182e+08 9.96470412528321025647e-01 -3.51653559499360002238e-02 -3.52958747167901609482e-04 -3.51653559499359898155e-03 -3.52958747167901609482e-04 -3.51653559499359898155e-03 9.99964704125283154745e-01 -3.51653559499359930681e-04
9.99394853841864466667e+08 9.96456332765127683615e-01 -3.52347166180613999287e-02 -3.54366723487231660185e-04 -3.52347166180613964592e-03 -3.54366723487231660185e-04 -3.52347166180613964592e-03 9.99964563327651267954e-01 -3.52347166180613953750e-04
9.99396071439768195152e+08 9.96442168889540624832e-01 -3.53043484880394831116e-02 -3.55783111045939565934e-04 -3.53043484880394753053e-03 -3.55783111045939565934e-04 -3.53043484880394753053e-03 9.99964421688895432894e-01 -3.53043484880394720527e-04
9.99397289037671923637e+08 9.96427920232587083227e-01 -3.53742531359428763471e-02 -3.57207976741296632118e-04 -3.53742531359428711429e-03 -3.57207976741296632118e-04 -3.53742531359428711429e-03 9.99964279202325889706e-01 -3.53742531359428668061e-04
9.99398506635575532913e+08 9.96413586118654492907e-01 -3.54444321499306075340e-02 -3.58641388134552259719e-04 -3.54444321499306023299e-03 -3.58641388134552259719e-04 -3.54444321499306023299e-03 9.99964135861186598220e-01 -3.54444321499306001615e-04
9.99399724233479261398e+08 9.96399165865405112008e-01 -3.55148871303948079903e-02 -3.60083413459488029407e-04 -3.55148871303948010514e-03 -3.60083413459488029407e-04 -3.55148871303948010514e-03 9.99963991658654016703e-01 -3.55148871303947999672e-04
9.99400941831382989883e+08 9.96384658783706189666e-01 -3.55856196900254870275e-02 -3.61534121629381206831e-04 -3.55856196900254792212e-03 -3.61534121629381206831e-04 -3.55856196900254792212e-03 9.99963846587837101865e-01 -3.55856196900254770528e-04
9.99402159429286599159e+08 9.96370064177545589068e-01 -3.56566314539435089137e-02 -3.62993582245441841292e-04 -3.56566314539435037095e-03 -3.62993582245441841292e-04 -3.56566314539435037095e-03 9.99963700641775421474e-01 -3.56566314539435026253e-04
9.99403377027190327644e+08 9.96355381343944856987e-01 -3.57279240598417854868e-02 -3.64461865605509368216e-04 -3.57279240598417768132e-03 -3.64461865605509368216e-04 -3.57279240598417768132e-03 9.99963553813439487428e-01 -3.57279240598417768132e-04
9.99404594625094056129e+08 9.96340609572879953859e-01 -3.57994991580857582769e-02 -3.65939042712001545796e-04 -3.57994991580857548075e-03 -3.65939042712001545796e-04 -3.57994991580857548075e-03 9.99963406095728757350e-01 -3.57994991580857504707e-04
9.99405812222997665405e+08 9.96325748147198320126e-01 -3.58713584118248093868e-02 -3.67425185280171955580e-04 -3.58713584118248041827e-03 -3.67425185280171955580e-04 -3.58713584118248041827e-03 9.99963257481471967658e-01 -3.58713584118248052669e-04
9.99407029820901393890e+08 9.96310796342525728519e-01 -3.59435034971507319512e-02 -3.68920365747431864330e-04 -3.59435034971507250123e-03 -3.68920365747431864330e-04 -3.59435034971507250123e-03 9.99963107963425246183e-01 -3.59435034971507206755e-04
9.99408247418805122375e+08 9.96295753427187569251e-01 -3.60159361031824679089e-02 -3.70424657281240830593e-04 -3.60159361031824618374e-03 -3.70424657281240830593e-04 -3.60159361031824618374e-03 9.99962957534271890125e-01 -3.60159361031824640058e-04
9.99409465016708850861e+08 9.96280618662116701501e-01 -3.60886579322111447632e-02 -3.71938133788333156766e-04 -3.60886579322111395590e-03 -3.71938133788333156766e-04 -3.60886579322111395590e-03 9.99962806186621144811e-01 -3.60886579322111373906e-04
9.99410682614612460136e+08 9.96265391300767522154e-01 -3.61616706998068790369e-02 -3.73460869923249313366e-04 -3.61616706998068747000e-03 -3.73460869923249313366e-04 -3.61616706998068747000e-03 9.99962653913007648576e-01 -3.61616706998068747000e-04
9.99411900212516188622e+08 9.96250070589013381195e-01 -3.62349761350069451971e-02 -3.74992941098657164237e-04 -3.62349761350069365234e-03 -3.74992941098657164237e-04 -3.62349761350069365234e-03 9.99962500705890100505e-01 -3.62349761350069343550e-04
9.99413117810419917107e+08 9.96234655765070420408e-01 -3.63085759803690594216e-02 -3.76534423492960788980e-04 -3.63085759803690550848e-03 -3.76534423492960788980e-04 -3.63085759803690550848e-03 9.99962346557650705314e-01 -3.63085759803690529164e-04
9.99414335408323526382e+08 9.96219146059399651705e-01 -3.63824719921221964580e-02 -3.78085394060035100573e-04 -3.63824719921221860497e-03 -3.78085394060035100573e-04 -3.63824719921221860497e-03 9.99962191460593952108e-01 -3.63824719921221871339e-04
9.99415553006227254868e+08 9.96203540694598932426e-01 -3.64566659403666518124e-02 -3.79645930540106302069e-04 -3.64566659403666500777e-03 -3.79645930540106302069e-04 -3.64566659403666500777e-03 9.99962035406945948246e-01 -3.64566659403666468251e-04
9.99416770604130983353e+08 9.96187838885329135508e-01 -3.65311596091006524079e-02 -3.81216111467088086383e-04 -3.65311596091006437342e-03 -3.81216111467088086383e-04 -3.65311596091006437342e-03 9.99961878388853309119e-01 -3.65311596091006415658e-04
9.99417988202034592628e+08 9.96172039838202794115e-01 -3.66059547964231596362e-02 -3.82796016179724253072e-04 -3.66059547964231544320e-03 -3.82796016179724253072e-04 -3.66059547964231544320e-03 9.99961720398382047925e-01 -3.66059547964231511794e-04
9.99419205799938321114e+08 9.96156142751682405212e-01 -3.66810533146853384734e-02 -3.84385724831762265203e-04 -3.66810533146853280650e-03 -3.84385724831762265203e-04 -3.66810533146853280650e-03 9.99961561427516798517e-01 -3.66810533146853291493e-04
9.99420423397842049599e+08 9.96140146815992610918e-01 -3.67564569905713470210e-02 -3.85985318400740870601e-04 -3.67564569905713461537e-03 -3.85985318400740870601e-04 -3.67564569905713461537e-03 9.99961401468159927219e-01 -3.67564569905713407327e-04
9.99421640995745778084e+08 9.96124051213009842343e-01 -3.68321676652797816431e-02 -3.87594878699010257986e-04 -3.68321676652797781737e-03 -3.87594878699010257986e-04 -3.68321676652797781737e-03 9.99961240512130089542e-01 -3.68321676652797770895e-04
9.99422858593649387360e+08 9.96107855116162510534e-01 -3.69081871946521020145e-02 -3.89214488383746615597e-04 -3.69081871946520942082e-03 -3.89214488383746615597e-04 -3.69081871946520942082e-03 9.99961078551161675065e-01 -3.69081871946520898714e-04
9.99424076191553115845e+08 9.96091557690322981777e-01 -3.69845174493302966678e-02 -3.90844230967698634711e-04 -3.69845174493302862595e-03 -3.90844230967698634711e-04 -3.69845174493302862595e-03 9.99960915576903253132e-01 -3.69845174493302884279e-04
9.99425293789456844330e+08 9.96075158091704992991e-01 -3.70611603148885068726e-02 -3.92484190829495236535e-04 -3.70611603148884990663e-03 -3.92484190829495236535e-04 -3.70611603148884990663e-03 9.99960751580917017733e-01 -3.70611603148884968979e-04
9.99426511387360453606e+08 9.96058655467758291557e-01 -3.71381176919696048833e-02 -3.94134453224173337930e-04 -3.71381176919695962096e-03 -3.94134453224173337930e-04 -3.71381176919695962096e-03 9.99960586554677566262e-01 -3.71381176919695962096e-04
9.99427728985264182091e+08 9.96042048957050840663e-01 -3.72153914964725024417e-02 -3.95795104294912279946e-04 -3.72153914964724972375e-03 -3.95795104294912279946e-04 -3.72153914964724972375e-03 9.99960420489570456226e-01 -3.72153914964724929007e-04
9.99428946583167910576e+08 9.96025337689169454336e-01 -3.72929836596536945503e-02 -3.97466231083050066959e-04 -3.72929836596536893462e-03 -3.97466231083050066959e-04 -3.72929836596536893462e-03 9.99960253376891650134e-01 -3.72929836596536871778e-04
9.99430164181071639061e+08 9.96008520784599338249e-01 -3.73708961283146304244e-02 -3.99147921540063692260e-04 -3.73708961283146252202e-03 -3.99147921540063692260e-04 -3.73708961283146252202e-03 9.99960085207845961186e-01 -3.73708961283146230518e-04
9.99431381778975248337e+08 9.95991597354611846171e-01 -3.74491308649489706983e-02 -4.00840264538815133511e-04 -3.74491308649489620247e-03 -4.00840264538815133511e-04 -3.74491308649489620247e-03 9.99959915973546165091e-01 -3.74491308649489609405e-04
9.99432599376878976822e+08 9.95974566501148905751e-01 -3.75276898478984766161e-02 -4.02543349885110248940e-04 -3.75276898478984696772e-03 -4.02543349885110248940e-04 -3.75276898478984696772e-03 9.99959745665011445759e-01 -3.75276898478984696772e-04
9.99433816974782705307e+08 9.95957427316708776566e-01 -3.76065750714965826851e-02 -4.04257268329116944104e-04 -3.76065750714965792156e-03 -4.04257268329116944104e-04 -3.76065750714965792156e-03 9.99959574273167062231e-01 -3.76065750714965748788e-04
9.99435034572686314583e+08 9.95940178884228255463e-01 -3.76857885462240707608e-02 -4.05982111577176849829e-04 -3.76857885462240655566e-03 -4.05982111577176849829e-04 -3.76857885462240655566e-03 9.99959401788842239256e-01 -3.76857885462240666408e-04
9.99436252170590043068e+08 9.95922820276947784457e-01 -3.77653322989320375247e-02 -4.07717972305217499392e-04 -3.77653322989320331879e-03 -4.07717972305217499392e-04 -3.77653322989320331879e-03 9.99959228202769501159e-01 -3.77653322989320331879e-04
9.99437469768493771553e+08 9.95905350558308755105e-01 -3.78452083729187843675e-02 -4.09464944169119794953e-04 -3.78452083729187774286e-03 -4.09464944169119794953e-04 -3.78452083729187774286e-03 9.99959053505583117527e-01 -3.78452083729187741760e-04
9.99438687366397380829e+08 9.95887768781818394359e-01 -3.79254188281418561091e-02 -4.11223121818165583945e-04 -3.79254188281418500375e-03 -4.11223121818165583945e-04 -3.79254188281418500375e-03 9.99958877687818215030e-01 -3.79254188281418489533e-04
9.99439904964301109314e+08 9.95870073990924198348e-01 -3.80059657413818682836e-02 -4.12992600907576782460e-04 -3.80059657413818648142e-03 -4.12992600907576782460e-04 -3.80059657413818648142e-03 9.99958700739909223110e-01 -3.80059657413818615616e-04
9.99441122562204837799e+08 9.95852265218885146503e-01 -3.80868512064192268896e-02 -4.14773478111481674283e-04 -3.80868512064192225527e-03 -4.14773478111481674283e-04 -3.80868512064192225527e-03 9.99958522652188874780e-01 -3.80868512064192236369e-04
9.99442340160108566284e+08 9.95834341488649021912e-01 -3.81680773341685417033e-02 -4.16565851135094133376e-04 -3.81680773341685347644e-03 -4.16565851135094133376e-04 -3.81680773341685347644e-03 9.99958343414886541289e-01 -3.81680773341685358486e-04
9.99443557758012175560e+08 9.95816301812709636643e-01 -3.82496462529035505251e-02 -4.18369818729033332485e-04 -3.82496462529035435862e-03 -4.18369818729033332485e-04 -3.82496462529035435862e-03 9.99958163018127121902e-01 -3.82496462529035381652e-04
9.99444775355915904045e+08 9.95798145192982708807e-01 -3.83315601083882018241e-02 -4.20185480701726311262e-04 -3.83315601083881974873e-03 -4.20185480701726311262e-04 -3.83315601083881974873e-03 9.99957981451929822647e-01 -3.83315601083881953189e-04
9.99445992953819632530e+08 9.95779870620661866631e-01 -3.84138210640912677873e-02 -4.22012937933808349525e-04 -3.84138210640912582464e-03 -4.22012937933808349525e-04 -3.84138210640912582464e-03 9.99957798706206602013e-01 -3.84138210640912549938e-04
9.99447210551723241806e+08 9.95761477076090084637e-01 -3.84964313013248515816e-02 -4.23852292390994452812e-04 -3.84964313013248446427e-03 -4.23852292390994452812e-04 -3.84964313013248446427e-03 9.99957614770760949696e-01 -3.84964313013248413901e-04
9.99448428149626970291e+08 9.95742963528610136592e-01 -3.85793930194673756473e-02 -4.25703647138981548619e-04 -3.85793930194673661063e-03 -4.25703647138981548619e-04 -3.85793930194673661063e-03 9.99957429635286110248e-01 -3.85793930194673671905e-04
9.99449645747530698776e+08 9.95724328936428482173e-01 -3.86627084361250428213e-02 -4.27567106357149603457e-04 -3.86627084361250341477e-03 -4.27567106357149603457e-04 -3.86627084361250341477e-03 9.99957243289364305916e-01 -3.86627084361250363161e-04
9.99450863345434427261e+08 9.95705572246472048192e-01 -3.87463797873102977487e-02 -4.29442775352798769475e-04 -3.87463797873102873404e-03 -4.29442775352798769475e-04 -3.87463797873102873404e-03 9.99957055722464738245e-01 -3.87463797873102873404e-04
9.99452080943338036537e+08 9.95686692394238903603e-01 -3.88304093276452891303e-02 -4.31330760576114355994e-04 -3.88304093276452830588e-03 -4.31330760576114355994e-04 -3.88304093276452830588e-03 9.99956866923942366832e-01 -3.88304093276452819746e-04
9.99453298541241765022e+08 9.95667688303646380987e-01 -3.89147993305680589549e-02 -4.33231169635367181336e-04 -3.89147993305680563528e-03 -4.33231169635367181336e-04 -3.89147993305680563528e-03 9.99956676883036466030e-01 -3.89147993305680552686e-04
9.99454516139145493507e+08 9.95648558886890522324e-01 -3.89995520884794319438e-02 -4.35144111310951443080e-04 -3.89995520884794293417e-03 -4.35144111310951443080e-04 -3.89995520884794293417e-03 9.99956485588868959624e-01 -3.89995520884794250049e-04
9.99455733737049102783e+08 9.95629303044283653357e-01 -3.90846699129805200124e-02 -4.37069695571635824429e-04 -3.90846699129805165429e-03 -4.37069695571635824429e-04 -3.90846699129805165429e-03 9.99956293030442866510e-01 -3.90846699129805132903e-04
9.99456951334952831268e+08 9.95609919664103282244e-01 -3.91701551350511767424e-02 -4.39008033589666538891e-04 -3.91701551350511715383e-03 -4.39008033589666538891e-04 -3.91701551350511715383e-03 9.99956099196641079452e-01 -3.91701551350511682856e-04
9.99458168932856559753e+08 9.95590407622431117218e-01 -3.92560101052656859610e-02 -4.40959237756892723399e-04 -3.92560101052656738180e-03 -4.40959237756892723399e-04 -3.92560101052656738180e-03 9.99955904076224255661e-01 -3.92560101052656770706e-04
9.99459386530760169029e+08 9.95570765783003852611e-01 -3.93422371939442863664e-02 -4.42923421699618435985e-04 -3.93422371939442742234e-03 -4.42923421699618435985e-04 -3.93422371939442742234e-03 9.99955707657830039636e-01 -3.93422371939442774760e-04
9.99460604128663897514e+08 9.95550992997029093878e-01 -3.94288387914561999636e-02 -4.44900700297091338583e-04 -3.94288387914561947595e-03 -4.44900700297091338583e-04 -3.94288387914561947595e-03 9.99955509929970287608e-01 -3.94288387914561871701e-04
9.99461821726567625999e+08 9.95531088103045025406e-01 -3.95158173083170888296e-02 -4.46891189695502186532e-04 -3.95158173083170766865e-03 -4.46891189695502186532e-04 -3.95158173083170766865e-03 9.99955310881030401404e-01 -3.95158173083170788549e-04
9.99463039324471354485e+08 9.95511049926734559179e-01 -3.96031751754777894270e-02 -4.48895007326538617726e-04 -3.96031751754777859575e-03 -4.48895007326538617726e-04 -3.96031751754777859575e-03 9.99955110499267330049e-01 -3.96031751754777816207e-04
9.99464256922374963760e+08 9.95490877280765018575e-01 -3.96909148444974241299e-02 -4.50912271923500028968e-04 -3.96909148444974171910e-03 -4.50912271923500028968e-04 -3.96909148444974171910e-03 9.99954908772807682382e-01 -3.96909148444974117700e-04
9.99465474520278692245e+08 9.95470568964608726326e-01 -3.97790387877823559126e-02 -4.52943103539122835476e-04 -3.97790387877823472390e-03 -4.52943103539122835476e-04 -3.97790387877823472390e-03 9.99954705689646061728e-01 -3.97790387877823472390e-04
9.99466692118182420731e+08 9.95450123764374250612e-01 -3.98675494987801512514e-02 -4.54987623562576424131e-04 -3.98675494987801425778e-03 -4.54987623562576424131e-04 -3.98675494987801425778e-03 9.99954501237643733624e-01 -3.98675494987801425778e-04
9.99467909716086030006e+08 9.95429540452624439517e-01 -3.99564494922118942921e-02 -4.57045954737551548847e-04 -3.99564494922118908227e-03 -4.57045954737551548847e-04 -3.99564494922118908227e-03 9.99954295404526294355e-01 -3.99564494922118843175e-04
9.99469127313989758492e+08 9.95408817788193567289e-01 -4.00457413043077206649e-02 -4.59118221180639183698e-04 -4.00457413043077154607e-03 -4.59118221180639183698e-04 -4.00457413043077154607e-03 9.99954088177881894595e-01 -4.00457413043077122081e-04
9.99470344911893486977e+08 9.95387954516008588435e-01 -4.01354274930083784745e-02 -4.61204548399141091471e-04 -4.01354274930083767398e-03 -4.61204548399141091471e-04 -4.01354274930083767398e-03 9.99953879545160129183e-01 -4.01354274930083724029e-04
9.99471562509797096252e+08 9.95366949366899844698e-01 -4.02255106382061536352e-02 -4.63305063310010130893e-04 -4.02255106382061466963e-03 -4.63305063310010130893e-04 -4.02255106382061466963e-03 9.99953669493669039525e-01 -4.02255106382061488647e-04
9.99472780107700824738e+08 9.95345801057407109091e-01 -4.03159933419970778479e-02 -4.65419894259285339515e-04 -4.03159933419970726437e-03 -4.65419894259285339515e-04 -4.03159933419970726437e-03 9.99953458010574114390e-01 -4.03159933419970704753e-04
9.99473997705604553223e+08 9.95324508289598064437e-01 -4.04068782288661068614e-02 -4.67549171040189924260e-04 -4.04068782288660981877e-03 -4.67549171040189924260e-04 -4.04068782288660981877e-03 9.99953245082895958440e-01 -4.04068782288660981877e-04
9.99475215303508281708e+08 9.95303069750861690856e-01 -4.04981679459737939353e-02 -4.69693024913832800869e-04 -4.04981679459737869964e-03 -4.69693024913832800869e-04 -4.04981679459737869964e-03 9.99953030697508626901e-01 -4.04981679459737826596e-04
9.99476432901411890984e+08 9.95281484113720971152e-01 -4.05898651633469498279e-02 -4.71851588627900130936e-04 -4.05898651633469428890e-03 -4.71851588627900130936e-04 -4.05898651633469428890e-03 9.99952814841137183066e-01 -4.05898651633469428890e-04
9.99477650499315619469e+08 9.95259750035614065844e-01 -4.06819725741969853705e-02 -4.74024996438590195524e-04 -4.06819725741969749622e-03 -4.74024996438590195524e-04 -4.06819725741969749622e-03 9.99952597500356143989e-01 -4.06819725741969771306e-04
9.99478868097219347954e+08 9.95237866158706574460e-01 -4.07744928950912674526e-02 -4.76213384129338000370e-04 -4.07744928950912622484e-03 -4.76213384129338000370e-04 -4.07744928950912622484e-03 9.99952378661587037989e-01 -4.07744928950912589958e-04
9.99480085695122957230e+08 9.95215831109680926225e-01 -4.08674288662146598106e-02 -4.78416889031906260744e-04 -4.08674288662146546064e-03 -4.78416889031906260744e-04 -4.08674288662146546064e-03 9.99952158311096850341e-01 -4.08674288662146524380e-04
9.99481303293026685715e+08 9.95193643499507563099e-01 -4.09607832516942216294e-02 -4.80635650049238811153e-04 -4.09607832516942129558e-03 -4.80635650049238811153e-04 -4.09607832516942129558e-03 9.99951936434995025671e-01 -4.09607832516942140400e-04
9.99482520890930414200e+08 9.95171301923254647548e-01 -4.10545588397533967040e-02 -4.82869807674531450505e-04 -4.10545588397533914998e-03 -4.82869807674531450505e-04 -4.10545588397533914998e-03 9.99951713019232579782e-01 -4.10545588397533882472e-04
9.99483738488834142685e+08 9.95148804959857469221e-01 -4.11487584430215991294e-02 -4.85119504014249445806e-04 -4.11487584430215904557e-03 -4.85119504014249445806e-04 -4.11487584430215904557e-03 9.99951488049598546937e-01 -4.11487584430215904557e-04
9.99484956086737751961e+08 9.95126151171897066483e-01 -4.12433848987964618571e-02 -4.87384882810296430830e-04 -4.12433848987964549182e-03 -4.87384882810296430830e-04 -4.12433848987964549182e-03 9.99951261511718980657e-01 -4.12433848987964484130e-04
9.99486173684641480446e+08 9.95103339105368300821e-01 -4.13384410693356449396e-02 -4.89666089463169440857e-04 -4.13384410693356380007e-03 -4.89666089463169440857e-04 -4.13384410693356380007e-03 9.99951033391053734078e-01 -4.13384410693356369165e-04
