! File generated for n1 = 10, n2 = 6
! b1 = 0.100000
! b2 = 0.002154
! Q0 = 10000.000000
! f0 = 1000000000.000000
! n = 1001
! rel_span = 10.000000
# Hz S RI R 50
9.99448922782655000687e+08 9.98204319317580468507e-01 -1.79617573458834590971e-02 -2.63569879053841881009e-04 -2.63642542774930642782e-03 -2.63569879053841881009e-04 -2.63642542774930642782e-03 9.99961313232455739630e-01 -3.86974331199063344752e-04
9.99450024937089681625e+08 9.98197184594452280315e-01 -1.79970480724648308757e-02 -2.64617113192069572641e-04 -2.64160539801230540013e-03 -2.64617113192069572641e-04 -2.64160539801230540013e-03 9.99961159519505593529e-01 -3.87734646854896779309e-04
9.99451127091524362564e+08 9.98190007415734048557e-01 -1.80324762666298661629e-02 -2.65670578958694973346e-04 -2.64680554575716679364e-03 -2.65670578958694973346e-04 -2.64680554575716679364e-03 9.99961004891877558443e-01 -3.88497924160040124502e-04
9.99452229245959043503e+08 9.98182787445078711919e-01 -1.80680427243252658687e-02 -2.66730325722709237391e-04 -2.65202598781288803945e-03 -2.66730325722709237391e-04 -2.65202598781288803945e-03 9.99960849342325208688e-01 -3.89264180262645310884e-04
9.99453331400393724442e+08 9.98175524342811759659e-01 -1.81037482475904162871e-02 -2.67796403341526839930e-04 -2.65726684190275338343e-03 -2.67796403341526839930e-04 -2.65726684190275338343e-03 9.99960692863530398178e-01 -3.90033432442127108147e-04
9.99454433554828405380e+08 9.98168217765895038340e-01 -1.81395936445969477302e-02 -2.68868862166235067079e-04 -2.66252822665013436781e-03 -2.68868862166235067079e-04 -2.66252822665013436781e-03 9.99960535448102594280e-01 -3.90805698110015470662e-04
9.99455535709263086319e+08 9.98160867367886450729e-01 -1.81755797297121074463e-02 -2.69947753047611934286e-04 -2.66781026158779575527e-03 -2.69947753047611934286e-04 -2.66781026158779575527e-03 9.99960377088578100668e-01 -3.91580994811320873272e-04
9.99456637863697886467e+08 9.98153472798894991769e-01 -1.82117073235756980754e-02 -2.71033127342615244755e-04 -2.67311306716918901244e-03 -2.71033127342615244755e-04 -2.67311306716918901244e-03 9.99960217777418503005e-01 -3.92359340226191947998e-04
9.99457740018132567406e+08 9.98146033705546109616e-01 -1.82479772531304908212e-02 -2.72125036919538892347e-04 -2.67843676477291185029e-03 -2.72125036919538892347e-04 -2.67843676477291185029e-03 9.99960057507010779965e-01 -3.93140752170570504775e-04
9.99458842172567248344e+08 9.98138549730936630588e-01 -1.82843903516985845092e-02 -2.73223534164609256018e-04 -2.68378147671392147666e-03 -2.73223534164609256018e-04 -2.68378147671392147666e-03 9.99959896269665637902e-01 -3.93925248597837025094e-04
9.99459944327001929283e+08 9.98131020514589795134e-01 -1.83209474590551209261e-02 -2.74328671988572324325e-04 -2.68914732625435189822e-03 -2.74328671988572324325e-04 -2.68914732625435189822e-03 9.99959734057616733693e-01 -3.94712847600398476083e-04
9.99461046481436610222e+08 9.98123445692419841713e-01 -1.83576494214548434358e-02 -2.75440503831920959366e-04 -2.69453443760741271143e-03 -2.75440503831920959366e-04 -2.69453443760741271143e-03 9.99959570863020230647e-01 -3.95503567410260498203e-04
9.99462148635871291161e+08 9.98115824896682712897e-01 -1.83944970917217266726e-02 -2.76559083672092318688e-04 -2.69994293595054351068e-03 -2.76559083672092318688e-04 -2.69994293595054351068e-03 9.99959406677953133169e-01 -3.96297426400958748786e-04
9.99463250790305972099e+08 9.98108157755930980315e-01 -1.84314913293175813847e-02 -2.77684466030102847321e-04 -2.70537294743548656015e-03 -2.77684466030102847321e-04 -2.70537294743548656015e-03 9.99959241494413064721e-01 -3.97094443089036669599e-04
9.99464352944740653038e+08 9.98100443894975541959e-01 -1.84686330003759197060e-02 -2.78816705976194531644e-04 -2.71082459919325547554e-03 -2.78816705976194531644e-04 -2.71082459919325547554e-03 9.99959075304316713506e-01 -3.97894636134775046485e-04
9.99465455099175333977e+08 9.98092682934836661346e-01 -1.85059229777828036789e-02 -2.79955859136975942787e-04 -2.71629801934600246735e-03 -2.79955859136975942787e-04 -2.71629801934600246735e-03 9.99958908099499277355e-01 -3.98698024343934051203e-04
9.99466557253610014915e+08 9.98084874492694895665e-01 -1.85433621412588907351e-02 -2.81101981702677500719e-04 -2.72179333701906079127e-03 -2.81101981702677500719e-04 -2.72179333701906079127e-03 9.99958739871713020442e-01 -3.99504626669520599390e-04
9.99467659408044695854e+08 9.98077018181851904899e-01 -1.85809513773875986664e-02 -2.82255130432831013131e-04 -2.72731068234507989523e-03 -2.82255130432831013131e-04 -2.72731068234507989523e-03 9.99958570612626829188e-01 -4.00314462212395503777e-04
9.99468761562479376793e+08 9.98069113611676383968e-01 -1.86186915797173710430e-02 -2.83415362664288272062e-04 -2.73285018647903511432e-03 -2.83415362664288272062e-04 -2.73285018647903511432e-03 9.99958400313824880001e-01 -4.01127550223476356164e-04
9.99469863716914057732e+08 9.98061160387559986873e-01 -1.86565836488082302524e-02 -2.84582736317609389948e-04 -2.73841198160505987919e-03 -2.84582736317609389948e-04 -2.73841198160505987919e-03 9.99958228966805529048e-01 -4.01943910104740685478e-04
9.99470965871348857880e+08 9.98053158110868254838e-01 -1.86946284923054754923e-02 -2.85757309904358992349e-04 -2.74399620094726518632e-03 -2.85757309904358992349e-04 -2.74399620094726518632e-03 9.99958056562980424076e-01 -4.02763561410813663438e-04
9.99472068025783538818e+08 9.98045106378891544452e-01 -1.87328270250046099998e-02 -2.86939142534208501117e-04 -2.74960297877926756679e-03 -2.86939142534208501117e-04 -2.74960297877926756679e-03 9.99957883093673616237e-01 -4.03586523850366996405e-04
9.99473170180218219757e+08 9.98037004784793957413e-01 -1.87711801689286646166e-02 -2.88128293922500829799e-04 -2.75523245043554068298e-03 -2.88128293922500829799e-04 -2.75523245043554068298e-03 9.99957708550119894753e-01 -4.04412817287784639390e-04
9.99474272334652900696e+08 9.98028852917561826175e-01 -1.88096888534025410977e-02 -2.89324824397805321213e-04 -2.76088475232232500450e-03 -2.89324824397805321213e-04 -2.76088475232232500450e-03 9.99957532923464453845e-01 -4.05242461744764758975e-04
9.99475374489087581635e+08 9.98020650361956751517e-01 -1.88483540151029478615e-02 -2.90528794908792781845e-04 -2.76656002192495961700e-03 -2.90528794908792781845e-04 -2.76656002192495961700e-03 9.99957356204761005358e-01 -4.06075477401395261868e-04
9.99476476643522262573e+08 9.98012396698459647304e-01 -1.88871765981478145768e-02 -2.91740267032419419314e-04 -2.77225839782100497155e-03 -2.91740267032419419314e-04 -2.77225839782100497155e-03 9.99957178384971445695e-01 -4.06911884598080313743e-04
9.99477578797956943512e+08 9.98004091503217893866e-01 -1.89261575541711836446e-02 -2.92959302981745186873e-04 -2.77798001969123582733e-03 -2.92959302981745186873e-04 -2.77798001969123582733e-03 9.99956999454964079455e-01 -4.07751703837153794702e-04
9.99478680952391624451e+08 9.97995734347993268543e-01 -1.89652978423891782622e-02 -2.94185965613558868866e-04 -2.78372502832932491174e-03 -2.94185965613558868866e-04 -2.78372502832932491174e-03 9.99956819405512731258e-01 -4.08594955784300796747e-04
9.99479783106826305389e+08 9.97987324800108654976e-01 -1.90045984296686037984e-02 -2.95420318436168615438e-04 -2.78949356565191082177e-03 -2.95420318436168615438e-04 -2.78949356565191082177e-03 9.99956638227295857568e-01 -4.09441661270034957653e-04
9.99480885261260986328e+08 9.97978862422388424136e-01 -1.90440602906241200631e-02 -2.96662425618178667540e-04 -2.79528577471286135414e-03 -2.96662425618178667540e-04 -2.79528577471286135414e-03 9.99956455910894659311e-01 -4.10291841291792760103e-04
9.99481987415695667267e+08 9.97970346773108363259e-01 -1.90836844076668482595e-02 -2.97912351995830218792e-04 -2.80110179971041059130e-03 -2.97912351995830218792e-04 -2.80110179971041059130e-03 9.99956272446792526765e-01 -4.11145517014980166250e-04
9.99483089570130348206e+08 9.97961777405934391538e-01 -1.91234717711034167553e-02 -2.99170163082018182848e-04 -2.80694178600169154739e-03 -2.99170163082018182848e-04 -2.80694178600169154739e-03 9.99956087825373374223e-01 -4.12002709775106652854e-04
9.99484191724565029144e+08 9.97953153869866937953e-01 -1.91634233792041391853e-02 -3.00435925074430299105e-04 -2.81280588011274769109e-03 -3.00435925074430299105e-04 -2.81280588011274769109e-03 9.99955902036920862841e-01 -4.12863441079254196806e-04
9.99485293878999829292e+08 9.97944475709180323086e-01 -1.92035402382921271958e-02 -3.01709704864441493645e-04 -2.81869422975161276063e-03 -3.01709704864441493645e-04 -2.81869422975161276063e-03 9.99955715071616513256e-01 -4.13727732607997017705e-04
9.99486396033434510231e+08 9.97935742463371133759e-01 -1.92438233627888789778e-02 -3.02991570044721292201e-04 -2.82460698381499855647e-03 -3.02991570044721292201e-04 -2.82460698381499855647e-03 9.99955526919539261499e-01 -4.14595606216383756604e-04
9.99487498187869191170e+08 9.97926953667085059330e-01 -1.92842737753537926682e-02 -3.04281588919922373060e-04 -2.83054429240877768875e-03 -3.04281588919922373060e-04 -2.83054429240877768875e-03 9.99955337570663238544e-01 -4.15467083936943318116e-04
9.99488600342303872108e+08 9.97918108850066709614e-01 -1.93248925069175112035e-02 -3.05579830514096130456e-04 -2.83650630685287376276e-03 -3.05579830514096130456e-04 -2.83650630685287376276e-03 9.99955147014857104182e-01 -4.16342187980402991723e-04
9.99489702496738553047e+08 9.97909207537094222751e-01 -1.93656805967808778868e-02 -3.06886364580291766922e-04 -2.84249317969578925436e-03 -3.06886364580291766922e-04 -2.84249317969578925436e-03 9.99954955241882603723e-01 -4.17220940737820752183e-04
9.99490804651173233986e+08 9.97900249247914650219e-01 -1.94066390927048991466e-02 -3.08201261609974757564e-04 -2.84850506472780718933e-03 -3.08201261609974757564e-04 -2.84850506472780718933e-03 9.99954762241392902666e-01 -4.18103364782523108292e-04
9.99491906805607914925e+08 9.97891233497184448886e-01 -1.94477690509790544782e-02 -3.09524592841856050450e-04 -2.85454211699102044716e-03 -3.09524592841856050450e-04 -2.85454211699102044716e-03 9.99954568002931587500e-01 -4.18989482871577178374e-04
9.99493008960042595863e+08 9.97882159794400314112e-01 -1.94890715365256331215e-02 -3.10856430271980513618e-04 -2.86060449279464416514e-03 -3.10856430271980513618e-04 -2.86060449279464416514e-03 9.99954372515931111387e-01 -4.19879317948038024554e-04
9.99494111114477276802e+08 9.97873027643834786815e-01 -1.95305476229804021726e-02 -3.12196846663167733912e-04 -2.86669234972685826185e-03 -3.12196846663167733912e-04 -2.86669234972685826185e-03 9.99954175769711350874e-01 -4.20772893142687225143e-04
9.99495213268911957741e+08 9.97863836544471860535e-01 -1.95721983927721089602e-02 -3.13545915554518789519e-04 -2.87280584666647475361e-03 -3.13545915554518789519e-04 -2.87280584666647475361e-03 9.99953977753478273627e-01 -4.21670231775745100924e-04
9.99496315423346638680e+08 9.97854585989937814539e-01 -1.96140249372175369535e-02 -3.14903711271539066188e-04 -2.87894514379689100275e-03 -3.14903711271539066188e-04 -2.87894514379689100275e-03 9.99953778456322384116e-01 -4.22571357358918989894e-04
9.99497417577781319618e+08 9.97845275468431047727e-01 -1.96560283566177794456e-02 -3.16270308936413945943e-04 -2.88511040262022034134e-03 -3.16270308936413945943e-04 -2.88511040262022034134e-03 9.99953577867217280328e-01 -4.23476293597477380232e-04
9.99498519732216000557e+08 9.97835904462655687297e-01 -1.96982097603366594629e-02 -3.17645784477821216223e-04 -2.89130178596880456354e-03 -3.17645784477821216223e-04 -2.89130178596880456354e-03 9.99953375975017988431e-01 -4.24385064391939314122e-04
9.99499621886650800705e+08 9.97826472449747425841e-01 -1.97405702669054515519e-02 -3.19030214641714924152e-04 -2.89751945802058227461e-03 -3.19030214641714924152e-04 -2.89751945802058227461e-03 9.99953172768459963571e-01 -4.25297693840330612476e-04
9.99500724041085481644e+08 9.97816978901206685926e-01 -1.97831110040969683495e-02 -3.20423677001228696028e-04 -2.90376358430996300494e-03 -3.20423677001228696028e-04 -2.90376358430996300494e-03 9.99952968236156869430e-01 -4.26214206239779928951e-04
9.99501826195520162582e+08 9.97807423282820016297e-01 -1.98258331090454126278e-02 -3.21826249968197553811e-04 -2.91003433174542337769e-03 -3.21826249968197553811e-04 -2.91003433174542337769e-03 9.99952762366599468002e-01 -4.27134626089101048473e-04
9.99502928349954843521e+08 9.97797805054589037610e-01 -1.98687377283269968331e-02 -3.23238012803520123172e-04 -2.91633186862133445341e-03 -3.23238012803520123172e-04 -2.91633186862133445341e-03 9.99952555148153954256e-01 -4.28058978090529670697e-04
9.99504030504389524460e+08 9.97788123670656057485e-01 -1.99118260180564561612e-02 -3.24659045628165453951e-04 -2.92265636463213311982e-03 -3.24659045628165453951e-04 -2.92265636463213311982e-03 9.99952346569059957737e-01 -4.28987287151802530304e-04
9.99505132658824205399e+08 9.97778378579227465117e-01 -1.99550991439847828779e-02 -3.26089429434348217207e-04 -2.92900799088666478551e-03 -3.26089429434348217207e-04 -2.92900799088666478551e-03 9.99952136617429654386e-01 -4.29919578388263568143e-04
9.99506234813258886337e+08 9.97768569222496237714e-01 -1.99985582816003329421e-02 -3.27529246096944324108e-04 -2.93538691992302393924e-03 -3.27529246096944324108e-04 -2.93538691992302393924e-03 9.99951925281245435073e-01 -4.30855877125041713920e-04
9.99507336967693567276e+08 9.97758695036560783187e-01 -2.00422046162399628000e-02 -3.28978578385373890153e-04 -2.94179332572486748956e-03 -3.28978578385373890153e-04 -2.94179332572486748956e-03 9.99951712548358240262e-01 -4.31796208899445292488e-04
9.99508439122128248215e+08 9.97748755451351665435e-01 -2.00860393431640700534e-02 -3.30437509974421139182e-04 -2.94822738373242939150e-03 -3.30437509974421139182e-04 -2.94822738373242939150e-03 9.99951498406486449788e-01 -4.32740599462579002971e-04
9.99509541276562929153e+08 9.97738749890545562060e-01 -2.01300636676788810564e-02 -3.31906125456756613198e-04 -2.95468927086046896299e-03 -3.31906125456756613198e-04 -2.95468927086046896299e-03 9.99951282843213551388e-01 -4.33689074781978313195e-04
9.99510643430997610092e+08 9.97728677771482219683e-01 -2.01742788052470256588e-02 -3.33384510355215924610e-04 -2.96117916551450225879e-03 -3.33384510355215924610e-04 -2.96117916551450225879e-03 9.99951065845986364344e-01 -4.34641661043991777130e-04
9.99511745585432291031e+08 9.97718538505086849355e-01 -2.02186859815660160966e-02 -3.34872751134145931959e-04 -2.96769724760232020064e-03 -3.34872751134145931959e-04 -2.96769724760232020064e-03 9.99950847402113818241e-01 -4.35598384655471685539e-04
9.99512847739866971970e+08 9.97708331495780198495e-01 -2.02632864326990277948e-02 -3.36370935212642740032e-04 -2.97424369855318502728e-03 -3.36370935212642740032e-04 -2.97424369855318502728e-03 9.99950627498764510470e-01 -4.36559272246592015854e-04
9.99513949894301772118e+08 9.97698056141393174734e-01 -2.03080814051782854168e-02 -3.37879150977023060606e-04 -2.98081870133300522174e-03 -3.37879150977023060606e-04 -2.98081870133300522174e-03 9.99950406122965151923e-01 -4.37524350673075329218e-04
9.99515052048736453056e+08 9.97687711833085244528e-01 -2.03530721560914139301e-02 -3.39397487792869319116e-04 -2.98742244045701070207e-03 -3.39397487792869319116e-04 -2.98742244045701070207e-03 9.99950183261598457563e-01 -4.38493647018053586684e-04
9.99516154203171133995e+08 9.97677297955247732730e-01 -2.03982599532256218822e-02 -3.40926036019172909366e-04 -2.99405510201091514672e-03 -3.40926036019172909366e-04 -2.99405510201091514672e-03 9.99949958901401814160e-01 -4.39467188595174225799e-04
9.99517256357605814934e+08 9.97666813885418557462e-01 -2.04436460751590970419e-02 -3.42464887020857270718e-04 -3.00071687366433147853e-03 -3.42464887020857270718e-04 -3.00071687366433147853e-03 9.99949733028964504733e-01 -4.40445002950569180176e-04
9.99518358512040495872e+08 9.97656258994189637512e-01 -2.04892318113808966085e-02 -3.44014133182418723519e-04 -3.00740794468836889972e-03 -3.44014133182418723519e-04 -3.00740794468836889972e-03 9.99949505630726265260e-01 -4.41427117865438099591e-04
9.99519460666475176811e+08 9.97645632645115298942e-01 -2.05350184623985139443e-02 -3.45573867921310402818e-04 -3.01412850597142147752e-03 -3.45573867921310402818e-04 -3.01412850597142147752e-03 9.99949276692975619341e-01 -4.42413561358365506858e-04
9.99520562820909857750e+08 9.97634934194616351810e-01 -2.05810073398606172002e-02 -3.47144185702004848433e-04 -3.02087875003718498226e-03 -3.47144185702004848433e-04 -3.02087875003718498226e-03 9.99949046201846769577e-01 -4.43404361687965329567e-04
9.99521664975344538689e+08 9.97624162991884055884e-01 -2.06271997666790524173e-02 -3.48725182050201227592e-04 -3.02765887106256313677e-03 -3.48725182050201227592e-04 -3.02765887106256313677e-03 9.99948814143318487346e-01 -4.44399547355509222987e-04
9.99522767129779219627e+08 9.97613318378787972129e-01 -2.06735970771220120556e-02 -3.50316953566213876506e-04 -3.03446906489134417620e-03 -3.50316953566213876506e-04 -3.03446906489134417620e-03 9.99948580503212003379e-01 -4.45399147106934133016e-04
9.99523869284213900566e+08 9.97602399689768604141e-01 -2.07202006169738307817e-02 -3.51919597940814337256e-04 -3.04130952905765387581e-03 -3.51919597940814337256e-04 -3.04130952905765387581e-03 9.99948345267188010155e-01 -4.46403189936284583873e-04
9.99524971438648581505e+08 9.97591406251744694522e-01 -2.07670117436241155606e-02 -3.53533213968829421441e-04 -3.04818046279903883539e-03 -3.53533213968829421441e-04 -3.04818046279903883539e-03 9.99948108420745662706e-01 -4.47411705087633016983e-04
9.99526073593083262444e+08 9.97580337384009641077e-01 -2.08140318261978221615e-02 -3.55157901564319769538e-04 -3.05508206707556058054e-03 -3.55157901564319769538e-04 -3.05508206707556058054e-03 9.99947869949219358965e-01 -4.48424722057882616227e-04
9.99527175747517943382e+08 9.97569192398122028820e-01 -2.08612622457061726300e-02 -3.56793761776664749077e-04 -3.06201454459194451208e-03 -3.56793761776664749077e-04 -3.06201454459194451208e-03 9.99947629837777185458e-01 -4.49442270600018125518e-04
9.99528277901952624321e+08 9.97557970597810594882e-01 -2.09087043951303383493e-02 -3.58440896804510119276e-04 -3.06897809980986565129e-03 -3.58440896804510119276e-04 -3.06897809980986565129e-03 9.99947388071418474809e-01 -4.50464380724909148074e-04
9.99529380056387424469e+08 9.97546671278859209409e-01 -2.09563596795849793608e-02 -3.60099410012664346119e-04 -3.07597293897194984033e-03 -3.60099410012664346119e-04 -3.07597293897194984033e-03 9.99947144634971252231e-01 -4.51491082704833261371e-04
9.99530482210822105408e+08 9.97535293729007177532e-01 -2.10042295164094387772e-02 -3.61769405946679549479e-04 -3.08299927011516233799e-03 -3.61769405946679549479e-04 -3.08299927011516233799e-03 9.99946899513090348144e-01 -4.52522407075441025163e-04
9.99531584365256786346e+08 9.97523837227827003815e-01 -2.10523153353517032682e-02 -3.63450990350856035453e-04 -3.09005730309780879059e-03 -3.63450990350856035453e-04 -3.09005730309780879059e-03 9.99946652690254622620e-01 -4.53558384639719119891e-04
9.99532686519691467285e+08 9.97512301046622584799e-01 -2.11006185786579945896e-02 -3.65144270183160755613e-04 -3.09714724961268313488e-03 -3.65144270183160755613e-04 -3.09714724961268313488e-03 9.99946404150764855956e-01 -4.54599046469920334973e-04
9.99533788674126148224e+08 9.97500684448310859231e-01 -2.11491407012264938381e-02 -3.66849353632584136969e-04 -3.10426932320963461578e-03 -3.66849353632584136969e-04 -3.10426932320963461578e-03 9.99946153878741084142e-01 -4.55644423910875914861e-04
9.99534890828560829163e+08 9.97488986687309342472e-01 -2.11978831707313221389e-02 -3.68566350135663485695e-04 -3.11142373931376243351e-03 -3.68566350135663485695e-04 -3.11142373931376243351e-03 9.99945901858120045347e-01 -4.56694548582666165829e-04
