! File generated for n1 = 8, n2 = 2
! b1 = 0.464159
! b2 = 0.215443
! Q0 = 10000.000000
! f0 = 1000000000.000000
! n = 1001
! rel_span = 10.000000
# Hz S RI R 50
9.99160198823817729950e+08 9.94532264779836139290e-01 -5.47003305512327314686e-02 -3.72512464120652864175e-03 -3.72669013794037634613e-02 -3.72512464120652864175e-03 -3.72669013794037634613e-02 9.97462102125693639287e-01 -2.53896443481529780761e-02
9.99161878426170110703e+08 9.94510536787419852089e-01 -5.48078202987969595461e-02 -3.73992775011632245033e-03 -3.73401332919243086894e-02 -3.73992775011632245033e-03 -3.73401332919243086894e-02 9.97452016884995962265e-01 -2.54395366693551776283e-02
9.99163558028522491455e+08 9.94488679494743399445e-01 -5.49157287518265424531e-02 -3.75481895026784535940e-03 -3.74136504651576828895e-02 -3.75481895026784535940e-03 -3.74136504651576828895e-02 9.97441871628434006958e-01 -2.54896233364186319825e-02
9.99165237630874872208e+08 9.94466691877420538859e-01 -5.50240583346673431397e-02 -3.76979893956736400104e-03 -3.74874545507914713749e-02 -3.76979893956736400104e-03 -3.74874545507914713749e-02 9.97431665880529672030e-01 -2.55399054746250075976e-02
9.99166917233227133751e+08 9.94444572900934353754e-01 -5.51328114902025212540e-02 -3.78486842282306588242e-03 -3.75615472131426153535e-02 -3.78486842282306588242e-03 -3.75615472131426153535e-02 9.97421399161102728570e-01 -2.55903842178602305979e-02
9.99168596835579514503e+08 9.94422321520517238369e-01 -5.52419906800277610293e-02 -3.80002811182684292410e-03 -3.76359301292767331470e-02 -3.80002811182684292410e-03 -3.76359301292767331470e-02 9.97411070985215086893e-01 -2.56410607086958071410e-02
9.99170276437931895256e+08 9.94399936681035878649e-01 -5.53515983845958223220e-02 -3.81527872543266149616e-03 -3.77106049891065969737e-02 -3.81527872543266149616e-03 -3.77106049891065969737e-02 9.97400680863117172770e-01 -2.56919360984559086436e-02
9.99171956040284276009e+08 9.94377417316855249929e-01 -5.54616371034568414466e-02 -3.83062098964911772192e-03 -3.77855734955559047217e-02 -3.83062098964911772192e-03 -3.77855734955559047217e-02 9.97390228300185088806e-01 -2.57430115473289457262e-02
9.99173635642636656761e+08 9.94354762351730370185e-01 -5.55721093553597222936e-02 -3.84605563771353792593e-03 -3.78608373646283150049e-02 -3.84605563771353792593e-03 -3.78608373646283150049e-02 9.97379712796870099289e-01 -2.57942882244145930970e-02
9.99175315244989037514e+08 9.94331970698662304109e-01 -5.56830176785149885688e-02 -3.86158341018947876694e-03 -3.79363983255865122590e-02 -3.86158341018947876694e-03 -3.79363983255865122590e-02 9.97369133848632127837e-01 -2.58457673078458134708e-02
9.99176994847341418266e+08 9.94309041259780368449e-01 -5.57943646307328122713e-02 -3.87720505504774055894e-03 -3.80122581210462912038e-02 -3.87720505504774055894e-03 -3.80122581210462912038e-02 9.97358490945884579304e-01 -2.58974499848529174373e-02
9.99178674449693679810e+08 9.94285972926213790224e-01 -5.59061527895950288736e-02 -3.89292132775301280567e-03 -3.80884185070937131279e-02 -3.89292132775301280567e-03 -3.80884185070937131279e-02 9.97347783573935275925e-01 -2.59493374518434197218e-02
9.99180354052046060562e+08 9.94262764577944491151e-01 -5.60183847527220418749e-02 -3.90873299136481385657e-03 -3.81648812534669534813e-02 -3.90873299136481385657e-03 -3.81648812534669534813e-02 9.97337011212917956549e-01 -2.60014309145258984413e-02
9.99182033654398441315e+08 9.94239415083691624453e-01 -5.61310631378720628626e-02 -3.92464081661582538108e-03 -3.82416481436239213965e-02 -3.92464081661582538108e-03 -3.82416481436239213965e-02 9.97326173337738430824e-01 -2.60537315879560832377e-02
9.99183713256750822067e+08 9.94215923300765025417e-01 -5.62441905831862903886e-02 -3.94064558201171009216e-03 -3.83187209749092927424e-02 -3.94064558201171009216e-03 -3.83187209749092927424e-02 9.97315269418007077640e-01 -2.61062406966506496686e-02
9.99185392859103202820e+08 9.94192288074929320096e-01 -5.63577697473774744119e-02 -3.95674807392396889194e-03 -3.83961015586829768065e-02 -3.95674807392396889194e-03 -3.83961015586829768065e-02 9.97304298917975229344e-01 -2.61589594746747360066e-02
9.99187072461455583572e+08 9.94168508240266146636e-01 -5.64718033099166696887e-02 -3.97294908668353527470e-03 -3.84737917204473547916e-02 -3.97294908668353527470e-03 -3.84737917204473547916e-02 9.97293261296471444943e-01 -2.62118891657286377794e-02
9.99188752063807964325e+08 9.94144582619028605031e-01 -5.65862939712523868585e-02 -3.98924942267997895834e-03 -3.85517932999965839969e-02 -3.98924942267997895834e-03 -3.85517932999965839969e-02 9.97282156006834119566e-01 -2.62650310232495180773e-02
9.99190431666160345078e+08 9.94120510021502368225e-01 -5.67012444529905318413e-02 -4.00564989245619142849e-03 -3.86301081515391733778e-02 -4.00564989245619142849e-03 -3.86301081515391733778e-02 9.97270982496846758458e-01 -2.63183863104949379574e-02
9.99192111268512606621e+08 9.94096289245858577566e-01 -5.68166574981067290517e-02 -4.02215131480871106867e-03 -3.87087381438426664237e-02 -4.02215131480871106867e-03 -3.87087381438426664237e-02 9.97259740208669809292e-01 -2.63719563006413956763e-02
9.99193790870864987373e+08 9.94071919077998633618e-01 -5.69325358711879891960e-02 -4.03875451689334440120e-03 -3.87876851603982664152e-02 -4.03875451689334440120e-03 -3.87876851603982664152e-02 9.97248428578768497665e-01 -2.64257422768965147264e-02
9.99195470473217368126e+08 9.94047398291417638738e-01 -5.70488823585775794989e-02 -4.05546033431802149805e-03 -3.88669510995195491287e-02 -4.05546033431802149805e-03 -3.88669510995195491287e-02 9.97237047037849988484e-01 -2.64797455325662747794e-02
9.99197150075569748878e+08 9.94022725647043414732e-01 -5.71656997686326370789e-02 -4.07226961125288760418e-03 -3.89465378745179474640e-02 -4.07226961125288760418e-03 -3.89465378745179474640e-02 9.97225595010787668748e-01 -2.65339673711745861751e-02
9.99198829677922129631e+08 9.93997899893083292078e-01 -5.72829909319311839089e-02 -4.08918320053429547312e-03 -3.90264474138438330342e-02 -4.08918320053429547312e-03 -3.90264474138438330342e-02 9.97214071916550981456e-01 -2.65884091065593831937e-02
9.99200509280274510384e+08 9.93972919764870566084e-01 -5.74007587014774139922e-02 -4.10620196376966766633e-03 -3.91066816612263210007e-02 -4.10620196376966766633e-03 -3.91066816612263210007e-02 9.97202477168133483154e-01 -2.66430720629679124167e-02
9.99202188882626891136e+08 9.93947783984701627169e-01 -5.75190059529405994798e-02 -4.12332677144839395561e-03 -3.91872425758360912185e-02 -4.12332677144839395561e-03 -3.91872425758360912185e-02 9.97190810172477792861e-01 -2.66979575751676023732e-02
9.99203868484979152679e+08 9.93922491261681417818e-01 -5.76377355848458269860e-02 -4.14055850304693041225e-03 -3.92681321324152982077e-02 -4.14055850304693041225e-03 -3.92681321324152982077e-02 9.97179070330403649614e-01 -2.67530669885346281123e-02
9.99205548087331533432e+08 9.93897040291550681879e-01 -5.77569505188455720179e-02 -4.15789804714681611453e-03 -3.93493523214625967599e-02 -4.15789804714681611453e-03 -3.93493523214625967599e-02 9.97167257036527310277e-01 -2.68084016591799423335e-02
9.99207227689683914185e+08 9.93871429756529312094e-01 -5.78766536999037600753e-02 -4.17534630154123547613e-03 -3.94309051493585485670e-02 -4.17534630154123547613e-03 -3.94309051493585485670e-02 9.97155369679189496068e-01 -2.68639629540347035785e-02
9.99208907292036294937e+08 9.93845658325145708822e-01 -5.79968480965372540359e-02 -4.19290417335113716618e-03 -3.95127926385301503354e-02 -4.19290417335113716618e-03 -3.95127926385301503354e-02 9.97143407640375789569e-01 -2.69197522509623879405e-02
9.99210586894388675690e+08 9.93819724652065139558e-01 -5.81175367010562174408e-02 -4.21057257914246498703e-03 -3.95950168276145916813e-02 -4.21057257914246498703e-03 -3.95950168276145916813e-02 9.97131370295637364798e-01 -2.69757709388703387221e-02
9.99212266496741056442e+08 9.93793627377916544141e-01 -5.82387225297993499362e-02 -4.22835244504394646564e-03 -3.96775797716195019471e-02 -4.22835244504394646564e-03 -3.96775797716195019471e-02 9.97119257014009718887e-01 -2.70320204178189603395e-02
9.99213946099093437195e+08 9.93767365129118007694e-01 -5.83604086233679431039e-02 -4.24624470686600467839e-03 -3.97604835420824337389e-02 -4.24624470686600467839e-03 -3.97604835420824337389e-02 9.97107067157932847046e-01 -2.70885020991303571147e-02
9.99215625701445698738e+08 9.93740936517704231967e-01 -5.84825980468423184400e-02 -4.26425031021838985001e-03 -3.98437302272182866658e-02 -4.26425031021838985001e-03 -3.98437302272182866658e-02 9.97094800083170307303e-01 -2.71452174054887807042e-02
9.99217305303798079491e+08 9.93714340141129470751e-01 -5.86052938901019740414e-02 -4.28237021064445996105e-03 -3.99273219321374731039e-02 -4.28237021064445996105e-03 -3.99273219321374731039e-02 9.97082455138717849152e-01 -2.72021677710892507973e-02
9.99218984906150460243e+08 9.93687574582106880605e-01 -5.87284992679671033478e-02 -4.30060537373050128657e-03 -4.00112607789422716764e-02 -4.30060537373050128657e-03 -4.00112607789422716764e-02 9.97070031666729361675e-01 -2.72593546417032352169e-02
9.99220664508502840996e+08 9.93660638408402463462e-01 -5.88522173205410226160e-02 -4.31895677524607446429e-03 -4.00955489069601822560e-02 -4.31895677524607446429e-03 -4.00955489069601822560e-02 9.97057529002420728226e-01 -2.73167794748375783453e-02
9.99222344110855221748e+08 9.93633530172664536373e-01 -5.89764512133808885275e-02 -4.33742540126042311344e-03 -4.01801884728601801933e-02 -4.33742540126042311344e-03 -4.01801884728601801933e-02 9.97044946473990778557e-01 -2.73744437398137537010e-02
9.99224023713207602501e+08 9.93606248412217230026e-01 -5.91012041378223620947e-02 -4.35601224828311393844e-03 -4.02651816508739421319e-02 -4.35601224828311393844e-03 -4.02651816508739421319e-02 9.97032283402525365545e-01 -2.74323489179185628362e-02
9.99225703315559983253e+08 9.93578791648872194919e-01 -5.92264793112093901328e-02 -4.37471832339210008750e-03 -4.03505306329523805164e-02 -4.37471832339210008750e-03 -4.03505306329523805164e-02 9.97019539101910434731e-01 -2.74904965025107757282e-02
9.99227382917912364006e+08 9.93551158388735533578e-01 -5.93522799771387873924e-02 -4.39354464436544477762e-03 -4.04362376289322950074e-02 -4.39354464436544477762e-03 -4.04362376289322950074e-02 9.97006712878741763184e-01 -2.75488879991346719001e-02
9.99229062520264625549e+08 9.93523347122002298271e-01 -5.94786094057494149623e-02 -4.41249223982122500826e-03 -4.05223048667333399231e-02 -4.41249223982122500826e-03 -4.05223048667333399231e-02 9.96993804032230035439e-01 -2.76075249256542490373e-02
9.99230742122617006302e+08 9.93495356322752987133e-01 -5.96054708939940253165e-02 -4.43156214935642132902e-03 -4.06087345925432788296e-02 -4.43156214935642132902e-03 -4.06087345925432788296e-02 9.96980811854106030445e-01 -2.76664088123794171814e-02
9.99232421724969387054e+08 9.93467184448751594594e-01 -5.97328677658892220892e-02 -4.45075542368408242494e-03 -4.06955290709882719358e-02 -4.45075542368408242494e-03 -4.06955290709882719358e-02 9.96967735628527362834e-01 -2.77255412021820100976e-02
9.99234101327321767807e+08 9.93438829941240997279e-01 -5.98608033727721713935e-02 -4.47007312477308398069e-03 -4.07826905853077431585e-02 -4.47007312477308398069e-03 -4.07826905853077431585e-02 9.96954574631983003741e-01 -2.77849236506149468995e-02
9.99235780929674148560e+08 9.93410291224715802372e-01 -5.99892810936454023985e-02 -4.48951632600280269719e-03 -4.08702214375893171927e-02 -4.48951632600280269719e-03 -4.08702214375893171927e-02 9.96941328133188031657e-01 -2.78445577260722706980e-02
9.99237460532026529312e+08 9.93381566706722729521e-01 -6.01183043353855847690e-02 -4.50908611229894167038e-03 -4.09581239489110529584e-02 -4.50908611229894167038e-03 -4.09581239489110529584e-02 9.96927995392991372903e-01 -2.79044450098860467857e-02
9.99239140134378910065e+08 9.93352654777634236360e-01 -6.02478765330653684429e-02 -4.52878358028810292651e-03 -4.10464004595606987702e-02 -4.52878358028810292651e-03 -4.10464004595606987702e-02 9.96914575664269775324e-01 -2.79645870964757604915e-02
9.99240819736731171608e+08 9.93323553810427140043e-01 -6.03780011502365182574e-02 -4.54860983844823565242e-03 -4.11350533292286074660e-02 -4.54860983844823565242e-03 -4.11350533292286074660e-02 9.96901068191826222886e-01 -2.80249855934797363621e-02
9.99242499339083552361e+08 9.93294262160458685251e-01 -6.05086816792164902679e-02 -4.56856600726135170937e-03 -4.12240849372029552478e-02 -4.56856600726135170937e-03 -4.12240849372029552478e-02 9.96887472212285019602e-01 -2.80856421218881359414e-02
9.99244178941435933113e+08 9.93264778165239281549e-01 -6.06399216413782068957e-02 -4.58865321936849888951e-03 -4.13134976825672017853e-02 -4.58865321936849888951e-03 -4.13134976825672017853e-02 9.96873786953986984471e-01 -2.81465583161774994536e-02
9.99245858543788313866e+08 9.93235100144201132899e-01 -6.07717245874434888742e-02 -4.60887261972707951846e-03 -4.14032939843999511775e-02 -4.60887261972707951846e-03 -4.14032939843999511775e-02 9.96860011636881537811e-01 -2.82077358244468834325e-02
9.99247538146140694618e+08 9.93205226398455653936e-01 -6.09040940978192515964e-02 -4.62922536577659027301e-03 -4.14934762820040464737e-02 -4.62922536577659027301e-03 -4.14934762820040464737e-02 9.96846145472414457700e-01 -2.82691763085739788952e-02
9.99249217748493075371e+08 9.93175155210565319130e-01 -6.10370337828502682043e-02 -4.64971262759343237359e-03 -4.15840470350787444476e-02 -4.64971262759343237359e-03 -4.15840470350787444476e-02 9.96832187663421964707e-01 -2.83308814443323751797e-02
9.99250897350845456123e+08 9.93144884844292974435e-01 -6.11705472831671481782e-02 -4.67033558806221379273e-03 -4.16750087239567967856e-02 -4.67033558806221379273e-03 -4.16750087239567967856e-02 9.96818137404014037450e-01 -2.83928529215531147423e-02
9.99252576953197717667e+08 9.93114413544363361375e-01 -6.13046382699635600266e-02 -4.69109544303814018917e-03 -4.17663638497933545346e-02 -4.69109544303814018917e-03 -4.17663638497933545346e-02 9.96803993879464167449e-01 -2.84550924442533506586e-02
9.99254256555550098419e+08 9.93083739536195664321e-01 -6.14393104453877861304e-02 -4.71199340152902209494e-03 -4.18581149348326575499e-02 -4.71199340152902209494e-03 -4.18581149348326575499e-02 9.96789756266084792102e-01 -2.85176017308180901333e-02
9.99255936157902479172e+08 9.93052861025672917172e-01 -6.15745675427610481001e-02 -4.73303068585250938383e-03 -4.19502645225568668308e-02 -4.73303068585250938383e-03 -4.19502645225568668308e-02 9.96775423731120713278e-01 -2.85803825141015543920e-02
9.99257615760254859924e+08 9.93021776198872219155e-01 -6.17104133269543927987e-02 -4.75420853181986180491e-03 -4.20428151779427480839e-02 -4.75420853181986180491e-03 -4.20428151779427480839e-02 9.96760995432623420065e-01 -2.86434365416020700335e-02
9.99259295362607240677e+08 9.92990483221798836411e-01 -6.18468515947349431472e-02 -4.77552818891714084965e-03 -4.21357694876976426879e-02 -4.77552818891714084965e-03 -4.21357694876976426879e-02 9.96746470519328076065e-01 -2.87067655756228397312e-02
9.99260974964959621429e+08 9.92958980240131849904e-01 -6.19838861750483388624e-02 -4.79699092047853031112e-03 -4.22291300604518485273e-02 -4.79699092047853031112e-03 -4.22291300604518485273e-02 9.96731848130534947572e-01 -2.87703713934029867150e-02
9.99262654567312002182e+08 9.92927265378940715479e-01 -6.21215209294135664586e-02 -4.81859800387938411875e-03 -4.23228995270276200924e-02 -4.81859800387938411875e-03 -4.23228995270276200924e-02 9.96717127395978397253e-01 -2.88342557873008560609e-02
9.99264334169664382935e+08 9.92895336742423473275e-01 -6.22597597522088833100e-02 -4.84035073071441019482e-03 -4.24170805406339709864e-02 -4.84035073071441019482e-03 -4.24170805406339709864e-02 9.96702307435705314731e-01 -2.88984205649267036908e-02
9.99266013772016644478e+08 9.92863192413624862098e-01 -6.23986065710341111790e-02 -4.86225040699004695116e-03 -4.25116757771135320154e-02 -4.86225040699004695116e-03 -4.25116757771135320154e-02 9.96687387359943888221e-01 -2.89628675493108916905e-02
9.99267693374369025230e+08 9.92830830454146218145e-01 -6.25380653470914982250e-02 -4.88429835332207171184e-03 -4.26066879352019547977e-02 -4.88429835332207171184e-03 -4.26066879352019547977e-02 9.96672366268968823455e-01 -2.90275985790806149989e-02
9.99269372976721405983e+08 9.92798248903871694004e-01 -6.26781400754789219665e-02 -4.90649590512168883721e-03 -4.27021197367277588475e-02 -4.90649590512168883721e-03 -4.27021197367277588475e-02 9.96657243252975222347e-01 -2.90926155085960598534e-02
9.99271052579073786736e+08 9.92765445780664945730e-01 -6.28188347856024342786e-02 -4.92884441280280749531e-03 -4.27979739268933082053e-02 -4.92884441280280749531e-03 -4.27979739268933082053e-02 9.96642017391936807513e-01 -2.91579202081418235870e-02
9.99272732181426167488e+08 9.92732419080078698492e-01 -6.29601535415103691351e-02 -4.95134524197935431411e-03 -4.28942532745025320584e-02 -4.95134524197935431411e-03 -4.28942532745025320584e-02 9.96626687755471585284e-01 -2.92235145640820578872e-02
9.99274411783778548241e+08 9.92699166775055874545e-01 -6.31021004422548104085e-02 -4.97399977366930375056e-03 -4.29909605722070750633e-02 -4.97399977366930375056e-03 -4.29909605722070750633e-02 9.96611253402702956805e-01 -2.92894004790281922701e-02
9.99276091386130928993e+08 9.92665686815620618155e-01 -6.32446796222762702699e-02 -4.99680940450491876959e-03 -4.30880986367684834515e-02 -4.99680940450491876959e-03 -4.30880986367684834515e-02 9.96595713382116610290e-01 -2.93555798720175203931e-02
9.99277770988483190536e+08 9.92631977128570541780e-01 -6.33878952517697019653e-02 -5.01977554694255263812e-03 -4.31856703093074986710e-02 -5.01977554694255263812e-03 -4.31856703093074986710e-02 9.96580066731416969183e-01 -2.94220546786830711161e-02
9.99279450590835571289e+08 9.92598035617154983434e-01 -6.35317515370929786211e-02 -5.04289962948182429736e-03 -4.32836784555823902987e-02 -5.04289962948182429736e-03 -4.32836784555823902987e-02 9.96564312477378755339e-01 -2.94888268514432311251e-02
9.99281130193187952042e+08 9.92563860160767141849e-01 -6.36762527210997936189e-02 -5.06618309687529178725e-03 -4.33821259662157121539e-02 -5.06618309687529178725e-03 -4.33821259662157121539e-02 9.96548449635703326166e-01 -2.95558983596562116491e-02
9.99282809795540332794e+08 9.92529448614609233204e-01 -6.38214030835715789847e-02 -5.08962741035670542672e-03 -4.34810157569886293616e-02 -5.08962741035670542672e-03 -4.34810157569886293616e-02 9.96532477210864020556e-01 -2.96232711898205963719e-02
9.99284489397892713547e+08 9.92494798809366529646e-01 -6.39672069415933020053e-02 -5.11323404786294920255e-03 -4.35803507690968802701e-02 -5.11323404786294920255e-03 -4.35803507690968802701e-02 9.96516394195953836288e-01 -2.96909473457497297133e-02
9.99286169000245094299e+08 9.92459908550872182964e-01 -6.41136686499527291838e-02 -5.13700450426253767827e-03 -4.36801339694228435429e-02 -5.13700450426253767827e-03 -4.36801339694228435429e-02 9.96500199572530886982e-01 -2.97589288487570269304e-02
9.99287848602597475052e+08 9.92424775619762722378e-01 -6.42607926015593550195e-02 -5.16094029159013759772e-03 -4.37803683508209071085e-02 -5.16094029159013759772e-03 -4.37803683508209071085e-02 9.96483892310457974872e-01 -2.98272177378504574352e-02
9.99289528204949736595e+08 9.92389397771136883009e-01 -6.44085832278346731572e-02 -5.18504293927930706015e-03 -4.38810569323833873923e-02 -5.18504293927930706015e-03 -4.38810569323833873923e-02 9.96467471367744050958e-01 -2.98958160699136707428e-02
9.99291207807302117348e+08 9.92353772734194894412e-01 -6.45570449991611089446e-02 -5.20931399440772123499e-03 -4.39822027597463888204e-02 -5.20931399440772123499e-03 -4.39822027597463888204e-02 9.96450935690377348486e-01 -2.99647259199143888020e-02
