! File generated for n1 = 13, n2 = 4
! b1 = 0.010000
! b2 = 0.001000
! Q0 = 10000.000000
! f0 = 1000000000.000000
! n = 1001
! rel_span = 10.000000
# Hz S RI R 50
9.99494500000000000000e+08 9.99804232758626398869e-01 -1.95816746568699311462e-03 -6.19070373988400896904e-05 -6.19226923161050922875e-04 -6.19070373988400896904e-05 -6.19226923161050922875e-04 9.99980423275862673194e-01 -1.95816746568699273515e-04
9.99495511000000000000e+08 9.99803454940753177915e-01 -1.96201472357580104441e-03 -6.21530050072759246470e-05 -6.20443532928519384494e-04 -6.21530050072759246470e-05 -6.20443532928519384494e-04 9.99980345494075328894e-01 -1.96201472357580066494e-04
9.99496522000000000000e+08 9.99802672494465749509e-01 -1.96587696763690688087e-03 -6.24004362487748826275e-05 -6.21664881739774689319e-04 -6.24004362487748826275e-05 -6.21664881739774689319e-04 9.99980267249446552746e-01 -1.96587696763690655561e-04
9.99497533000000000000e+08 9.99801885383096777815e-01 -1.96975428463992035047e-03 -6.26493427185837939300e-05 -6.22890997033776795677e-04 -6.26493427185837939300e-05 -6.22890997033776795677e-04 9.99980188538309722190e-01 -1.96975428463992018784e-04
9.99498544000000000000e+08 9.99801093569615662027e-01 -1.97364676202085777973e-03 -6.28997361268070616326e-05 -6.24121906460221604479e-04 -6.28997361268070616326e-05 -6.24121906460221604479e-04 9.99980109356961577305e-01 -1.97364676202085729184e-04
9.99499555000000000000e+08 9.99800297016625649782e-01 -1.97755448788223837236e-03 -6.31516282993689181263e-05 -6.25357637879572292663e-04 -6.31516282993689181263e-05 -6.25357637879572292663e-04 9.99980029701662553876e-01 -1.97755448788223820973e-04
9.99500566000000000000e+08 9.99799495686358064006e-01 -1.98147755100454032312e-03 -6.34050311797194714441e-05 -6.26598219366680873714e-04 -6.34050311797194714441e-05 -6.26598219366680873714e-04 9.99979949568635784196e-01 -1.98147755100454005207e-04
9.99501577000000000000e+08 9.99798689540669194287e-01 -1.98541604084918063902e-03 -6.36599568300102108083e-05 -6.27843679211731453549e-04 -6.36599568300102108083e-05 -6.27843679211731453549e-04 9.99979868954066875020e-01 -1.98541604084918015113e-04
9.99502588000000000000e+08 9.99797878541034856781e-01 -1.98937004756671084044e-03 -6.39164174326199669785e-05 -6.29094045922831690554e-04 -6.39164174326199669785e-05 -6.29094045922831690554e-04 9.99979787854103463474e-01 -1.98937004756671073202e-04
9.99503599000000000000e+08 9.99797062648546397412e-01 -1.99333966200293966758e-03 -6.41744252915622608816e-05 -6.30349348227948421720e-04 -6.41744252915622608816e-05 -6.30349348227948421720e-04 9.99979706264854661946e-01 -1.99333966200293950495e-04
9.99504610000000000000e+08 9.99796241823905695867e-01 -1.99732497570599383876e-03 -6.44339928339687767868e-05 -6.31609615077141552802e-04 -6.44339928339687767868e-05 -6.31609615077141552802e-04 9.99979624182390613996e-01 -1.99732497570599378455e-04
9.99505621000000000000e+08 9.99795416027421057770e-01 -2.00132608093170957092e-03 -6.46951326114793230431e-05 -6.32874875644267990450e-04 -6.46951326114793230431e-05 -6.32874875644267990450e-04 9.99979541602742161288e-01 -2.00132608093170924566e-04
9.99506632000000000000e+08 9.99794585219001996634e-01 -2.00534307065215527607e-03 -6.49578573018515199400e-05 -6.34145159329676968811e-04 -6.49578573018515199400e-05 -6.34145159329676968811e-04 9.99979458521900177459e-01 -2.00534307065215473397e-04
9.99507643000000000000e+08 9.99793749358154570928e-01 -2.00937603856028408969e-03 -6.52221797103337384708e-05 -6.35420495761682287660e-04 -6.52221797103337384708e-05 -6.35420495761682287660e-04 9.99979374935815457093e-01 -2.00937603856028376443e-04
9.99508654000000000000e+08 9.99792908403976277043e-01 -2.01342507908040119213e-03 -6.54881127714347486711e-05 -6.36700914799870538487e-04 -6.54881127714347486711e-05 -6.36700914799870538487e-04 9.99979290840397605500e-01 -2.01342507908040086687e-04
9.99509665000000000000e+08 9.99792062315151941476e-01 -2.01749028737096755548e-03 -6.57556695502078893296e-05 -6.37986446535989499759e-04 -6.57556695502078893296e-05 -6.37986446535989499759e-04 9.99979206231515149739e-01 -2.01749028737096723022e-04
9.99510676000000000000e+08 9.99791211049947947664e-01 -2.02157175933366864418e-03 -6.60248632439618441487e-05 -6.39277121296814875885e-04 -6.60248632439618441487e-05 -6.39277121296814875885e-04 9.99979121104994761460e-01 -2.02157175933366842734e-04
9.99511687000000000000e+08 9.99790354566207017939e-01 -2.02566959162261148522e-03 -6.62957071839986720367e-05 -6.40572969647058777960e-04 -6.62957071839986720367e-05 -6.40572969647058777960e-04 9.99979035456620701794e-01 -2.02566959162261088891e-04
9.99512698000000000000e+08 9.99789492821343883655e-01 -2.02978388164686343598e-03 -6.65682148369293238141e-05 -6.41874022390173334419e-04 -6.65682148369293238141e-05 -6.41874022390173334419e-04 9.99978949282134377263e-01 -2.02978388164686300230e-04
9.99513709000000000000e+08 9.99788625772339289988e-01 -2.03391472758318592184e-03 -6.68423998066798363609e-05 -6.43180310572376442123e-04 -6.68423998066798363609e-05 -6.43180310572376442123e-04 9.99978862577233895692e-01 -2.03391472758318554237e-04
9.99514720000000000000e+08 9.99787753375735332995e-01 -2.03806222837848690158e-03 -6.71182758358356213379e-05 -6.44491865483427513010e-04 -6.71182758358356213379e-05 -6.44491865483427513010e-04 9.99978775337573511095e-01 -2.03806222837848657631e-04
9.99515731000000000000e+08 9.99786875587629464412e-01 -2.04222648376094261316e-03 -6.73958568075779315817e-05 -6.45808718660145059630e-04 -6.73958568075779315817e-05 -6.45808718660145059630e-04 9.99978687558762957543e-01 -2.04222648376094239632e-04
9.99516742000000000000e+08 9.99785992363669717697e-01 -2.04640759424531450128e-03 -6.76751567472536367728e-05 -6.47130901888087533766e-04 -6.76751567472536367728e-05 -6.47130901888087533766e-04 9.99978599236367005076e-01 -2.04640759424531417602e-04
9.99517753000000000000e+08 9.99785103659048490776e-01 -2.05060566114291607104e-03 -6.79561898242733632841e-05 -6.48458447204705318995e-04 -6.79561898242733632841e-05 -6.48458447204705318995e-04 9.99978510365904904589e-01 -2.05060566114291585420e-04
9.99518764000000000000e+08 9.99784209428497772087e-01 -2.05482078656569469230e-03 -6.82389703536354623068e-05 -6.49791386900631473371e-04 -6.82389703536354623068e-05 -6.49791386900631473371e-04 9.99978420942849832720e-01 -2.05482078656569452967e-04
9.99519775000000000000e+08 9.99783309626282479243e-01 -2.05905307343916266216e-03 -6.85235127980614951073e-05 -6.51129753523770581081e-04 -6.85235127980614951073e-05 -6.51129753523770581081e-04 9.99978330962628225720e-01 -2.05905307343916228269e-04
9.99520786000000000000e+08 9.99782404206195352003e-01 -2.06330262550548934955e-03 -6.88098317694922964995e-05 -6.52473579880277244902e-04 -6.88098317694922964995e-05 -6.52473579880277244902e-04 9.99978240420619557405e-01 -2.06330262550548886166e-04
9.99521797000000000000e+08 9.99781493121551401160e-01 -2.06756954733407563585e-03 -6.90979420311055531154e-05 -6.53822899037899548866e-04 -6.90979420311055531154e-05 -6.53822899037899548866e-04 9.99978149312155117912e-01 -2.06756954733407509375e-04
9.99522808000000000000e+08 9.99780576325180914132e-01 -2.07185394433040404039e-03 -6.93878584992388527984e-05 -6.55177744328777709321e-04 -6.93878584992388527984e-05 -6.55177744328777709321e-04 9.99978057632518124720e-01 -2.07185394433040349828e-04
9.99523819000000000000e+08 9.99779653769424569987e-01 -2.07615592274120863009e-03 -6.96795962450845229917e-05 -6.56538149351079160232e-04 -6.96795962450845229917e-05 -6.56538149351079160232e-04 9.99977965376942501408e-01 -2.07615592274120830483e-04
9.99524830000000000000e+08 9.99778725406126556052e-01 -2.08047558966656213897e-03 -6.99731704968729835209e-05 -6.57904147972820474259e-04 -6.99731704968729835209e-05 -6.57904147972820474259e-04 9.99977872540612655605e-01 -2.08047558966656159687e-04
9.99525841000000000000e+08 9.99777791186629127829e-01 -2.08481305306403279926e-03 -7.02685966415403172975e-05 -6.59275774333182499991e-04 -7.02685966415403172975e-05 -6.59275774333182499991e-04 9.99977779118662923885e-01 -2.08481305306403231136e-04
9.99526852000000000000e+08 9.99776851061764948447e-01 -2.08916842176290603814e-03 -7.05658902271014533501e-05 -6.60653062847006873615e-04 -7.05658902271014533501e-05 -6.60653062847006873615e-04 9.99977685106176461538e-01 -2.08916842176290582130e-04
9.99527863000000000000e+08 9.99775904981852758802e-01 -2.09354180546613127117e-03 -7.08650669642096967807e-05 -6.62036048205412171012e-04 -7.08650669642096967807e-05 -6.62036048205412171012e-04 9.99977590498185242573e-01 -2.09354180546613089170e-04
9.99528874000000000000e+08 9.99774952896689161896e-01 -2.09793331476428339052e-03 -7.11661427285576267138e-05 -6.63424765380209104267e-04 -7.11661427285576267138e-05 -6.63424765380209104267e-04 9.99977495289668949496e-01 -2.09793331476428311947e-04
9.99529885000000000000e+08 9.99773994755542849688e-01 -2.10234306114199642063e-03 -7.14691335627873656567e-05 -6.64819249625934051255e-04 -7.14691335627873656567e-05 -6.64819249625934051255e-04 9.99977399475554307173e-01 -2.10234306114199614958e-04
9.99530896000000000000e+08 9.99773030507147830726e-01 -2.10677115698736268368e-03 -7.17740556786267288290e-05 -6.66219536482822696950e-04 -7.17740556786267288290e-05 -6.66219536482822696950e-04 9.99977303050714749766e-01 -2.10677115698736252105e-04
9.99531907000000000000e+08 9.99772060099696657787e-01 -2.11121771560120619765e-03 -7.20809254590402135113e-05 -6.67625661779741282412e-04 -7.20809254590402135113e-05 -6.67625661779741282412e-04 9.99977206009969643574e-01 -2.11121771560120576397e-04
9.99532918000000000000e+08 9.99771083480833544499e-01 -2.11568285120548394210e-03 -7.23897594603443181403e-05 -6.69037661636844309572e-04 -7.23897594603443181403e-05 -6.69037661636844309572e-04 9.99977108348083398859e-01 -2.11568285120548350842e-04
9.99533929000000000000e+08 9.99770100597647703999e-01 -2.12016667895325878340e-03 -7.27005744144552153857e-05 -6.70455572468727401154e-04 -7.27005744144552153857e-05 -6.70455572468727401154e-04 9.99977010059764803707e-01 -2.12016667895325807867e-04
9.99534940000000000000e+08 9.99769111396665910441e-01 -2.12466931493780764040e-03 -7.30133872311021644378e-05 -6.71879430987308459526e-04 -7.30133872311021644378e-05 -6.71879430987308459526e-04 9.99976911139666579942e-01 -2.12466931493780731514e-04
9.99535951000000000000e+08 9.99768115823845171519e-01 -2.12919087620208526829e-03 -7.33282150000902680463e-05 -6.73309274204819088912e-04 -7.33282150000902680463e-05 -6.73309274204819088912e-04 9.99976811582384494947e-01 -2.12919087620208478040e-04
9.99536962000000000000e+08 9.99767113824566178160e-01 -2.13373148074879693051e-03 -7.36450749936319544247e-05 -6.74745139436991716100e-04 -7.36450749936319544247e-05 -6.74745139436991716100e-04 9.99976711382456584509e-01 -2.13373148074879660525e-04
9.99537973000000000000e+08 9.99766105343625532953e-01 -2.13829124754859366611e-03 -7.39639846685732237812e-05 -6.76187064305649207334e-04 -7.39639846685732237812e-05 -6.76187064305649207334e-04 9.99976610534362597704e-01 -2.13829124754859344927e-04
9.99538984000000000000e+08 9.99765090325228089618e-01 -2.14287029655136880904e-03 -7.42849616688626883734e-05 -6.77635086742278290248e-04 -7.42849616688626883734e-05 -6.77635086742278290248e-04 9.99976509032522775655e-01 -2.14287029655136815852e-04
9.99539995000000000000e+08 9.99764068712979625531e-01 -2.14746874869567883765e-03 -7.46080238279175320419e-05 -6.79089244991008941441e-04 -7.46080238279175320419e-05 -6.79089244991008941441e-04 9.99976406871297962553e-01 -2.14746874869567856660e-04
9.99541006000000000000e+08 9.99763040449879070160e-01 -2.15208672591929699863e-03 -7.49331891710957080036e-05 -6.80549577611950368139e-04 -7.49331891710957080036e-05 -6.80549577611950368139e-04 9.99976304044987940323e-01 -2.15208672591929678179e-04
9.99542017000000000000e+08 9.99762005478310622486e-01 -2.15672435116784962789e-03 -7.52604759180616815452e-05 -6.82016123483923306092e-04 -7.52604759180616815452e-05 -6.82016123483923306092e-04 9.99976200547831095555e-01 -2.15672435116784919421e-04
9.99543028000000000000e+08 9.99760963740036090464e-01 -2.16138174840661573956e-03 -7.55899024854029486778e-05 -6.83488921808191409769e-04 -7.55899024854029486778e-05 -6.83488921808191409769e-04 9.99976096374003642353e-01 -2.16138174840661557692e-04
9.99544039000000000000e+08 9.99759915176186231278e-01 -2.16605904263094317316e-03 -7.59214874891786566319e-05 -6.84968012111753865936e-04 -7.59214874891786566319e-05 -6.84968012111753865936e-04 9.99975991517618623128e-01 -2.16605904263094284790e-04
9.99545050000000000000e+08 9.99758859727253090810e-01 -2.17075635987601465310e-03 -7.62552497474517173735e-05 -6.86453434250435261428e-04 -7.62552497474517173735e-05 -6.86453434250435261428e-04 9.99975885972725353490e-01 -2.17075635987601427363e-04
9.99546061000000000000e+08 9.99757797333081899005e-01 -2.17547382722620445336e-03 -7.65912082828207855948e-05 -6.87945228411843178254e-04 -7.65912082828207855948e-05 -6.87945228411843178254e-04 9.99975779733308201003e-01 -2.17547382722620423652e-04
9.99547072000000000000e+08 9.99756727932861966046e-01 -2.18021157282973767830e-03 -7.69293823253604523759e-05 -6.89443435120004567349e-04 -7.69293823253604523759e-05 -6.89443435120004567349e-04 9.99975672793286141093e-01 -2.18021157282973746146e-04
9.99548083000000000000e+08 9.99755651465118577725e-01 -2.18496972590573540832e-03 -7.72697913150508473856e-05 -6.90948095237593458776e-04 -7.72697913150508473856e-05 -6.90948095237593458776e-04 9.99975565146511868875e-01 -2.18496972590573497464e-04
9.99549094000000000000e+08 9.99754567867704002637e-01 -2.18974841675785613163e-03 -7.76124549047086574821e-05 -6.92459249970244568491e-04 -7.76124549047086574821e-05 -6.92459249970244568491e-04 9.99975456786770355855e-01 -2.18974841675785553531e-04
9.99550105000000000000e+08 9.99753477077789276528e-01 -2.19454777678339003205e-03 -7.79573929626257088824e-05 -6.93976940869429795126e-04 -7.79573929626257088824e-05 -6.93976940869429795126e-04 9.99975347707778960960e-01 -2.19454777678338992363e-04
9.99551116000000000000e+08 9.99752379031854432334e-01 -2.19936793848721093628e-03 -7.83046255755881178470e-05 -6.95501209836868971269e-04 -7.83046255755881178470e-05 -6.95501209836868971269e-04 9.99975237903185432131e-01 -2.19936793848721082786e-04
9.99552127000000000000e+08 9.99751273665680395553e-01 -2.20420903548900230448e-03 -7.86541730514458362761e-05 -6.97032099126816229000e-04 -7.86541730514458362761e-05 -6.97032099126816229000e-04 9.99975127366568017351e-01 -2.20420903548900176238e-04
9.99553138000000000000e+08 9.99750160914338437124e-01 -2.20907120254068382870e-03 -7.90060559224503003353e-05 -6.98569651351570132178e-04 -7.90060559224503003353e-05 -6.98569651351570132178e-04 9.99975016091433799303e-01 -2.20907120254068344923e-04
9.99554149000000000000e+08 9.99749040712182179824e-01 -2.21395457553230949263e-03 -7.93602949477955835070e-05 -7.00113909483338937856e-04 -7.93602949477955835070e-05 -7.00113909483338937856e-04 9.99974904071218251289e-01 -2.21395457553230916737e-04
9.99555160000000000000e+08 9.99747912992837273194e-01 -2.21885929150820787256e-03 -7.97169111169340765697e-05 -7.01664916859344369587e-04 -7.97169111169340765697e-05 -7.01664916859344369587e-04 9.99974791299283682910e-01 -2.21885929150820743888e-04
9.99556171000000000000e+08 9.99746777689191956640e-01 -2.22378548867660898528e-03 -8.00759256524570907972e-05 -7.03222717184866382388e-04 -8.00759256524570907972e-05 -7.03222717184866382388e-04 9.99974677768919240073e-01 -2.22378548867660866001e-04
9.99557182000000000000e+08 9.99745634733387067428e-01 -2.22873330642316168707e-03 -8.04373600132939184414e-05 -7.04787354537517196119e-04 -8.04373600132939184414e-05 -7.04787354537517196119e-04 9.99974563473338684538e-01 -2.22873330642316130759e-04
9.99558193000000000000e+08 9.99744484056806381744e-01 -2.23370288532245137025e-03 -8.08012358978026627330e-05 -7.06358873370883889528e-04 -8.08012358978026627330e-05 -7.06358873370883889528e-04 9.99974448405680615970e-01 -2.23370288532245077394e-04
9.99559204000000000000e+08 9.99743325590066511666e-01 -2.23869436715019767131e-03 -8.11675752469479395816e-05 -7.07937318518385774735e-04 -8.11675752469479395816e-05 -7.07937318518385774735e-04 9.99974332559006695575e-01 -2.23869436715019745447e-04
9.99560215000000000000e+08 9.99742159263006135994e-01 -2.24370789489808115241e-03 -8.15364002477101513068e-05 -7.09522735197962379008e-04 -8.15364002477101513068e-05 -7.09522735197962379008e-04 9.99974215926300646906e-01 -2.24370789489808077294e-04
9.99561226000000000000e+08 9.99740985004676230297e-01 -2.24874361278268883671e-03 -8.19077333361021165531e-05 -7.11115169014902887175e-04 -8.19077333361021165531e-05 -7.11115169014902887175e-04 9.99974098500467589723e-01 -2.24874361278268818619e-04
9.99562237000000000000e+08 9.99739802743328964674e-01 -2.25380166626230676527e-03 -8.22815972008020826917e-05 -7.12714665967156238598e-04 -8.22815972008020826917e-05 -7.12714665967156238598e-04 9.99973980274332929774e-01 -2.25380166626230649422e-04
9.99563248000000000000e+08 9.99738612406407156641e-01 -2.25888220204782967301e-03 -8.26580147863947313751e-05 -7.14321272448780624810e-04 -8.26580147863947313751e-05 -7.14321272448780624810e-04 9.99973861240640693460e-01 -2.25888220204782918512e-04
9.99564259000000000000e+08 9.99737413920533168898e-01 -2.26398536811713924424e-03 -8.30370092969094045644e-05 -7.15935035254491392367e-04 -8.30370092969094045644e-05 -7.15935035254491392367e-04 9.99973741392053305788e-01 -2.26398536811713891898e-04
9.99565270000000000000e+08 9.99736207211498584257e-01 -2.26911131372629741587e-03 -8.34186041991635536356e-05 -7.17556001583199336638e-04 -8.34186041991635536356e-05 -7.17556001583199336638e-04 9.99973620721149814017e-01 -2.26911131372629730745e-04
9.99566281000000000000e+08 9.99734992204251549097e-01 -2.27426018942651153934e-03 -8.38028232265782365611e-05 -7.19184219043376418354e-04 -8.38028232265782365611e-05 -7.19184219043376418354e-04 9.99973499220425110501e-01 -2.27426018942651132250e-04
9.99567292000000000000e+08 9.99733768822886448291e-01 -2.27943214707595044957e-03 -8.41896903826549509878e-05 -7.20819735656792141137e-04 -8.41896903826549509878e-05 -7.20819735656792141137e-04 9.99973376882288600420e-01 -2.27943214707594974484e-04
9.99568303000000000000e+08 9.99732536990631803775e-01 -2.28462733985339760609e-03 -8.45792299446327294809e-05 -7.22462599862831061394e-04 -8.45792299446327294809e-05 -7.22462599862831061394e-04 9.99973253699063202582e-01 -2.28462733985339733504e-04
9.99569314000000000000e+08 9.99731296629838728229e-01 -2.28984592227322219030e-03 -8.49714664672888780016e-05 -7.24112860523226957096e-04 -8.49714664672888780016e-05 -7.24112860523226957096e-04 9.99973129662983906130e-01 -2.28984592227322197346e-04
9.99570325000000000000e+08 9.99730047661968490580e-01 -2.29508805019939176803e-03 -8.53664247867148319460e-05 -7.25770566926493962065e-04 -8.53664247867148319460e-05 -7.25770566926493962065e-04 9.99973004766196882365e-01 -2.29508805019939122593e-04
9.99571336000000000000e+08 9.99728790007580747634e-01 -2.30035388085994768961e-03 -8.57641300241733273461e-05 -7.27435768792504718061e-04 -8.57641300241733273461e-05 -7.27435768792504718061e-04 9.99972879000758041457e-01 -2.30035388085994752698e-04
9.99572347000000000000e+08 9.99727523586320776516e-01 -2.30564357286224983976e-03 -8.61646075900613224409e-05 -7.29108516277309761863e-04 -8.61646075900613224409e-05 -7.29108516277309761863e-04 9.99972752358632033243e-01 -2.30564357286224962292e-04
9.99573358000000000000e+08 9.99726248316907262215e-01 -2.31095728620607640189e-03 -8.65678831877597149873e-05 -7.30788859977281888072e-04 -8.65678831877597149873e-05 -7.30788859977281888072e-04 9.99972624831690692915e-01 -2.31095728620607569715e-04
