! File generated for n1 = 8, n2 = 6
! b1 = 0.464159
! b2 = 0.010000
! Q0 = 10000.000000
! f0 = 1000000000.000000
! n = 1001
! rel_span = 10.000000
# Hz S RI R 50
9.99262920558319330215e+08 9.93769629434509194077e-01 -6.23266839820481102774e-02 -9.14493335304143121350e-04 -9.14830611021623732459e-03 -9.14493335304143121350e-04 -9.14830611021623732459e-03 9.99865770735219538956e-01 -1.34278770085578965342e-03
9.99264394717202663422e+08 9.93744872139664336963e-01 -6.24491534609087697860e-02 -9.18127209228304739380e-04 -9.16628217135401213156e-03 -9.18127209228304739380e-04 -9.16628217135401213156e-03 9.99865237355471059288e-01 -1.34542622579306506148e-03
9.99265868876085996628e+08 9.93719967520258595783e-01 -6.25720999951559914143e-02 -9.21782707440716038948e-04 -9.18432825464648647240e-03 -9.21782707440716038948e-04 -9.18432825464648647240e-03 9.99864700801711192568e-01 -1.34807502857707908230e-03
9.99267343034969449043e+08 9.93694914409120499954e-01 -6.26955263469733403703e-02 -9.25460001258733696780e-04 -9.20244476552676236858e-03 -9.25460001258733696780e-04 -9.20244476552676236858e-03 9.99864161048793942399e-01 -1.35073416871727292748e-03
9.99268817193852782249e+08 9.93669711627537477483e-01 -6.28194352996565980041e-02 -9.29159263693693005838e-04 -9.22063211252679287844e-03 -9.29159263693693005838e-04 -9.22063211252679287844e-03 9.99863618071324622427e-01 -1.35340370617793599034e-03
9.99270291352736115456e+08 9.93644357985110859843e-01 -6.29438296578554296046e-02 -9.32880669472239878320e-04 -9.23889070731285025340e-03 -9.32880669472239878320e-04 -9.23889070731285025340e-03 9.99863071843656969762e-01 -1.35608370138341435308e-03
9.99271765511619448662e+08 9.93618852279636755043e-01 -6.30687122476770445356e-02 -9.36624395053746927262e-04 -9.25722096470074119756e-03 -9.36624395053746927262e-04 -9.25722096470074119756e-03 9.99862522339890369416e-01 -1.35877421522034164125e-03
9.99273239670502901077e+08 9.93593193296943177906e-01 -6.31940859170024571423e-02 -9.40390618654300030135e-04 -9.27562330270223327211e-03 -9.40390618654300030135e-04 -9.27562330270223327211e-03 9.99861969533866079551e-01 -1.36147530904445388487e-03
9.99274713829386234283e+08 9.93567379810767370429e-01 -6.33199535355940812398e-02 -9.44179520264657162060e-04 -9.29409814254084608309e-03 -9.44179520264657162060e-04 -9.29409814254084608309e-03 9.99861413399165233074e-01 -1.36418704468290884375e-03
9.99276187988269567490e+08 9.93541410582599038293e-01 -6.34463179953655281862e-02 -9.47991281673284656197e-04 -9.31264590869144461005e-03 -9.47991281673284656197e-04 -9.31264590869144461005e-03 9.99860853909104729809e-01 -1.36690948444009624692e-03
9.99277662147152900696e+08 9.93515284361539241509e-01 -6.35731822105640720366e-02 -9.51826086487002039419e-04 -9.33126702890703374482e-03 -9.51826086487002039419e-04 -9.33126702890703374482e-03 9.99860291036735127079e-01 -1.36964269110157062757e-03
9.99279136306036353111e+08 9.93488999884145851382e-01 -6.37005491180174382437e-02 -9.55684120153788550268e-04 -9.34996193425496543994e-03 -9.55684120153788550268e-04 -9.34996193425496543994e-03 9.99859724754835976768e-01 -1.37238672793936651584e-03
9.99280610464919686317e+08 9.93462555874296993075e-01 -6.38284216772774803950e-02 -9.59565569982707630703e-04 -9.36873105913805029332e-03 -9.59565569982707630703e-04 -9.36873105913805029332e-03 9.99859155035914382026e-01 -1.37514165871509643803e-03
9.99282084623803019524e+08 9.93435951043018961037e-01 -6.39568028709343594507e-02 -9.63470625169222287879e-04 -9.38757484134065262049e-03 -9.63470625169222287879e-04 -9.38757484134065262049e-03 9.99858581852200112294e-01 -1.37790754768671742242e-03
9.99283558782686352730e+08 9.93409184088344110464e-01 -6.40856957047748060363e-02 -9.67399476816034544109e-04 -9.40649372205192707552e-03 -9.67399476816034544109e-04 -9.40649372205192707552e-03 9.99858005175643160811e-01 -1.38068445961194124876e-03
9.99285032941569805145e+08 9.93382253695153316642e-01 -6.42151032080098688182e-02 -9.71352317956263727750e-04 -9.42548814589925024188e-03 -9.71352317956263727750e-04 -9.42548814589925024188e-03 9.99857424977910080877e-01 -1.38347245975314154728e-03
9.99286507100453138351e+08 9.93355158535013105237e-01 -6.43450284335150002324e-02 -9.75329343577255552904e-04 -9.44455856098345633565e-03 -9.75329343577255552904e-04 -9.44455856098345633565e-03 9.99856841230380655183e-01 -1.38627161388252631048e-03
9.99287981259336471558e+08 9.93327897266016779376e-01 -6.44754744580485622540e-02 -9.79330750643978877046e-04 -9.46370541891091224262e-03 -9.79330750643978877046e-04 -9.46370541891091224262e-03 9.99856253904144454125e-01 -1.38908198828684463152e-03
9.99289455418219804764e+08 9.93300468532617442108e-01 -6.46064443824973938524e-02 -9.83356738123510997623e-04 -9.48292917482956333741e-03 -9.83356738123510997623e-04 -9.48292917482956333741e-03 9.99855662969997061040e-01 -1.39190364977267891193e-03
9.99290929577103137970e+08 9.93272870965464016457e-01 -6.47379413321004654192e-02 -9.87407507009109217111e-04 -9.50223028746175618631e-03 -9.87407507009109217111e-04 -9.50223028746175618631e-03 9.99855068398436741539e-01 -1.39473666567126132129e-03
9.99292403735986590385e+08 9.93245103181230604150e-01 -6.48699684566950568465e-02 -9.91483260345235855454e-04 -9.52160921914037457203e-03 -9.91483260345235855454e-04 -9.52160921914037457203e-03 9.99854470159660557727e-01 -1.39758110384377858167e-03
9.99293877894869923592e+08 9.93217163782458500876e-01 -6.50025289308957393564e-02 -9.95584203250779150099e-04 -9.54106643583511361550e-03 -9.95584203250779150099e-04 -9.54106643583511361550e-03 9.99853868223561259576e-01 -1.40043703268522890838e-03
9.99295352053753256798e+08 9.93189051357361019079e-01 -6.51356259544403903838e-02 -9.99710542947698744751e-04 -9.56060240720326727504e-03 -9.99710542947698744751e-04 -9.56060240720326727504e-03 9.99853262559722733016e-01 -1.40330452113187503262e-03
9.99296826212636590004e+08 9.93160764479661062332e-01 -6.52692627523701190961e-02 -1.00386248878482783019e-03 -9.58021760661612736820e-03 -1.00386248878482783019e-03 -9.58021760661612736820e-03 9.99852653137416891305e-01 -1.40618363866512065784e-03
9.99298300371520042419e+08 9.93132301708415488051e-01 -6.54034425752661185971e-02 -1.00804025226370534522e-03 -9.59991251119376824696e-03 -1.00804025226370534522e-03 -9.59991251119376824696e-03 9.99852039925599345160e-01 -1.40907445531661553416e-03
9.99299774530403375626e+08 9.93103661587826702650e-01 -6.55381686995349099778e-02 -1.01224404706619581021e-03 -9.61968760184689700155e-03 -1.01224404706619581021e-03 -9.61968760184689700155e-03 9.99851422892906183115e-01 -1.41197704167439789733e-03
9.99301248689286708832e+08 9.93074842647064581769e-01 -6.56734444276360351811e-02 -1.01647408908061643099e-03 -9.63954336331028331653e-03 -1.01647408908061643099e-03 -9.63954336331028331653e-03 9.99850802007649086534e-01 -1.41489146888780156774e-03
9.99302722848170042038e+08 9.93045843400078842578e-01 -6.58092730883478721493e-02 -1.02073059642934522301e-03 -9.65948028418177687127e-03 -1.02073059642934522301e-03 -9.65948028418177687127e-03 9.99850177237812109965e-01 -1.41781780867318292320e-03
9.99304197007053494453e+08 9.93016662345402090217e-01 -6.59456580370625378151e-02 -1.02501378949764322505e-03 -9.67949885696558348647e-03 -1.02501378949764322505e-03 -9.67949885696558348647e-03 9.99849548551047240252e-01 -1.42075613332027432360e-03
9.99305671165936827660e+08 9.92987297965979620606e-01 -6.60826026559503676427e-02 -1.02932389095868959475e-03 -9.69959957809641767912e-03 -1.02932389095868959475e-03 -9.69959957809641767912e-03 9.99848915914670510752e-01 -1.42370651569572554893e-03
9.99307145324820160866e+08 9.92957748728953371042e-01 -6.62201103543270941376e-02 -1.03366112580528953478e-03 -9.71978294799339358201e-03 -1.03366112580528953478e-03 -9.71978294799339358201e-03 9.99848279295657338395e-01 -1.42666902925101804142e-03
9.99308619483703494072e+08 9.92928013085472183086e-01 -6.63581845688863553034e-02 -1.03802572137767323661e-03 -9.74004947109415042394e-03 -1.03802572137767323661e-03 -9.74004947109415042394e-03 9.99847638660638859953e-01 -1.42964374802747175124e-03
9.99310093642586946487e+08 9.92898089470500622156e-01 -6.64968287639342153783e-02 -1.04241790739166713918e-03 -9.76039965588927985185e-03 -1.04241790739166713918e-03 -9.76039965588927985185e-03 9.99846993975897491147e-01 -1.43263074666129838590e-03
9.99311567801470279694e+08 9.92867976302606369821e-01 -6.66360464317047873628e-02 -1.04683791596975350226e-03 -9.78083401496864998648e-03 -1.04683791596975350226e-03 -9.78083401496864998648e-03 9.99846345207362041663e-01 -1.43563010039040087583e-03
9.99313041960353612900e+08 9.92837671983752056981e-01 -6.67758410926538037433e-02 -1.05128598167177501194e-03 -9.80135306506449421882e-03 -1.05128598167177501194e-03 -9.80135306506449421882e-03 9.99845692320604051417e-01 -1.43864188506069882664e-03
9.99314516119236946106e+08 9.92807174899100530752e-01 -6.69162162956710299122e-02 -1.05576234152339356979e-03 -9.82195732708259286459e-03 -1.05576234152339356979e-03 -9.82195732708259286459e-03 9.99845035280832905578e-01 -1.44166617713070493653e-03
9.99315990278120279312e+08 9.92776483416784150116e-01 -6.70571756184537987044e-02 -1.06026723505001627991e-03 -9.84264732615709736496e-03 -1.06026723505001627991e-03 -9.84264732615709736496e-03 9.99844374052890949578e-01 -1.44470305367957064374e-03
9.99317464437003731728e+08 9.92745595887708165428e-01 -6.71987226677099591665e-02 -1.06480090430564151502e-03 -9.86342359168032416228e-03 -1.06480090430564151502e-03 -9.86342359168032416228e-03 9.99843708601249714363e-01 -1.44775259241146196654e-03
9.99318938595887064934e+08 9.92714510645325121097e-01 -6.73408610794855033710e-02 -1.06936359390602357677e-03 -9.88428665735083603061e-03 -1.06936359390602357677e-03 -9.88428665735083603061e-03 9.99843038890004254249e-01 -1.45081487166261484043e-03
9.99320412754770398140e+08 9.92683226005408037018e-01 -6.74835945194801889446e-02 -1.07395555106183475391e-03 -9.90523706121977307038e-03 -1.07395555106183475391e-03 -9.90523706121977307038e-03 9.99842364882869261145e-01 -1.45388997040813631838e-03
9.99321886913653731346e+08 9.92651740265832582821e-01 -6.76269266833186832866e-02 -1.07857702561076139285e-03 -9.92627534573065420376e-03 -1.07857702561076139285e-03 -9.92627534573065420376e-03 9.99841686543173402413e-01 -1.45697796826784581846e-03
9.99323361072537183762e+08 9.92620051706348038856e-01 -6.77708612968571239010e-02 -1.08322827005111199661e-03 -9.94740205776437243224e-03 -1.08322827005111199661e-03 -9.94740205776437243224e-03 9.99841003833855102023e-01 -1.46007894551288138450e-03
9.99324835231420516968e+08 9.92588158588351476830e-01 -6.79154021164606741534e-02 -1.08790953957486197234e-03 -9.96861774867993308269e-03 -1.08790953957486197234e-03 -9.96861774867993308269e-03 9.99840316717457322504e-01 -1.46319298307167667585e-03
9.99326309390303850174e+08 9.92556059154639624964e-01 -6.80605529293770716848e-02 -1.09262109210419428029e-03 -9.98992297436927627341e-03 -1.09262109210419428029e-03 -9.98992297436927627341e-03 9.99839625156122124849e-01 -1.46632016253801095163e-03
9.99327783549187183380e+08 9.92523751629181050227e-01 -6.82063175539999871910e-02 -1.09736318832487291138e-03 -1.00113182952959473698e-02 -1.09736318832487291138e-03 -1.00113182952959473698e-02 9.99838929111586116605e-01 -1.46946056617668161653e-03
9.99329257708070635796e+08 9.92491234216873463581e-01 -6.83526998401902674551e-02 -1.10213609172188169681e-03 -1.00328042765422415644e-02 -1.10213609172188169681e-03 -1.00328042765422415644e-02 9.99838228545175122797e-01 -1.47261427693042685171e-03
9.99330731866953969002e+08 9.92458505103302135453e-01 -6.84997036695786792881e-02 -1.10694006861486947922e-03 -1.00543814878536370838e-02 -1.10694006861486947922e-03 -1.00543814878536370838e-02 9.99837523417798523795e-01 -1.47578137842644622341e-03
9.99332206025837302208e+08 9.92425562454473997320e-01 -6.86473329559668804523e-02 -1.11177538819721738635e-03 -1.00760505036976543564e-02 -1.11177538819721738635e-03 -1.00760505036976543564e-02 9.99836813689944370331e-01 -1.47896195498504003964e-03
9.99333680184720635414e+08 9.92392404416588047589e-01 -6.87955916455496863104e-02 -1.11664232256969376753e-03 -1.00978119032964792218e-02 -1.11664232256969376753e-03 -1.00978119032964792218e-02 9.99836099321673610341e-01 -1.48215609162439870480e-03
9.99335154343604087830e+08 9.92359029115763124906e-01 -6.89444837173181779288e-02 -1.12154114678044152138e-03 -1.01196662706861308795e-02 -1.12154114678044152138e-03 -1.01196662706861308795e-02 9.99835380272614759889e-01 -1.48536387406928609492e-03
9.99336628502487421036e+08 9.92325434657784999359e-01 -6.90940131833616827395e-02 -1.12647213886209749192e-03 -1.01416141947607892776e-02 -1.12647213886209749192e-03 -1.01416141947607892776e-02 9.99834656501958130015e-01 -1.48858538875754715589e-03
9.99338102661370754242e+08 9.92291619127835478054e-01 -6.92441840892350363168e-02 -1.13143557987149877102e-03 -1.01636562693266947061e-02 -1.13143557987149877102e-03 -1.01636562693266947061e-02 9.99833927968450275614e-01 -1.49182072284801759202e-03
9.99339576820254087448e+08 9.92257580590233945195e-01 -6.93950005142625891974e-02 -1.13643175392775445769e-03 -1.01857930931467752927e-02 -1.13643175392775445769e-03 -1.01857930931467752927e-02 9.99833194630388222279e-01 -1.49506996422707700081e-03
9.99341050979137420654e+08 9.92223317088155032373e-01 -6.95464665719251196041e-02 -1.14146094825351559696e-03 -1.02080252699974435848e-02 -1.14146094825351559696e-03 -1.02080252699974435848e-02 9.99832456445613471097e-01 -1.49833320151698248454e-03
9.99342525138020873070e+08 9.92188826643352839163e-01 -6.96985864102120794561e-02 -1.14652345321557052812e-03 -1.02303534087202826347e-02 -1.14652345321557052812e-03 -1.02303534087202826347e-02 9.99831713371505892418e-01 -1.50161052408345719808e-03
9.99343999296904206276e+08 9.92154107255897144135e-01 -6.98513642119029942723e-02 -1.15161956236355545596e-03 -1.02527781232633653785e-02 -1.15161956236355545596e-03 -1.02527781232633653785e-02 9.99830965364978396792e-01 -1.50490202204175429167e-03
9.99345473455787539482e+08 9.92119156903864651831e-01 -7.00048041950307314840e-02 -1.15674957247519603898e-03 -1.02753000327492488575e-02 -1.15674957247519603898e-03 -1.02753000327492488575e-02 9.99830212382469829535e-01 -1.50820778626663742558e-03
9.99346947614670872688e+08 9.92083973543059216560e-01 -7.01589106132065459809e-02 -1.16191378359745459657e-03 -1.02979197615226808482e-02 -1.16191378359745459657e-03 -1.02979197615226808482e-02 9.99829454379939530639e-01 -1.51152790839938276461e-03
9.99348421773554325104e+08 9.92048555106724738728e-01 -7.03136877559602246901e-02 -1.16711249908866567492e-03 -1.03206379392005286738e-02 -1.16711249908866567492e-03 -1.03206379392005286738e-02 9.99828691312860562412e-01 -1.51486248085510796790e-03
9.99349895932437658310e+08 9.92012899505243961329e-01 -7.04691399491249592657e-02 -1.17234602566267565212e-03 -1.03434552007282722086e-02 -1.17234602566267565212e-03 -1.03434552007282722086e-02 9.99827923136213270183e-01 -1.51821159683106438401e-03
9.99351370091320991516e+08 9.91977004625821390249e-01 -7.06252715552801446641e-02 -1.17761467343546364847e-03 -1.03663721864449970278e-02 -1.17761467343546364847e-03 -1.03663721864449970278e-02 9.99827149804479065054e-01 -1.52157535031617586162e-03
9.99352844250204324722e+08 9.91940868332203629087e-01 -7.07820869740112962321e-02 -1.18291875596612632016e-03 -1.03893895421215409769e-02 -1.18291875596612632016e-03 -1.03893895421215409769e-02 9.99826371271633651538e-01 -1.52495383609663843691e-03
9.99354318409087777138e+08 9.91904488464338096598e-01 -7.09395906424266781132e-02 -1.18825859030705668733e-03 -1.04125079190363276083e-02 -1.18825859030705668733e-03 -1.04125079190363276083e-02 9.99825587491140144181e-01 -1.52834714976705205412e-03
9.99355792567971110344e+08 9.91867862838072711362e-01 -7.10977870354735086433e-02 -1.19363449704791395323e-03 -1.04357279740217873815e-02 -1.19363449704791395323e-03 -1.04357279740217873815e-02 9.99824798415942517238e-01 -1.53175538773723217412e-03
9.99357266726854443550e+08 9.91830989244838812091e-01 -7.12566806663167823244e-02 -1.19904680036224398076e-03 -1.04590503695199434075e-02 -1.19904680036224398076e-03 -1.04590503695199434075e-02 9.99824003998458388232e-01 -1.53517864724037078096e-03
9.99358740885737776756e+08 9.91793865451301881464e-01 -7.14162760868368579059e-02 -1.20449582805872324083e-03 -1.04824757736554658588e-02 -1.20449582805872324083e-03 -1.04824757736554658588e-02 9.99823204190572134564e-01 -1.53861702634375784038e-03
9.99360215044621229172e+08 9.91756489199050239591e-01 -7.15765778879472736040e-02 -1.20998191162686335488e-03 -1.05060048602823013358e-02 -1.20998191162686335488e-03 -1.05060048602823013358e-02 9.99822398943627788093e-01 -1.54207062395562651859e-03
9.99361689203504562378e+08 9.91718858204253650435e-01 -7.17375907000243201450e-02 -1.21550538628710015111e-03 -1.05296383090467474131e-02 -1.21550538628710015111e-03 -1.05296383090467474131e-02 9.99821588208421707655e-01 -1.54553953983441010045e-03
9.99363163362387895584e+08 9.91680970157318042446e-01 -7.18993191933363084978e-02 -1.22106659104147642972e-03 -1.05533768054504439177e-02 -1.22106659104147642972e-03 -1.05533768054504439177e-02 9.99820771935195140578e-01 -1.54902387459798958347e-03
9.99364637521271228790e+08 9.91642822722524686085e-01 -7.20617680785210767969e-02 -1.22666586872660870848e-03 -1.05772210409204661663e-02 -1.22666586872660870848e-03 -1.05772210409204661663e-02 9.99819950073626562137e-01 -1.55252372973398037118e-03
9.99366111680154561996e+08 9.91604413537708451187e-01 -7.22249421068795888212e-02 -1.23230356606093176611e-03 -1.06011717128524224352e-02 -1.23230356606093176611e-03 -1.06011717128524224352e-02 9.99819122572824792172e-01 -1.55603920760605859280e-03
9.99367585839038014412e+08 9.91565740213861346319e-01 -7.23888460709677661331e-02 -1.23798003370286261934e-03 -1.06252295246973219728e-02 -1.23798003370286261934e-03 -1.06252295246973219728e-02 9.99818289381320002285e-01 -1.55957041146671175451e-03
9.99369059997921347618e+08 9.91526800334808444681e-01 -7.25534848048630109929e-02 -1.24369562629836577332e-03 -1.06493951860006878102e-02 -1.24369562629836577332e-03 -1.06493951860006878102e-02 9.99817450447057498586e-01 -1.56311744546298002356e-03
9.99370534156804680824e+08 9.91487591456798655898e-01 -7.27188631847743155445e-02 -1.24945070254106984677e-03 -1.06736694124921205340e-02 -1.24945070254106984677e-03 -1.06736694124921205340e-02 9.99816605717388062757e-01 -1.56668041464960196285e-03
9.99372008315688014030e+08 9.91448111108149898740e-01 -7.28849861293995177070e-02 -1.25524562522429496483e-03 -1.06980529261377303035e-02 -1.25524562522429496483e-03 -1.06980529261377303035e-02 9.99815755139060957646e-01 -1.57025942499670954737e-03
9.99373482474571466446e+08 9.91408356788865408049e-01 -7.30518586003862657741e-02 -1.26108076129735125794e-03 -1.07225464552077928010e-02 -1.26108076129735125794e-03 -1.07225464552077928010e-02 9.99814898658215600591e-01 -1.57385458339976162453e-03
9.99374956633454799652e+08 9.91368325970243158274e-01 -7.32194856028052093455e-02 -1.26695648192295625724e-03 -1.07471507343462144984e-02 -1.26695648192295625724e-03 -1.07471507343462144984e-02 9.99814036220372459596e-01 -1.57746599768973584828e-03
9.99376430792338132858e+08 9.91328016094473296604e-01 -7.33878721856484200758e-02 -1.27287316253625495781e-03 -1.07718665046436807425e-02 -1.27287316253625495781e-03 -1.07718665046436807425e-02 9.99813167770425392789e-01 -1.58109377664386943629e-03
9.99377904951221466064e+08 9.91287424574257003407e-01 -7.35570234422197599677e-02 -1.27883118290075836233e-03 -1.07966945136949554057e-02 -1.27883118290075836233e-03 -1.07966945136949554057e-02 9.99812293252632655616e-01 -1.58473802999406715789e-03
