! File generated for n1 = 7, n2 = 9
! b1 = 1.000000
! b2 = 0.002154
! Q0 = 10000.000000
! f0 = 1000000000.000000
! n = 1001
! rel_span = 10.000000
# Hz S RI R 50
9.98998922782655000687e+08 9.90119469453626499522e-01 -9.88548108926210616909e-02 -4.58613602542172699508e-04 -4.58843386388092713130e-03 -4.58613602542172699508e-04 -4.58843386388092713130e-03 9.99978713042234956809e-01 -2.12976233863604454914e-04
9.99000924937089681625e+08 9.90080202408418985627e-01 -9.90490834274471848575e-02 -4.60436217327813020715e-04 -4.59745119616419319064e-03 -4.60436217327813020715e-04 -4.59745119616419319064e-03 9.99978628443950579019e-01 -2.13394781351954298783e-04
9.99002927091524362564e+08 9.90040701683863599847e-01 -9.92441127150751889463e-02 -4.62269678547974605630e-04 -4.60650365380100949853e-03 -4.62269678547974605630e-04 -4.60650365380100949853e-03 9.99978543342219361456e-01 -2.13814959214792281363e-04
9.99004929245959043503e+08 9.90000965428595613993e-01 -9.94399031372062147671e-02 -4.64114072135386431569e-04 -4.61559144017192630322e-03 -4.64114072135386431569e-04 -4.61559144017192630322e-03 9.99978457733052494838e-01 -2.14236776892207358416e-04
9.99006931400393724442e+08 9.89960991772948606382e-01 -9.96364591090106721527e-02 -4.65969484872287554016e-04 -4.62471476021100117576e-03 -4.65969484872287554016e-04 -4.62471476021100117576e-03 9.99978371612422090031e-01 -2.14660243896395790640e-04
9.99008933554828405380e+08 9.89920778828730085763e-01 -9.98337850794770581553e-02 -4.67836004400798530396e-04 -4.63387382042198658211e-03 -4.67836004400798530396e-04 -4.63387382042198658211e-03 9.99978284976260067829e-01 -2.15085369812412766826e-04
9.99010935709263086319e+08 9.89880324689000223870e-01 -1.00031885531743178208e-01 -4.69713719233234622188e-04 -4.64306882889370733936e-03 -4.69713719233234622188e-04 -4.64306882889370733936e-03 9.99978197820458158951e-01 -2.15512164298885917305e-04
9.99012937863697886467e+08 9.89839627427858248510e-01 -1.00230764983370343457e-01 -4.71602718761985316171e-04 -4.65229999531278394509e-03 -4.71602718761985316171e-04 -4.65229999531278394509e-03 9.99978110140866904842e-01 -2.15940637088605987296e-04
9.99014940018132567406e+08 9.89798685100211517174e-01 -1.00430427986697642928e-01 -4.73503093270260719521e-04 -4.66156753098008035802e-03 -4.73503093270260719521e-04 -4.66156753098008035802e-03 9.99978021933295990742e-01 -2.16370797989290304967e-04
9.99016942172567248344e+08 9.89757495741543480428e-01 -1.00630879129184003240e-01 -4.75414933942832859150e-04 -4.67087164882657671777e-03 -4.75414933942832859150e-04 -4.67087164882657671777e-03 9.99977933193512802390e-01 -2.16802656884319442602e-04
9.99018944327001929283e+08 9.89716057367686419255e-01 -1.00832123033720549854e-01 -4.77338332876608821293e-04 -4.68021256342787076582e-03 -4.77338332876608821293e-04 -4.68021256342787076582e-03 9.99977843917242648075e-01 -2.17236223733410451940e-04
9.99020946481436610222e+08 9.89674367974577973150e-01 -1.01034164359007944123e-01 -4.79273383091935456513e-04 -4.68959049102169334838e-03 -4.79273383091935456513e-04 -4.68959049102169334838e-03 9.99977754100167981477e-01 -2.17671508573429582124e-04
9.99022948635871291161e+08 9.89632425538034099510e-01 -1.01237007799837186450e-01 -4.81220178543101232988e-04 -4.69900564952093965920e-03 -4.81220178543101232988e-04 -4.69900564952093965920e-03 9.99977663737927624510e-01 -2.18108521518997562670e-04
9.99024950790305972099e+08 9.89590228013496275850e-01 -1.01440658087491530903e-01 -4.83178814130108883178e-04 -4.70845825853232445579e-03 -4.83178814130108883178e-04 -4.70845825853232445579e-03 9.99977572826116989368e-01 -2.18547272763355040744e-04
9.99026952944740653038e+08 9.89547773335794800253e-01 -1.01645119990051352454e-01 -4.85149385709644222989e-04 -4.71794853937053393356e-03 -4.85149385709644222989e-04 -4.71794853937053393356e-03 9.99977481360286524215e-01 -2.18987772579019851623e-04
9.99028955099175333977e+08 9.89505059418890664524e-01 -1.01850398312793341549e-01 -4.87131990107068295164e-04 -4.72747671507675257252e-03 -4.87131990107068295164e-04 -4.72747671507675257252e-03 9.99977389335942268289e-01 -2.19430031318646736813e-04
9.99030957253610014915e+08 9.89462084155627086268e-01 -1.02056497898525846968e-01 -4.89126725127922651684e-04 -4.73704301043423488260e-03 -4.89126725127922651684e-04 -4.73704301043423488260e-03 9.99977296748544297600e-01 -2.19874059415750046104e-04
9.99032959408044695854e+08 9.89418845417481596094e-01 -1.02263423627916627545e-01 -4.91133689569482937386e-04 -4.74664765198350938752e-03 -4.91133689569482937386e-04 -4.74664765198350938752e-03 9.99977203593506835944e-01 -2.20319867385409715824e-04
9.99034961562479376793e+08 9.89375341054286039366e-01 -1.02471180419950430585e-01 -4.93152983233698734462e-04 -4.75629086804362204849e-03 -4.93152983233698734462e-04 -4.75629086804362204849e-03 9.99977109866197588772e-01 -2.20767465825257052552e-04
9.99036963716914057732e+08 9.89331568893988433366e-01 -1.02679773232184717857e-01 -4.95184706938307339467e-04 -4.76597288872400784432e-03 -4.95184706938307339467e-04 -4.76597288872400784432e-03 9.99977015561936966037e-01 -2.21216865416025914399e-04
9.99038965871348857880e+08 9.89287526742364198284e-01 -1.02889207061221968353e-01 -4.97228962530180075216e-04 -4.77569394594640900253e-03 -4.97228962530180075216e-04 -4.77569394594640900253e-03 9.99976920675997749122e-01 -2.21668076922569990805e-04
9.99040968025783538818e+08 9.89243212382758252410e-01 -1.03099486943030907438e-01 -4.99285852897336877160e-04 -4.78545427345978668238e-03 -4.99285852897336877160e-04 -4.78545427345978668238e-03 9.99976825203604091641e-01 -2.22121111194554957200e-04
9.99042970180218219757e+08 9.89198623575807345354e-01 -1.03310617953341135622e-01 -5.01355481981809159540e-04 -4.79525410685863965471e-03 -5.01355481981809159540e-04 -4.79525410685863965471e-03 9.99976729139931630463e-01 -2.22575979167308787669e-04
9.99044972334652900696e+08 9.89153758059159282645e-01 -1.03522605208042448033e-01 -5.03437954792689164318e-04 -4.80509368360153895500e-03 -5.03437954792689164318e-04 -4.80509368360153895500e-03 9.99976632480106153444e-01 -2.23032691862681933847e-04
9.99046974489087581635e+08 9.89108613547186044102e-01 -1.03735453863594728752e-01 -5.05533377419425857674e-04 -4.81497324303014825886e-03 -5.05533377419425857674e-04 -4.81497324303014825886e-03 9.99976535219203488403e-01 -2.23491260389930434692e-04
9.99048976643522262573e+08 9.89063187730713888612e-01 -1.03949169117348014235e-01 -5.07641857044378798543e-04 -4.82489302638408786017e-03 -5.07641857044378798543e-04 -4.82489302638408786017e-03 9.99976437352248725965e-01 -2.23951695946405441966e-04
9.99050978797956943512e+08 9.89017478276706718532e-01 -1.04163756208061605846e-01 -5.09763501957478503551e-04 -4.83485327682502390861e-03 -5.09763501957478503551e-04 -4.83485327682502390861e-03 9.99976338874215331387e-01 -2.24414009818671818719e-04
9.99052980952391624451e+08 9.88971482827997183662e-01 -1.04379220416191756393e-01 -5.11898421568752776817e-04 -4.84485423945002578044e-03 -5.11898421568752776817e-04 -4.84485423945002578044e-03 9.99976239780025033532e-01 -2.24878213383127679515e-04
9.99054983106826305389e+08 9.88925199002966270889e-01 -1.04595567064397279577e-01 -5.14046726423156644104e-04 -4.85489616131502908086e-03 -5.14046726423156644104e-04 -4.85489616131502908086e-03 9.99976140064546825670e-01 -2.25344318107093796776e-04
9.99056985261260986328e+08 9.88878624395259420155e-01 -1.04812801517865206158e-01 -5.16208528213772839532e-04 -4.86497929144995549383e-03 -5.16208528213772839532e-04 -4.86497929144995549383e-03 9.99976039722596299342e-01 -2.25812335549515215112e-04
9.99058987415695667267e+08 9.88831756573460785020e-01 -1.05030929184814769695e-01 -5.18383939796938052191e-04 -4.87510388088210726287e-03 -5.18383939796938052191e-04 -4.87510388088210726287e-03 9.99975938748935089251e-01 -2.26282277362047079799e-04
9.99060989570130348206e+08 9.88784593080787810315e-01 -1.05249955516886706253e-01 -5.20573075206389704501e-04 -4.88527018265422913190e-03 -5.20573075206389704501e-04 -4.88527018265422913190e-03 9.99975837138270429172e-01 -2.26754155289893294259e-04
9.99062991724565029144e+08 9.88737131434780036621e-01 -1.05469886009549013162e-01 -5.22776049667733871268e-04 -4.89547845184335264634e-03 -5.22776049667733871268e-04 -4.89547845184335264634e-03 9.99975734885253819684e-01 -2.27227981172680766489e-04
9.99064993878999829292e+08 9.88689369126963146783e-01 -1.05690726202598811456e-01 -5.24992979614040118468e-04 -4.90572894558408047899e-03 -5.24992979614040118468e-04 -4.90572894558408047899e-03 9.99975631984481028169e-01 -2.27703766945540575463e-04
9.99066996033434510231e+08 9.88641303622545986052e-01 -1.05912481680492664982e-01 -5.27223982699882680325e-04 -4.91602192308392658970e-03 -5.27223982699882680325e-04 -4.91602192308392658970e-03 9.99975528430490867571e-01 -2.28181524639819695646e-04
9.99068998187869191170e+08 9.88592932360061182884e-01 -1.06135158072926491513e-01 -5.29469177818055712625e-04 -4.92635764565022699069e-03 -5.29469177818055712625e-04 -4.92635764565022699069e-03 9.99975424217764974344e-01 -2.28661266384330323165e-04
9.99071000342303872108e+08 9.88544252751052399120e-01 -1.06358761055175887744e-01 -5.31728685114055089553e-04 -4.93673637670594047527e-03 -5.31728685114055089553e-04 -4.93673637670594047527e-03 9.99975319340726587214e-01 -2.29143004406082986205e-04
9.99073002496738553047e+08 9.88495262179719280660e-01 -1.06583296348619571692e-01 -5.34002626002576382888e-04 -4.94715838181394168549e-03 -5.34002626002576382888e-04 -4.94715838181394168549e-03 9.99975213793740214108e-01 -2.29626751031414521849e-04
9.99075004651173233986e+08 9.88445958002579727619e-01 -1.06808769721163654420e-01 -5.36291123183192208583e-04 -4.95762392869671802975e-03 -5.36291123183192208583e-04 -4.95762392869671802975e-03 9.99975107571110632954e-01 -2.30112518686902004297e-04
9.99077006805607914925e+08 9.88396337548116066252e-01 -1.07035186987720715157e-01 -5.38594300656763469784e-04 -4.96813328725860189894e-03 -5.38594300656763469784e-04 -4.96813328725860189894e-03 9.99975000667082225547e-01 -2.30600319900394715601e-04
9.99079008960042595863e+08 9.88346398116419444513e-01 -1.07262554010681951389e-01 -5.40912283741965416867e-04 -4.97868672960768803015e-03 -5.40912283741965416867e-04 -4.97868672960768803015e-03 9.99974893075838200396e-01 -2.31090167302031669399e-04
9.99081011114477276802e+08 9.88296136978826456065e-01 -1.07490876700401444266e-01 -5.43245199092124765074e-04 -4.98928453007831292088e-03 -5.43245199092124765074e-04 -4.98928453007831292088e-03 9.99974784791499815562e-01 -2.31582073625284748939e-04
9.99083013268911957741e+08 9.88245551377553210770e-01 -1.07720161015679702365e-01 -5.45593174712241018101e-04 -4.99992696525349434450e-03 -5.45593174712241018101e-04 -4.99992696525349434450e-03 9.99974675808125601506e-01 -2.32076051708000435621e-04
9.99085015423346638680e+08 9.88194638525330848466e-01 -1.07950412964214856326e-01 -5.47956339975868254866e-04 -5.01061431398587726893e-03 -5.47956339975868254866e-04 -5.01061431398587726893e-03 9.99974566119710583934e-01 -2.32572114493372013094e-04
9.99087017577781319618e+08 9.88143395605011520821e-01 -1.08181638603173937985e-01 -5.50334825643425244214e-04 -5.02134685742425257438e-03 -5.50334825643425244214e-04 -5.02134685742425257438e-03 9.99974455720185506635e-01 -2.33070275031170245136e-04
9.99089019732216000557e+08 9.88091819769200574441e-01 -1.08413844039624104876e-01 -5.52728763879271520719e-04 -5.03212487903356448654e-03 -5.52728763879271520719e-04 -5.03212487903356448654e-03 9.99974344603415610244e-01 -2.33570546478672482708e-04
9.99091021886650800705e+08 9.88039908139859979208e-01 -1.08647035431071320444e-01 -5.55138288270089165152e-04 -5.04294866461992442180e-03 -5.55138288270089165152e-04 -5.04294866461992442180e-03 9.99974232763200521212e-01 -2.34072942101823139750e-04
9.99093024041085481644e+08 9.87987657807922858844e-01 -1.08881218985934585808e-01 -5.57563533842807051641e-04 -5.05381850235261595450e-03 -5.57563533842807051641e-04 -5.05381850235261595450e-03 9.99974120193272808521e-01 -2.34577475276255553727e-04
9.99095026195520162582e+08 9.87935065832875047853e-01 -1.09116400964142948316e-01 -5.60004637084006548671e-04 -5.06473468279180442236e-03 -5.60004637084006548671e-04 -5.06473468279180442236e-03 9.99974006887297428570e-01 -2.35084159488577984932e-04
9.99097028349954843521e+08 9.87882129242362405641e-01 -1.09352587677596174709e-01 -5.62461735958135031384e-04 -5.07569749890992693436e-03 -5.62461735958135031384e-04 -5.07569749890992693436e-03 9.99973892838870392907e-01 -2.35593008337366230679e-04
9.99099030504389524460e+08 9.87828845031771374252e-01 -1.09589785490729202388e-01 -5.64934969927008293414e-04 -5.08670724611788322572e-03 -5.64934969927008293414e-04 -5.08670724611788322572e-03 9.99973778041518657211e-01 -2.36104035534379720672e-04
9.99101032658824205399e+08 9.87775210163814976205e-01 -1.09828000821024118761e-01 -5.67424479968993986448e-04 -5.09776422228880570636e-03 -5.67424479968993986448e-04 -5.09776422228880570636e-03 9.99973662488698566975e-01 -2.36617254905664502976e-04
9.99103034813258886337e+08 9.87721221568104934541e-01 -1.10067240139567854018e-01 -5.69930408598895129127e-04 -5.10886872778394326988e-03 -5.69930408598895129127e-04 -5.10886872778394326988e-03 9.99973546173795080350e-01 -2.37132680392754702659e-04
9.99105036967693567276e+08 9.87666876140719462995e-01 -1.10307509971603476262e-01 -5.72452899887998089418e-04 -5.12002106547824846483e-03 -5.72452899887998089418e-04 -5.12002106547824846483e-03 9.99973429090121102014e-01 -2.37650326053860373688e-04
9.99107039122128248215e+08 9.87612170743761841329e-01 -1.10548816897101581658e-01 -5.74992099484567149859e-04 -5.13122154078690315138e-03 -5.74992099484567149859e-04 -5.13122154078690315138e-03 9.99973311230916150905e-01 -2.38170206065098447870e-04
9.99109041276562929153e+08 9.87557102204924208699e-01 -1.10791167551284999715e-01 -5.77548154634086345280e-04 -5.14247046168966794738e-03 -5.77548154634086345280e-04 -5.14247046168966794738e-03 9.99973192589345805104e-01 -2.38692334721623096927e-04
9.99111043430997610092e+08 9.87501667317023823500e-01 -1.11034568625253834973e-01 -5.80121214200799090524e-04 -5.15376813875989894798e-03 -5.80121214200799090524e-04 -5.15376813875989894798e-03 9.99973073158500258550e-01 -2.39216726438972609754e-04
9.99113045585432291031e+08 9.87445862837554311220e-01 -1.11279026866517166683e-01 -5.82711428688512502252e-04 -5.16511488518922416702e-03 -5.82711428688512502252e-04 -5.16511488518922416702e-03 9.99972952931393765930e-01 -2.39743395754214499646e-04
9.99115047739866971970e+08 9.87389685488211044095e-01 -1.11524549079619034186e-01 -5.85318950262648770091e-04 -5.17651101681659928794e-03 -5.85318950262648770091e-04 -5.17651101681659928794e-03 9.99972831900963643470e-01 -2.40272357327294549959e-04
9.99117049894301772118e+08 9.87333131954422515975e-01 -1.11771142126711325870e-01 -5.87943932771991866967e-04 -5.18795685215490097464e-03 -5.87943932771991866967e-04 -5.18795685215490097464e-03 9.99972710060068603610e-01 -2.40803625942270880123e-04
9.99119052048736453056e+08 9.87276198884876166062e-01 -1.12018812928126210160e-01 -5.90586531770686986968e-04 -5.19945271241749329416e-03 -5.90586531770686986968e-04 -5.19945271241749329416e-03 9.99972587401488532954e-01 -2.41337216508547090094e-04
9.99121054203171133995e+08 9.87218882891023219450e-01 -1.12267568463017455849e-01 -5.93246904541237232364e-04 -5.21099892154799904098e-03 -5.93246904541237232364e-04 -5.21099892154799904098e-03 9.99972463917923048982e-01 -2.41873144062254211541e-04
9.99123056357605814934e+08 9.87161180546576866313e-01 -1.12517415770003334496e-01 -5.95925210117794010994e-04 -5.22259580625013784816e-03 -5.95925210117794010994e-04 -5.22259580625013784816e-03 9.99972339601990500846e-01 -2.42411423767635640604e-04
9.99125058512040495872e+08 9.87103088387026539330e-01 -1.12768361947712947302e-01 -5.98621609308684805850e-04 -5.23424369601308524247e-03 -5.98621609308684805850e-04 -5.23424369601308524247e-03 9.99972214446226748130e-01 -2.42952070918224147765e-04
9.99127060666475176811e+08 9.87044602909111778999e-01 -1.13020414155485679486e-01 -6.01336264720860416179e-04 -5.24594292314393886162e-03 -6.01336264720860416179e-04 -5.24594292314393886162e-03 9.99972088443084272669e-01 -2.43495100938348837559e-04
9.99129062820909857750e+08 9.86985720570316193978e-01 -1.13273579613953220835e-01 -6.04069340783370753445e-04 -5.25769382279473243558e-03 -6.04069340783370753445e-04 -5.25769382279473243558e-03 9.99971961584930957301e-01 -2.44040529384389136801e-04
9.99131064975344538689e+08 9.86926437788324117939e-01 -1.13527865605755534650e-01 -6.06821003772567988191e-04 -5.26949673299567048629e-03 -6.06821003772567988191e-04 -5.26949673299567048629e-03 9.99971833864048864626e-01 -2.44588371946317234811e-04
9.99133067129779219627e+08 9.86866750940506021195e-01 -1.13783279476110346651e-01 -6.09591421836028169931e-04 -5.28135199468155770719e-03 -6.09591421836028169931e-04 -5.28135199468155770719e-03 9.99971705272633348827e-01 -2.45138644448924939486e-04
9.99135069284213900566e+08 9.86806656363361511808e-01 -1.14039828633530973545e-01 -6.12380765018374429234e-04 -5.29325995172512126646e-03 -6.12380765018374429234e-04 -5.29325995172512126646e-03 9.99971575802791723397e-01 -2.45691362853370373013e-04
9.99137071438648581505e+08 9.86746150351967554748e-01 -1.14297520550497050396e-01 -6.15189205286898084524e-04 -5.30522095096814128717e-03 -6.15189205286898084524e-04 -5.30522095096814128717e-03 9.99971445446541817859e-01 -2.46246543258622915210e-04
9.99139073593083262444e+08 9.86685229159424914691e-01 -1.14556362764104288643e-01 -6.18016916557264641904e-04 -5.31723534225161074962e-03 -6.18016916557264641904e-04 -5.31723534225161074962e-03 9.99971314195811200598e-01 -2.46804201902862962743e-04
9.99141075747517943382e+08 9.86623888996284836850e-01 -1.14816362876765554191e-01 -6.20864074720092903002e-04 -5.32930347844827630166e-03 -6.20864074720092903002e-04 -5.32930347844827630166e-03 9.99971182042435846604e-01 -2.47364355164992602218e-04
9.99143077901952624321e+08 9.86562126029971508956e-01 -1.15077528556906491519e-01 -6.23730857667800027595e-04 -5.34142571549492753413e-03 -6.23730857667800027595e-04 -5.34142571549492753413e-03 9.99971048978158694176e-01 -2.47927019566134031799e-04
9.99145080056387424469e+08 9.86499936384188869098e-01 -1.15339867539691484644e-01 -6.26617445322108826931e-04 -5.35360241242608878021e-03 -6.26617445322108826931e-04 -5.35360241242608878021e-03 9.99970914994628423678e-01 -2.48492211771193685470e-04
9.99147082210822105408e+08 9.86437316138337960680e-01 -1.15603387627678591554e-01 -6.29524019661109124693e-04 -5.36583393140442534847e-03 -6.29524019661109124693e-04 -5.36583393140442534847e-03 9.99970780083398458338e-01 -2.49059948590273376370e-04
9.99149084365256786346e+08 9.86374261326901646818e-01 -1.15868096691577521229e-01 -6.32450764747792115034e-04 -5.37812063775591937820e-03 -6.32450764747792115034e-04 -5.37812063775591937820e-03 9.99970644235925409937e-01 -2.49630246980303051058e-04
9.99151086519691467285e+08 9.86310767938815224909e-01 -1.16134002671039751609e-01 -6.35397866759291837270e-04 -5.39046290000654623048e-03 -6.35397866759291837270e-04 -5.39046290000654623048e-03 9.99970507443567524497e-01 -2.50203124046743420605e-04
9.99153088674126148224e+08 9.86246831916866573131e-01 -1.16401113575288803204e-01 -6.38365514014715778289e-04 -5.40286108991153233433e-03 -6.38365514014715778289e-04 -5.40286108991153233433e-03 9.99970369697583905122e-01 -2.50778597044943327501e-04
9.99155090828560829163e+08 9.86182449157053664379e-01 -1.16669437483898491559e-01 -6.41353897004963576477e-04 -5.41531558249147299683e-03 -6.41353897004963576477e-04 -5.41531558249147299683e-03 9.99970230989132624622e-01 -2.51356683381817006418e-04
