! File generated for n1 = 7, n2 = 2
! b1 = 1.000000
! b2 = 0.464159
! Q0 = 10000.000000
! f0 = 1000000000.000000
! n = 1001
! rel_span = 10.000000
# Hz S RI R 50
9.98767920558319330215e+08 9.91973806338553587558e-01 -8.03114421502486852678e-02 -5.46818208626670496791e-03 -5.47155485915716832679e-02 -5.46818208626670496791e-03 -5.47155485915716832679e-02 9.96274570912461632233e-01 -3.72772693095932902696e-02
9.98770384717202663422e+08 9.91941904997539869449e-01 -8.04692916951578185447e-02 -5.48991621689166268278e-03 -5.48230902346226872668e-02 -5.48991621689166268278e-03 -5.48230902346226872668e-02 9.96259763621639038433e-01 -3.73505365780974069034e-02
9.98772848876085996628e+08 9.91909813802993922671e-01 -8.06277561159245703681e-02 -5.51177969322239492272e-03 -5.49310507877189338477e-02 -5.51177969322239492272e-03 -5.49310507877189338477e-02 9.96244868208612910365e-01 -3.74240892466929861437e-02
9.98775313034969449043e+08 9.91877531250732302759e-01 -8.07868389727988550630e-02 -5.53377354004721318942e-03 -5.50394326764304664401e-02 -5.53377354004721318942e-03 -5.50394326764304664401e-02 9.96229883975203067692e-01 -3.74979289679016822290e-02
9.98777777193852782249e+08 9.91845055821710008814e-01 -8.09465438531821457335e-02 -5.55589879227939235223e-03 -5.51482383448254551150e-02 -5.55589879227939235223e-03 -5.51482383448254551150e-02 9.96214810216331292381e-01 -3.75720574068477350393e-02
9.98780241352736115456e+08 9.91812385981821198477e-01 -8.11068743719989271312e-02 -5.57815649509302985409e-03 -5.52574702557232719236e-02 -5.57815649509302985409e-03 -5.52574702557232719236e-02 9.96199646219928958146e-01 -3.76464762414304640603e-02
9.98782705511619448662e+08 9.91779520181738094564e-01 -8.12678341718706398478e-02 -5.60054770403286671793e-03 -5.53671308908130349602e-02 -5.60054770403286671793e-03 -5.53671308908130349602e-02 9.96184391266861646308e-01 -3.77211871624049746576e-02
9.98785169670502901077e+08 9.91746456856718139328e-01 -8.14294269234363127241e-02 -5.62307348514565989023e-03 -5.54772227508719753541e-02 -5.62307348514565989023e-03 -5.54772227508719753541e-02 9.96169044630840105903e-01 -3.77961918735309695960e-02
9.98787633829386234283e+08 9.91713194426433464201e-01 -8.15916563255527776954e-02 -5.64573491509617973044e-03 -5.55877483559019391901e-02 -5.64573491509617973044e-03 -5.55877483559019391901e-02 9.96153605578341316829e-01 -3.78714920916657232786e-02
9.98790097988269567490e+08 9.91679731294768718186e-01 -8.17545261056438210545e-02 -5.66853308130520899821e-03 -5.56987102453671834024e-02 -5.66853308130520899821e-03 -5.56987102453671834024e-02 9.96138073368514120887e-01 -3.79470895469260771637e-02
9.98792562147152900696e+08 9.91646065849643210122e-01 -8.19180400199171626641e-02 -5.69146908207052333595e-03 -5.58101109783422297261e-02 -5.69146908207052333595e-03 -5.58101109783422297261e-02 9.96122447253096732211e-01 -3.80229859827892202606e-02
9.98795026306036353111e+08 9.91612196462815953524e-01 -8.20822018536577907577e-02 -5.71454402669983613922e-03 -5.59219531337117325975e-02 -5.71454402669983613922e-03 -5.59219531337117325975e-02 9.96106726476326809205e-01 -3.80991831562288094104e-02
9.98797490464919686317e+08 9.91578121489696595603e-01 -8.22470154214799825665e-02 -5.73775903563935197466e-03 -5.60342393103421404499e-02 -5.73775903563935197466e-03 -5.60342393103421404499e-02 9.96090910274853302830e-01 -3.81756828378319451600e-02
9.98799954623803019524e+08 9.91543839269139581916e-01 -8.24124845676564715680e-02 -5.76111524061457928869e-03 -5.61469721273059746425e-02 -5.76111524061457928869e-03 -5.61469721273059746425e-02 9.96074997877640311295e-01 -3.82524868119519731446e-02
9.98802418782686352730e+08 9.91509348123249645290e-01 -8.25786131663733546926e-02 -5.78461378476212949307e-03 -5.62601542240554960972e-02 -5.78461378476212949307e-03 -5.62601542240554960972e-02 9.96058988505878151187e-01 -3.83295968768267714122e-02
9.98804882941569805145e+08 9.91474646357180189327e-01 -8.27454051220175845760e-02 -5.80825582276755809225e-03 -5.63737882606185833345e-02 -5.80825582276755809225e-03 -5.63737882606185833345e-02 9.96042881372888766478e-01 -3.84070148447122408641e-02
9.98807347100453138351e+08 9.91439732258927897135e-01 -8.29128643694677092135e-02 -5.83204252100511400664e-03 -5.64878769177967685056e-02 -5.83204252100511400664e-03 -5.64878769177967685056e-02 9.96026675684030471380e-01 -3.84847425420172181698e-02
9.98809811259336471558e+08 9.91404604099124897587e-01 -8.30809948743880671840e-02 -5.85597505767949770561e-03 -5.66024228973657159147e-02 -5.85597505767949770561e-03 -5.66024228973657159147e-02 9.96010370636601694017e-01 -3.85627818094400123816e-02
9.98812275418219804764e+08 9.91369260130822715915e-01 -8.32498006335488094365e-02 -5.88005462297283738871e-03 -5.67174289222932351273e-02 -5.88005462297283738871e-03 -5.67174289222932351273e-02 9.95993965419741056344e-01 -3.86411345021170152259e-02
9.98814739577103137970e+08 9.91333698589286993474e-01 -8.34192856750854555559e-02 -5.90428241918457101522e-03 -5.68328977369161186806e-02 -5.90428241918457101522e-03 -5.68328977369161186806e-02 9.95977459214331228843e-01 -3.87198024897431047897e-02
9.98817203735986590385e+08 9.91297917691768892823e-01 -8.35894540588600631903e-02 -5.92865966088741962875e-03 -5.69488321071861605671e-02 -5.92865966088741962875e-03 -5.69488321071861605671e-02 9.95960851192893570349e-01 -3.87987876567393169536e-02
9.98819667894869923592e+08 9.91261915637303037130e-01 -8.37603098766813852771e-02 -5.95318757506480694675e-03 -5.70652348208202375712e-02 -5.95318757506480694675e-03 -5.70652348208202375712e-02 9.95944140519493981145e-01 -3.88780919023550414204e-02
9.98822132053753256798e+08 9.91225690606466036670e-01 -8.39318572527039535869e-02 -5.97786740127548722051e-03 -5.71821086875721196208e-02 -5.97786740127548722051e-03 -5.71821086875721196208e-02 9.95927326349630881452e-01 -3.89577171408532346719e-02
9.98824596212636590004e+08 9.91189240761155332393e-01 -8.41041003437166395651e-02 -6.00270039180404810925e-03 -5.72994565394290972238e-02 -6.00270039180404810925e-03 -5.72994565394290972238e-02 9.95910407830132737850e-01 -3.90376653016443822541e-02
9.98827060371520042419e+08 9.91152564244364042700e-01 -8.42770433394419843376e-02 -6.02768781181459763902e-03 -5.74172812308159016825e-02 -6.02768781181459763902e-03 -5.74172812308159016825e-02 9.95893384099053369241e-01 -3.91179383294254154335e-02
9.98829524530403375626e+08 9.91115659179946262292e-01 -8.44506904628658794376e-02 -6.05283093951053310228e-03 -5.75355856388193240281e-02 -6.05283093951053310228e-03 -5.75355856388193240281e-02 9.95876254285562811930e-01 -3.91985381843327415630e-02
9.98831988689286708832e+08 9.91078523672382138976e-01 -8.46250459705557844803e-02 -6.07813106629438281575e-03 -5.76543726634050276991e-02 -6.07813106629438281575e-03 -5.76543726634050276991e-02 9.95859017509838850835e-01 -3.92794668420899731331e-02
9.98834452848170042038e+08 9.91041155806528739625e-01 -8.48001141530375229793e-02 -6.10358949693792177810e-03 -5.77736452276742321055e-02 -6.10358949693792177810e-03 -5.77736452276742321055e-02 9.95841672882950668111e-01 -3.93607262941827878988e-02
9.98836917007053494453e+08 9.91003553647389789916e-01 -8.49758993350662877875e-02 -6.12920754973874087196e-03 -5.78934062780483357780e-02 -6.12920754973874087196e-03 -5.78934062780483357780e-02 9.95824219506752816855e-01 -3.94423185479847171475e-02
9.98839381165936827660e+08 9.90965715239862654506e-01 -8.51524058759953322850e-02 -6.15498655669281455327e-03 -5.80136587845201529001e-02 -6.15498655669281455327e-03 -5.80136587845201529001e-02 9.95806656473766871329e-01 -3.95242456269283073955e-02
9.98841845324820160866e+08 9.90927638608489425032e-01 -8.53296381701094397432e-02 -6.18092786366380118890e-03 -5.81344057408810441223e-02 -6.18092786366380118890e-03 -5.81344057408810441223e-02 9.95788982867066518878e-01 -3.96065095706598715997e-02
9.98844309483703494072e+08 9.90889321757196905871e-01 -8.55076006470024407857e-02 -6.20703283056069435308e-03 -5.82556501649781552366e-02 -6.20703283056069435308e-03 -5.82556501649781552366e-02 9.95771197760156656642e-01 -3.96891124352147309229e-02
9.98846773642586946487e+08 9.90850762669050255660e-01 -8.56862977718706730901e-02 -6.23330283150508313028e-03 -5.83773950989143405876e-02 -6.23330283150508313028e-03 -5.83773950989143405876e-02 9.95753300216859038585e-01 -3.97720562931534390994e-02
9.98849237801470279694e+08 9.90811959305987421942e-01 -8.58657340458902629265e-02 -6.25973925501260939491e-03 -5.84996436093052074590e-02 -6.25973925501260939491e-03 -5.84996436093052074590e-02 9.95735289291189151761e-01 -3.98553432337368854221e-02
9.98851701960353612900e+08 9.90772909608548912885e-01 -8.60459140065950034426e-02 -6.28634350417654405585e-03 -5.86223987875365143418e-02 -6.28634350417654405585e-03 -5.86223987875365143418e-02 9.95717164027230539070e-01 -3.99389753631016752866e-02
9.98854166119236946106e+08 9.90733611495612231934e-01 -8.62268422282262830825e-02 -6.31311699684928683690e-03 -5.87456637500026676579e-02 -6.31311699684928683690e-03 -5.87456637500026676579e-02 9.95698923459011564496e-01 -4.00229548044225905135e-02
9.98856630278120279312e+08 9.90694062864123425882e-01 -8.64085233220747012117e-02 -6.34006116582464408077e-03 -5.88694416383393689940e-02 -6.34006116582464408077e-03 -5.88694416383393689940e-02 9.95680566610381290182e-01 -4.01072836980711291965e-02
9.98859094437003731728e+08 9.90654261588812312667e-01 -8.65909619368912947257e-02 -6.36717745903251156059e-03 -5.89937356197038353933e-02 -6.36717745903251156059e-03 -5.89937356197038353933e-02 9.95662092494876582727e-01 -4.01919642018063807964e-02
9.98861558595887064934e+08 9.90614205521917812192e-01 -8.67741627592294867410e-02 -6.39446733972542317309e-03 -5.91185488870077380241e-02 -6.39446733972542317309e-03 -5.91185488870077380241e-02 9.95643500115594881628e-01 -4.02769984909337394607e-02
9.98864022754770398140e+08 9.90573892492901397766e-01 -8.69581305138325960646e-02 -6.42193228667400396736e-03 -5.92438846591812409703e-02 -6.42193228667400396736e-03 -5.92438846591812409703e-02 9.95624788465061749676e-01 -4.03623887584848017873e-02
9.98866486913653731346e+08 9.90533320308152553935e-01 -8.71428699640422743666e-02 -6.44957379436775831566e-03 -5.93697461814512231215e-02 -6.44957379436775831566e-03 -5.93697461814512231215e-02 9.95605956525093205300e-01 -4.04481372154068957725e-02
9.98868951072537183762e+08 9.90492486750702005871e-01 -8.73283859121538330594e-02 -6.47739337321018380372e-03 -5.94961367255833969980e-02 -6.47739337321018380372e-03 -5.94961367255833969980e-02 9.95587003266663272960e-01 -4.05342460907280668914e-02
9.98871415231420516968e+08 9.90451389579924512674e-01 -8.75146831998087904037e-02 -6.50539254972166622326e-03 -5.96230595901497267830e-02 -6.50539254972166622326e-03 -5.96230595901497267830e-02 9.95567927649765871401e-01 -4.06207176317392310017e-02
9.98873879390303850174e+08 9.90410026531231890701e-01 -8.77017667084090818408e-02 -6.53357286674796644554e-03 -5.97505181008106400764e-02 -6.53357286674796644554e-03 -5.97505181008106400764e-02 9.95548728623272372040e-01 -4.07075541041864510938e-02
9.98876343549187183380e+08 9.90368395315761596009e-01 -8.78896413595448150469e-02 -6.56193588367312737042e-03 -5.98785156106064475612e-02 -6.56193588367312737042e-03 -5.98785156106064475612e-02 9.95529405124786603842e-01 -4.07947577924695006790e-02
9.98878807708070635796e+08 9.90326493620075631874e-01 -8.80783121153509152013e-02 -6.59048317662405246792e-03 -6.00070555002003153122e-02 -6.59048317662405246792e-03 -6.00070555002003153122e-02 9.95509956080506075438e-01 -4.08823309998073911031e-02
9.98881271866953969002e+08 9.90284319105845023401e-01 -8.82677839789186569064e-02 -6.61921633868574593035e-03 -6.01361411781586516212e-02 -6.61921633868574593035e-03 -6.01361411781586516212e-02 9.95490380405074537506e-01 -4.09702760484293715404e-02
9.98883736025837302208e+08 9.90241869409516528577e-01 -8.84580619947678975512e-02 -6.64813698012826394257e-03 -6.02657760812728218736e-02 -6.64813698012826394257e-03 -6.02657760812728218736e-02 9.95470677001427661779e-01 -4.10585952797941564074e-02
9.98886200184720635414e+08 9.90199142142001442757e-01 -8.86491512492049438254e-02 -6.67724672861884100544e-03 -6.03959636748029812803e-02 -6.67724672861884100544e-03 -6.03959636748029812803e-02 9.95450844760648712040e-01 -4.11472910547559939110e-02
9.98888664343604087830e+08 9.90156134888326544541e-01 -8.88410568708312697872e-02 -6.70654722945951322494e-03 -6.05267074528246379339e-02 -6.70654722945951322494e-03 -6.05267074528246379339e-02 9.95430882561806562592e-01 -4.12363657538008243630e-02
9.98891128502487421036e+08 9.90112845207326897068e-01 -8.90337840308504935294e-02 -6.73604014579660872325e-03 -6.06580109384378049486e-02 -6.73604014579660872325e-03 -6.06580109384378049486e-02 9.95410789271812701529e-01 -4.13258217771887356728e-02
9.98893592661370754242e+08 9.90069270631276143746e-01 -8.92273379436352431782e-02 -6.76572715887252019995e-03 -6.07898776841531846005e-02 -6.76572715887252019995e-03 -6.07898776841531846005e-02 9.95390563745250145367e-01 -4.14156615452171139591e-02
9.98896056820254087448e+08 9.90025408665558326327e-01 -8.94217238670918929122e-02 -6.79560996824935415611e-03 -6.09223112721407056291e-02 -6.79560996824935415611e-03 -6.09223112721407056291e-02 9.95370204824220450313e-01 -4.15058874983898970501e-02
9.98898520979137420654e+08 9.89981256788310060024e-01 -8.96169471031389303084e-02 -6.82569029205267688992e-03 -6.10553153145553875736e-02 -6.82569029205267688992e-03 -6.10553153145553875736e-02 9.95349711338178622100e-01 -4.15965020976396676611e-02
9.98900985138020873070e+08 9.89936812450068925884e-01 -8.98130129981384306426e-02 -6.85596986721086470301e-03 -6.11888934538313000733e-02 -6.85596986721086470301e-03 -6.11888934538313000733e-02 9.95329082103768914003e-01 -4.16875078245278682387e-02
9.98903449296904206276e+08 9.89892073073404432648e-01 -9.00099269433901200133e-02 -6.88645044970695539149e-03 -6.13230493630181824893e-02 -6.88645044970695539149e-03 -6.13230493630181824893e-02 9.95308315924654074536e-01 -4.17789071814741522215e-02
9.98905913455787539482e+08 9.89847036052564410724e-01 -9.02076943755338866993e-02 -6.91713381481924745320e-03 -6.14577867460556967472e-02 -6.91713381481924745320e-03 -6.14577867460556967472e-02 9.95287411591351034446e-01 -4.18707026919432345746e-02
9.98908377614670872688e+08 9.89801698753082215276e-01 -9.04063207771086674303e-02 -6.94802175738903817631e-03 -6.15931093381541089338e-02 -6.94802175738903817631e-03 -6.15931093381541089338e-02 9.95266367881048719113e-01 -4.19628969007042468276e-02
9.98910841773554325104e+08 9.89756058511413905343e-01 -9.06058116769573179683e-02 -6.97911609206754417895e-03 -6.17290209060702352306e-02 -6.97911609206754417895e-03 -6.17290209060702352306e-02 9.95245183557439627720e-01 -4.20554923740187394654e-02
9.98913305932437658310e+08 9.89710112634554661781e-01 -9.08061726507078254000e-02 -7.01041865357760873162e-03 -6.18655252484351797504e-02 -7.01041865357760873162e-03 -6.18655252484351797504e-02 9.95223857370541531431e-01 -4.21484916998639477792e-02
9.98915770091320991516e+08 9.89663858399632889729e-01 -9.10074093213283918935e-02 -7.04193129699016290290e-03 -6.20026261961326083383e-02 -7.04193129699016290290e-03 -6.20026261961326083383e-02 9.95202388056509512637e-01 -4.22418974881905370800e-02
9.98918234250204324722e+08 9.89617293053533186864e-01 -9.12095273595355110485e-02 -7.07365589798080937611e-03 -6.21403276125766651505e-02 -7.07365589798080937611e-03 -6.21403276125766651505e-02 9.95180774337460549717e-01 -4.23357123711119234799e-02
9.98920698409087777138e+08 9.89570413812476790127e-01 -9.14125324843703263022e-02 -7.10559435311601799573e-03 -6.22786333941047487439e-02 -7.10559435311601799573e-03 -6.22786333941047487439e-02 9.95159014921279005961e-01 -4.24299390031718653971e-02
9.98923162567971110344e+08 9.89523217861632442549e-01 -9.16164304636179205321e-02 -7.13774858011789661155e-03 -6.24175474702630822543e-02 -7.13774858011789661155e-03 -6.24175474702630822543e-02 9.95137108501435996288e-01 -4.25245800615390509569e-02
9.98925626726854443550e+08 9.89475702354676633909e-01 -9.18212271144289715608e-02 -7.17012051816418461564e-03 -6.25570738042302842974e-02 -7.17012051816418461564e-03 -6.25570738042302842974e-02 9.95115053756784995187e-01 -4.26196382462956380177e-02
9.98928090885737776756e+08 9.89427864413394919652e-01 -9.20269283037374180578e-02 -7.20271212815947955987e-03 -6.26972163931019121907e-02 -7.20271212815947955987e-03 -6.26972163931019121907e-02 9.95092849351377317646e-01 -4.27151162806311338049e-02
9.98930555044621229172e+08 9.89379701127237276559e-01 -9.22335399488586893391e-02 -7.23552539303843385982e-03 -6.28379792682980664598e-02 -7.23552539303843385982e-03 -6.28379792682980664598e-02 9.95070493934255395629e-01 -4.28110169111200616898e-02
9.98933019203504562378e+08 9.89331209552902879345e-01 -9.24410680179374583121e-02 -7.26856231804862314150e-03 -6.29793664958683413468e-02 -7.26856231804862314150e-03 -6.29793664958683413468e-02 9.95047986139259932337e-01 -4.29073429079297810618e-02
9.98935483362387895584e+08 9.89282386713874473116e-01 -9.26495185305877128057e-02 -7.30182493106756348722e-03 -6.31213821769280314378e-02 -7.30182493106756348722e-03 -6.31213821769280314378e-02 9.95025324584813963824e-01 -4.30040970651176177042e-02
9.98937947521271228790e+08 9.89233229599987828884e-01 -9.28588975583628517541e-02 -7.33531528289633593526e-03 -6.32640304479782922265e-02 -7.33531528289633593526e-03 -6.32640304479782922265e-02 9.95002507873723018861e-01 -4.31012822008489948633e-02
9.98940411680154561996e+08 9.89183735166968225450e-01 -9.30692112253396208743e-02 -7.36903544757508670998e-03 -6.34073154813040579247e-02 -7.36903544757508670998e-03 -6.34073154813040579247e-02 9.94979534592960068728e-01 -4.31989011576685427718e-02
9.98942875839038014412e+08 9.89133900335972704454e-01 -9.32804657086573757452e-02 -7.40298752269514821062e-03 -6.35512414853413865057e-02 -7.40298752269514821062e-03 -6.35512414853413865057e-02 9.94956403313452697468e-01 -4.32969568027503776131e-02
9.98945339997921347618e+08 9.89083721993119002747e-01 -9.34926672390878066299e-02 -7.43717362971988652648e-03 -6.36958127050655936729e-02 -7.43717362971988652648e-03 -6.36958127050655936729e-02 9.94933112589864832032e-01 -4.33954520281625219513e-02
9.98947804156804680824e+08 9.89033196989002161281e-01 -9.37058221016310866069e-02 -7.47159591431376720466e-03 -6.38410334223974695878e-02 -7.47159591431376720466e-03 -6.38410334223974695878e-02 9.94909660960372144167e-01 -4.34943897511436347592e-02
9.98950268315688014030e+08 9.88982322138218350460e-01 -9.39199366360617265981e-02 -7.50625654666731145781e-03 -6.39869079565751064376e-02 -7.50625654666731145781e-03 -6.39869079565751064376e-02 9.94886046946441116035e-01 -4.35937729143563851286e-02
9.98952732474571466446e+08 9.88931094218864603640e-01 -9.41350172375440968908e-02 -7.54115772183733788780e-03 -6.41334406645732574281e-02 -7.54115772183733788780e-03 -6.41334406645732574281e-02 9.94862269052597003594e-01 -4.36936044861731057165e-02
9.98955196633454799652e+08 9.88879509972052983535e-01 -9.43510703571682346480e-02 -7.57630166007846293785e-03 -6.42806359414684197473e-02 -7.57630166007846293785e-03 -6.42806359414684197473e-02 9.94838325766197906219e-01 -4.37938874609245729075e-02
9.98957660792338132858e+08 9.88827566101373678364e-01 -9.45681025026678945267e-02 -7.61169060720839549261e-03 -6.44284982209279710741e-02 -7.61169060720839549261e-03 -6.44284982209279710741e-02 9.94814215557185965721e-01 -4.38946248592331916827e-02
9.98960124951221466064e+08 9.88775259272411832789e-01 -9.47861202388934204199e-02 -7.64732683493772168876e-03 -6.45770319755323979338e-02 -7.64732683493772168876e-03 -6.45770319755323979338e-02 9.94789936877862768227e-01 -4.39958197282325907951e-02
