! File generated for n1 = 11, n2 = 4
! b1 = 0.046416
! b2 = 0.004642
! Q0 = 10000.000000
! f0 = 1000000000.000000
! n = 1001
! rel_span = 10.000000
# Hz S RI R 50
9.99474471261415123940e+08 9.99125977207340421060e-01 -8.74252575465053922976e-03 -2.76390275170541681836e-04 -2.76462938873780995561e-03 -2.76390275170541681836e-04 -2.76462938873780995561e-03 9.99912597720734042106e-01 -8.74252575465053814556e-04
9.99475522318892240524e+08 9.99122504524659338365e-01 -8.75970258070516739901e-03 -2.77488433856859452366e-04 -2.77006117806832471984e-03 -2.77488433856859452366e-04 -2.77006117806832471984e-03 9.99912250452465900530e-01 -8.75970258070516674849e-04
9.99476573376369476318e+08 9.99119011177667881718e-01 -8.77694631543977921151e-03 -2.78593127171884399375e-04 -2.77551412578123804856e-03 -2.78593127171884399375e-04 -2.77551412578123804856e-03 9.99911901117766843683e-01 -8.77694631543977856099e-04
9.99477624433846592903e+08 9.99115497002657448888e-01 -8.79425734625819376100e-03 -2.79704406884834775367e-04 -2.78098835438439408868e-03 -2.79704406884834775367e-04 -2.78098835438439408868e-03 9.99911549700265744889e-01 -8.79425734625819354416e-04
9.99478675491323828697e+08 9.99111961834299289187e-01 -8.81163606353169842622e-03 -2.80822325277227478196e-04 -2.78648398732403218200e-03 -2.80822325277227478196e-04 -2.78648398732403218200e-03 9.99911196183429940021e-01 -8.81163606353169625782e-04
9.99479726548800945282e+08 9.99108405505628738297e-01 -8.82908286061145214374e-03 -2.81946935147943064139e-04 -2.79200114898871211075e-03 -2.81946935147943064139e-04 -2.79200114898871211075e-03 9.99910840550562896034e-01 -8.82908286061145105954e-04
9.99480777606278181076e+08 9.99104827848021015413e-01 -8.84659813387883749158e-03 -2.83078289820792774328e-04 -2.79753996472523148650e-03 -2.83078289820792774328e-04 -2.79753996472523148650e-03 9.99910482784802101541e-01 -8.84659813387883619054e-04
9.99481828663755297661e+08 9.99101228691177345453e-01 -8.86418228274733419059e-03 -2.84216443149029357896e-04 -2.80310056083922379613e-03 -2.84216443149029357896e-04 -2.80310056083922379613e-03 9.99910122869117734545e-01 -8.86418228274733245586e-04
9.99482879721232533455e+08 9.99097607863099312908e-01 -8.88183570971638400304e-03 -2.85361449523275679824e-04 -2.80868306461218818215e-03 -2.85361449523275679824e-04 -2.80868306461218818215e-03 9.99909760786309886882e-01 -8.88183570971638313568e-04
9.99483930778709650040e+08 9.99093965190072763605e-01 -8.89955882038305674808e-03 -2.86513363876794485609e-04 -2.81428760430517919955e-03 -2.86513363876794485609e-04 -2.81428760430517919955e-03 9.99909396519007231952e-01 -8.89955882038305566388e-04
9.99484981836186766624e+08 9.99090300496645378203e-01 -8.91735202347901205477e-03 -2.87672241692462369103e-04 -2.81991430917049668362e-03 -2.87672241692462369103e-04 -2.81991430917049668362e-03 9.99909030049664582229e-01 -8.91735202347901075373e-04
9.99486032893664002419e+08 9.99086613605605466937e-01 -8.93521573090328216638e-03 -2.88838139009543596637e-04 -2.82556330946205245744e-03 -2.88838139009543596637e-04 -2.82556330946205245744e-03 9.99908661360560557796e-01 -8.93521573090328108217e-04
9.99487083951141119003e+08 9.99082904337962762753e-01 -8.95315035774310249983e-03 -2.90011112429754158194e-04 -2.83123473644195404117e-03 -2.90011112429754158194e-04 -2.83123473644195404117e-03 9.99908290433796254071e-01 -8.95315035774310098195e-04
9.99488135008618354797e+08 9.99079172512924551519e-01 -8.97115632231581562606e-03 -2.91191219124772523747e-04 -2.83692872239376140883e-03 -2.91191219124772523747e-04 -2.83692872239376140883e-03 9.99907917251292466254e-01 -8.97115632231581410817e-04
9.99489186066095471382e+08 9.99075417947876021074e-01 -8.98923404618941560007e-03 -2.92378516842425667174e-04 -2.84264540062897962461e-03 -2.92378516842425667174e-04 -2.84264540062897962461e-03 9.99907541794787579903e-01 -8.98923404618941473271e-04
9.99490237123572707176e+08 9.99071640458357279613e-01 -9.00738395422045860783e-03 -2.93573063914085710321e-04 -2.84838490549904751678e-03 -2.93573063914085710321e-04 -2.84838490549904751678e-03 9.99907164045835683552e-01 -9.00738395422045795731e-04
9.99491288181049823761e+08 9.99067839858041040202e-01 -9.02560647458382561692e-03 -2.94774919261607461652e-04 -2.85414737240475115468e-03 -2.94774919261607461652e-04 -2.85414737240475115468e-03 9.99906783985804126225e-01 -9.02560647458382540008e-04
9.99492339238527059555e+08 9.99064015958709639165e-01 -9.04390203880761633926e-03 -2.95984142404679903288e-04 -2.85993293780725799103e-03 -2.95984142404679903288e-04 -2.85993293780725799103e-03 9.99906401595870963916e-01 -9.04390203880761482137e-04
9.99493390296004176140e+08 9.99060168570233719798e-01 -9.06227108179491307183e-03 -2.97200793467386589937e-04 -2.86574173923499807629e-03 -2.97200793467386589937e-04 -2.86574173923499807629e-03 9.99906016857023405286e-01 -9.06227108179491198763e-04
9.99494441353481292725e+08 9.99056297500546808266e-01 -9.08071404187196437596e-03 -2.98424933186590001129e-04 -2.87157391529890186968e-03 -2.98424933186590001129e-04 -2.87157391529890186968e-03 9.99905629750054703031e-01 -9.08071404187196394228e-04
9.99495492410958528519e+08 9.99052402555622109936e-01 -9.09923136081362479710e-03 -2.99656622918895209143e-04 -2.87742960570044415194e-03 -2.99656622918895209143e-04 -2.87742960570044415194e-03 9.99905240255562155482e-01 -9.09923136081362306238e-04
9.99496543468435645103e+08 9.99048483539451082081e-01 -9.11782348386800355067e-03 -3.00895924647633604670e-04 -2.88330895123944073999e-03 -3.00895924647633604670e-04 -2.88330895123944073999e-03 9.99904848353945108208e-01 -9.11782348386800181594e-04
9.99497594525912880898e+08 9.99044540254015012160e-01 -9.13649085980991135236e-03 -3.02142900991848384947e-04 -2.88921209383094642828e-03 -3.02142900991848384947e-04 -2.88921209383094642828e-03 9.99904454025401512318e-01 -9.13649085980990983448e-04
9.99498645583389997482e+08 9.99040572499264478701e-01 -9.15523394095453871278e-03 -3.03397615212713193250e-04 -2.89513917650958485864e-03 -3.03397615212713193250e-04 -2.89513917650958485864e-03 9.99904057249926481177e-01 -9.15523394095453871278e-04
9.99499696640867233276e+08 9.99036580073089708343e-01 -9.17405318321481803856e-03 -3.04660131222953618930e-04 -2.90109034344768245209e-03 -3.04660131222953618930e-04 -2.90109034344768245209e-03 9.99903658007308959732e-01 -9.17405318321481738804e-04
9.99500747698344349861e+08 9.99032562771301368976e-01 -9.19294904610675270296e-03 -3.05930513592871892049e-04 -2.90706573995695889689e-03 -3.05930513592871892049e-04 -2.90706573995695889689e-03 9.99903256277130170204e-01 -9.19294904610675075139e-04
9.99501798755821585655e+08 9.99028520387598373276e-01 -9.21192199281768535346e-03 -3.07208827560677703774e-04 -2.91306551251011404749e-03 -3.07208827560677703774e-04 -2.91306551251011404749e-03 9.99902852038759837328e-01 -9.21192199281768426926e-04
9.99502849813298702240e+08 9.99024452713547117533e-01 -9.23097249021326803076e-03 -3.08495139038794088850e-04 -2.91908980874302885489e-03 -3.08495139038794088850e-04 -2.91908980874302885489e-03 9.99902445271354745060e-01 -9.23097249021326781392e-04
9.99503900870775818825e+08 9.99020359538550617451e-01 -9.25010100889779064703e-03 -3.09789514623843252866e-04 -2.92513877747384645756e-03 -3.09789514623843252866e-04 -2.92513877747384645756e-03 9.99902035953855072847e-01 -9.25010100889778934599e-04
9.99504951928253054619e+08 9.99016240649825082443e-01 -9.26930802323384407659e-03 -3.11092021603984832025e-04 -2.93121256870919029772e-03 -3.11092021603984832025e-04 -2.93121256870919029772e-03 9.99901624064982508244e-01 -9.26930802323384342607e-04
9.99506002985730171204e+08 9.99012095832371382897e-01 -9.28859401138547834120e-03 -3.12402727967930925797e-04 -2.93731133365780902253e-03 -3.12402727967930925797e-04 -2.93731133365780902253e-03 9.99901209583237138290e-01 -9.28859401138547812436e-04
9.99507054043207406998e+08 9.99007924868946739494e-01 -9.30795945535783757208e-03 -3.13721702413821321685e-04 -2.94343522474311246329e-03 -3.13721702413821321685e-04 -2.94343522474311246329e-03 9.99900792486894673949e-01 -9.30795945535783670471e-04
9.99508105100684523582e+08 9.99003727540037966826e-01 -9.32740484103211815736e-03 -3.15049014357878898011e-04 -2.94958439561422572708e-03 -3.15049014357878898011e-04 -2.94958439561422572708e-03 9.99900372754003785580e-01 -9.32740484103211663948e-04
9.99509156158161759377e+08 9.98999503623832274535e-01 -9.34693065820506492625e-03 -3.16384733943470355683e-04 -2.95575900115847963953e-03 -3.16384733943470355683e-04 -2.95575900115847963953e-03 9.99899950362383216351e-01 -9.34693065820506384205e-04
9.99510207215638875961e+08 9.98995252896188845604e-01 -9.36653740062580626724e-03 -3.17728932050085743216e-04 -2.96195919751305854553e-03 -3.17728932050085743216e-04 -2.96195919751305854553e-03 9.99899525289618895663e-01 -9.36653740062580518304e-04
9.99511258273116111755e+08 9.98990975130608083177e-01 -9.38622556604455995921e-03 -3.19081680303234620482e-04 -2.96818514208040075061e-03 -3.19081680303234620482e-04 -2.96818514208040075061e-03 9.99899097513060830522e-01 -9.38622556604455844133e-04
9.99512309330593228340e+08 9.98986670098205631341e-01 -9.40599565623274902482e-03 -3.20443051082483140995e-04 -2.97443699353456365506e-03 -3.20443051082483140995e-04 -2.97443699353456365506e-03 9.99898667009820552032e-01 -9.40599565623274859114e-04
9.99513360388070344925e+08 9.98982337567677181056e-01 -9.42584817704826029294e-03 -3.21813117532697120018e-04 -2.98071491184185525386e-03 -3.21813117532697120018e-04 -2.98071491184185525386e-03 9.99898233756767673697e-01 -9.42584817704825834138e-04
9.99514411445547580719e+08 9.98977977305271269692e-01 -9.44578363845959695366e-03 -3.23191953572569772545e-04 -2.98701905826847732839e-03 -3.23191953572569772545e-04 -2.98701905826847732839e-03 9.99897797730527115867e-01 -9.44578363845959608630e-04
9.99515462503024697304e+08 9.98973589074758638873e-01 -9.46580255458601659002e-03 -3.24579633904351072538e-04 -2.99334959539321321387e-03 -3.24579633904351072538e-04 -2.99334959539321321387e-03 9.99897358907475886092e-01 -9.46580255458601572266e-04
9.99516513560501933098e+08 9.98969172637397484493e-01 -9.48590544375404326471e-03 -3.25976234024826384134e-04 -2.99970668712530282377e-03 -3.25976234024826384134e-04 -2.99970668712530282377e-03 9.99896917263739748449e-01 -9.48590544375404261419e-04
9.99517564617979049683e+08 9.98964727751906367281e-01 -9.50609282851750184151e-03 -3.27381830233878731457e-04 -3.00609049871077308944e-03 -3.27381830233878731457e-04 -3.00609049871077308944e-03 9.99896472775190670035e-01 -9.50609282851750097415e-04
9.99518615675456285477e+08 9.98960254174425577034e-01 -9.52636523572894522438e-03 -3.28796499646735729521e-04 -3.01250119675503186603e-03 -3.28796499646735729521e-04 -3.01250119675503186603e-03 9.99896025417442602112e-01 -9.52636523572894435702e-04
9.99519666732933402061e+08 9.98955751658491375444e-01 -9.54672319654986493986e-03 -3.30220320202072802843e-04 -3.01893894922608974768e-03 -3.30220320202072802843e-04 -3.01893894922608974768e-03 9.99895575165849148647e-01 -9.54672319654986450618e-04
9.99520717790410637856e+08 9.98951219954994584782e-01 -9.56716724653088219921e-03 -3.31653370675115172390e-04 -3.02540392547992302574e-03 -3.31653370675115172390e-04 -3.02540392547992302574e-03 9.99895121995499458478e-01 -9.56716724653088111500e-04
9.99521768847887754440e+08 9.98946658812155496854e-01 -9.58769792561625124050e-03 -3.33095730685572589177e-04 -3.03189629626189789680e-03 -3.33095730685572589177e-04 -3.03189629626189789680e-03 9.99894665881215560788e-01 -9.58769792561624993946e-04
9.99522819905364990234e+08 9.98942067975482017594e-01 -9.60831577822426549651e-03 -3.34547480711007763892e-04 -3.03841623373219456988e-03 -3.34547480711007763892e-04 -3.03841623373219456988e-03 9.99894206797548146248e-01 -9.60831577822426397863e-04
9.99523870962842106819e+08 9.98937447187739246957e-01 -9.62902135326772212753e-03 -3.36008702096130039503e-04 -3.04496391147228125454e-03 -3.36008702096130039503e-04 -3.04496391147228125454e-03 9.99893744718773902491e-01 -9.62902135326772104333e-04
9.99524922020319223404e+08 9.98932796188911287238e-01 -9.64981520421724463243e-03 -3.37479477065226799153e-04 -3.05153950450493590546e-03 -3.37479477065226799153e-04 -3.05153950450493590546e-03 9.99893279618891184235e-01 -9.64981520421724441559e-04
9.99525973077796459198e+08 9.98928114716166493103e-01 -9.67069788914015973647e-03 -3.38959888733005054208e-04 -3.05814318930654237619e-03 -3.38959888733005054208e-04 -3.05814318930654237619e-03 9.99892811471616682617e-01 -9.67069788914015800174e-04
9.99527024135273575783e+08 9.98923402503822610576e-01 -9.69166997073863355217e-03 -3.40450021115506324364e-04 -3.06477514381915065039e-03 -3.40450021115506324364e-04 -3.06477514381915065039e-03 9.99892340250382205546e-01 -9.69166997073863181744e-04
9.99528075192750811577e+08 9.98918659283306809016e-01 -9.71273201641268020545e-03 -3.41949959142918166830e-04 -3.07143554747039927363e-03 -3.41949959142918166830e-04 -3.07143554747039927363e-03 9.99891865928330680902e-01 -9.71273201641267955493e-04
9.99529126250227928162e+08 9.98913884783119265798e-01 -9.73388459830285684982e-03 -3.43459788671086397628e-04 -3.07812458118701800722e-03 -3.43459788671086397628e-04 -3.07812458118701800722e-03 9.99891388478311937682e-01 -9.73388459830285554877e-04
9.99530177307705163956e+08 9.98909078728795418733e-01 -9.75512829333454074832e-03 -3.44979596493273643620e-04 -3.08484242740883008241e-03 -3.44979596493273643620e-04 -3.08484242740883008241e-03 9.99890907872879597384e-01 -9.75512829333453901359e-04
9.99531228365182280540e+08 9.98904240842866997241e-01 -9.77646368327056772274e-03 -3.46509470352654880970e-04 -3.09158927010539817323e-03 -3.46509470352654880970e-04 -3.09158927010539817323e-03 9.99890424084286744133e-01 -9.77646368327056772274e-04
9.99532279422659516335e+08 9.98899370844821721249e-01 -9.79789135476457490048e-03 -3.48049498955009431033e-04 -3.09836529479289067915e-03 -3.48049498955009431033e-04 -3.09836529479289067915e-03 9.99889937084482149920e-01 -9.79789135476457316576e-04
9.99533330480136632919e+08 9.98894468451065220549e-01 -9.81941189940363154398e-03 -3.49599771980792033664e-04 -3.10517068854756529694e-03 -3.49599771980792033664e-04 -3.10517068854756529694e-03 9.99889446845106499850e-01 -9.81941189940362980926e-04
9.99534381537613749504e+08 9.98889533374878180183e-01 -9.84102591376731158923e-03 -3.51160380098530279253e-04 -3.11200564002444765577e-03 -3.51160380098530279253e-04 -3.11200564002444765577e-03 9.99888953337487840223e-01 -9.84102591376730942083e-04
9.99535432595090985298e+08 9.98884565326375928329e-01 -9.86273399947952891798e-03 -3.52731414977859808815e-04 -3.11887033947372445397e-03 -3.52731414977859808815e-04 -3.11887033947372445397e-03 9.99888456532637581731e-01 -9.86273399947952761693e-04
9.99536483652568101883e+08 9.98879564012470244627e-01 -9.88453676324258304065e-03 -3.54312969301418770763e-04 -3.12576497875150741829e-03 -3.54312969301418770763e-04 -3.12576497875150741829e-03 9.99887956401247057769e-01 -9.88453676324258130592e-04
9.99537534710045337677e+08 9.98874529136818511965e-01 -9.90643481692694664875e-03 -3.55905136780941230065e-04 -3.13268975134823116080e-03 -3.55905136780941230065e-04 -3.13268975134823116080e-03 9.99887452913681862299e-01 -9.90643481692694664875e-04
9.99538585767522454262e+08 9.98869460399790520810e-01 -9.92842877758241121322e-03 -3.57508012167805479600e-04 -3.13964485239217033080e-03 -3.57508012167805479600e-04 -3.13964485239217033080e-03 9.99886946039979074285e-01 -9.92842877758240947850e-04
9.99539636824999690056e+08 9.98864357498416399750e-01 -9.95051926752936813370e-03 -3.59121691269566496989e-04 -3.14663047867831452073e-03 -3.59121691269566496989e-04 -3.14663047867831452073e-03 9.99886435749841595566e-01 -9.95051926752936813370e-04
9.99540687882476806641e+08 9.98859220126347535640e-01 -9.97270691438722003963e-03 -3.60746270962078409081e-04 -3.15364682867734329175e-03 -3.60746270962078409081e-04 -3.15364682867734329175e-03 9.99885922012634709155e-01 -9.97270691438722003963e-04
9.99541738939954042435e+08 9.98854047973808945038e-01 -9.99499235114517312062e-03 -3.62381849204875309232e-04 -3.16069410255802015278e-03 -3.62381849204875309232e-04 -3.16069410255802015278e-03 9.99885404797380861197e-01 -9.99499235114517095221e-04
9.99542789997431159019e+08 9.98848840727554310170e-01 -1.00173762162104502960e-02 -3.64028525055074415450e-04 -3.16777250220243557569e-03 -3.64028525055074415450e-04 -3.16777250220243557569e-03 9.99884884072755442119e-01 -1.00173762162104494286e-03
9.99543841054908275604e+08 9.98843598070818461387e-01 -1.00398591534724586360e-02 -3.65686398682622338177e-04 -3.17488223122629675474e-03 -3.65686398682622338177e-04 -3.17488223122629675474e-03 9.99884359807081901650e-01 -1.00398591534724569013e-03
9.99544892112385511398e+08 9.98838319683269748595e-01 -1.00624418123618410842e-02 -3.67355571385350040611e-04 -3.18202349499760624163e-03 -3.67355571385350040611e-04 -3.18202349499760624163e-03 9.99883831968326974859e-01 -1.00624418123618393495e-03
9.99545943169862627983e+08 9.98833005240965743354e-01 -1.00851248478899171296e-02 -3.69036145602752723056e-04 -3.18919650064913070414e-03 -3.69036145602752723056e-04 -3.18919650064913070414e-03 9.99883300524096574335e-01 -1.00851248478899175633e-03
9.99546994227339863777e+08 9.98827654416299393070e-01 -1.01079089207341266121e-02 -3.70728224933355597539e-04 -3.19640145710541967797e-03 -3.70728224933355597539e-04 -3.19640145710541967797e-03 9.99882765441629906000e-01 -1.01079089207341266121e-03
9.99548045284816980362e+08 9.98822266877952058550e-01 -1.01307946972825375226e-02 -3.72431914149243497962e-04 -3.20363857509688458244e-03 -3.72431914149243497962e-04 -3.20363857509688458244e-03 9.99882226687795250264e-01 -1.01307946972825375226e-03
9.99549096342294216156e+08 9.98816842290842665797e-01 -1.01537828497005825495e-02 -3.74147319212425936118e-04 -3.21090806718089686114e-03 -3.74147319212425936118e-04 -3.21090806718089686114e-03 9.99881684229084299886e-01 -1.01537828497005812485e-03
9.99550147399771332741e+08 9.98811380316078079034e-01 -1.01768740559828232278e-02 -3.75874547290281127952e-04 -3.21821014775816420517e-03 -3.75874547290281127952e-04 -3.21821014775816420517e-03 9.99881138031607830108e-01 -1.01768740559828214931e-03
9.99551198457248568535e+08 9.98805880610897256489e-01 -1.02000690000334567203e-02 -3.77613706773345311762e-04 -3.22554503309818154863e-03 -3.77613706773345311762e-04 -3.22554503309818154863e-03 9.99880588061089703444e-01 -1.02000690000334545519e-03
9.99552249514725685120e+08 9.98800342828624732050e-01 -1.02233683717037233951e-02 -3.79364907290080503356e-04 -3.23291294135106578589e-03 -3.79364907290080503356e-04 -3.23291294135106578589e-03 9.99880034282862428796e-01 -1.02233683717037207930e-03
9.99553300572202801704e+08 9.98794766618608886866e-01 -1.02467728668875959069e-02 -3.81128259726216174919e-04 -3.24031409257781368577e-03 -3.81128259726216174919e-04 -3.24031409257781368577e-03 9.99879476661860944198e-01 -1.02467728668875941722e-03
9.99554351629680037498e+08 9.98789151626175097931e-01 -1.02702831875569455117e-02 -3.82903876239757215167e-04 -3.24774870876142146905e-03 -3.82903876239757215167e-04 -3.24774870876142146905e-03 9.99878915162617509793e-01 -1.02702831875569429096e-03
9.99555402687157154083e+08 9.98783497492566230136e-01 -1.02939000418429595779e-02 -3.84691870279680291078e-04 -3.25521701383263330903e-03 -3.84691870279680291078e-04 -3.25521701383263330903e-03 9.99878349749256600809e-01 -1.02939000418429595779e-03
9.99556453744634389877e+08 9.98777803854886236934e-01 -1.03176241441025016987e-02 -3.86492356603718612441e-04 -3.26271923369092367931e-03 -3.86492356603718612441e-04 -3.26271923369092367931e-03 9.99877780385488579284e-01 -1.03176241441025012650e-03
