! File generated for n1 = 9, n2 = 5
! b1 = 0.215443
! b2 = 0.010000
! Q0 = 10000.000000
! f0 = 1000000000.000000
! n = 1001
! rel_span = 10.000000
# Hz S RI R 50
9.99387278265498399734e+08 9.96520754415922804803e-01 -3.48031214227526031202e-02 -7.49580738147607832100e-04 -7.49810521145700178275e-03 -7.49580738147607832100e-04 -7.49810521145700178275e-03 9.99838507725475555965e-01 -1.61541779770718162829e-03
9.99388503708967447281e+08 9.96506930000271351489e-01 -3.48715037557433341076e-02 -7.52559118212497600228e-04 -7.51283773849505554648e-03 -7.52559118212497600228e-04 -7.51283773849505554648e-03 9.99837866052942336736e-01 -1.61859182443944331700e-03
9.99389729152436375618e+08 9.96493023320731863279e-01 -3.49401524579282182770e-02 -7.55555221494804037097e-04 -7.52762765303633448605e-03 -7.55555221494804037097e-04 -7.52762765303633448605e-03 9.99837220562057704676e-01 -1.62177821493447705224e-03
9.99390954595905423164e+08 9.96479033725573559721e-01 -3.50090690716329810961e-02 -7.58569188405667105962e-04 -7.54247528736484013079e-03 -7.58569188405667105962e-04 -7.54247528736484013079e-03 9.99836571222570968942e-01 -1.62497704078070118704e-03
9.99392180039374470711e+08 9.96464960556627032950e-01 -3.50782551509438156323e-02 -7.61601160743377906225e-04 -7.55738097629829637392e-03 -7.61601160743377906225e-04 -7.55738097629829637392e-03 9.99835918003932566656e-01 -1.62818837411240753370e-03
9.99393405482843399048e+08 9.96450803149206199016e-01 -3.51477122618276474619e-02 -7.64651281710203648001e-04 -7.57234505721404802664e-03 -7.64651281710203648001e-04 -7.57234505721404802664e-03 9.99835260875290621208e-01 -1.63141228761534131872e-03
9.99394630926312446594e+08 9.96436560832016260392e-01 -3.52174419823171394595e-02 -7.67719695932241995989e-04 -7.58736787008892649836e-03 -7.67719695932241995989e-04 -7.58736787008892649836e-03 9.99834599805486279323e-01 -1.63464885453529088291e-03
9.99395856369781374931e+08 9.96422232927097528687e-01 -3.52874459025144596169e-02 -7.70806549471491383833e-04 -7.60244975750005991255e-03 -7.70806549471491383833e-04 -7.60244975750005991255e-03 9.99833934763051490613e-01 -1.63789814867826093690e-03
9.99397081813250422478e+08 9.96407818749726503782e-01 -3.53577256248009466622e-02 -7.73911989847143769010e-04 -7.61759106467004096924e-03 -7.73911989847143769010e-04 -7.61759106467004096924e-03 9.99833265716204122597e-01 -1.64116024442020457669e-03
9.99398307256719470024e+08 9.96393317608342932168e-01 -3.54282827639158942601e-02 -7.77036166051310660079e-04 -7.63279213948390641842e-03 -7.77036166051310660079e-04 -7.63279213948390641842e-03 9.99832592632844963099e-01 -1.64443521671068094807e-03
9.99399532700188398361e+08 9.96378728804478419612e-01 -3.54991189470261550576e-02 -7.80179228564500644796e-04 -7.64805333250412507085e-03 -7.80179228564500644796e-04 -7.64805333250412507085e-03 9.99831915480553834463e-01 -1.64772314107608400073e-03
9.99400758143657445908e+08 9.96364051632648295431e-01 -3.55702358139635341217e-02 -7.83341329378731002567e-04 -7.66337499702175305866e-03 -7.83341329378731002567e-04 -7.66337499702175305866e-03 9.99831234226585041647e-01 -1.65102409363066470437e-03
9.99401983587126493454e+08 9.96349285380292104541e-01 -3.56416350172301318877e-02 -7.86522622010536395787e-04 -7.67875748905757268131e-03 -7.86522622010536395787e-04 -7.67875748905757268131e-03 9.99830548837864596656e-01 -1.65433815107677564468e-03
9.99403209030595421791e+08 9.96334429327679793609e-01 -3.57133182221582023974e-02 -7.89723261521017719580e-04 -7.69420116739654227911e-03 -7.89723261521017719580e-04 -7.69420116739654227911e-03 9.99829859280985444592e-01 -1.65766539071229282096e-03
9.99404434474064469337e+08 9.96319482747817120050e-01 -3.57852871070756528571e-02 -7.92943404536359435289e-04 -7.70970639362345000478e-03 -7.92943404536359435289e-04 -7.70970639362345000478e-03 9.99829165522203466843e-01 -1.66100589043829678475e-03
9.99405659917533397675e+08 9.96304444906371711177e-01 -3.58575433633624915397e-02 -7.96183209263672149458e-04 -7.72527353213506989826e-03 -7.96183209263672149458e-04 -7.72527353213506989826e-03 9.99828467527434150419e-01 -1.66435972876169337338e-03
9.99406885361002445221e+08 9.96289315061570812659e-01 -3.59300886956419804341e-02 -7.99442835513060681696e-04 -7.74090295018135029353e-03 -7.99442835513060681696e-04 -7.74090295018135029353e-03 9.99827765262247369904e-01 -1.66772698480408508581e-03
9.99408110804471492767e+08 9.96274092464125349267e-01 -3.60029248218393313485e-02 -8.02722444713962449310e-04 -7.75659501787806168749e-03 -8.02722444713962449310e-04 -7.75659501787806168749e-03 9.99827058691864056783e-01 -1.67110773830449741741e-03
9.99409336247940421104e+08 9.96258776357126896173e-01 -3.60760534733662319162e-02 -8.06022199937339025796e-04 -7.77235010824654359157e-03 -8.06022199937339025796e-04 -7.77235010824654359157e-03 9.99826347781151869576e-01 -1.67450206962794210554e-03
9.99410561691409468651e+08 9.96243365975959083158e-01 -3.61494763952316944255e-02 -8.09342265914775121048e-04 -7.78816859723758820461e-03 -8.09342265914775121048e-04 -7.78816859723758820461e-03 9.99825632494620419877e-01 -1.67791005977056123522e-03
9.99411787134878516197e+08 9.96227860548203891788e-01 -3.62231953461737768429e-02 -8.12682809058733429501e-04 -7.80405086375982742775e-03 -8.12682809058733429501e-04 -7.80405086375982742775e-03 9.99824912796417164529e-01 -1.68133179036574560879e-03
9.99413012578347444534e+08 9.96212259293549284855e-01 -3.62972120987762533750e-02 -8.16043997482336766133e-04 -7.81999728970485426249e-03 -8.16043997482336766133e-04 -7.81999728970485426249e-03 9.99824188650323186778e-01 -1.68476734368954491478e-03
9.99414238021816492081e+08 9.96196561423683513148e-01 -3.63715284396469162864e-02 -8.19426001022178487551e-04 -7.83600825998565300723e-03 -8.19426001022178487551e-04 -7.83600825998565300723e-03 9.99823460019748422312e-01 -1.68821680266894712935e-03
9.99415463465285420418e+08 9.96180766142207074765e-01 -3.64461461695072194700e-02 -8.22828991257331591840e-04 -7.85208416255590152533e-03 -8.22828991257331591840e-04 -7.85208416255590152533e-03 9.99822726867727107347e-01 -1.69168025088603860007e-03
9.99416688908754467964e+08 9.96164872644526133705e-01 -3.65210671033638703542e-02 -8.26253141532310385851e-04 -7.86822538844693560034e-03 -8.26253141532310385851e-04 -7.86822538844693560034e-03 9.99821989156913448760e-01 -1.69515777258596707713e-03
9.99417914352223515511e+08 9.96148880117754820240e-01 -3.65962930706315997531e-02 -8.29698626978052182490e-04 -7.88443233179421561208e-03 -8.29698626978052182490e-04 -7.88443233179421561208e-03 9.99821246849576628080e-01 -1.69864945268264331581e-03
9.99419139795692443848e+08 9.96132787740616754135e-01 -3.66718259152572154114e-02 -8.33165624533177963211e-04 -7.90070538986403780868e-03 -8.33165624533177963211e-04 -7.90070538986403780868e-03 9.99820499907596360600e-01 -1.70215537676449602152e-03
9.99420365239161491394e+08 9.96116594683329026338e-01 -3.67476674959205523718e-02 -8.36654312969031376673e-04 -7.91704496309683126987e-03 -8.36654312969031376673e-04 -7.91704496309683126987e-03 9.99819748292457455285e-01 -1.70567563110380075904e-03
9.99421590682630538940e+08 9.96100300107510050474e-01 -3.68238196861140551497e-02 -8.40164872909396256290e-04 -7.93345145512431085266e-03 -8.40164872909396256290e-04 -7.93345145512431085266e-03 9.99818991965245817966e-01 -1.70921030266037404614e-03
9.99422816126099467278e+08 9.96083903166068540536e-01 -3.69002843743127528775e-02 -8.43697486854602771329e-04 -7.94992527280608506091e-03 -8.43697486854602771329e-04 -7.94992527280608506091e-03 9.99818230886642789201e-01 -1.71275947908946157491e-03
9.99424041569568514824e+08 9.96067403003089046898e-01 -3.69770634641464202019e-02 -8.47252339206006109887e-04 -7.96646682626675831096e-03 -8.47252339206006109887e-04 -7.96646682626675831096e-03 9.99817465016920370324e-01 -1.71632324874973073332e-03
9.99425267013037443161e+08 9.96050798753729371704e-01 -3.70541588745181837972e-02 -8.50829616288249703134e-04 -7.98307652892147473489e-03 -8.50829616288249703134e-04 -7.98307652892147473489e-03 9.99816694315936227433e-01 -1.71990170070877444915e-03
9.99426492456506490707e+08 9.96034089544106215897e-01 -3.71315725397661777762e-02 -8.54429506373775783830e-04 -7.99975479751075316259e-03 -8.54429506373775783830e-04 -7.99975479751075316259e-03 9.99815918743128140278e-01 -1.72349492475061538688e-03
9.99427717899975538254e+08 9.96017274491181381357e-01 -3.72093064098202239154e-02 -8.58052199707378662405e-04 -8.01650205213424137118e-03 -8.58052199707378662405e-04 -8.01650205213424137118e-03 9.99815138257509228303e-01 -1.72710301138297942641e-03
9.99428943343444466591e+08 9.96000352702650859626e-01 -3.72873624503391384866e-02 -8.61697888530121359520e-04 -8.03331871628028965082e-03 -8.61697888530121359520e-04 -8.03331871628028965082e-03 9.99814352817662399531e-01 -1.73072605184366556767e-03
9.99430168786913514137e+08 9.95983323276820042835e-01 -3.73657426429062911044e-02 -8.65366767106255370227e-04 -8.05020521686809417683e-03 -8.65366767106255370227e-04 -8.05020521686809417683e-03 9.99813562381734577400e-01 -1.73436413810962655746e-03
9.99431394230382561684e+08 9.95966185302494144693e-01 -3.74444489851458867102e-02 -8.69059031746713915589e-04 -8.06716198427274641669e-03 -8.69059031746713915589e-04 -8.06716198427274641669e-03 9.99812766907431926811e-01 -1.73801736290236496368e-03
9.99432619673851490021e+08 9.95948937858856520045e-01 -3.75234834908938011400e-02 -8.72774880835435937741e-04 -8.08418945236202834970e-03 -8.72774880835435937741e-04 -8.08418945236202834970e-03 9.99811966352013969939e-01 -1.74168581969586107848e-03
9.99433845117320537567e+08 9.95931580015338879797e-01 -3.76028481903957767507e-02 -8.76514514857280402707e-04 -8.10128805853913003254e-03 -8.76514514857280402707e-04 -8.10128805853913003254e-03 9.99811160672287480011e-01 -1.74536960272577497573e-03
9.99435070560789465904e+08 9.95914110831512822131e-01 -3.76825451304036579403e-02 -8.80278136421431081117e-04 -8.11845824376336740180e-03 -8.80278136421431081117e-04 -8.11845824376336740180e-03 9.99810349824601707347e-01 -1.74906880699391190613e-03
9.99436296004258513451e+08 9.95896529356945170441e-01 -3.77625763744278350464e-02 -8.84065950292467397226e-04 -8.13570045260457626324e-03 -8.84065950292467397226e-04 -8.13570045260457626324e-03 9.99809533764841384951e-01 -1.75278352827993970375e-03
9.99437521447727560997e+08 9.95878834631089615570e-01 -3.78429440028226482529e-02 -8.87878163413859306831e-04 -8.15301513326151423844e-03 -8.87878163413859306831e-04 -8.15301513326151423844e-03 9.99808712448421954555e-01 -1.75651386314535241234e-03
9.99438746891196489334e+08 9.95861025683149048149e-01 -3.79236501129923547770e-02 -8.91714984937460090030e-04 -8.17040273760622978716e-03 -8.91714984937460090030e-04 -8.17040273760622978716e-03 9.99807885830282905282e-01 -1.76025990894303294848e-03
9.99439972334665536880e+08 9.95843101531938001969e-01 -3.80046968195965131909e-02 -8.95576626253309225796e-04 -8.18786372122831326847e-03 -8.95576626253309225796e-04 -8.18786372122831326847e-03 9.99807053864881778438e-01 -1.76402176382678258816e-03
9.99441197778134584427e+08 9.95825061185765303406e-01 -3.80860862546510067772e-02 -8.99463301014789243411e-04 -8.20539854345666251623e-03 -8.99463301014789243411e-04 -8.20539854345666251623e-03 9.99806216506188283333e-01 -1.76779952675601230959e-03
9.99442423221603512764e+08 9.95806903642285412559e-01 -3.81678205677666165796e-02 -9.03375225170655873561e-04 -8.22300766741088269562e-03 -9.03375225170655873561e-04 -8.22300766741088269562e-03 9.99805373707677746964e-01 -1.77159329750681683417e-03
9.99443648665072560310e+08 9.95788627888364530349e-01 -3.82499019263167899796e-02 -9.07312616994036119644e-04 -8.24069156003742579741e-03 -9.07312616994036119644e-04 -8.24069156003742579741e-03 9.99804525422324452677e-01 -1.77540317667975919812e-03
9.99444874108541607857e+08 9.95770232899947926875e-01 -3.83323325155847938195e-02 -9.11275697110770603604e-04 -8.25845069214130138302e-03 -9.11275697110770603604e-04 -8.25845069214130138302e-03 9.99803671602596200074e-01 -1.77922926570670404504e-03
9.99446099552010536194e+08 9.95751717641915945478e-01 -3.84151145389647480366e-02 -9.15264688530676101888e-04 -8.27628553842938222140e-03 -9.15264688530676101888e-04 -8.27628553842938222140e-03 9.99802812200446866520e-01 -1.78307166686014675200e-03
9.99447324995479583740e+08 9.95733081067934011621e-01 -3.84982502181729566160e-02 -9.19279816679667636896e-04 -8.29419657755593557613e-03 -9.19279816679667636896e-04 -8.29419657755593557613e-03 9.99801947167309967845e-01 -1.78693048326302307387e-03
9.99448550438948512077e+08 9.95714322120315520337e-01 -3.85817417934014306180e-02 -9.23321309429454557642e-04 -8.31218429215569744317e-03 -9.23321309429454557642e-04 -8.31218429215569744317e-03 9.99801076454091997014e-01 -1.79080581889583517058e-03
9.99449775882417559624e+08 9.95695439729871178969e-01 -3.86655915235185193568e-02 -9.27389397129865160167e-04 -8.33024916888710532936e-03 -9.27389397129865160167e-04 -8.33024916888710532936e-03 9.99800200011165540737e-01 -1.79469777860596468692e-03
9.99451001325886607170e+08 9.95676432815760348305e-01 -3.87498016862568295249e-02 -9.31484312640928446662e-04 -8.34839169847276935110e-03 -9.31484312640928446662e-04 -8.34839169847276935110e-03 9.99799317788362618131e-01 -1.79860646811639320747e-03
9.99452226769355535507e+08 9.95657300285336832602e-01 -3.88343745784186580861e-02 -9.35606291366185695117e-04 -8.36661237574374584691e-03 -9.35606291366185695117e-04 -8.36661237574374584691e-03 9.99798429734966909166e-01 -1.80253199403523998307e-03
9.99453452212824583054e+08 9.95638041033994558582e-01 -3.89193125160687547481e-02 -9.39755571285769792864e-04 -8.38491169968105971855e-03 -9.39755571285769792864e-04 -8.38491169968105971855e-03 9.99797535799707093318e-01 -1.80647446386470789982e-03
9.99454677656293630600e+08 9.95618653945016696127e-01 -3.90046178347099037342e-02 -9.43932392989031482031e-04 -8.40329017345353181112e-03 -9.43932392989031482031e-04 -8.40329017345353181112e-03 9.99796635930749966192e-01 -1.81043398600923320999e-03
9.99455903099762558937e+08 9.95599137889410346069e-01 -3.90902928895109844087e-02 -9.48136999710122874846e-04 -8.42174830446691322083e-03 -9.48136999710122874846e-04 -8.42174830446691322083e-03 9.99795730075692223870e-01 -1.81441066978607168196e-03
9.99457128543231606483e+08 9.95579491725739562646e-01 -3.91763400555341506637e-02 -9.52369637363960222856e-04 -8.44028660441283745675e-03 -9.52369637363960222856e-04 -8.44028660441283745675e-03 9.99794818181553024417e-01 -1.81840462543584311696e-03
9.99458353986700534821e+08 9.95559714299981912689e-01 -3.92627617278514806642e-02 -9.56630554577156096488e-04 -8.45890558929394097143e-03 -9.56630554577156096488e-04 -8.45890558929394097143e-03 9.99793900194767437561e-01 -1.82241596412794585463e-03
9.99459579430169582367e+08 9.95539804445336740102e-01 -3.93495603218626532893e-02 -9.60920002729254087333e-04 -8.47760577949230667572e-03 -9.60920002729254087333e-04 -8.47760577949230667572e-03 9.99792976061177451896e-01 -1.82644479797530148897e-03
9.99460804873638629913e+08 9.95519760982073509403e-01 -3.94367382734320467974e-02 -9.65238235985509335571e-04 -8.49638769979900974894e-03 -9.65238235985509335571e-04 -8.49638769979900974894e-03 9.99792045726024758423e-01 -1.83049124004071870134e-03
9.99462030317107558250e+08 9.95499582717356501504e-01 -3.95242980391179929422e-02 -9.69585511334629716017e-04 -8.51525187946349654267e-03 -9.69585511334629716017e-04 -8.51525187946349654267e-03 9.99791109133942867970e-01 -1.83455540434753513850e-03
9.99463255760576605797e+08 9.95479268445059739534e-01 -3.96122420964328328385e-02 -9.73962088628505342526e-04 -8.53419885224961961845e-03 -9.73962088628505342526e-04 -8.53419885224961961845e-03 9.99790166228948229410e-01 -1.83863740589168675119e-03
9.99464481204045653343e+08 9.95458816945609337168e-01 -3.97005729439827009797e-02 -9.78368230616407123443e-04 -8.55322915646575601678e-03 -9.78368230616407123443e-04 -8.55322915646575601678e-03 9.99789216954433457296e-01 -1.84273736064819696097e-03
9.99465706647514581680e+08 9.95438226985787544265e-01 -3.97892931017567660912e-02 -9.82804202987069743663e-04 -8.57234333502710985075e-03 -9.82804202987069743663e-04 -8.57234333502710985075e-03 9.99788261253157561903e-01 -1.84685538558460146837e-03
9.99466932090983629227e+08 9.95417497318552557672e-01 -3.98784051113401025179e-02 -9.87270274407456120691e-04 -8.59154193550159053783e-03 -9.87270274407456120691e-04 -8.59154193550159053783e-03 9.99787299067237955619e-01 -1.85099159867082967146e-03
9.99468157534452557564e+08 9.95396626682864105184e-01 -3.99679115360966827342e-02 -9.91766716560478966622e-04 -8.61082551014921877830e-03 -9.91766716560478966622e-04 -8.61082551014921877830e-03 9.99786330338142348317e-01 -1.85514611888769700467e-03
9.99469382977921605110e+08 9.95375613803480607800e-01 -4.00578149614598325035e-02 -9.96293804188598617483e-04 -8.63019461598472578667e-03 -9.96293804188598617483e-04 -8.63019461598472578667e-03 9.99785355006679199441e-01 -1.85931906624038851064e-03
9.99470608421390652657e+08 9.95354457390780433812e-01 -4.01481179951127323258e-02 -1.00085181513238636979e-03 -8.64964981481641803640e-03 -1.00085181513238636979e-03 -8.64964981481641803640e-03 9.99784373012989724394e-01 -1.86351056176683495258e-03
9.99471833864859580994e+08 9.95333156140558950042e-01 -4.02388232672606094287e-02 -1.00544103037420611869e-03 -8.66919167330483519951e-03 -1.00544103037420611869e-03 -8.66919167330483519951e-03 9.99783384296538013558e-01 -1.86772072755034897369e-03
9.99473059308328628540e+08 9.95311708733830236007e-01 -4.03299334308740847765e-02 -1.01006173408095664343e-03 -8.68882076301517002059e-03 -1.01006173408095664343e-03 -8.68882076301517002059e-03 9.99782388796102261530e-01 -1.87194968673091814704e-03
9.99474284751797676086e+08 9.95290113836637457823e-01 -4.04214511618855645847e-02 -1.01471421364495123334e-03 -8.70853766045958342656e-03 -1.01471421364495123334e-03 -8.70853766045958342656e-03 9.99781386449765441249e-01 -1.87619756351432289895e-03
9.99475510195266604424e+08 9.95268370099838262099e-01 -4.05133791594792930235e-02 -1.01939875973006480181e-03 -8.72834294715969447043e-03 -1.01939875973006480181e-03 -8.72834294715969447043e-03 9.99780377194906200167e-01 -1.88046448318559731271e-03
9.99476735638735651970e+08 9.95246476158903270459e-01 -4.06057201463186634438e-02 -1.02411566631524747310e-03 -8.74823720969554637084e-03 -1.02411566631524747310e-03 -8.74823720969554637084e-03 9.99779360968188535175e-01 -1.88475057211958145140e-03
9.99477961082204580307e+08 9.95224430633706802496e-01 -4.06984768687928544217e-02 -1.02886523073955670274e-03 -8.76822103975875150050e-03 -1.02886523073955670274e-03 -8.76822103975875150050e-03 9.99778337705552688774e-01 -1.88905595779236858134e-03
9.99479186525673627853e+08 9.95202232128305719350e-01 -4.07916520973046134446e-02 -1.03364775374985870364e-03 -8.78829503421448866851e-03 -1.03364775374985870364e-03 -8.78829503421448866851e-03 9.99777307342204824003e-01 -1.89338076879466362702e-03
9.99480411969142675400e+08 9.95179879230732145068e-01 -4.08852486264856332387e-02 -1.03846353954539392592e-03 -8.80845979514790697329e-03 -1.03846353954539392592e-03 -8.80845979514790697329e-03 9.99776269812607032428e-01 -1.89772513484177886463e-03
9.99481637412611603737e+08 9.95157370512774530624e-01 -4.09792692754524859322e-02 -1.04331289582497975001e-03 -8.82871592991925704941e-03 -1.04331289582497975001e-03 -8.82871592991925704941e-03 9.99775225050467675203e-01 -1.90208918678551482627e-03
9.99482862856080651283e+08 9.95134704529736957568e-01 -4.10737168881428818534e-02 -1.04819613383895873272e-03 -8.84906405123634526300e-03 -1.04819613383895873272e-03 -8.84906405123634526300e-03 9.99774172988730058798e-01 -1.90647305662976587239e-03
