! File generated for n1 = 12, n2 = 4
! b1 = 0.021544
! b2 = 0.002154
! Q0 = 10000.000000
! f0 = 1000000000.000000
! n = 1001
! rel_span = 10.000000
# Hz S RI R 50
9.99488150609204769135e+08 9.99583466830204603326e-01 -4.16639825511746705877e-03 -1.31719353756318892671e-04 -1.31753081255224827571e-03 -1.31719353756318892671e-04 -1.31753081255224827571e-03 9.99958346683020415924e-01 -4.16639825511746695035e-04
9.99489174307986378670e+08 9.99581811864882707752e-01 -4.17458410327867842499e-03 -1.32242699742879605065e-04 -1.32011940502922112302e-03 -1.32242699742879605065e-04 -1.32011940502922112302e-03 9.99958181186488270775e-01 -4.17458410327867820815e-04
9.99490198006767988205e+08 9.99580147051660317103e-01 -4.18280183766601108830e-03 -1.32769159909056186537e-04 -1.32271808081624721136e-03 -1.32769159909056186537e-04 -1.32271808081624721136e-03 9.99958014705165987301e-01 -4.18280183766601097988e-04
9.99491221705549597740e+08 9.99578472312518839793e-01 -4.19105164290454156040e-03 -1.33298758926418572761e-04 -1.32532689829690164193e-03 -1.33298758926418572761e-04 -1.32532689829690164193e-03 9.99957847231251917286e-01 -4.19105164290454145198e-04
9.99492245404331088066e+08 9.99576787568669189454e-01 -4.19933370502780910910e-03 -1.33831521710313459256e-04 -1.32794591630015518940e-03 -1.33831521710313459256e-04 -1.32794591630015518940e-03 9.99957678756866918945e-01 -4.19933370502780845858e-04
9.99493269103112697601e+08 9.99575092740540904757e-01 -4.20764821149650827120e-03 -1.34367473423098124103e-04 -1.33057519410628450479e-03 -1.34367473423098124103e-04 -1.33057519410628450479e-03 9.99957509274054134885e-01 -4.20764821149650837962e-04
9.99494292801894307137e+08 9.99573387747774155798e-01 -4.21599535120749466938e-03 -1.34906639476782872584e-04 -1.33321479144972031457e-03 -1.34906639476782872584e-04 -1.33321479144972031457e-03 9.99957338774777437784e-01 -4.21599535120749510306e-04
9.99495316500675916672e+08 9.99571672509209863122e-01 -4.22437531451010876010e-03 -1.35449045536174572961e-04 -1.33586476852420887353e-03 -1.35449045536174572961e-04 -1.33586476852420887353e-03 9.99957167250920986312e-01 -4.22437531451010865168e-04
9.99496340199457526207e+08 9.99569946942880038776e-01 -4.23278829321768745864e-03 -1.35994717521741470979e-04 -1.33852518598645379988e-03 -1.35994717521741470979e-04 -1.33852518598645379988e-03 9.99956994694288003878e-01 -4.23278829321768724180e-04
9.99497363898239135742e+08 9.99568210965998460438e-01 -4.24123448062469800279e-03 -1.36543681612873006332e-04 -1.34119610496153231563e-03 -1.36543681612873006332e-04 -1.34119610496153231563e-03 9.99956821096599890453e-01 -4.24123448062469821963e-04
9.99498387597020626068e+08 9.99566464494950790431e-01 -4.24971407151625811538e-03 -1.37095964250678409519e-04 -1.34387758704590716020e-03 -1.37095964250678409519e-04 -1.34387758704590716020e-03 9.99956646449495112350e-01 -4.24971407151625789854e-04
9.99499411295802235603e+08 9.99564707445284028609e-01 -4.25822726218973331147e-03 -1.37651592141603790025e-04 -1.34656969431425532942e-03 -1.37651592141603790025e-04 -1.34656969431425532942e-03 9.99956470744528425065e-01 -4.25822726218973266095e-04
9.99500434994583845139e+08 9.99562939731697519541e-01 -4.26677425045996535496e-03 -1.38210592260016006940e-04 -1.34927248932112300167e-03 -1.38210592260016006940e-04 -1.34927248932112300167e-03 9.99956293973169763056e-01 -4.26677425045996535496e-04
9.99501458693365454674e+08 9.99561161268031739269e-01 -4.27535523568214285289e-03 -1.38772991851970678087e-04 -1.35198603510815564856e-03 -1.38772991851970678087e-04 -1.35198603510815564856e-03 9.99956116126803129518e-01 -4.27535523568214220237e-04
9.99502482392147064209e+08 9.99559371967259302494e-01 -4.28397041875913740100e-03 -1.39338818438000341428e-04 -1.35471039520641974539e-03 -1.39338818438000341428e-04 -1.35471039520641974539e-03 9.99955937196725930249e-01 -4.28397041875913664206e-04
9.99503506090928673744e+08 9.99557571741472861149e-01 -4.29262000216151014959e-03 -1.39908099816765424568e-04 -1.35744563364272844037e-03 -1.39908099816765424568e-04 -1.35744563364272844037e-03 9.99955757174147308319e-01 -4.29262000216151014959e-04
9.99504529789710164070e+08 9.99555760501875223412e-01 -4.30130418994308962033e-03 -1.40480864068453137252e-04 -1.36019181494456795241e-03 -1.40480864068453137252e-04 -1.36019181494456795241e-03 9.99955576050187477932e-01 -4.30130418994308896981e-04
9.99505553488491773605e+08 9.99553938158768473521e-01 -4.31002318775341661250e-03 -1.41057139558005602015e-04 -1.36294900414403344184e-03 -1.41057139558005602015e-04 -1.36294900414403344184e-03 9.99955393815876836250e-01 -4.31002318775341672092e-04
9.99506577187273383141e+08 9.99552104621543424656e-01 -4.31877720285316762938e-03 -1.41636954938579082532e-04 -1.36571726678270531814e-03 -1.41636954938579082532e-04 -1.36571726678270531814e-03 9.99955210462154298057e-01 -4.31877720285316687044e-04
9.99507600886054992676e+08 9.99550259798668183642e-01 -4.32756644413067898675e-03 -1.42220339155114559523e-04 -1.36849666891687574491e-03 -1.42220339155114559523e-04 -1.36849666891687574491e-03 9.99955025979866851671e-01 -4.32756644413067898675e-04
9.99508624584836602211e+08 9.99548403597676493604e-01 -4.33639112211917782114e-03 -1.42807321447992955753e-04 -1.37128727712299675577e-03 -1.42807321447992955753e-04 -1.37128727712299675577e-03 9.99954840359767671565e-01 -4.33639112211917803798e-04
9.99509648283618211746e+08 9.99546535925157075830e-01 -4.34525144900987838475e-03 -1.43397931356455116255e-04 -1.37408915850182190670e-03 -1.43397931356455116255e-04 -1.37408915850182190670e-03 9.99954653592515674276e-01 -4.34525144900987860160e-04
9.99510671982399702072e+08 9.99544656686741972429e-01 -4.35414763866859202274e-03 -1.43992198722293001734e-04 -1.37690238068365901868e-03 -1.43992198722293001734e-04 -1.37690238068365901868e-03 9.99954465668674186141e-01 -4.35414763866859213116e-04
9.99511695681181311607e+08 9.99542765787093667740e-01 -4.36307990665640160755e-03 -1.44590153693853077982e-04 -1.37972701183490769998e-03 -1.44590153693853077982e-04 -1.37972701183490769998e-03 9.99954276578709388978e-01 -4.36307990665640106544e-04
9.99512719379962921143e+08 9.99540863129894430195e-01 -4.37204847024089127139e-03 -1.45191826729450360100e-04 -1.38256312066161097564e-03 -1.45191826729450360100e-04 -1.38256312066161097564e-03 9.99954086312989431917e-01 -4.37204847024089116297e-04
9.99513743078744530678e+08 9.99538948617834210886e-01 -4.38105354841380068703e-03 -1.45797248601250588112e-04 -1.38541077641503697707e-03 -1.45797248601250588112e-04 -1.38541077641503697707e-03 9.99953894861783432191e-01 -4.38105354841380068703e-04
9.99514766777526140213e+08 9.99537022152597542934e-01 -4.39009536191134735333e-03 -1.46406450399375504283e-04 -1.38827004889810695989e-03 -1.46406450399375504283e-04 -1.38827004889810695989e-03 9.99953702215259698782e-01 -4.39009536191134702807e-04
9.99515790476307749748e+08 9.99535083634851995171e-01 -4.39917413322545719501e-03 -1.47019463535438842973e-04 -1.39114100846894584926e-03 -1.47019463535438842973e-04 -1.39114100846894584926e-03 9.99953508363485177313e-01 -4.39917413322545686975e-04
9.99516814175089240074e+08 9.99533132964234960482e-01 -4.40829008662644086791e-03 -1.47636319746895336609e-04 -1.39402372604805250243e-03 -1.47636319746895336609e-04 -1.39402372604805250243e-03 9.99953313296423451639e-01 -4.40829008662644065107e-04
9.99517837873870849609e+08 9.99531170039340333133e-01 -4.41744344818153361620e-03 -1.48257051101158190271e-04 -1.39691827312416372471e-03 -1.48257051101158190271e-04 -1.39691827312416372471e-03 9.99953117003934077722e-01 -4.41744344818153296568e-04
9.99518861572652459145e+08 9.99529194757707517560e-01 -4.42663444576466523495e-03 -1.48881689999165103952e-04 -1.39982472175734381191e-03 -1.48881689999165103952e-04 -1.39982472175734381191e-03 9.99952919475770807267e-01 -4.42663444576466501811e-04
9.99519885271434068680e+08 9.99527207015806329338e-01 -4.43586330908129090195e-03 -1.49510269180009333721e-04 -1.40274314458683482462e-03 -1.49510269180009333721e-04 -1.40274314458683482462e-03 9.99952720701580588525e-01 -4.43586330908129014301e-04
9.99520908970215678215e+08 9.99525206709024116591e-01 -4.44513026968554325613e-03 -1.50142821725098826778e-04 -1.40567361483648367061e-03 -1.50142821725098826778e-04 -1.40567361483648367061e-03 9.99952520670902456068e-01 -4.44513026968554293087e-04
9.99521932668997287750e+08 9.99523193731653214478e-01 -4.45443556099403819432e-03 -1.50779381062131909511e-04 -1.40861620631910493436e-03 -1.50779381062131909511e-04 -1.40861620631910493436e-03 9.99952319373165310346e-01 -4.45443556099403786906e-04
9.99522956367778897285e+08 9.99521167976875291039e-01 -4.46377941831348126062e-03 -1.51419980970063746588e-04 -1.41157099344521239082e-03 -1.51419980970063746588e-04 -1.41157099344521239082e-03 9.99952116797687473593e-01 -4.46377941831348071852e-04
9.99523980066560387611e+08 9.99519129336749356796e-01 -4.47316207884884513291e-03 -1.52064655582793577032e-04 -1.41453805122560504447e-03 -1.52064655582793577032e-04 -1.41453805122560504447e-03 9.99951912933674913475e-01 -4.47316207884884502449e-04
9.99525003765341997147e+08 9.99517077702196221622e-01 -4.48258378173043824794e-03 -1.52713439394193325202e-04 -1.41751745527992560440e-03 -1.52713439394193325202e-04 -1.41751745527992560440e-03 9.99951707770219577753e-01 -4.48258378173043813952e-04
9.99526027464123606682e+08 9.99515012962985061051e-01 -4.49204476802906715188e-03 -1.53366367262371659525e-04 -1.42050928184145699475e-03 -1.53366367262371659525e-04 -1.42050928184145699475e-03 9.99951501296298506105e-01 -4.49204476802906704346e-04
9.99527051162905216217e+08 9.99512935007717762126e-01 -4.50154528077750890752e-03 -1.54023474414422201694e-04 -1.42351360776391119498e-03 -1.54023474414422201694e-04 -1.42351360776391119498e-03 9.99951293500771720701e-01 -4.50154528077750879910e-04
9.99528074861686825752e+08 9.99510843723816044815e-01 -4.51108556498553987107e-03 -1.54684796450778197594e-04 -1.42653051052618259908e-03 -1.54684796450778197594e-04 -1.42653051052618259908e-03 9.99951084372381560073e-01 -4.51108556498553976265e-04
9.99529098560468435287e+08 9.99508738997503920487e-01 -4.52066586766808158060e-03 -1.55350369350528062394e-04 -1.42956006824124779754e-03 -1.55350369350528062394e-04 -1.42956006824124779754e-03 9.99950873899750347640e-01 -4.52066586766808147218e-04
9.99530122259249925613e+08 9.99506620713794591282e-01 -4.53028643785811143546e-03 -1.56020229475730640720e-04 -1.43260235966024911634e-03 -1.56020229475730640720e-04 -1.43260235966024911634e-03 9.99950662071379503537e-01 -4.53028643785811132704e-04
9.99531145958031535149e+08 9.99504488756473907785e-01 -4.53994752662961135320e-03 -1.56694413576478972904e-04 -1.43565746417975096533e-03 -1.56694413576478972904e-04 -1.43565746417975096533e-03 9.99950448875647435187e-01 -4.53994752662961135320e-04
9.99532169656813144684e+08 9.99502343008085047948e-01 -4.54964938711923446574e-03 -1.57372958795932781995e-04 -1.43872546184859156221e-03 -1.57372958795932781995e-04 -1.43872546184859156221e-03 9.99950234300808538102e-01 -4.54964938711923435732e-04
9.99533193355594754219e+08 9.99500183349912196817e-01 -4.55939227454612606982e-03 -1.58055902675278942644e-04 -1.44180643337415092219e-03 -1.58055902675278942644e-04 -1.44180643337415092219e-03 9.99950018334991197477e-01 -4.55939227454612585298e-04
9.99534217054376363754e+08 9.99498009661965114425e-01 -4.56917644623250612107e-03 -1.58743283158801888090e-04 -1.44490046012886019094e-03 -1.58743283158801888090e-04 -1.44490046012886019094e-03 9.99949800966196566954e-01 -4.56917644623250655475e-04
9.99535240753157973289e+08 9.99495821822962260406e-01 -4.57900216162555277061e-03 -1.59435138599103447309e-04 -1.44800762415712037240e-03 -1.59435138599103447309e-04 -1.44800762415712037240e-03 9.99949582182296237143e-01 -4.57900216162555212009e-04
9.99536264451939463615e+08 9.99493619710314695759e-01 -4.58886968231580170963e-03 -1.60131507762137283591e-04 -1.45112800818112297647e-03 -1.60131507762137283591e-04 -1.45112800818112297647e-03 9.99949361971031458474e-01 -4.58886968231580181805e-04
9.99537288150721073151e+08 9.99491403200107320082e-01 -4.59877927207080240690e-03 -1.60832429833380200412e-04 -1.45426169561148994555e-03 -1.60832429833380200412e-04 -1.45426169561148994555e-03 9.99949140320010698701e-01 -4.59877927207080186480e-04
9.99538311849502682686e+08 9.99489172167084660714e-01 -4.60873119684013579644e-03 -1.61537944422044890290e-04 -1.45740877054886417905e-03 -1.61537944422044890290e-04 -1.45740877054886417905e-03 9.99948917216708421662e-01 -4.60873119684013612170e-04
9.99539335548284292221e+08 9.99486926484630888723e-01 -4.61872572479175933641e-03 -1.62248091567566282700e-04 -1.46056931779539882384e-03 -1.62248091567566282700e-04 -1.46056931779539882384e-03 9.99948692648463088872e-01 -4.61872572479175933641e-04
9.99540359247065901756e+08 9.99484666024754497826e-01 -4.62876312632443717016e-03 -1.62962911744460612956e-04 -1.46374342285869141027e-03 -1.62962911744460612956e-04 -1.46374342285869141027e-03 9.99948466602475494192e-01 -4.62876312632443727858e-04
9.99541382945847511292e+08 9.99482390658067987310e-01 -4.63884367409934505327e-03 -1.63682445868609945886e-04 -1.46693117196177650989e-03 -1.63682445868609945886e-04 -1.46693117196177650989e-03 9.99948239065806765424e-01 -4.63884367409934472801e-04
9.99542406644629001617e+08 9.99480100253771097663e-01 -4.64896764305843673837e-03 -1.64406735302672263365e-04 -1.47013265204893402334e-03 -1.64406735302672263365e-04 -1.47013265204893402334e-03 9.99948010025377143073e-01 -4.64896764305843673837e-04
9.99543430343410611153e+08 9.99477794679631714736e-01 -4.65913531045123591179e-03 -1.65135821862159366162e-04 -1.47334795079416091927e-03 -1.65135821862159366162e-04 -1.47334795079416091927e-03 9.99947779467963204780e-01 -4.65913531045123547811e-04
9.99544454042192220688e+08 9.99475473801968439247e-01 -4.66934695585092315179e-03 -1.65869747820816088816e-04 -1.47657715660626026252e-03 -1.65869747820816088816e-04 -1.47657715660626026252e-03 9.99947547380196866129e-01 -4.66934695585092304337e-04
9.99545477740973830223e+08 9.99473137485629381516e-01 -4.67960286118943979278e-03 -1.66608555917432748453e-04 -1.47982035863993954122e-03 -1.66608555917432748453e-04 -1.47982035863993954122e-03 9.99947313748562938152e-01 -4.67960286118943979278e-04
9.99546501439755439758e+08 9.99470785593974286876e-01 -4.68990331077470505583e-03 -1.67352289361446566899e-04 -1.48307764680125683115e-03 -1.67352289361446566899e-04 -1.48307764680125683115e-03 9.99947078559397461994e-01 -4.68990331077470418847e-04
9.99547525138537049294e+08 9.99468417988855217793e-01 -4.70024859131414323582e-03 -1.68100991839065325856e-04 -1.48634911175506102474e-03 -1.68100991839065325856e-04 -1.48634911175506102474e-03 9.99946841798885488473e-01 -4.70024859131414269372e-04
9.99548548837318658829e+08 9.99466034530595237584e-01 -4.71063899194580030377e-03 -1.68854707520014194399e-04 -1.48963484493482988154e-03 -1.68854707520014194399e-04 -1.48963484493482988154e-03 9.99946603453059523758e-01 -4.71063899194579987009e-04
9.99549572536100149155e+08 9.99463635077969647647e-01 -4.72107480425690024389e-03 -1.69613481063449130252e-04 -1.49293493854854011568e-03 -1.69613481063449130252e-04 -1.49293493854854011568e-03 9.99946363507796975867e-01 -4.72107480425689991863e-04
9.99550596234881758690e+08 9.99461219488183116866e-01 -4.73155632232075042815e-03 -1.70377357625278578373e-04 -1.49624948559033666383e-03 -1.70377357625278578373e-04 -1.49624948559033666383e-03 9.99946121948818267278e-01 -4.73155632232075021130e-04
9.99551619933663368225e+08 9.99458787616852362135e-01 -4.74208384270452445314e-03 -1.71146382863443915004e-04 -1.49957857984299404094e-03 -1.71146382863443915004e-04 -1.49957857984299404094e-03 9.99945878761685280622e-01 -4.74208384270452423630e-04
9.99552643632444977760e+08 9.99456339317981945491e-01 -4.75265766451134392956e-03 -1.71920602945774763466e-04 -1.50292231589122492197e-03 -1.71920602945774763466e-04 -1.50292231589122492197e-03 9.99945633931798139038e-01 -4.75265766451134382114e-04
9.99553667331226587296e+08 9.99453874443943734995e-01 -4.76327808940118536951e-03 -1.72700064556384350403e-04 -1.50628078912828900458e-03 -1.72700064556384350403e-04 -1.50628078912828900458e-03 9.99945387444394317988e-01 -4.76327808940118526109e-04
9.99554691030008196831e+08 9.99451392845455810487e-01 -4.77394542161485926912e-03 -1.73484814902367652598e-04 -1.50965409576357873812e-03 -1.73484814902367652598e-04 -1.50965409576357873812e-03 9.99945139284545536640e-01 -4.77394542161485970280e-04
9.99555714728789687157e+08 9.99448894371559259930e-01 -4.78465996800523166166e-03 -1.74274901721113717207e-04 -1.51304233283248990016e-03 -1.74274901721113717207e-04 -1.51304233283248990016e-03 9.99944889437155981504e-01 -4.78465996800523166166e-04
9.99556738427571296692e+08 9.99446378869595197791e-01 -4.79542203806713248498e-03 -1.75070373287610013113e-04 -1.51644559820588126046e-03 -1.75070373287610013113e-04 -1.51644559820588126046e-03 9.99944637886959530881e-01 -4.79542203806713215972e-04
9.99557762126352906227e+08 9.99443846185183448760e-01 -4.80623194395827114250e-03 -1.75871278421168441728e-04 -1.51986399059668821424e-03 -1.75871278421168441728e-04 -1.51986399059668821424e-03 9.99944384618518311569e-01 -4.80623194395827081724e-04
9.99558785825134515762e+08 9.99441296162199011022e-01 -4.81709000052858282021e-03 -1.76677666492857949471e-04 -1.52329760956920246852e-03 -1.76677666492857949471e-04 -1.52329760956920246852e-03 9.99944129616219923307e-01 -4.81709000052858303705e-04
9.99559809523916125298e+08 9.99438728642746077035e-01 -4.82799652535763953315e-03 -1.77489587433629403311e-04 -1.52674655555090220578e-03 -1.77489587433629403311e-04 -1.52674655555090220578e-03 9.99943872864274663215e-01 -4.82799652535763931631e-04
9.99560833222697734833e+08 9.99436143467137494412e-01 -4.83895183877302865333e-03 -1.78307091741118688361e-04 -1.53021092983826514228e-03 -1.78307091741118688361e-04 -1.53021092983826514228e-03 9.99943614346713749441e-01 -4.83895183877302843649e-04
9.99561856921479225159e+08 9.99433540473868675669e-01 -4.84995626388136195917e-03 -1.79130230487477059903e-04 -1.53369083460657275146e-03 -1.79130230487477059903e-04 -1.53369083460657275146e-03 9.99943354047386878669e-01 -4.84995626388136185075e-04
9.99562880620260834694e+08 9.99430919499591730037e-01 -4.86101012660688971273e-03 -1.79959055327868388185e-04 -1.53718637292212336777e-03 -1.79959055327868388185e-04 -1.53718637292212336777e-03 9.99943091949959117493e-01 -4.86101012660688971273e-04
9.99563904319042444229e+08 9.99428280379092481844e-01 -4.87211375571024347952e-03 -1.80793618507577025234e-04 -1.54069764874815648414e-03 -1.80793618507577025234e-04 -1.54069764874815648414e-03 9.99942828037909237082e-01 -4.87211375571024347952e-04
9.99564928017824053764e+08 9.99425622945263936181e-01 -4.88326748282479766727e-03 -1.81633972870530203134e-04 -1.54422476695635331814e-03 -1.81633972870530203134e-04 -1.54422476695635331814e-03 9.99942562294526382516e-01 -4.88326748282479788411e-04
9.99565951716605663300e+08 9.99422947029080077641e-01 -4.89447164248567583716e-03 -1.82480171867370352884e-04 -1.54776783333600894549e-03 -1.82480171867370352884e-04 -1.54776783333600894549e-03 9.99942294702907963355e-01 -4.89447164248567605400e-04
9.99566975415387272835e+08 9.99420252459569891101e-01 -4.90572657216337137953e-03 -1.83332269563976987684e-04 -1.55132695460466311921e-03 -1.83332269563976987684e-04 -1.55132695460466311921e-03 9.99942025245956989110e-01 -4.90572657216337116269e-04
9.99567999114168763161e+08 9.99417539063790494325e-01 -4.91703261229107894958e-03 -1.84190320649616162772e-04 -1.55490223841674483039e-03 -1.84190320649616162772e-04 -1.55490223841674483039e-03 9.99941753906379071637e-01 -4.91703261229107916643e-04
