! File generated for n1 = 8, n2 = 8
! b1 = 0.464159
! b2 = 0.002154
! Q0 = 10000.000000
! f0 = 1000000000.000000
! n = 1001
! rel_span = 10.000000
# Hz S RI R 50
9.99266843340974330902e+08 9.93736269244318126681e-01 -6.26602858830983544536e-02 -4.26743008656051993604e-04 -4.26899558170594321804e-03 -4.26743008656051993604e-04 -4.26899558170594321804e-03 9.99970926337267695949e-01 -2.90843283265973713298e-04
9.99268309654292345047e+08 9.93711379437770991885e-01 -6.27834106249382517539e-02 -4.28438731436146737382e-04 -4.27738397271797653187e-03 -4.28438731436146737382e-04 -4.27738397271797653187e-03 9.99970810809019505783e-01 -2.91414777692839256727e-04
9.99269775967610478401e+08 9.93686341518221549762e-01 -6.29070149745781376227e-02 -4.30144545037621569162e-04 -4.28580503902904839247e-03 -4.30144545037621569162e-04 -4.28580503902904839247e-03 9.99970694593291686836e-01 -2.91988498261913686019e-04
9.99271242280928492546e+08 9.93661154312253214194e-01 -6.30311017089751901565e-02 -4.31860529404415002287e-04 -4.29425896983104925242e-03 -4.31860529404415002287e-04 -4.29425896983104925242e-03 9.99970577684637706994e-01 -2.92564457862690510161e-04
9.99272708594246506691e+08 9.93635816634841018136e-01 -6.31556736263401280462e-02 -4.33586765271340619527e-04 -4.30274595576385712747e-03 -4.33586765271340619527e-04 -4.30274595576385712747e-03 9.99970460077557188328e-01 -2.93142669483313330139e-04
9.99274174907564640045e+08 9.93610327289218830948e-01 -6.32807335463144438048e-02 -4.35323334173132354963e-04 -4.31126618892740953726e-03 -4.35323334173132354963e-04 -4.31126618892740953726e-03 9.99970341766495240954e-01 -2.93723146211398639972e-04
9.99275641220882654190e+08 9.93584685066750350479e-01 -6.34062843101209222541e-02 -4.37070318453212165906e-04 -4.31981986289196265988e-03 -4.37070318453212165906e-04 -4.31981986289196265988e-03 9.99970222745841685885e-01 -2.94305901234734378167e-04
9.99277107534200668335e+08 9.93558888746765012101e-01 -6.35323287808824549439e-02 -4.38827801274894774460e-04 -4.32840717271980573305e-03 -4.38827801274894774460e-04 -4.32840717271980573305e-03 9.99970103009930944005e-01 -2.94890947842759701056e-04
9.99278573847518682480e+08 9.93532937096438084623e-01 -6.36588698437154792975e-02 -4.40595866629565099774e-04 -4.33702831497163703023e-03 -4.40595866629565099774e-04 -4.33702831497163703023e-03 9.99969982553040592776e-01 -2.95478299426998988926e-04
9.99280040160836815834e+08 9.93506828870631353290e-01 -6.37859104060062576114e-02 -4.42374599347496156275e-04 -4.34568348772537346725e-03 -4.42374599347496156275e-04 -4.34568348772537346725e-03 9.99969861369391144201e-01 -2.96067969482343752458e-04
9.99281506474154829979e+08 9.93480562811752121455e-01 -6.39134533975941054873e-02 -4.44164085107481376811e-04 -4.35437289058864668290e-03 -4.44164085107481376811e-04 -4.35437289058864668290e-03 9.99969739453145600727e-01 -2.96659971607903460381e-04
9.99282972787472844124e+08 9.93454137649599777760e-01 -6.40415017710051631683e-02 -4.45964410447274883266e-04 -4.36309672471471912680e-03 -4.45964410447274883266e-04 -4.36309672471471912680e-03 9.99969616798408011960e-01 -2.97254319508090500586e-04
9.99284439100790977478e+08 9.93427552101215693980e-01 -6.41700585016644481362e-02 -4.47775662773839473914e-04 -4.37185519281693864280e-03 -4.47775662773839473914e-04 -4.37185519281693864280e-03 9.99969493399223474661e-01 -2.97851026993604418858e-04
9.99285905414108991623e+08 9.93400804870734344121e-01 -6.42991265880909074193e-02 -4.49597930373461741795e-04 -4.38064849918202211393e-03 -4.49597930373461741795e-04 -4.38064849918202211393e-03 9.99969369249577133552e-01 -2.98450107982337227690e-04
9.99287371727427005768e+08 9.93373894649223987408e-01 -6.44287090521383498665e-02 -4.51431302422624237264e-04 -4.38947684968647201809e-03 -4.51431302422624237264e-04 -4.38947684968647201809e-03 9.99969244343393515173e-01 -2.99051576500491869248e-04
9.99288838040745139122e+08 9.93346820114519357681e-01 -6.45588089392641478748e-02 -4.53275868999389102906e-04 -4.39834045181488643428e-03 -4.53275868999389102906e-04 -4.39834045181488643428e-03 9.99969118674535528690e-01 -2.99655446683829264701e-04
9.99290304354063153267e+08 9.93319579931085661073e-01 -6.46894293186431462717e-02 -4.55131721092701395544e-04 -4.40723951466771152186e-03 -4.55131721092701395544e-04 -4.40723951466771152186e-03 9.99968992236804243845e-01 -3.00261732778197025420e-04
9.99291770667381167412e+08 9.93292172749830726275e-01 -6.48205732835149400772e-02 -4.56998950615116752375e-04 -4.41617424898490922025e-03 -4.56998950615116752375e-04 -4.41617424898490922025e-03 9.99968865023937780734e-01 -3.00870449141141661602e-04
9.99293236980699300766e+08 9.93264597207952903979e-01 -6.49522439513620791773e-02 -4.58877650413253208340e-04 -4.42514486715809163969e-03 -4.58877650413253208340e-04 -4.42514486715809163969e-03 9.99968737029610532652e-01 -3.01481610242735340640e-04
9.99294703294017314911e+08 9.93236851928778197163e-01 -6.50844444641196229195e-02 -4.60767914278802895485e-04 -4.43415158324480217222e-03 -4.60767914278802895485e-04 -4.43415158324480217222e-03 9.99968608247432499958e-01 -3.02095230666548579101e-04
9.99296169607335329056e+08 9.93208935521575186911e-01 -6.52171779884923308312e-02 -4.62669836961206800037e-04 -4.44319461299012580940e-03 -4.62669836961206800037e-04 -4.44319461299012580940e-03 9.99968478670948623943e-01 -3.02711325111123077166e-04
9.99297635920653462410e+08 9.93180846581404597195e-01 -6.53504477160898461507e-02 -4.64583514177850003327e-04 -4.45227417383589705452e-03 -4.64583514177850003327e-04 -4.45227417383589705452e-03 9.99968348293637565583e-01 -3.03329908390598333278e-04
9.99299102233971476555e+08 9.93152583688928114469e-01 -6.54842568637545724419e-02 -4.66509042627143339938e-04 -4.46139048494303535469e-03 -4.66509042627143339938e-04 -4.46139048494303535469e-03 9.99968217108911483493e-01 -3.03950995436234189251e-04
9.99300568547289490700e+08 9.93124145410237080256e-01 -6.56186086737774176836e-02 -4.68446520000128101453e-04 -4.47054376720624948444e-03 -4.68446520000128101453e-04 -4.47054376720624948444e-03 9.99968085110114590641e-01 -3.04574601297411819926e-04
9.99302034860607504845e+08 9.93095530296672079906e-01 -6.57535064141565456231e-02 -4.70396044992830899677e-04 -4.47973424327166320352e-03 -4.70396044992830899677e-04 -4.47973424327166320352e-03 9.99967952290523043324e-01 -3.05200741142835191809e-04
9.99303501173925638199e+08 9.93066736884649303718e-01 -6.58889533788078601839e-02 -4.72357717318050950028e-04 -4.48896213755115448124e-03 -4.72357717318050950028e-04 -4.48896213755115448124e-03 9.99967818643343275831e-01 -3.05829430261507441337e-04
9.99304967487243652344e+08 9.93037763695470254710e-01 -6.60249528878495972606e-02 -4.74331637718354397204e-04 -4.49822767624174536805e-03 -4.74331637718354397204e-04 -4.49822767624174536805e-03 9.99967684161711889423e-01 -3.06460684064052408908e-04
9.99306433800561666489e+08 9.93008609235122019498e-01 -6.61615082879164623231e-02 -4.76317907979640882757e-04 -4.50753108734700501381e-03 -4.76317907979640882757e-04 -4.50753108734700501381e-03 9.99967548838694320068e-01 -3.07094518084172294486e-04
9.99307900113879799843e+08 9.92979271994114842670e-01 -6.62986229522962294824e-02 -4.78316630942270061468e-04 -4.51687260068635385718e-03 -4.78316630942270061468e-04 -4.51687260068635385718e-03 9.99967412667284061278e-01 -3.07730947979282024301e-04
9.99309366427197813988e+08 9.92949750447269963161e-01 -6.64363002812804470665e-02 -4.80327910515437959526e-04 -4.52625244791895683938e-03 -4.80327910515437959526e-04 -4.52625244791895683938e-03 9.99967275640401886960e-01 -3.08369989532136800931e-04
9.99310832740515828133e+08 9.92920043053525658294e-01 -6.65745437024309744123e-02 -4.82351851690482357794e-04 -4.53567086256188509164e-03 -4.82351851690482357794e-04 -4.53567086256188509164e-03 9.99967137750894741188e-01 -3.09011658652069449039e-04
9.99312299053833961487e+08 9.92890148255741067373e-01 -6.67133566708341119167e-02 -4.84388560554151474842e-04 -4.54512808000743107756e-03 -4.84388560554151474842e-04 -4.54512808000743107756e-03 9.99966998991535183094e-01 -3.09655971376170189961e-04
9.99313765367151975632e+08 9.92860064480513671015e-01 -6.68527426692940435204e-02 -4.86438144301125851513e-04 -4.55462433753627861377e-03 -4.86438144301125851513e-04 -4.55462433753627861377e-03 9.99966859355020054601e-01 -3.10302943870183710589e-04
9.99315231680469989777e+08 9.92829790137938372752e-01 -6.69927052087767455069e-02 -4.88500711250373920169e-04 -4.56415987434775557996e-03 -4.88500711250373920169e-04 -4.56415987434775557996e-03 9.99966718833969592239e-01 -3.10952592430570719587e-04
9.99316697993788123131e+08 9.92799323621431750730e-01 -6.71332478285470712898e-02 -4.90576370857156453774e-04 -4.57373493156917193536e-03 -4.90576370857156453774e-04 -4.57373493156917193536e-03 9.99966577420926761022e-01 -3.11604933485143398286e-04
9.99318164307106137276e+08 9.92768663307514009908e-01 -6.72743740964875797106e-02 -4.92665233727853897963e-04 -4.58334975227753325250e-03 -4.92665233727853897963e-04 -4.58334975227753325250e-03 9.99966435108356033190e-01 -3.12259983594545445073e-04
9.99319630620424151421e+08 9.92737807555587270514e-01 -6.74160876094266614533e-02 -4.94767411635100803381e-04 -4.59300458152190650696e-03 -4.94767411635100803381e-04 -4.59300458152190650696e-03 9.99966291888642500041e-01 -3.12917759453775542067e-04
9.99321096933742284775e+08 9.92706754707727512255e-01 -6.75583919933905041599e-02 -4.96883017531954450721e-04 -4.60269966634058082938e-03 -4.96883017531954450721e-04 -4.60269966634058082938e-03 9.99966147754090539657e-01 -3.13578277893356233488e-04
9.99322563247060298920e+08 9.92675503088473409896e-01 -6.77012909038573335030e-02 -4.99012165566258686367e-04 -4.61243525577838871937e-03 -4.99012165566258686367e-04 -4.61243525577838871937e-03 9.99966002696923594861e-01 -3.14241555880514567608e-04
9.99324029560378313065e+08 9.92644051004580751929e-01 -6.78447880261611457886e-02 -5.01154971097400700648e-04 -4.62221160091421095356e-03 -5.01154971097400700648e-04 -4.62221160091421095356e-03 9.99965856709282285841e-01 -3.14907610521055435476e-04
9.99325495873696327209e+08 9.92612396744822600425e-01 -6.79888870756720636868e-02 -5.03311550709915705125e-04 -4.63202895487326970353e-03 -5.03311550709915705125e-04 -4.63202895487326970353e-03 9.99965709783223632989e-01 -3.15576459060199550778e-04
9.99326962187014460564e+08 9.92580538579736382232e-01 -6.81335917982078820287e-02 -5.05482022230712194598e-04 -4.64188757285515819773e-03 -5.05482022230712194598e-04 -4.64188757285515819773e-03 9.99965561910720279748e-01 -3.16248118884492838282e-04
9.99328428500332474709e+08 9.92548474761420607138e-01 -6.82789059702093720228e-02 -5.07666504742940302361e-04 -4.65178771214579209886e-03 -5.07666504742940302361e-04 -4.65178771214579209886e-03 9.99965413083659271365e-01 -3.16922607522620669671e-04
9.99329894813650488853e+08 9.92516203523262308117e-01 -6.84248333992146656746e-02 -5.09865118604526561599e-04 -4.66172963214972480017e-03 -5.09865118604526561599e-04 -4.66172963214972480017e-03 9.99965263293840500580e-01 -3.17599942647609444473e-04
9.99331361126968622208e+08 9.92483723079731094963e-01 -6.85713779240249704516e-02 -5.12077985462257691610e-04 -4.67171359440143787317e-03 -5.12077985462257691610e-04 -4.67171359440143787317e-03 9.99965112532976485582e-01 -3.18280142077596102552e-04
9.99332827440286636353e+08 9.92451031626122248674e-01 -6.87185434150821145005e-02 -5.14305228269229313884e-04 -4.68173986259106267999e-03 -5.14305228269229313884e-04 -4.68173986259106267999e-03 9.99964960792690482627e-01 -3.18963223777580032192e-04
9.99334293753604650497e+08 9.92418127338302924478e-01 -6.88663337748235127034e-02 -5.16546971302156432415e-04 -4.69180870258856675542e-03 -5.16546971302156432415e-04 -4.69180870258856675542e-03 9.99964808064515597863e-01 -3.19649205861071328445e-04
9.99335760066922783852e+08 9.92385008372468346849e-01 -6.90147529379798868598e-02 -5.18803340178008781311e-04 -4.70192038246403272439e-03 -5.18803340178008781311e-04 -4.70192038246403272439e-03 9.99964654339893566082e-01 -3.20338106591472120913e-04
9.99337226380240797997e+08 9.92351672864901002136e-01 -6.91638048718423020800e-02 -5.21074461870371543996e-04 -4.71207517250585381646e-03 -5.21074461870371543996e-04 -4.71207517250585381646e-03 9.99964499610173862543e-01 -3.21029944383316304720e-04
9.99338692693558812141e+08 9.92318118931690973383e-01 -6.93134935766961252090e-02 -5.23360464728544008163e-04 -4.72227334525030049278e-03 -5.23360464728544008163e-04 -4.72227334525030049278e-03 9.99964343866612148659e-01 -3.21724737804283771308e-04
9.99340159006876945496e+08 9.92284344668484807883e-01 -6.94638230861077399236e-02 -5.25661478494604582704e-04 -4.73251517550105083032e-03 -5.25661478494604582704e-04 -4.73251517550105083032e-03 9.99964187100369272798e-01 -3.22422505576531158184e-04
9.99341625320194959641e+08 9.92250348150219285692e-01 -6.96147974672712416266e-02 -5.27977634321596337591e-04 -4.74280094035281398618e-03 -5.27977634321596337591e-04 -4.74280094035281398618e-03 9.99964029302509715968e-01 -3.23123266578301292836e-04
9.99343091633512973785e+08 9.92216127430853633840e-01 -6.97664208213421427329e-02 -5.30309064791720350014e-04 -4.75313091921406114665e-03 -5.30309064791720350014e-04 -4.75313091921406114665e-03 9.99963870464000814664e-01 -3.23827039845471704484e-04
9.99344557946831107140e+08 9.92181680543092747726e-01 -6.99186972838038572897e-02 -5.32655903935249177596e-04 -4.76350539383199773902e-03 -5.32655903935249177596e-04 -4.76350539383199773902e-03 9.99963710575711206552e-01 -3.24533844573256008339e-04
9.99346024260149121284e+08 9.92147005498109524346e-01 -7.00716310248155893614e-02 -5.35018287249373436336e-04 -4.77392464831626409105e-03 -5.35018287249373436336e-04 -4.77392464831626409105e-03 9.99963549628409609227e-01 -3.25243700117818716321e-04
9.99347490573467135429e+08 9.92112100285263864841e-01 -7.02252262495703660772e-02 -5.37396351717424813552e-04 -4.78438896916332390835e-03 -5.37396351717424813552e-04 -4.78438896916332390835e-03 9.99963387612763376922e-01 -3.25956625997936722677e-04
9.99348956886785149574e+08 9.92076962871815459799e-01 -7.03794871986571646261e-02 -5.39790235828390080677e-04 -4.79489864528114331788e-03 -5.39790235828390080677e-04 -4.79489864528114331788e-03 9.99963224519337501306e-01 -3.26672641896680522079e-04
9.99350423200103282928e+08 9.92041591202627581758e-01 -7.05344181484512250391e-02 -5.42200079597091673562e-04 -4.80545396801577377049e-03 -5.42200079597091673562e-04 -4.80545396801577377049e-03 9.99963060338592835130e-01 -3.27391767663225640404e-04
9.99351889513421297073e+08 9.92005983199888419222e-01 -7.06900234114147679731e-02 -5.44626024583211212210e-04 -4.81605523117184779885e-03 -5.44626024583211212210e-04 -4.81605523117184779885e-03 9.99962895060884870979e-01 -3.28114023314248599242e-04
9.99353355826739311218e+08 9.91970136762794774121e-01 -7.08463073365429435446e-02 -5.47068213912803432905e-04 -4.82670273104295576017e-03 -5.47068213912803432905e-04 -4.82670273104295576017e-03 9.99962728676462742072e-01 -3.28839429035996766264e-04
9.99354822140057444572e+08 9.91934049767248859908e-01 -7.10032743097385316000e-02 -5.49526792298954684830e-04 -4.83739676643717402688e-03 -5.49526792298954684830e-04 -4.83739676643717402688e-03 9.99962561175467223862e-01 -3.29568005186027361293e-04
9.99356288453375458717e+08 9.91897720065561983027e-01 -7.11609287541435653335e-02 -5.52001906062006661609e-04 -4.84813763869966236203e-03 -5.52001906062006661609e-04 -4.84813763869966236203e-03 9.99962392547929512787e-01 -3.30299772294747186023e-04
9.99357754766693472862e+08 9.91861145486123585435e-01 -7.13192751306002681311e-02 -5.54493703152057716352e-04 -4.85892565174406501627e-03 -5.54493703152057716352e-04 -4.85892565174406501627e-03 9.99962222783770005030e-01 -3.31034751067551646486e-04
9.99359221080011606216e+08 9.91824323833095267133e-01 -7.14783179379919891838e-02 -5.57002333169838957649e-04 -4.86976111207573433837e-03 -5.57002333169838957649e-04 -4.86976111207573433837e-03 9.99962051872796409135e-01 -3.31772962386407579798e-04
9.99360687393329620361e+08 9.91787252886085601844e-01 -7.16380617136483238694e-02 -5.59527947388855392656e-04 -4.88064432881933803199e-03 -5.59527947388855392656e-04 -4.88064432881933803199e-03 9.99961879804702746810e-01 -3.32514427311733098101e-04
9.99362153706647634506e+08 9.91749930399815959881e-01 -7.17985110337732990171e-02 -5.62070698778159268463e-04 -4.89157561374802679621e-03 -5.62070698778159268463e-04 -4.89157561374802679621e-03 9.99961706569067243500e-01 -3.33259167084386015347e-04
9.99363620019965767860e+08 9.91712354103780779901e-01 -7.19596705138794701107e-02 -5.64630742025489982226e-04 -4.90255528131301049344e-03 -5.64630742025489982226e-04 -4.90255528131301049344e-03 9.99961532155351218165e-01 -3.34007203127677644409e-04
9.99365086333283782005e+08 9.91674521701940037133e-01 -7.21215448090679750459e-02 -5.67208233558241141717e-04 -4.91358364866263837289e-03 -5.67208233558241141717e-04 -4.91358364866263837289e-03 9.99961356552897195904e-01 -3.34758557048673514433e-04
9.99366552646601796150e+08 9.91636430872326224417e-01 -7.22841386146554493175e-02 -5.69803331570216614957e-04 -4.92466103568510796262e-03 -5.69803331570216614957e-04 -4.92466103568510796262e-03 9.99961179750927797727e-01 -3.35513250641102989992e-04
9.99368018959919929504e+08 9.91598079266733045678e-01 -7.24474566664340124955e-02 -5.72416196042840994158e-04 -4.93578776502618093297e-03 -5.72416196042840994158e-04 -4.93578776502618093297e-03 9.99961001738543520112e-01 -3.36271305886565717060e-04
9.99369485273237943649e+08 9.91559464510347821076e-01 -7.26115037411559222091e-02 -5.75046988770232096223e-04 -4.94696416212220008851e-03 -5.75046988770232096223e-04 -4.94696416212220008851e-03 9.99960822504721513759e-01 -3.37032744956781776195e-04
9.99370951586555957794e+08 9.91520584201389887369e-01 -7.27762846569690452503e-02 -5.77695873383784488063e-04 -4.95819055522975921102e-03 -5.77695873383784488063e-04 -4.95819055522975921102e-03 9.99960642038313585189e-01 -3.37797590215612472762e-04
9.99372417899873971939e+08 9.91481435910742003870e-01 -7.29418042738700089789e-02 -5.80363015377342492639e-04 -4.96946727545657333108e-03 -5.80363015377342492639e-04 -4.96946727545657333108e-03 9.99960460328044864475e-01 -3.38565864221163851776e-04
9.99373884213192105293e+08 9.91442017181577206486e-01 -7.31080674941509273124e-02 -5.83048582132574965027e-04 -4.98079465679191618621e-03 -5.83048582132574965027e-04 -4.98079465679191618621e-03 9.99960277362511806842e-01 -3.39337589727860234560e-04
9.99375350526510119438e+08 9.91402325528992767190e-01 -7.32750792628008018603e-02 -5.85752742943929940143e-04 -4.99217303613396553436e-03 -5.85752742943929940143e-04 -4.99217303613396553436e-03 9.99960093130180305288e-01 -3.40112789688307420172e-04
9.99376816839828133583e+08 9.91362358439614399508e-01 -7.34428445680131575246e-02 -5.88475669045617497468e-04 -5.00360275332439267265e-03 -5.88475669045617497468e-04 -5.00360275332439267265e-03 9.99959907619384580357e-01 -3.40891487255648710942e-04
9.99378283153146266937e+08 9.91322113371197466414e-01 -7.36113684416816460576e-02 -5.91217533638732921537e-04 -5.01508415118211928890e-03 -5.91217533638732921537e-04 -5.01508415118211928890e-03 9.99959720818324404590e-01 -3.41673705785865535270e-04
9.99379749466464281082e+08 9.91281587752259940594e-01 -7.37806559597481287360e-02 -5.93978511916308385757e-04 -5.02661757552703980512e-03 -5.93978511916308385757e-04 -5.02661757552703980512e-03 9.99959532715064103314e-01 -3.42459468839392963072e-04
9.99381215779782295227e+08 9.91240778981649084400e-01 -7.39507122428050001073e-02 -5.96758781092831115493e-04 -5.03820337522105192452e-03 -5.96758781092831115493e-04 -5.03820337522105192452e-03 9.99959343297530112160e-01 -3.43248800183915429504e-04
