! File generated for n1 = 6, n2 = 7
! b1 = 2.154435
! b2 = 0.021544
! Q0 = 10000.000000
! f0 = 1000000000.000000
! n = 1001
! rel_span = 10.000000
# Hz S RI R 50
9.98412010481533885002e+08 9.86588397238500225406e-01 -1.34222684407921760696e-01 -1.34116027614997559460e-03 -1.34222684407921729471e-02 -1.34116027614997559460e-03 -1.34222684407921729471e-02 9.99865883972384961176e-01 -1.34222684407921707787e-03
9.98415186460570812225e+08 9.86535081042425932019e-01 -1.34486543756510840142e-01 -1.34649189575740922675e-03 -1.34486543756510805447e-02 -1.34649189575740922675e-03 -1.34486543756510805447e-02 9.99865350810424269312e-01 -1.34486543756510783763e-03
9.98418362439607739449e+08 9.86481447527344124104e-01 -1.34751430929370613621e-01 -1.35185524726558745946e-03 -1.34751430929370575457e-02 -1.35185524726558745946e-03 -1.34751430929370575457e-02 9.99864814475273422367e-01 -1.34751430929370562446e-03
9.98421538418644666672e+08 9.86427494179110020411e-01 -1.35017351877774277602e-01 -1.35725058208900194873e-03 -1.35017351877774246377e-02 -1.35725058208900194873e-03 -1.35017351877774246377e-02 9.99864274941791086881e-01 -1.35017351877774220356e-03
9.98424714397681593895e+08 9.86373218458710843137e-01 -1.35284312598515837900e-01 -1.36267815412891078568e-03 -1.35284312598515817083e-02 -1.36267815412891078568e-03 -1.35284312598515817083e-02 9.99863732184587128415e-01 -1.35284312598515791062e-03
9.98427890376718521118e+08 9.86318617801986152749e-01 -1.35552319134270349288e-01 -1.36813821980138290366e-03 -1.35552319134270311124e-02 -1.36813821980138290366e-03 -1.35552319134270311124e-02 9.99863186178019835992e-01 -1.35552319134270293777e-03
9.98431066355755448341e+08 9.86263689619317096557e-01 -1.35821377574084106721e-01 -1.37363103806828717839e-03 -1.35821377574084078965e-02 -1.37363103806828717839e-03 -1.35821377574084078965e-02 9.99862636896193146541e-01 -1.35821377574084052944e-03
9.98434242334792375565e+08 9.86208431295326204413e-01 -1.36091494053805023290e-01 -1.37915687046738250771e-03 -1.36091494053804992065e-02 -1.37915687046738250771e-03 -1.36091494053804992065e-02 9.99862084312953314225e-01 -1.36091494053804974718e-03
9.98437418313829302788e+08 9.86152840188577628489e-01 -1.36362674756489166139e-01 -1.38471598114223702104e-03 -1.36362674756489148792e-02 -1.38471598114223702104e-03 -1.36362674756489148792e-02 9.99861528401885801820e-01 -1.36362674756489122771e-03
9.98440594292866230011e+08 9.86096913631252958155e-01 -1.36634925912916260771e-01 -1.39030863687469928396e-03 -1.36634925912916226076e-02 -1.39030863687469928396e-03 -1.36634925912916226076e-02 9.99860969136312505157e-01 -1.36634925912916213066e-03
9.98443770271903157234e+08 9.86040648928849017274e-01 -1.36908253801977825015e-01 -1.39593510711509267812e-03 -1.36908253801977814607e-02 -1.39593510711509267812e-03 -1.36908253801977814607e-02 9.99860406489288533471e-01 -1.36908253801977779912e-03
9.98446946250940084457e+08 9.85984043359850237387e-01 -1.37182664751174604456e-01 -1.40159566401497912361e-03 -1.37182664751174573231e-02 -1.40159566401497912361e-03 -1.37182664751174573231e-02 9.99859840433598545673e-01 -1.37182664751174542873e-03
9.98450122229977130890e+08 9.85927094175404916676e-01 -1.37458165137076621098e-01 -1.40729058245950538336e-03 -1.37458165137076607221e-02 -1.40729058245950538336e-03 -1.37458165137076607221e-02 9.99859270941754085804e-01 -1.37458165137076585537e-03
9.98453298209014058113e+08 9.85869798599003144268e-01 -1.37734761385764264974e-01 -1.41302014009968908599e-03 -1.37734761385764244157e-02 -1.41302014009968908599e-03 -1.37734761385764244157e-02 9.99858697985990030332e-01 -1.37734761385764213799e-03
9.98456474188050985336e+08 9.85812153826132298029e-01 -1.38012459973351625520e-01 -1.41878461738676841901e-03 -1.38012459973351608172e-02 -1.41878461738676841901e-03 -1.38012459973351608172e-02 9.99858121538261368499e-01 -1.38012459973351582151e-03
9.98459650167087912560e+08 9.85754157023945754013e-01 -1.38291267426438463373e-01 -1.42458429760542446864e-03 -1.38291267426438446025e-02 -1.42458429760542446864e-03 -1.38291267426438446025e-02 9.99857541570239427564e-01 -1.38291267426438415668e-03
9.98462826146124839783e+08 9.85695805330916163811e-01 -1.38571190322610948709e-01 -1.43041946690837919534e-03 -1.38571190322610924422e-02 -1.43041946690837919534e-03 -1.38571190322610924422e-02 9.99856958053309208267e-01 -1.38571190322610889728e-03
9.98466002125161767006e+08 9.85637095856494283019e-01 -1.38852235290904096887e-01 -1.43629041435056601685e-03 -1.38852235290904072601e-02 -1.43629041435056601685e-03 -1.38852235290904072601e-02 9.99856370958564943940e-01 -1.38852235290904042243e-03
9.98469178104198694229e+08 9.85578025680752034532e-01 -1.39134409012318382981e-01 -1.44219743192479680702e-03 -1.39134409012318365634e-02 -1.44219743192479680702e-03 -1.39134409012318365634e-02 9.99855780256807546991e-01 -1.39134409012318352623e-03
9.98472354083235621452e+08 9.85518591854018466414e-01 -1.39417718220352621072e-01 -1.44814081459815617754e-03 -1.39417718220352596786e-02 -1.44814081459815617754e-03 -1.39417718220352596786e-02 9.99855185918540168011e-01 -1.39417718220352562092e-03
9.98475530062272548676e+08 9.85458791396531696982e-01 -1.39702169701443446037e-01 -1.45412086034683147272e-03 -1.39702169701443404404e-02 -1.45412086034683147272e-03 -1.39702169701443404404e-02 9.99854587913965309198e-01 -1.39702169701443382720e-03
9.98478706041309475899e+08 9.85398621298056442974e-01 -1.39987770295549290855e-01 -1.46013787019435171272e-03 -1.39987770295549283917e-02 -1.46013787019435171272e-03 -1.39987770295549283917e-02 9.99853986212980605508e-01 -1.39987770295549253559e-03
9.98481882020346403122e+08 9.85338078517523530131e-01 -1.40274526896611101412e-01 -1.46619214824764685680e-03 -1.40274526896611070187e-02 -1.46619214824764685680e-03 -1.40274526896611070187e-02 9.99853380785175271939e-01 -1.40274526896611061513e-03
9.98485057999383330345e+08 9.85277159982634098689e-01 -1.40562446453158962356e-01 -1.47228400173658627130e-03 -1.40562446453158951948e-02 -1.47228400173658627130e-03 -1.40562446453158951948e-02 9.99852771599826328774e-01 -1.40562446453158925927e-03
9.98488233978420257568e+08 9.85215862589499669077e-01 -1.40851535968734453697e-01 -1.47841374105003582444e-03 -1.40851535968734425941e-02 -1.47841374105003582444e-03 -1.40851535968734425941e-02 9.99852158625895048871e-01 -1.40851535968734408594e-03
9.98491409957457184792e+08 9.85154183202230915306e-01 -1.41141802502529445373e-01 -1.48458167977691228578e-03 -1.41141802502529403740e-02 -1.48458167977691228578e-03 -1.41141802502529403740e-02 9.99851541832022294720e-01 -1.41141802502529390730e-03
9.98494585936494112015e+08 9.85092118652553749847e-01 -1.41433253169881173461e-01 -1.49078813474462284691e-03 -1.41433253169881128358e-02 -1.49078813474462284691e-03 -1.41433253169881128358e-02 9.99850921186525520845e-01 -1.41433253169881119685e-03
9.98497761915531039238e+08 9.85029665739404425295e-01 -1.41725895142843644203e-01 -1.49703342605955747047e-03 -1.41725895142843626856e-02 -1.49703342605955747047e-03 -1.41725895142843626856e-02 9.99850296657393999844e-01 -1.41725895142843605172e-03
9.98500937894567966461e+08 9.84966821228533628840e-01 -1.42019735650694173268e-01 -1.50331787714663646545e-03 -1.42019735650694162860e-02 -1.50331787714663646545e-03 -1.42019735650694162860e-02 9.99849668212285380697e-01 -1.42019735650694136839e-03
9.98504113873604893684e+08 9.84903581852074938574e-01 -1.42314781980589444288e-01 -1.50964181479250184915e-03 -1.42314781980589413063e-02 -1.50964181479250184915e-03 -1.42314781980589413063e-02 9.99849035818520803787e-01 -1.42314781980589400052e-03
9.98507289852641820908e+08 9.84839944308144032981e-01 -1.42611041478054451082e-01 -1.51600556918559249524e-03 -1.42611041478054433734e-02 -1.51600556918559249524e-03 -1.42611041478054433734e-02 9.99848399443081459204e-01 -1.42611041478054407713e-03
9.98510465831678748131e+08 9.84775905260403261465e-01 -1.42908521547611244706e-01 -1.52240947395967463410e-03 -1.42908521547611220420e-02 -1.52240947395967463410e-03 -1.42908521547611220420e-02 9.99847759052604034835e-01 -1.42908521547611207410e-03
9.98513641810715675354e+08 9.84711461337639981650e-01 -1.43207229653321721496e-01 -1.52885386623599801859e-03 -1.43207229653321711088e-02 -1.52885386623599801859e-03 -1.43207229653321711088e-02 9.99847114613376386494e-01 -1.43207229653321676394e-03
9.98516817789752602577e+08 9.84646609133323691410e-01 -1.43507173319409514489e-01 -1.53533908666763307081e-03 -1.43507173319409493673e-02 -1.53533908666763307081e-03 -1.43507173319409493673e-02 9.99846466091333208048e-01 -1.43507173319409463315e-03
9.98519993768789529800e+08 9.84581345205166713619e-01 -1.43808360130837087354e-01 -1.54186547948333141367e-03 -1.43808360130837052659e-02 -1.54186547948333141367e-03 -1.43808360130837052659e-02 9.99845813452051701553e-01 -1.43808360130837043986e-03
9.98523169747826457024e+08 9.84515666074668338581e-01 -1.44110797733942058718e-01 -1.54843339253316080763e-03 -1.44110797733942030963e-02 -1.54843339253316080763e-03 -1.44110797733942030963e-02 9.99845156660746692268e-01 -1.44110797733941996268e-03
9.98526345726863503456e+08 9.84449568226664406545e-01 -1.44414493837023094613e-01 -1.55504317733355635310e-03 -1.44414493837023063388e-02 -1.55504317733355635310e-03 -1.44414493837023063388e-02 9.99844495682266631853e-01 -1.44414493837023054715e-03
9.98529521705900430679e+08 9.84383048108866343107e-01 -1.44719456210948504982e-01 -1.56169518911336568934e-03 -1.44719456210948473757e-02 -1.56169518911336568934e-03 -1.44719456210948473757e-02 9.99843830481088713391e-01 -1.44719456210948456409e-03
9.98532697684937357903e+08 9.84316102131389647489e-01 -1.45025692689792845558e-01 -1.56838978686103303929e-03 -1.45025692689792814333e-02 -1.56838978686103303929e-03 -1.45025692689792814333e-02 9.99843161021313875381e-01 -1.45025692689792801322e-03
9.98535873663974285126e+08 9.84248726666268058949e-01 -1.45333211171513931870e-01 -1.57512733337319380152e-03 -1.45333211171513893706e-02 -1.57512733337319380152e-03 -1.45333211171513893706e-02 9.99842487266662693912e-01 -1.45333211171513876359e-03
9.98539049643011212349e+08 9.84180918046984820613e-01 -1.45642019618524826141e-01 -1.58190819530151555346e-03 -1.45642019618524819202e-02 -1.58190819530151555346e-03 -1.45642019618524819202e-02 9.99841809180469831553e-01 -1.45642019618524788845e-03
9.98542225622048139572e+08 9.84112672567974189342e-01 -1.45952126058380177165e-01 -1.58873274320258306078e-03 -1.45952126058380166757e-02 -1.58873274320258306078e-03 -1.45952126058380166757e-02 9.99841126725679707477e-01 -1.45952126058380136399e-03
9.98545401601085066795e+08 9.84043986484121835367e-01 -1.46263538584438357315e-01 -1.59560135158781776429e-03 -1.46263538584438315682e-02 -1.59560135158781776429e-03 -1.46263538584438315682e-02 9.99840439864841168394e-01 -1.46263538584438302671e-03
9.98548577580121994019e+08 9.83974856010265797046e-01 -1.46576265356499008119e-01 -1.60251439897342437199e-03 -1.46576265356498994241e-02 -1.60251439897342437199e-03 -1.46576265356498994241e-02 9.99839748560102603570e-01 -1.46576265356498968220e-03
9.98551753559158921242e+08 9.83905277320672344565e-01 -1.46890314601524657467e-01 -1.60947226793276064287e-03 -1.46890314601524629712e-02 -1.60947226793276064287e-03 -1.46890314601524629712e-02 9.99839052773206726776e-01 -1.46890314601524603691e-03
9.98554929538195848465e+08 9.83835246548535380384e-01 -1.47205694614233578710e-01 -1.61647534514645788498e-03 -1.47205694614233554424e-02 -1.61647534514645788498e-03 -1.47205694614233554424e-02 9.99838352465485358245e-01 -1.47205694614233528403e-03
9.98558105517232775688e+08 9.83764759785423215099e-01 -1.47522413757897929987e-01 -1.62352402145767601808e-03 -1.47522413757897909170e-02 -1.62352402145767601808e-03 -1.47522413757897909170e-02 9.99837647597854206616e-01 -1.47522413757897883149e-03
9.98561281496269702911e+08 9.83693813080762091694e-01 -1.47840480464953044626e-01 -1.63061869192378575653e-03 -1.47840480464953034218e-02 -1.63061869192378575653e-03 -1.47840480464953034218e-02 9.99836938130807650893e-01 -1.47840480464952995186e-03
9.98564457475306630135e+08 9.83622402441279852781e-01 -1.48159903237757711869e-01 -1.63775975587201832150e-03 -1.48159903237757694522e-02 -1.63775975587201832150e-03 -1.48159903237757694522e-02 9.99836224024412745237e-01 -1.48159903237757664164e-03
9.98567633454343557358e+08 9.83550523830467815500e-01 -1.48480690649240909540e-01 -1.64494761695321433000e-03 -1.48480690649240888723e-02 -1.64494761695321433000e-03 -1.48480690649240888723e-02 9.99835505238304667053e-01 -1.48480690649240867039e-03
9.98570809433380484581e+08 9.83478173167995906034e-01 -1.48802851343736136647e-01 -1.65218268320040909299e-03 -1.48802851343736095013e-02 -1.65218268320040909299e-03 -1.48802851343736095013e-02 9.99834781731679944627e-01 -1.48802851343736073329e-03
9.98573985412417411804e+08 9.83405346329170093611e-01 -1.49126394037589093955e-01 -1.65946536708299285066e-03 -1.49126394037589066199e-02 -1.65946536708299285066e-03 -1.49126394037589066199e-02 9.99834053463291683173e-01 -1.49126394037589048852e-03
9.98577161391454339027e+08 9.83332039144332314962e-01 -1.49451327519998816706e-01 -1.66679608556676971814e-03 -1.49451327519998788951e-02 -1.66679608556676971814e-03 -1.49451327519998788951e-02 9.99833320391443347575e-01 -1.49451327519998762930e-03
9.98580337370491266251e+08 9.83258247398296814090e-01 -1.49777660653664629331e-01 -1.67417526017032340484e-03 -1.49777660653664587698e-02 -1.67417526017032340484e-03 -1.49777660653664587698e-02 9.99832582473982989235e-01 -1.49777660653664570350e-03
9.98583513349528193474e+08 9.83183966829731303960e-01 -1.50105402375645985424e-01 -1.68160331702686812946e-03 -1.50105402375645940322e-02 -1.68160331702686812946e-03 -1.50105402375645940322e-02 9.99831839668297361889e-01 -1.50105402375645918638e-03
9.98586689328565120697e+08 9.83109193130563108198e-01 -1.50434561698084473536e-01 -1.68908068694369303993e-03 -1.50434561698084452719e-02 -1.68908068694369303993e-03 -1.50434561698084452719e-02 9.99831091931305593334e-01 -1.50434561698084426698e-03
9.98589865307602047920e+08 9.83033921945369870699e-01 -1.50765147708957103490e-01 -1.69660780546301457813e-03 -1.50765147708957075734e-02 -1.69660780546301457813e-03 -1.50765147708957075734e-02 9.99830339219453745336e-01 -1.50765147708957036703e-03
9.98593041286638975143e+08 9.82958148870751946546e-01 -1.51097169572884854061e-01 -1.70418511292480794744e-03 -1.51097169572884833244e-02 -1.70418511292480794744e-03 -1.51097169572884833244e-02 9.99829581488707486159e-01 -1.51097169572884807223e-03
9.98596217265675902367e+08 9.82881869454693912758e-01 -1.51430636531951573476e-01 -1.71181305453061262736e-03 -1.51430636531951559598e-02 -1.71181305453061262736e-03 -1.51430636531951559598e-02 9.99828818694546983536e-01 -1.51430636531951529240e-03
9.98599393244712829590e+08 9.82805079195930075819e-01 -1.51765557906474307659e-01 -1.71949208040698747410e-03 -1.51765557906474290312e-02 -1.71949208040698747410e-03 -1.51765557906474290312e-02 9.99828050791959355159e-01 -1.51765557906474268628e-03
9.98602569223749876022e+08 9.82727773543288662950e-01 -1.52101943095835884234e-01 -1.72722264567113921278e-03 -1.52101943095835859948e-02 -1.72722264567113921278e-03 -1.52101943095835859948e-02 9.99827277735432895511e-01 -1.52101943095835838264e-03
9.98605745202786803246e+08 9.82649947895036568468e-01 -1.52439801579274475385e-01 -1.73500521049634406391e-03 -1.52439801579274461507e-02 -1.73500521049634406391e-03 -1.52439801579274461507e-02 9.99826499478950414534e-01 -1.52439801579274444160e-03
9.98608921181823730469e+08 9.82571597598194346190e-01 -1.52779142916777771477e-01 -1.74284024018056299572e-03 -1.52779142916777740252e-02 -1.74284024018056299572e-03 -1.52779142916777740252e-02 9.99825715975981910155e-01 -1.52779142916777718568e-03
9.98612097160860657692e+08 9.82492717947863525296e-01 -1.53119976749880787326e-01 -1.75072820521365054951e-03 -1.53119976749880749162e-02 -1.75072820521365054951e-03 -1.53119976749880749162e-02 9.99824927179478684103e-01 -1.53119976749880736151e-03
9.98615273139897584915e+08 9.82413304186517621908e-01 -1.53462312802587819149e-01 -1.75866958134823997764e-03 -1.53462312802587798333e-02 -1.75866958134823997764e-03 -1.53462312802587798333e-02 9.99824133041865126259e-01 -1.53462312802587759301e-03
9.98618449118934512138e+08 9.82333351503328677801e-01 -1.53806160882107134658e-01 -1.76666484966713226330e-03 -1.53806160882107110371e-02 -1.76666484966713226330e-03 -1.53806160882107110371e-02 9.99823333515033274566e-01 -1.53806160882107088687e-03
9.98621625097971439362e+08 9.82252855033412752839e-01 -1.54151530879895720672e-01 -1.77471449665871907828e-03 -1.54151530879895696385e-02 -1.77471449665871907828e-03 -1.54151530879895696385e-02 9.99822528550334155284e-01 -1.54151530879895670365e-03
9.98624801077008366585e+08 9.82171809857139921363e-01 -1.54498432772391114387e-01 -1.78281901428600482798e-03 -1.54498432772391079693e-02 -1.78281901428600482798e-03 -1.54498432772391079693e-02 9.99821718098571454725e-01 -1.54498432772391062345e-03
9.98627977056045293808e+08 9.82090210999362223099e-01 -1.54846876622055207307e-01 -1.79097890006377322321e-03 -1.54846876622055183020e-02 -1.79097890006377322321e-03 -1.54846876622055183020e-02 9.99820902109993636664e-01 -1.54846876622055152663e-03
9.98631153035082221031e+08 9.82008053428695792952e-01 -1.55196872578151429112e-01 -1.79919465713042196243e-03 -1.55196872578151397887e-02 -1.79919465713042196243e-03 -1.55196872578151397887e-02 9.99820080534286947938e-01 -1.55196872578151380540e-03
9.98634329014119148254e+08 9.81925332056739375020e-01 -1.55548430877750831769e-01 -1.80746679432606713843e-03 -1.55548430877750810952e-02 -1.80746679432606713843e-03 -1.55548430877750810952e-02 9.99819253320567424836e-01 -1.55548430877750789268e-03
9.98637504993156075478e+08 9.81842041737309934035e-01 -1.55901561846628733399e-01 -1.81579582626901006592e-03 -1.55901561846628709113e-02 -1.81579582626901006592e-03 -1.55901561846628709113e-02 9.99818420417373121545e-01 -1.55901561846628683092e-03
9.98640680972193002701e+08 9.81758177265642628662e-01 -1.56256275900271163204e-01 -1.82418227343573882519e-03 -1.56256275900271135448e-02 -1.82418227343573882519e-03 -1.56256275900271135448e-02 9.99817581772656449601e-01 -1.56256275900271113764e-03
9.98643856951229929924e+08 9.81673733377625090668e-01 -1.56612583544695066484e-01 -1.83262666223749483632e-03 -1.56612583544695031790e-02 -1.83262666223749483632e-03 -1.56612583544695031790e-02 9.99816737333776295316e-01 -1.56612583544695014443e-03
9.98647032930266857147e+08 9.81588704748945772849e-01 -1.56970495377590502084e-01 -1.84112952510542479678e-03 -1.56970495377590467390e-02 -1.84112952510542479678e-03 -1.56970495377590467390e-02 9.99815887047489471051e-01 -1.56970495377590450042e-03
9.98650208909303784370e+08 9.81503085994309132367e-01 -1.57330022089139459629e-01 -1.84969140056908776075e-03 -1.57330022089139445751e-02 -1.84969140056908776075e-03 -1.57330022089139445751e-02 9.99815030859943054686e-01 -1.57330022089139406720e-03
9.98653384888340711594e+08 9.81416871666564882837e-01 -1.57691174463152561369e-01 -1.85831283334351136938e-03 -1.57691174463152512797e-02 -1.85831283334351136938e-03 -1.57691174463152512797e-02 9.99814168716665618852e-01 -1.57691174463152491113e-03
9.98656560867377638817e+08 9.81330056255886540306e-01 -1.58053963377955353220e-01 -1.86699437441134228309e-03 -1.58053963377955339342e-02 -1.86699437441134228309e-03 -1.58053963377955339342e-02 9.99813300562558904261e-01 -1.58053963377955308985e-03
9.98659736846414566040e+08 9.81242634188891682534e-01 -1.58418399807475684948e-01 -1.87573658111082615212e-03 -1.58418399807475629437e-02 -1.87573658111082615212e-03 -1.58418399807475629437e-02 9.99812426341888937920e-01 -1.58418399807475616427e-03
