! File generated for n1 = 7, n2 = 4
! b1 = 1.000000
! b2 = 0.100000
! Q0 = 10000.000000
! f0 = 1000000000.000000
! n = 1001
! rel_span = 10.000000
# Hz S RI R 50
9.98950000000000000000e+08 9.90580291255728329070e-01 -9.42465928943521796812e-02 -2.97877345273031297196e-03 -2.98033895256793780748e-02 -2.97877345273031297196e-03 -2.98033895256793780748e-02 9.99058029125572844009e-01 -9.42465928943521553951e-03
9.98952100000000000000e+08 9.90542854663910787849e-01 -9.44318139404394935044e-02 -2.99061194252804064819e-03 -2.98619615633028724633e-02 -2.99061194252804064819e-03 -2.98619615633028724633e-02 9.99054285466391078785e-01 -9.44318139404394692182e-03
9.98954200000000000000e+08 9.90505195283909567472e-01 -9.46177564814588839548e-02 -3.00252088413540925774e-03 -2.99207617576569273599e-02 -3.00252088413540925774e-03 -2.99207617576569273599e-02 9.99050519528390967849e-01 -9.46177564814588631381e-03
9.98956300000000000000e+08 9.90467311350645363000e-01 -9.48044246949365926325e-02 -3.01450083571947651320e-03 -2.99797914297913366266e-02 -3.01450083571947651320e-03 -2.99797914297913366266e-02 9.99046731135064591811e-01 -9.48044246949365787547e-03
9.98958400000000000000e+08 9.90429201081577614829e-01 -9.49918227903688433544e-02 -3.02655236096908454579e-03 -3.00390519108656890712e-02 -3.02655236096908454579e-03 -3.00390519108656890712e-02 9.99042920108157761483e-01 -9.49918227903688225378e-03
9.98960500000000000000e+08 9.90390862676509331486e-01 -9.51799550094645369080e-02 -3.03867602915647034428e-03 -3.00985445422261091442e-02 -3.03867602915647034428e-03 -3.00985445422261091442e-02 9.99039086267650922046e-01 -9.51799550094645056830e-03
9.98962600000000000000e+08 9.90352294317373926802e-01 -9.53688256264698663855e-02 -3.05087241520481198404e-03 -3.01582706755079282823e-02 -3.05087241520481198404e-03 -3.01582706755079282823e-02 9.99035229431737392680e-01 -9.53688256264698455689e-03
9.98964700000000000000e+08 9.90313494168020169717e-01 -9.55584389484867430253e-02 -3.06314209975607019271e-03 -3.02182316727363543818e-02 -3.06314209975607019271e-03 -3.02182316727363543818e-02 9.99031349416802050278e-01 -9.55584389484867222087e-03
9.98966800000000000000e+08 9.90274460374003240304e-01 -9.57487993157547651046e-02 -3.07548566923719927588e-03 -3.02784289064156678095e-02 -3.07548566923719927588e-03 -3.02784289064156678095e-02 9.99027446037400346235e-01 -9.57487993157547442880e-03
9.98968900000000000000e+08 9.90235191062357911207e-01 -9.59399111020066003297e-02 -3.08790371593180290599e-03 -3.03388637596415725040e-02 -3.08790371593180290599e-03 -3.03388637596415725040e-02 9.99023519106235768916e-01 -9.59399111020065899214e-03
9.98971000000000000000e+08 9.90195684341383386418e-01 -9.61317787147570046447e-02 -3.10039683804824457020e-03 -3.03995376261926159023e-02 -3.10039683804824457020e-03 -3.03995376261926159023e-02 9.99019568434138305335e-01 -9.61317787147569768891e-03
9.98973100000000000000e+08 9.90155938300415150444e-01 -9.63244065956402745199e-02 -3.11296563979162905361e-03 -3.04604519106368917813e-02 -3.11296563979162905361e-03 -3.04604519106368917813e-02 9.99015593830041570556e-01 -9.63244065956402571727e-03
9.98975200000000000000e+08 9.90115951009600037125e-01 -9.65177992207265494917e-02 -3.12561073143516332529e-03 -3.05216080284320540050e-02 -3.12561073143516332529e-03 -3.05216080284320540050e-02 9.99011595100960048121e-01 -9.65177992207265182667e-03
9.98977300000000000000e+08 9.90075720519662638708e-01 -9.67119611008616653081e-02 -3.13833272939382504005e-03 -3.05830074060328138685e-02 -3.13833272939382504005e-03 -3.05830074060328138685e-02 9.99007572051966219462e-01 -9.67119611008616410219e-03
9.98979400000000000000e+08 9.90035244861673713324e-01 -9.69068967819907978178e-02 -3.15113225629774307626e-03 -3.06446514809932506196e-02 -3.15113225629774307626e-03 -3.06446514809932506196e-02 9.99003524486167360230e-01 -9.69068967819907735317e-03
9.98981500000000000000e+08 9.89994522046811264993e-01 -9.71026108455008141185e-02 -3.16400994106760162852e-03 -3.07065417020750998367e-02 -3.16400994106760162852e-03 -3.07065417020750998367e-02 9.98999452204681115397e-01 -9.71026108455008002407e-03
9.98983600000000000000e+08 9.89953550066116072514e-01 -9.72991079085822885286e-02 -3.17696641899213941262e-03 -3.07686795293622243619e-02 -3.17696641899213941262e-03 -3.07686795293622243619e-02 9.98995355006611629456e-01 -9.72991079085822746508e-03
9.98985700000000000000e+08 9.89912326890259763879e-01 -9.74963926245126510928e-02 -3.19000233180127433161e-03 -3.08310664343501468487e-02 -3.19000233180127433161e-03 -3.08310664343501468487e-02 9.98991232689026009695e-01 -9.74963926245126302761e-03
9.98987800000000000000e+08 9.89870850469282914652e-01 -9.76944696830775727303e-02 -3.20311832774915769897e-03 -3.08937039000793216281e-02 -3.20311832774915769897e-03 -3.08937039000793216281e-02 9.98987085046928346976e-01 -9.76944696830775449747e-03
9.98989900000000000000e+08 9.89829118732351909138e-01 -9.78933438108827574942e-02 -3.21631506169086592989e-03 -3.09565934212336982267e-02 -3.21631506169086592989e-03 -3.09565934212336982267e-02 9.98982911873235179812e-01 -9.78933438108827401469e-03
9.98992000000000000000e+08 9.89787129587497926941e-01 -9.80930197717424096071e-02 -3.22959319516500503733e-03 -3.10197365042636126475e-02 -3.22959319516500503733e-03 -3.10197365042636126475e-02 9.98978712958749737183e-01 -9.80930197717423853210e-03
9.98994100000000000000e+08 9.89744880921372027771e-01 -9.82935023669773977328e-02 -3.24295339647119465823e-03 -3.10831346674800314267e-02 -3.24295339647119465823e-03 -3.10831346674800314267e-02 9.98974488092137180573e-01 -9.82935023669773838551e-03
9.98996200000000000000e+08 9.89702370598967595683e-01 -9.84947964358541400154e-02 -3.25639634075779215230e-03 -3.11467894411933642063e-02 -3.25639634075779215230e-03 -3.11467894411933642063e-02 9.98970237059896737364e-01 -9.84947964358541191987e-03
9.98998300000000000000e+08 9.89659596463361435070e-01 -9.86969068559229029125e-02 -3.26992271010383920432e-03 -3.12107023678204302530e-02 -3.26992271010383920432e-03 -3.12107023678204302530e-02 9.98965959646336165711e-01 -9.86969068559228820958e-03
9.99000400000000000000e+08 9.89616556335448427362e-01 -9.88998385433700610836e-02 -3.28353319360283075340e-03 -3.12748750019958762780e-02 -3.28353319360283075340e-03 -3.12748750019958762780e-02 9.98961655633544887145e-01 -9.88998385433700541447e-03
9.99002500000000000000e+08 9.89573248013659756417e-01 -9.91035964534389413050e-02 -3.29722848745200988393e-03 -3.13393089107052227882e-02 -3.29722848745200988393e-03 -3.13393089107052227882e-02 9.98957324801366008948e-01 -9.91035964534389343661e-03
9.99004600000000000000e+08 9.89529669273691792064e-01 -9.93081855807804031455e-02 -3.31100929503791354541e-03 -3.14040056733957406720e-02 -3.31100929503791354541e-03 -3.14040056733957406720e-02 9.98952966927369123695e-01 -9.93081855807803788594e-03
9.99006700000000000000e+08 9.89485817868220651761e-01 -9.95136109598611789950e-02 -3.32487632702674644133e-03 -3.14689668821056187098e-02 -3.32487632702674644133e-03 -3.14689668821056187098e-02 9.98948581786822109585e-01 -9.95136109598611547089e-03
9.99008800000000000000e+08 9.89441691526623756658e-01 -9.97198776653228230460e-02 -3.33883030145241130673e-03 -3.15341941415774040802e-02 -3.33883030145241130673e-03 -3.15341941415774040802e-02 9.98944169152662375666e-01 -9.97198776653228022293e-03
9.99010900000000000000e+08 9.89397287954678850141e-01 -9.99269908124321842857e-02 -3.35287194381171053253e-03 -3.15996890694005133637e-02 -3.35287194381171053253e-03 -3.15996890694005133637e-02 9.98939728795467885014e-01 -9.99269908124321599996e-03
9.99013000000000000000e+08 9.89352604834286664115e-01 -1.00134955557405522231e-01 -3.36700198715201562058e-03 -3.16654532961136991887e-02 -3.36700198715201562058e-03 -3.16654532961136991887e-02 9.98935260483428622003e-01 -1.00134955557405497945e-02
9.99015100000000000000e+08 9.89307639823154061354e-01 -1.00343777097901307171e-01 -3.38122117217139325426e-03 -3.17314884653608700327e-02 -3.38122117217139325426e-03 -3.17314884653608700327e-02 9.98930763982315395033e-01 -1.00343777097901282885e-02
9.99017200000000000000e+08 9.89262390554508930229e-01 -1.00553460673353439736e-01 -3.39553024730895316660e-03 -3.17977962339965197769e-02 -3.39553024730895316660e-03 -3.17977962339965197769e-02 9.98926239055450859716e-01 -1.00553460673353418919e-02
9.99019300000000000000e+08 9.89216854636778664123e-01 -1.00764011565452324404e-01 -3.40992996884630300905e-03 -3.18643782722378074435e-02 -3.40992996884630300905e-03 -3.18643782722378074435e-02 9.98921685463677877514e-01 -1.00764011565452303587e-02
9.99021400000000000000e+08 9.89171029653297839701e-01 -1.00975435098481142182e-01 -3.42442110100022031535e-03 -3.19312362637708957447e-02 -3.42442110100022031535e-03 -3.19312362637708957447e-02 9.98917102965329761766e-01 -1.00975435098481121365e-02
9.99023500000000000000e+08 9.89124913161967711517e-01 -1.01187736639852005061e-01 -3.43900441603008262537e-03 -3.19983719059205376500e-02 -3.43900441603008262537e-03 -3.19983719059205376500e-02 9.98912491316196748947e-01 -1.01187736639851977305e-02
9.99025600000000000000e+08 9.89078502694958339170e-01 -1.01400921600434970604e-01 -3.45368069433224511577e-03 -3.20657869097540765280e-02 -3.45368069433224511577e-03 -3.20657869097540765280e-02 9.98907850269495800610e-01 -1.01400921600434956726e-02
9.99027700000000000000e+08 9.89031795758376297556e-01 -1.01614995435026167492e-01 -3.46845072454506379508e-03 -3.21334830002295082640e-02 -3.46845072454506379508e-03 -3.21334830002295082640e-02 9.98903179575837629756e-01 -1.01614995435026153614e-02
9.99029800000000000000e+08 9.88984789831926391912e-01 -1.01829963642827037162e-01 -3.48331530365588153825e-03 -3.22014619163470197649e-02 -3.48331530365588153825e-03 -3.22014619163470197649e-02 9.98898478983192616987e-01 -1.01829963642827026754e-02
9.99031900000000000000e+08 9.88937482368591691539e-01 -1.02045831767821532088e-01 -3.49827523710214208230e-03 -3.22697254112682685445e-02 -3.49827523710214208230e-03 -3.22697254112682685445e-02 9.98893748236859169154e-01 -1.02045831767821511271e-02
9.99034000000000000000e+08 9.88889870794281922173e-01 -1.02262605399283112995e-01 -3.51333133888266126166e-03 -3.23382752524767266844e-02 -3.51333133888266126166e-03 -3.23382752524767266844e-02 9.98888987079428192217e-01 -1.02262605399283095647e-02
9.99036100000000000000e+08 9.88841952507496402269e-01 -1.02480290172196106258e-01 -3.52848443166419627540e-03 -3.24071132219108867800e-02 -3.52848443166419627540e-03 -3.24071132219108867800e-02 9.98884195250749673534e-01 -1.02480290172196081971e-02
9.99038200000000000000e+08 9.88793724878974433778e-01 -1.02698891767716488088e-01 -3.54373534689197315986e-03 -3.24762411161100134072e-02 -3.54373534689197315986e-03 -3.24762411161100134072e-02 9.98879372487897487787e-01 -1.02698891767716467271e-02
9.99040300000000000000e+08 9.88745185251327929343e-01 -1.02918415913696312258e-01 -3.55908492490593147614e-03 -3.25456607463799618696e-02 -3.55908492490593147614e-03 -3.25456607463799618696e-02 9.98874518525132759628e-01 -1.02918415913696281033e-02
9.99042400000000000000e+08 9.88696330938706458014e-01 -1.03138868385039786379e-01 -3.57453401504648996673e-03 -3.26153739389058033860e-02 -3.57453401504648996673e-03 -3.26153739389058033860e-02 9.98869633093870668006e-01 -1.03138868385039758624e-02
9.99044500000000000000e+08 9.88647159226401783805e-01 -1.03360255004320375494e-01 -3.59008347577984519849e-03 -3.26853825349469190309e-02 -3.59008347577984519849e-03 -3.26853825349469190309e-02 9.98864715922640145074e-01 -1.03360255004320347738e-02
9.99046600000000000000e+08 9.88597667370501809181e-01 -1.03582581642147800172e-01 -3.60573417480712426694e-03 -3.27556883909531221244e-02 -3.60573417480712426694e-03 -3.27556883909531221244e-02 9.98859766737050125407e-01 -1.03582581642147775886e-02
9.99048700000000000000e+08 9.88547852597499332461e-01 -1.03805854217727200339e-01 -3.62148698918831994653e-03 -3.28262933787414265541e-02 -3.62148698918831994653e-03 -3.28262933787414265541e-02 9.98854785259749911042e-01 -1.03805854217727186461e-02
9.99050800000000000000e+08 9.88497712103920234128e-01 -1.04030078699307151902e-01 -3.63734280545981733881e-03 -3.28971993856377320498e-02 -3.63734280545981733881e-03 -3.28971993856377320498e-02 9.98849771210391979004e-01 -1.04030078699307131085e-02
9.99052900000000000000e+08 9.88447243055924906763e-01 -1.04255261104727811605e-01 -3.65330251976036081765e-03 -3.29684083146502063255e-02 -3.65330251976036081765e-03 -3.29684083146502063255e-02 9.98844724305592457370e-01 -1.04255261104727794258e-02
9.99055000000000000000e+08 9.88396442588922896633e-01 -1.04481407501892581413e-01 -3.66936703795304628925e-03 -3.30399220846183810929e-02 -3.66936703795304628925e-03 -3.30399220846183810929e-02 9.98839644258892267459e-01 -1.04481407501892560596e-02
9.99057100000000000000e+08 9.88345307807167228198e-01 -1.04708524009305067870e-01 -3.68553727575337934652e-03 -3.31117426303829814893e-02 -3.68553727575337934652e-03 -3.31117426303829814893e-02 9.98834530780716711718e-01 -1.04708524009305050523e-02
9.99059200000000000000e+08 9.88293835783357832447e-01 -1.04936616796552278918e-01 -3.70181415885498720994e-03 -3.31838719029387205217e-02 -3.70181415885498720994e-03 -3.31838719029387205217e-02 9.98829383578335838756e-01 -1.04936616796552258102e-02
9.99061300000000000000e+08 9.88242023558218218859e-01 -1.05165692084878456547e-01 -3.71819862306327136511e-03 -3.32563118696157650200e-02 -3.71819862306327136511e-03 -3.32563118696157650200e-02 9.98824202355821810784e-01 -1.05165692084878432261e-02
9.99063400000000000000e+08 9.88189868140082805503e-01 -1.05395756147692976068e-01 -3.73469161442590820779e-03 -3.33290645142403640921e-02 -3.73469161442590820779e-03 -3.33290645142403640921e-02 9.98818986814008269448e-01 -1.05395756147692969129e-02
9.99065500000000000000e+08 9.88137366504478364959e-01 -1.05626815311084504279e-01 -3.75129408936530212015e-03 -3.34021318372973788358e-02 -3.75129408936530212015e-03 -3.34021318372973788358e-02 9.98813736650447814291e-01 -1.05626815311084479992e-02
9.99067600000000000000e+08 9.88084515593686374402e-01 -1.05858875954396178254e-01 -3.76800701481702074100e-03 -3.34755158561122687089e-02 -3.76800701481702074100e-03 -3.34755158561122687089e-02 9.98808451559368593031e-01 -1.05858875954396164376e-02
9.99069700000000000000e+08 9.88031312316296483900e-01 -1.06091944510814176206e-01 -3.78483136837079936141e-03 -3.35492186050370955197e-02 -3.78483136837079936141e-03 -3.35492186050370955197e-02 9.98803131231629670594e-01 -1.06091944510814158859e-02
9.99071800000000000000e+08 9.87977753546788073358e-01 -1.06326027467815692473e-01 -3.80176813840304821113e-03 -3.36232421355922989070e-02 -3.80176813840304821113e-03 -3.36232421355922989070e-02 9.98797775354678840642e-01 -1.06326027467815668187e-02
9.99073900000000000000e+08 9.87923836125051080259e-01 -1.06561131367857025998e-01 -3.81881832422833805349e-03 -3.36975885166842167862e-02 -3.81881832422833805349e-03 -3.36975885166842167862e-02 9.98792383612505108026e-01 -1.06561131367857008651e-02
9.99076000000000000000e+08 9.87869556855946129303e-01 -1.06797262808865617290e-01 -3.83598293623842916469e-03 -3.37722598347607039226e-02 -3.83598293623842916469e-03 -3.37722598347607039226e-02 9.98786955685594612930e-01 -1.06797262808865593003e-02
9.99078100000000000000e+08 9.87814912508834130911e-01 -1.07034428444843787709e-01 -3.85326299605109065874e-03 -3.38472581940020417202e-02 -3.85326299605109065874e-03 -3.38472581940020417202e-02 9.98781491250883446398e-01 -1.07034428444843770362e-02
9.99080200000000000000e+08 9.87759899817104214392e-01 -1.07272634986454867834e-01 -3.87065953665940683595e-03 -3.39225857165063107712e-02 -3.87065953665940683595e-03 -3.39225857165063107712e-02 9.98775989981710465848e-01 -1.07272634986454850486e-02
9.99082300000000000000e+08 9.87704515477694111603e-01 -1.07511889201616750444e-01 -3.88817360258341283147e-03 -3.39982445424770671205e-02 -3.88817360258341283147e-03 -3.39982445424770671205e-02 9.98770451547769444467e-01 -1.07511889201616726158e-02
9.99084400000000000000e+08 9.87648756150599882453e-01 -1.07752197916115316501e-01 -3.90580625002499804907e-03 -3.40742368304173259830e-02 -3.90580625002499804907e-03 -3.40742368304173259830e-02 9.98764875615059999348e-01 -1.07752197916115288745e-02
9.99086500000000000000e+08 9.87592618458388304958e-01 -1.07993568014187302229e-01 -3.92355854702242795584e-03 -3.41505647573138934603e-02 -3.92355854702242795584e-03 -3.41505647573138934603e-02 9.98759261845838852700e-01 -1.07993568014187277943e-02
9.99088600000000000000e+08 9.87536098985690613539e-01 -1.08236006439148532698e-01 -3.94143157361006267470e-03 -3.42272305188360201345e-02 -3.94143157361006267470e-03 -3.42272305188360201345e-02 9.98753609898569094661e-01 -1.08236006439148511882e-02
9.99090700000000000000e+08 9.87479194278690353137e-01 -1.08479520194030218394e-01 -3.95942642198060437003e-03 -3.43042363295366359299e-02 -3.95942642198060437003e-03 -3.43042363295366359299e-02 9.98747919427869002007e-01 -1.08479520194030201047e-02
9.99092800000000000000e+08 9.87421900844613786852e-01 -1.08724116342171397975e-01 -3.97754419664605139706e-03 -3.43815844230396447379e-02 -3.97754419664605139706e-03 -3.43815844230396447379e-02 9.98742190084461411992e-01 -1.08724116342171373689e-02
9.99094900000000000000e+08 9.87364215151192325948e-01 -1.08969802007909247199e-01 -3.99578601460787337374e-03 -3.44592770522582775294e-02 -3.99578601460787337374e-03 -3.44592770522582775294e-02 9.98736421515119210390e-01 -1.08969802007909226382e-02
9.99097000000000000000e+08 9.87306133626133286540e-01 -1.09216584377200415235e-01 -4.01415300552413010365e-03 -3.45373164895915671369e-02 -4.01415300552413010365e-03 -3.45373164895915671369e-02 9.98730613362613373063e-01 -1.09216584377200397887e-02
9.99099100000000000000e+08 9.87247652656584206987e-01 -1.09464470698249660696e-01 -4.03264631187914921601e-03 -3.46157050271230989913e-02 -4.03264631187914921601e-03 -3.46157050271230989913e-02 9.98724765265658454005e-01 -1.09464470698249632941e-02
9.99101200000000000000e+08 9.87188768588571408102e-01 -1.09713468282211942806e-01 -4.05126708916079322081e-03 -3.46944449768430834835e-02 -4.05126708916079322081e-03 -3.46944449768430834835e-02 9.98718876858857185219e-01 -1.09713468282211911581e-02
9.99103300000000000000e+08 9.87129477726437554175e-01 -1.09963584503877276344e-01 -4.07001650603859479322e-03 -3.47735386708648910870e-02 -4.07001650603859479322e-03 -3.47735386708648910870e-02 9.98712947772643744315e-01 -1.09963584503877265935e-02
9.99105400000000000000e+08 9.87069776332287540654e-01 -1.10214826802284796003e-01 -4.08889574453875047355e-03 -3.48529884616192303648e-02 -4.08889574453875047355e-03 -3.48529884616192303648e-02 9.98706977633228798474e-01 -1.10214826802284768248e-02
9.99107500000000000000e+08 9.87009660625398410616e-01 -1.10467202681463413927e-01 -4.10790600023082722037e-03 -3.49327967220884189059e-02 -4.10790600023082722037e-03 -3.49327967220884189059e-02 9.98700966062539885471e-01 -1.10467202681463379232e-02
9.99109600000000000000e+08 9.86949126781632046779e-01 -1.10720719711129275686e-01 -4.12704848241348797727e-03 -3.50129658460268805564e-02 -4.12704848241348797727e-03 -3.50129658460268805564e-02 9.98694912678163237985e-01 -1.10720719711129254870e-02
9.99111700000000000000e+08 9.86888170932844754901e-01 -1.10975385527364772686e-01 -4.14632441430113490854e-03 -3.50934982481758903083e-02 -4.14632441430113490854e-03 -3.50934982481758903083e-02 9.98688817093284497695e-01 -1.10975385527364751870e-02
9.99113800000000000000e+08 9.86826789166278417476e-01 -1.11231207833346584790e-01 -4.16573503321657819670e-03 -3.51743963644937929214e-02 -4.16573503321657819670e-03 -3.51743963644937929214e-02 9.98682678916627875054e-01 -1.11231207833346560504e-02
