! File generated for n1 = 6, n2 = 9
! b1 = 2.154435
! b2 = 0.004642
! Q0 = 10000.000000
! f0 = 1000000000.000000
! n = 1001
! rel_span = 10.000000
# Hz S RI R 50
9.98420461860567212105e+08 9.86516524851088871806e-01 -1.34941408273819229979e-01 -6.25847476894814450619e-04 -6.26342533835742322490e-03 -6.25847476894814450619e-04 -6.26342533835742322490e-03 9.99970950733397034860e-01 -2.90722451106871461121e-04
9.98423620936846137047e+08 9.86462923167205185671e-01 -1.35206679342976587854e-01 -6.28335446668585304898e-04 -6.27573813068223618911e-03 -6.28335446668585304898e-04 -6.27573813068223618911e-03 9.99970835252069756294e-01 -2.91293960300525924673e-04
9.98426780013124942780e+08 9.86409002465668205417e-01 -1.35472983735413721185e-01 -6.30838223930131484010e-04 -6.28809888562501927839e-03 -6.30838223930131484010e-04 -6.28809888562501927839e-03 9.99970719083439929520e-01 -2.91867695721700372551e-04
9.98429939089403867722e+08 9.86354760218868809041e-01 -1.35740327434280744212e-01 -6.33355926000673326477e-04 -6.30050788089899730521e-03 -6.33355926000673326477e-04 -6.30050788089899730521e-03 9.99970602222061688558e-01 -2.92443670260700923271e-04
9.98433098165682673454e+08 9.86300193874218078527e-01 -1.36008716468389190268e-01 -6.35888671360894971833e-04 -6.31296539633681690756e-03 -6.35888671360894971833e-04 -6.31296539633681690756e-03 9.99970484662435876722e-01 -2.93021896906208345786e-04
9.98436257241961598396e+08 9.86245300853820450193e-01 -1.36278156912794240485e-01 -6.38436579666102916458e-04 -6.32547171391755792824e-03 -6.38436579666102916458e-04 -6.32547171391755792824e-03 9.99970366399008492309e-01 -2.93602388746532156141e-04
9.98439416318240404129e+08 9.86190078554200599825e-01 -1.36548654889099979615e-01 -6.40999771758918768412e-04 -6.33802711778091304451e-03 -6.40999771758918768412e-04 -6.33802711778091304451e-03 9.99970247426170577576e-01 -2.94185158970268673985e-04
9.98442575394519329071e+08 9.86134524345980811866e-01 -1.36820216565990859792e-01 -6.43578369684254247840e-04 -6.35063189425185206649e-03 -6.43578369684254247840e-04 -6.35063189425185206649e-03 9.99970127738257219541e-01 -2.94770220867445614799e-04
9.98445734470798134804e+08 9.86078635573589323826e-01 -1.37092848159592911594e-01 -6.46172496702821647085e-04 -6.36328633185738543748e-03 -6.46172496702821647085e-04 -6.36328633185738543748e-03 9.99970007329547216912e-01 -2.95357587830300547058e-04
9.98448893547077059746e+08 9.86022409554925594044e-01 -1.37366555934035239339e-01 -6.48782277306697769716e-04 -6.37599072135263018890e-03 -6.48782277306697769716e-04 -6.37599072135263018890e-03 9.99969886194262080892e-01 -2.95947273354490482389e-04
9.98452052623355865479e+08 9.85965843581072753921e-01 -1.37641346201763020707e-01 -6.51407837232677398159e-04 -6.38874535573533911675e-03 -6.51407837232677398159e-04 -6.38874535573533911675e-03 9.99969764326565702106e-01 -2.96539291039766411944e-04
9.98455211699634790421e+08 9.85908934915939672017e-01 -1.37917225324172776357e-01 -6.54049303478852913328e-04 -6.40155053027537807031e-03 -6.54049303478852913328e-04 -6.40155053027537807031e-03 9.99969641720563351406e-01 -2.97133654591341515340e-04
9.98458370775913596153e+08 9.85851680795969187443e-01 -1.38194199711915405304e-01 -6.56706804318184494268e-04 -6.41440654252880756991e-03 -6.56706804318184494268e-04 -6.41440654252880756991e-03 9.99969518370301235777e-01 -2.97730377820544609303e-04
9.98461529852192521095e+08 9.85794078429784503825e-01 -1.38472275825480106715e-01 -6.59380469314911794865e-04 -6.42731369236497051406e-03 -6.59380469314911794865e-04 -6.42731369236497051406e-03 9.99969394269765277095e-01 -2.98329474646077605349e-04
9.98464688928471326828e+08 9.85736124997865559294e-01 -1.38751460175613766657e-01 -6.62070429339557567187e-04 -6.44027228198596965458e-03 -6.62070429339557567187e-04 -6.44027228198596965458e-03 9.99969269412881112125e-01 -2.98930959094919625977e-04
9.98467848004750251770e+08 9.85677817652198196008e-01 -1.39031759323858278288e-01 -6.64776816585229074832e-04 -6.45328261595159817510e-03 -6.64776816585229074832e-04 -6.45328261595159817510e-03 9.99969143793512982299e-01 -2.99534845303483956806e-04
9.98471007081029057503e+08 9.85619153515949752986e-01 -1.39313179882940840759e-01 -6.67499764582672240089e-04 -6.46634500119746581659e-03 -6.67499764582672240089e-04 -6.46634500119746581659e-03 9.99969017405462734516e-01 -3.00141147518459604302e-04
9.98474166157307982445e+08 9.85560129683092700503e-01 -1.39595728517396433510e-01 -6.70239408217736080953e-04 -6.47945974706388202330e-03 -6.70239408217736080953e-04 -6.47945974706388202330e-03 9.99968890242469710117e-01 -3.00749880098151857553e-04
9.98477325233586788177e+08 9.85500743218072683405e-01 -1.39879411943959086617e-01 -6.72995883746781609243e-04 -6.49262716531402370168e-03 -6.72995883746781609243e-04 -6.49262716531402370168e-03 9.99968762298209301598e-01 -3.01361057513325526509e-04
9.98480484309865713120e+08 9.85440991155431378345e-01 -1.40164236932152019843e-01 -6.75769328814191262006e-04 -6.50584757016132563673e-03 -6.75769328814191262006e-04 -6.50584757016132563673e-03 9.99968633566292730563e-01 -3.01974694348476331660e-04
9.98483643386144518852e+08 9.85380870499458660916e-01 -1.40450210304719352861e-01 -6.78559882468520586540e-04 -6.51912127828951741548e-03 -6.78559882468520586540e-04 -6.51912127828951741548e-03 9.99968504040265937505e-01 -3.02590805302760824241e-04
9.98486802462423443794e+08 9.85320378223806248030e-01 -1.40737338938218520257e-01 -6.81367685180396900381e-04 -6.53244860888011966149e-03 -6.81367685180396900381e-04 -6.53244860888011966149e-03 9.99968373713608804643e-01 -3.03209405191272871657e-04
9.98489961538702249527e+08 9.85259511271128540777e-01 -1.41025629763473075995e-01 -6.84192878859245603475e-04 -6.54582988363346541388e-03 -6.84192878859245603475e-04 -6.54582988363346541388e-03 9.99968242579734489794e-01 -3.03830508946019222597e-04
9.98493120614981174469e+08 9.85198266552686274800e-01 -1.41315089766172852226e-01 -6.87035606871641817833e-04 -6.55926542679655284751e-03 -6.87035606871641817833e-04 -6.55926542679655284751e-03 9.99968110631988538195e-01 -3.04454131617212309709e-04
9.98496279691259980202e+08 9.85136640947973596383e-01 -1.41605725987348496364e-01 -6.89896014058629216195e-04 -6.57275556518507626108e-03 -6.89896014058629216195e-04 -6.57275556518507626108e-03 9.99967977863647883296e-01 -3.05080288374292923296e-04
9.98499438767538905144e+08 9.85074631304319603409e-01 -1.41897545523948676038e-01 -6.92774246754236677250e-04 -6.58630062821021107500e-03 -6.92774246754236677250e-04 -6.58630062821021107500e-03 9.99967844267920513701e-01 -3.05708994507173357526e-04
9.98502597843817710876e+08 9.85012234436492772893e-01 -1.42190555529377760102e-01 -6.95670452803810301229e-04 -6.59990094790357563481e-03 -6.95670452803810301229e-04 -6.59990094790357563481e-03 9.99967709837943918849e-01 -3.06340265427396205716e-04
9.98505756920096635818e+08 9.84949447126297505939e-01 -1.42484763214055176750e-01 -6.98584781582759915992e-04 -6.61355685894319308277e-03 -6.98584781582759915992e-04 -6.61355685894319308277e-03 9.99967574566784755952e-01 -3.06974116669339234208e-04
9.98508915996375441551e+08 9.84886266122172004955e-01 -1.42780175845945073165e-01 -7.01517384015215052229e-04 -6.62726869867807585890e-03 -7.01517384015215052229e-04 -6.62726869867807585890e-03 9.99967438447437739768e-01 -3.07610563891356396729e-04
9.98512075072654366493e+08 9.84822688138760504728e-01 -1.43076800751185451155e-01 -7.04468412593878745218e-04 -6.64103680715742803603e-03 -7.04468412593878745218e-04 -6.64103680715742803603e-03 9.99967301472824754427e-01 -3.08249622877133737636e-04
9.98515234148933172226e+08 9.84758709856506264657e-01 -1.43374645314599868939e-01 -7.07438021398928106043e-04 -6.65486152715439455152e-03 -7.07438021398928106043e-04 -6.65486152715439455152e-03 9.99967163635793965248e-01 -3.08891309536791158156e-04
9.98518393225212097168e+08 9.84694327921214918042e-01 -1.43673716980324689407e-01 -7.10426366118278710717e-04 -6.66874320419517680608e-03 -7.10426366118278710717e-04 -6.66874320419517680608e-03 9.99967024929119263632e-01 -3.09535639908234253871e-04
9.98521552301490902901e+08 9.84629538943632587333e-01 -1.43974023252343930057e-01 -7.13433604067148919962e-04 -6.68268218658386089354e-03 -7.13433604067148919962e-04 -6.68268218658386089354e-03 9.99966885345498379678e-01 -3.10182630158306713204e-04
9.98524711377769827843e+08 9.84564339498990692690e-01 -1.44275571695162252439e-01 -7.16459894209227083489e-04 -6.69667882543364956227e-03 -7.16459894209227083489e-04 -6.69667882543364956227e-03 9.99966744877553104232e-01 -3.10832296584239570463e-04
9.98527870454048633575e+08 9.84498726126584622342e-01 -1.44578369934289852061e-01 -7.19505397176184143329e-04 -6.71073347468937198707e-03 -7.19505397176184143329e-04 -6.71073347468937198707e-03 9.99966603517827401504e-01 -3.11484655614696647787e-04
9.98531029530327558517e+08 9.84432695329288010022e-01 -1.44882425657009539233e-01 -7.22570275290246939910e-04 -6.72484649116308896843e-03 -7.22570275290246939910e-04 -6.72484649116308896843e-03 9.99966461258787076005e-01 -3.12139723811426662414e-04
9.98534188606606364250e+08 9.84366243573135513145e-01 -1.45187746612800705481e-01 -7.25654692583559460771e-04 -6.73901823455377163574e-03 -7.25654692583559460771e-04 -6.73901823455377163574e-03 9.99966318092818440277e-01 -3.12797517870176829645e-04
9.98537347682885289192e+08 9.84299367286814663736e-01 -1.45494340614159112235e-01 -7.28758814821767490419e-04 -6.75324906748535000456e-03 -7.28758814821767490419e-04 -6.75324906748535000456e-03 9.99966174012227315693e-01 -3.13458054622459082392e-04
9.98540506759164094925e+08 9.84232062861228218509e-01 -1.45802215537066293116e-01 -7.31882809524314874999e-04 -6.76753935552850457297e-03 -7.31882809524314874999e-04 -6.76753935552850457297e-03 9.99966029009238033254e-01 -3.14121351036561252332e-04
9.98543665835443019867e+08 9.84164326648995890778e-01 -1.46111379321718110047e-01 -7.35026845987600888077e-04 -6.78188946723447781684e-03 -7.35026845987600888077e-04 -6.78188946723447781684e-03 9.99965883075992545415e-01 -3.14787424219116615184e-04
9.98546824911721825600e+08 9.84096154963979730113e-01 -1.46421839973115447409e-01 -7.38191095306998425196e-04 -6.79629977416249843325e-03 -7.38191095306998425196e-04 -6.79629977416249843325e-03 9.99965736204549537902e-01 -3.15456291416376960902e-04
9.98549983988000750542e+08 9.84027544080773752810e-01 -1.46733605561792934679e-01 -7.41375730400527016214e-04 -6.81077065091359977467e-03 -7.41375730400527016214e-04 -6.81077065091359977467e-03 9.99965588386882653360e-01 -3.16127970015781922103e-04
9.98553143064279556274e+08 9.83958490234225435778e-01 -1.47046684224381163375e-01 -7.44580926031093606569e-04 -6.82530247515671876363e-03 -7.44580926031093606569e-04 -6.82530247515671876363e-03 9.99965439614880158281e-01 -3.16802477547170786842e-04
9.98556302140558481216e+08 9.83888989618909137747e-01 -1.47361084164356476167e-01 -7.47806858830909115463e-04 -6.83989562766349878248e-03 -7.47806858830909115463e-04 -6.83989562766349878248e-03 9.99965289880343499718e-01 -3.17479831684397580376e-04
9.98559461216837286949e+08 9.83819038388625055624e-01 -1.47676813652651506281e-01 -7.51053707324750427152e-04 -6.85455049233662291192e-03 -7.51053707324750427152e-04 -6.85455049233662291192e-03 9.99965139174986417103e-01 -3.18160050246646365028e-04
9.98562620293116211891e+08 9.83748632655855215212e-01 -1.47993881028432916480e-01 -7.54321651955215362675e-04 -6.86926745624592220013e-03 -7.54321651955215362675e-04 -6.86926745624592220013e-03 9.99964987490433276918e-01 -3.18843151200107254115e-04
9.98565779369395017624e+08 9.83677768491264536976e-01 -1.48312294699649904750e-01 -7.57610875105894248684e-04 -6.88404690965382665829e-03 -7.57610875105894248684e-04 -6.88404690965382665829e-03 9.99964834818218850643e-01 -3.19529152659157541800e-04
9.98568938445673942566e+08 9.83606441923128849147e-01 -1.48632063143878861977e-01 -7.60921561127876925831e-04 -6.89888924605457434791e-03 -7.60921561127876925831e-04 -6.89888924605457434791e-03 9.99964681149786094316e-01 -3.20218072888181915902e-04
9.98572097521952748299e+08 9.83534648936806088493e-01 -1.48953194908954728026e-01 -7.64253896364352537131e-04 -6.91379486220352040132e-03 -7.64253896364352537131e-04 -6.91379486220352040132e-03 9.99964526476485926487e-01 -3.20909930302932535316e-04
9.98575256598231673241e+08 9.83462385474176303823e-01 -1.49275698613705376516e-01 -7.67608069176559364849e-04 -6.92876415815121392966e-03 -7.67608069176559364849e-04 -6.92876415815121392966e-03 9.99964370789575229814e-01 -3.21604743472111152033e-04
9.98578415674510478973e+08 9.83389647433083324835e-01 -1.49599582948654802328e-01 -7.70984269969717211750e-04 -6.94379753727604725339e-03 -7.70984269969717211750e-04 -6.94379753727604725339e-03 9.99964214080216184932e-01 -3.22302531118884066832e-04
9.98581574750789403915e+08 9.83316430666743568345e-01 -1.49924856676843409886e-01 -7.74382691220477448538e-04 -6.95889540632232614370e-03 -7.74382691220477448538e-04 -6.95889540632232614370e-03 9.99964056339474827162e-01 -3.23003312122649649876e-04
9.98584733827068209648e+08 9.83242730983197810168e-01 -1.50251528634423869857e-01 -7.77803527502345494818e-04 -6.97405817542792391683e-03 -7.77803527502345494818e-04 -6.97405817542792391683e-03 9.99963897558320047310e-01 -3.23707105520321548192e-04
9.98587892903347134590e+08 9.83168544144685907504e-01 -1.50579607731573472673e-01 -7.81246975514721282707e-04 -6.98928625816663730980e-03 -7.81246975514721282707e-04 -6.98928625816663730980e-03 9.99963737727621593265e-01 -3.24413930508294994729e-04
9.98591051979625940323e+08 9.83093865867076588394e-01 -1.50909102953130341840e-01 -7.84713234109371245498e-04 -7.00458007157770887185e-03 -7.84713234109371245498e-04 -7.00458007157770887185e-03 9.99963576838149736936e-01 -3.25123806443816860436e-04
9.98594211055904865265e+08 9.83018691819236956064e-01 -1.51240023359462433250e-01 -7.88202504319669250248e-04 -7.01994003620616622424e-03 -7.88202504319669250248e-04 -7.01994003620616622424e-03 9.99963414880573275845e-01 -3.25836752846858179831e-04
9.98597370132183670998e+08 9.82943017622439740855e-01 -1.51572378087143827541e-01 -7.91714989388138802411e-04 -7.03536657613420927937e-03 -7.91714989388138802411e-04 -7.03536657613420927937e-03 9.99963251845458533928e-01 -3.26552789401571047674e-04
9.98600529208462595940e+08 9.82866838849705604098e-01 -1.51906176349878352383e-01 -7.95250894796945689835e-04 -7.05086011902408826835e-03 -7.95250894796945689835e-04 -7.05086011902408826835e-03 9.99963087723267918250e-01 -3.27271935958278726263e-04
9.98603688284741401672e+08 9.82790151025205283020e-01 -1.52241427439136295385e-01 -7.98810428295697143308e-04 -7.06642109614765128595e-03 -7.98810428295697143308e-04 -7.06642109614765128595e-03 9.99962922504358475706e-01 -3.27994212534846998550e-04
9.98606847361020326614e+08 9.82712949623572362690e-01 -1.52578140725139255185e-01 -8.02393799933280300711e-04 -7.08204994243205512156e-03 -8.02393799933280300711e-04 -7.08204994243205512156e-03 9.99962756178980671784e-01 -3.28719639318806385476e-04
9.98610006437299132347e+08 9.82635230069289100641e-01 -1.52916325657503127111e-01 -8.06001222086428332179e-04 -7.09774709648961724812e-03 -8.06001222086428332179e-04 -7.09774709648961724812e-03 9.99962588737276836248e-01 -3.29448236668737214246e-04
9.98613165513578057289e+08 9.82556987735980214005e-01 -1.53255991766238885976e-01 -8.09632909492451744750e-04 -7.11351300066426304319e-03 -8.09632909492451744750e-04 -7.11351300066426304319e-03 9.99962420169279719850e-01 -3.30180025116425662768e-04
9.98616324589856863022e+08 9.82478217945769949360e-01 -1.53597148662449944911e-01 -8.13289079279109995355e-04 -7.12934810106389486167e-03 -8.13289079279109995355e-04 -7.12934810106389486167e-03 9.99962250464911162062e-01 -3.30915025368366355445e-04
9.98619483666135787964e+08 9.82398915968569208523e-01 -1.53939806039295357110e-01 -8.16969950997693534871e-04 -7.14525284760510279863e-03 -8.16969950997693534871e-04 -7.14525284760510279863e-03 9.99962079613980536763e-01 -3.31653258307837471922e-04
9.98622642742414593697e+08 9.82319077021408637584e-01 -1.54283973672718260906e-01 -8.20675746653973118075e-04 -7.16122769404697011308e-03 -8.20675746653973118075e-04 -7.16122769404697011308e-03 9.99961907606183086905e-01 -3.32394744996469967101e-04
9.98625801818693518639e+08 9.82238696267691446806e-01 -1.54629661422485492617e-01 -8.24406690742882672200e-04 -7.17727309803933236770e-03 -8.24406690742882672200e-04 -7.17727309803933236770e-03 9.99961734431098925313e-01 -3.33139506676487532830e-04
9.98628960894972324371e+08 9.82157768816516507648e-01 -1.54976879232888026250e-01 -8.28163010279947282150e-04 -7.19338952115529135095e-03 -8.28163010279947282150e-04 -7.19338952115529135095e-03 9.99961560078190703216e-01 -3.33887564772215698905e-04
9.98632119971251249313e+08 9.82076289721903861185e-01 -1.55325637133822080926e-01 -8.31944934837218204142e-04 -7.20957742894138848416e-03 -8.31944934837218204142e-04 -7.20957742894138848416e-03 9.99961384536802833090e-01 -3.34638940892410699339e-04
9.98635279047530055046e+08 9.81994253982095610667e-01 -1.55675945241510044204e-01 -8.35752696575729975628e-04 -7.22583729095107370893e-03 -8.35752696575729975628e-04 -7.22583729095107370893e-03 9.99961207796159157191e-01 -3.35393656831813079863e-04
9.98638438123808979988e+08 9.81911656538771104863e-01 -1.56027813759550076922e-01 -8.39586530281927439882e-04 -7.24216958079341825705e-03 -8.39586530281927439882e-04 -7.24216958079341825705e-03 9.99961029845361948354e-01 -3.36151734573408638926e-04
9.98641597200087785721e+08 9.81828492276297537522e-01 -1.56381252979774898471e-01 -8.43446673402457468456e-04 -7.25857477617298119804e-03 -8.43446673402457468456e-04 -7.25857477617298119804e-03 9.99960850673389911591e-01 -3.36913196290278781336e-04
9.98644756276366710663e+08 9.81744756020943465380e-01 -1.56736273283227062203e-01 -8.47333366080655400049e-04 -7.27505335893507618095e-03 -8.47333366080655400049e-04 -7.27505335893507618095e-03 9.99960670269096518759e-01 -3.37678064347701810486e-04
9.98647915352645516396e+08 9.81660442540107314180e-01 -1.57092885141033949958e-01 -8.51246851192376946527e-04 -7.29160581510637870878e-03 -8.51246851192376946527e-04 -7.29160581510637870878e-03 9.99960488621208565263e-01 -3.38446361305037651205e-04
9.98651074428924441338e+08 9.81575546541479493357e-01 -1.57451099115518938776e-01 -8.55187374384870527093e-04 -7.30823263494651421263e-03 -8.55187374384870527093e-04 -7.30823263494651421263e-03 9.99960305718324060642e-01 -3.39218109918122310252e-04
9.98654233505203247070e+08 9.81490062672270680011e-01 -1.57810925860993933600e-01 -8.59155184112609391148e-04 -7.32493431298483418934e-03 -8.59155184112609391148e-04 -7.32493431298483418934e-03 9.99960121548910785272e-01 -3.39993333140974898429e-04
9.98657392581482172012e+08 9.81403985518348176420e-01 -1.58172376124895847083e-01 -8.63150531677368175812e-04 -7.34171134807317000981e-03 -8.63150531677368175812e-04 -7.34171134807317000981e-03 9.99959936101304402989e-01 -3.40772054128246409607e-04
9.98660551657760977745e+08 9.81317309603420673270e-01 -1.58535460748677525800e-01 -8.67173671266074246912e-04 -7.35856424342718438980e-03 -8.67173671266074246912e-04 -7.35856424342718438980e-03 9.99959749363706462688e-01 -3.41554296237138812781e-04
9.98663710734039902687e+08 9.81230029388168722981e-01 -1.58900190668881807765e-01 -8.71224859991160185957e-04 -7.37549350667623167949e-03 -8.71224859991160185957e-04 -7.37549350667623167949e-03 9.99959561324182955033e-01 -3.42340083029719498449e-04
9.98666869810318708420e+08 9.81142139269382873579e-01 -1.59266576918139918240e-01 -8.75304357930574102910e-04 -7.39249964990968972539e-03 -8.75304357930574102910e-04 -7.39249964990968972539e-03 9.99959371970662203033e-01 -3.43129438275071847828e-04
