! File generated for n1 = 11, n2 = 6
! b1 = 0.046416
! b2 = 0.001000
! Q0 = 10000.000000
! f0 = 1000000000.000000
! n = 1001
! rel_span = 10.000000
# Hz S RI R 50
9.99476292055831909180e+08 9.99122936878183431908e-01 -8.77292904617900902442e-03 -1.28735260786063554104e-04 -1.28768988288819295762e-03 -1.28735260786063554104e-04 -1.28768988288819295762e-03 9.99981104247850138833e-01 -1.89007026702763794492e-04
9.99477339471720218658e+08 9.99119452118856110623e-01 -8.79016559058012209027e-03 -1.29246753504909606342e-04 -1.29021986161302203329e-03 -1.29246753504909606342e-04 -1.29021986161302203329e-03 9.99981029170986301935e-01 -1.89378376794704109337e-04
9.99478386887608528137e+08 9.99115946623363004875e-01 -8.80746927627769349289e-03 -1.29761289876660049387e-04 -1.29275969533242758233e-03 -1.29761289876660049387e-04 -1.29275969533242758233e-03 9.99980953647375381266e-01 -1.89751173402026671478e-04
9.99479434303496956825e+08 9.99112420227424968822e-01 -8.82484049202790152289e-03 -1.30278894014173403024e-04 -1.29530944110801374443e-03 -1.30278894014173403024e-04 -1.29530944110801374443e-03 9.99980877673477985823e-01 -1.90125424900229448612e-04
9.99480481719385266304e+08 9.99108872765139932604e-01 -8.84227962955278293244e-03 -1.30799590268568065440e-04 -1.29786915643671199767e-03 -1.30799590268568065440e-04 -1.29786915643671199767e-03 9.99980801245719863601e-01 -1.90501139728707863472e-04
9.99481529135273575783e+08 9.99105304068961364017e-01 -8.85978708357655977967e-03 -1.31323403232292448524e-04 -1.30043889925611456590e-03 -1.31323403232292448524e-04 -1.30043889925611456590e-03 9.99980724360491346481e-01 -1.90878326391537506482e-04
9.99482576551161885262e+08 9.99101713969679838812e-01 -8.87736325185127517212e-03 -1.31850357741906823797e-04 -1.30301872794823768442e-03 -1.31850357741906823797e-04 -1.30301872794823768442e-03 9.99980647014147017160e-01 -1.91256993458026347023e-04
9.99483623967050313950e+08 9.99098102296401946454e-01 -8.89500853519018322424e-03 -1.32380478881127301325e-04 -1.30560870134442067597e-03 -1.32380478881127301325e-04 -1.30560870134442067597e-03 9.99980569203005043022e-01 -1.91637149563434182895e-04
9.99484671382938623428e+08 9.99094468876533858825e-01 -8.91272333747993375508e-03 -1.32913791983263278838e-04 -1.30820887872711726953e-03 -1.32913791983263278838e-04 -1.30820887872711726953e-03 9.99980490923346954091e-01 -1.92018803409235125660e-04
9.99485718798826932907e+08 9.99090813535755795094e-01 -8.93050806573518311804e-03 -1.33450322634960270255e-04 -1.31081931983790850489e-03 -1.33450322634960270255e-04 -1.31081931983790850489e-03 9.99980412171417198941e-01 -1.92401963764294122632e-04
9.99486766214715242386e+08 9.99087136098005701434e-01 -8.94836313010672484980e-03 -1.33990096678577642365e-04 -1.31344008487869795716e-03 -1.33990096678577642365e-04 -1.31344008487869795716e-03 9.99980332943422700609e-01 -1.92786639465042136839e-04
9.99487813630603551865e+08 9.99083436385456158391e-01 -8.96628894392466520291e-03 -1.34533140215652803401e-04 -1.31607123451804824792e-03 -1.34533140215652803401e-04 -1.31607123451804824792e-03 9.99980253235532079437e-01 -1.93172839416406365385e-04
9.99488861046491980553e+08 9.99079714218493397659e-01 -8.98428592372313948589e-03 -1.35079479609841830376e-04 -1.31871282989480921935e-03 -1.35079479609841830376e-04 -1.31871282989480921935e-03 9.99980173043875764094e-01 -1.93560572592342718242e-04
9.99489908462380290031e+08 9.99075969415697096032e-01 -9.00235448926907204370e-03 -1.35629141490014134457e-04 -1.32136493262233938387e-03 -1.35629141490014134457e-04 -1.32136493262233938387e-03 9.99980092364545325445e-01 -1.93949848036455466897e-04
9.99490955878268599510e+08 9.99072201793817726845e-01 -9.02049506359606408090e-03 -1.36182152753536671970e-04 -1.32402760479347959312e-03 -1.36182152753536671970e-04 -1.32402760479347959312e-03 9.99980011193592477348e-01 -1.94340674862727183459e-04
9.99492003294156908989e+08 9.99068411167753245294e-01 -9.03870807304061121834e-03 -1.36738540569664407225e-04 -1.32670090898586953178e-03 -1.36738540569664407225e-04 -1.32670090898586953178e-03 9.99979929527029631764e-01 -1.94733062256299284919e-04
9.99493050710045337677e+08 9.99064597350527883179e-01 -9.05699394726911834186e-03 -1.37298332382685203549e-04 -1.32938490826591286173e-03 -1.37298332382685203549e-04 -1.32938490826591286173e-03 9.99979847360828344449e-01 -1.95127019474053843128e-04
9.99494098125933647156e+08 9.99060760153271276707e-01 -9.07535311930123510249e-03 -1.37861555914985459137e-04 -1.33207966619220178305e-03 -1.37861555914985459137e-04 -1.33207966619220178305e-03 9.99979764690919425973e-01 -1.95522555845116410671e-04
9.99495145541821956635e+08 9.99056899385191599094e-01 -9.09378602555979166644e-03 -1.38428239170966299511e-04 -1.33478524682284710803e-03 -1.38428239170966299511e-04 -1.33478524682284710803e-03 9.99979681513192719677e-01 -1.95919680771931793359e-04
9.99496192957710266113e+08 9.99053014853554688379e-01 -9.11229310589300837975e-03 -1.38998410440148542806e-04 -1.33750171471873910770e-03 -1.38998410440148542806e-04 -1.33750171471873910770e-03 9.99979597823495547360e-01 -1.96318403730742698388e-04
9.99497240373598575592e+08 9.99049106363660732733e-01 -9.13087480360375708388e-03 -1.39572098300527627866e-04 -1.34022913494784008497e-03 -1.39572098300527627866e-04 -1.34022913494784008497e-03 9.99979513617633375411e-01 -1.96718734272219926851e-04
9.99498287789487004280e+08 9.99045173718816736930e-01 -9.14953156550285355564e-03 -1.40149331622709818427e-04 -1.34296757309300971231e-03 -1.40149331622709818427e-04 -1.34296757309300971231e-03 9.99979428891368593568e-01 -1.97120682022610733573e-04
9.99499335205375313759e+08 9.99041216720318092648e-01 -9.16826384191252174993e-03 -1.40730139572546705980e-04 -1.34571709525251005310e-03 -1.40730139572546705980e-04 -1.34571709525251005310e-03 9.99979343640420292871e-01 -1.97524256683813284694e-04
9.99500382621263623238e+08 9.99037235167417603243e-01 -9.18707208673038254465e-03 -1.41314551615680212377e-04 -1.34847776804940125764e-03 -1.41314551615680212377e-04 -1.34847776804940125764e-03 9.99979257860463377483e-01 -1.97929468034755383365e-04
9.99501430037151932716e+08 9.99033228857305499737e-01 -9.20595675744146149655e-03 -1.41902597520517830335e-04 -1.35124965863330187381e-03 -1.41902597520517830335e-04 -1.35124965863330187381e-03 9.99979171547128564690e-01 -1.98336325931653133280e-04
9.99502477453040361404e+08 9.99029197585079464794e-01 -9.22491831517429326792e-03 -1.42494307362616676226e-04 -1.35403283468862422993e-03 -1.42494307362616676226e-04 -1.35403283468862422993e-03 9.99979084696001274679e-01 -1.98744840309219715675e-04
9.99503524868928670883e+08 9.99025141143722650305e-01 -9.24395722471756456362e-03 -1.43089711527881100449e-04 -1.35682736443701800963e-03 -1.43089711527881100449e-04 -1.35682736443701800963e-03 9.99978997302621519516e-01 -1.99155021181023745257e-04
9.99504572284816980362e+08 9.99021059324076809993e-01 -9.26307395456100850228e-03 -1.43688840716555641394e-04 -1.35963331664337152768e-03 -1.43688840716555641394e-04 -1.35963331664337152768e-03 9.99978909362483125989e-01 -1.99566878640370591038e-04
9.99505619700705289841e+08 9.99016951914811879298e-01 -9.28226897694808816830e-03 -1.44291725947632117543e-04 -1.36245076062354599465e-03 -1.44291725947632117543e-04 -1.36245076062354599465e-03 9.99978820871033069473e-01 -1.99980422861437183652e-04
9.99506667116593599319e+08 9.99012818702405214211e-01 -9.30154276788650730134e-03 -1.44898398561978011519e-04 -1.36527976624591725237e-03 -1.44898398561978011519e-04 -1.36527976624591725237e-03 9.99978731823671140866e-01 -2.00395664099498722020e-04
9.99507714532482028008e+08 9.99008659471109283778e-01 -9.32089580720575974770e-03 -1.45508890226982466132e-04 -1.36812040393982322674e-03 -1.45508890226982466132e-04 -1.36812040393982322674e-03 9.99978642215749280453e-01 -2.00812612692168187493e-04
9.99508761948370337486e+08 9.99004474002926357024e-01 -9.34032857858571770315e-03 -1.46123232940339038656e-04 -1.37097274469976000699e-03 -1.46123232940339038656e-04 -1.37097274469976000699e-03 9.99978552042570800751e-01 -2.01231279060012604358e-04
9.99509809364258646965e+08 9.99000262077580081232e-01 -9.35984156959577401347e-03 -1.46741459034204104047e-04 -1.37383686009112768352e-03 -1.46741459034204104047e-04 -1.37383686009112768352e-03 9.99978461299389942418e-01 -2.01651673707396061246e-04
9.99510856780146956444e+08 9.98996023472486172068e-01 -9.37943527173549194964e-03 -1.47363601179449665076e-04 -1.37671282225619627873e-03 -1.47363601179449665076e-04 -1.37671282225619627873e-03 9.99978369981411430167e-01 -2.02073807223355692269e-04
9.99511904196035385132e+08 9.98991757962723547770e-01 -9.39911018047682664256e-03 -1.47989692390013550909e-04 -1.37960070392030217934e-03 -1.47989692390013550909e-04 -1.37960070392030217934e-03 9.99978278083789473563e-01 -2.02497690282511078703e-04
9.99512951611923694611e+08 9.98987465321007461760e-01 -9.41886679528797753080e-03 -1.48619766026712230890e-04 -1.38250057839535227776e-03 -1.48619766026712230890e-04 -1.38250057839535227776e-03 9.99978185601627211909e-01 -2.02923333645578513182e-04
9.99513999027812004089e+08 9.98983145317655196749e-01 -9.43870561969736322772e-03 -1.49253855802378550483e-04 -1.38541251958921012716e-03 -1.49253855802378550483e-04 -1.38541251958921012716e-03 9.99978092529976381186e-01 -2.03350748160748830921e-04
9.99515046443700313568e+08 9.98978797720559530404e-01 -9.45862716131421615851e-03 -1.49891995785668039835e-04 -1.38833660200872216657e-03 -1.49891995785668039835e-04 -1.38833660200872216657e-03 9.99977998863836314847e-01 -2.03779944764131471825e-04
9.99516093859588623047e+08 9.98974422295156205820e-01 -9.47863193188105274123e-03 -1.50534220405930911765e-04 -1.39127290076741707420e-03 -1.50534220405930911765e-04 -1.39127290076741707420e-03 9.99977904598153610749e-01 -2.04210934480884679938e-04
9.99517141275477051735e+08 9.98970018804393400380e-01 -9.49872044730875816909e-03 -1.51180564457579607587e-04 -1.39422149159065702877e-03 -1.51180564457579607587e-04 -1.39422149159065702877e-03 9.99977809727821020935e-01 -2.04643728425971544718e-04
9.99518188691365361214e+08 9.98965587008701305649e-01 -9.51889322771737149409e-03 -1.51831063104689690342e-04 -1.39718245082162358973e-03 -1.51831063104689690342e-04 -1.39718245082162358973e-03 9.99977714247677229586e-01 -2.05078337805038692695e-04
9.99519236107253670692e+08 9.98961126665957155346e-01 -9.53915079748809957572e-03 -1.52485751886015364048e-04 -1.40015585542895134794e-03 -1.52485751886015364048e-04 -1.40015585542895134794e-03 9.99977618152505853821e-01 -2.05514773915536647780e-04
9.99520283523141980171e+08 9.98956637531455138301e-01 -9.55949368529661683280e-03 -1.53144666719456359547e-04 -1.40314178301161702686e-03 -1.53144666719456359547e-04 -1.40314178301161702686e-03 9.99977521437034888585e-01 -2.05953048147437600213e-04
9.99521330939030408859e+08 9.98952119357872314609e-01 -9.57992242416074932243e-03 -1.53807843907042174521e-04 -1.40614031180593887504e-03 -1.53807843907042174521e-04 -1.40614031180593887504e-03 9.99977424095935818471e-01 -2.06393171984262525486e-04
9.99522378354918718338e+08 9.98947571895236974271e-01 -9.60043755147680331896e-03 -1.54475320139603439868e-04 -1.40915152069090660394e-03 -1.54475320139603439868e-04 -1.40915152069090660394e-03 9.99977326123823395676e-01 -2.06835157003863788581e-04
9.99523425770807027817e+08 9.98942994890891000637e-01 -9.62103960908027716625e-03 -1.55147132502292243485e-04 -1.41217548919709526452e-03 -1.55147132502292243485e-04 -1.41217548919709526452e-03 9.99977227515253974666e-01 -2.07279014879733369412e-04
9.99524473186695337296e+08 9.98938388089458340069e-01 -9.64172914327677231527e-03 -1.55823318479191913954e-04 -1.41521229751120089860e-03 -1.55823318479191913954e-04 -1.41521229751120089860e-03 9.99977128264725734219e-01 -2.07724757381668671385e-04
9.99525520602583765984e+08 9.98933751232808475606e-01 -9.66250670489403849783e-03 -1.56503915958671569819e-04 -1.41826202648368069476e-03 -1.56503915958671569819e-04 -1.41826202648368069476e-03 9.99977028366677567206e-01 -2.08172396376893830382e-04
9.99526568018472075462e+08 9.98929084060023675384e-01 -9.68337284931590838721e-03 -1.57188963238207376908e-04 -1.42132475763373229520e-03 -1.57188963238207376908e-04 -1.42132475763373229520e-03 9.99976927815488081386e-01 -2.08621943830790738082e-04
9.99527615434360384941e+08 9.98924386307357359271e-01 -9.70432813655427994881e-03 -1.57878499030512518993e-04 -1.42440057315986129752e-03 -1.57878499030512518993e-04 -1.42440057315986129752e-03 9.99976826605474933274e-01 -2.09073411808450020273e-04
9.99528662850248694420e+08 9.98919657708203012625e-01 -9.72537313127093752674e-03 -1.58572562468083176190e-04 -1.42748955594308355420e-03 -1.58572562468083176190e-04 -1.42748955594308355420e-03 9.99976724730894384052e-01 -2.09526812475141092701e-04
9.99529710266137003899e+08 9.98914897993054551328e-01 -9.74650840283519670493e-03 -1.59271193108980548036e-04 -1.43059178955538476852e-03 -1.59271193108980548036e-04 -1.43059178955538476852e-03 9.99976622185940189347e-01 -2.09982158097553897819e-04
9.99530757682025432587e+08 9.98910106889467019897e-01 -9.76773452538121957078e-03 -1.59974430942671233752e-04 -1.43370735826813563811e-03 -1.59974430942671233752e-04 -1.43370735826813563811e-03 9.99976518964742377982e-01 -2.10439461045034109220e-04
9.99531805097913742065e+08 9.98905284122023617854e-01 -9.78905207783112123188e-03 -1.60682316394797017074e-04 -1.43683634705548172149e-03 -1.60682316394797017074e-04 -1.43683634705548172149e-03 9.99976415061367585047e-01 -2.10898733790080536487e-04
9.99532852513802051544e+08 9.98900429412289403430e-01 -9.81046164397931727552e-03 -1.61394890334041010184e-04 -1.43997884160672437633e-03 -1.61394890334041010184e-04 -1.43997884160672437633e-03 9.99976310469816942472e-01 -2.11359988910162573290e-04
9.99533899929690361023e+08 9.98895542478777653805e-01 -9.83196381251449230687e-03 -1.62112194076992143605e-04 -1.44313492832954626093e-03 -1.62112194076992143605e-04 -1.44313492832954626093e-03 9.99976205184026079031e-01 -2.11823239088193560065e-04
9.99534947345578789711e+08 9.98890623036906455390e-01 -9.85355917708615434980e-03 -1.62834269394557354686e-04 -1.44630469435977782738e-03 -1.62834269394557354686e-04 -1.44630469435977782738e-03 9.99976099197863899093e-01 -2.12288497113964261904e-04
9.99535994761467099190e+08 9.98885670798961844419e-01 -9.87524833633879328687e-03 -1.63561158517364275446e-04 -1.44948822756641414189e-03 -1.63561158517364275446e-04 -1.44948822756641414189e-03 9.99975992505131694443e-01 -2.12755775884879394207e-04
9.99537042177355408669e+08 9.98880685474050733497e-01 -9.89703189399021229788e-03 -1.64292904142710534821e-04 -1.45268561656310981299e-03 -1.64292904142710534821e-04 -1.45268561656310981299e-03 9.99975885099562367131e-01 -2.13225088407644668359e-04
9.99538089593243718147e+08 9.98875666768063719125e-01 -9.91891045886004324439e-03 -1.65029549439918931351e-04 -1.45589695071236552987e-03 -1.65029549439918931351e-04 -1.45589695071236552987e-03 9.99975776974819652310e-01 -2.13696447798881398843e-04
9.99539137009132027626e+08 9.98870614383631227895e-01 -9.94088464493211171336e-03 -1.65771138056897750787e-04 -1.45912232013468306548e-03 -1.65771138056897750787e-04 -1.45912232013468306548e-03 9.99975668124496674949e-01 -2.14169867286470209196e-04
9.99540184425020456314e+08 9.98865528020077109161e-01 -9.96295507141888372904e-03 -1.66517714126849836241e-04 -1.46236181571802212158e-03 -1.66517714126849836241e-04 -1.46236181571802212158e-03 9.99975558542115838812e-01 -2.14645360210939244476e-04
9.99541231840908765793e+08 9.98860407373381442575e-01 -9.98512236278916928689e-03 -1.67269322273815382058e-04 -1.46561552912186912265e-03 -1.67269322273815382058e-04 -1.46561552912186912265e-03 9.99975448221127050097e-01 -2.15122940026061078766e-04
9.99542279256797075272e+08 9.98855252136129356799e-01 -1.00073871488501765087e-02 -1.68026007620128154784e-04 -1.46888355278927988309e-03 -1.68026007620128154784e-04 -1.46888355278927988309e-03 9.99975337154907384374e-01 -2.15602620300620832078e-04
9.99543326672685384750e+08 9.98850061997468063879e-01 -1.00297500647929613976e-02 -1.68787815792714572267e-04 -1.47216597995355135374e-03 -1.68787815792714572267e-04 -1.47216597995355135374e-03 9.99975225336759643291e-01 -2.16084414719394852546e-04
9.99544374088573813438e+08 9.98844836643062117254e-01 -1.00522117512454392529e-02 -1.69554792929725714132e-04 -1.47546290464600163977e-03 -1.69554792929725714132e-04 -1.47546290464600163977e-03 9.99975112759911577420e-01 -2.16568337084293221573e-04
9.99545421504462122917e+08 9.98839575755045783190e-01 -1.00747728543320088507e-02 -1.70326985687475971742e-04 -1.47877442170472298173e-03 -1.70326985687475971742e-04 -1.47877442170472298173e-03 9.99974999417515220124e-01 -2.17054401315644126830e-04
9.99546468920350432396e+08 9.98834279011974079943e-01 -1.00974340257375273106e-02 -1.71104441247614476361e-04 -1.48210062678397072947e-03 -1.71104441247614476361e-04 -1.48210062678397072947e-03 9.99974885302645000174e-01 -2.17542621453572208477e-04
9.99547516336238741875e+08 9.98828946088776370438e-01 -1.01201959227601081398e-02 -1.71887207323999293297e-04 -1.48544161636191386980e-03 -1.71887207323999293297e-04 -1.48544161636191386980e-03 9.99974770408297630730e-01 -2.18033011659136022765e-04
9.99548563752127051353e+08 9.98823576656707623478e-01 -1.01430592083681155730e-02 -1.72675332169798837704e-04 -1.48879748774900073048e-03 -1.72675332169798837704e-04 -1.48879748774900073048e-03 9.99974654727390444009e-01 -2.18525586215555982315e-04
9.99549611168015480042e+08 9.98818170383297232462e-01 -1.01660245512675898039e-02 -1.73468864585040578007e-04 -1.49216833909785449343e-03 -1.73468864585040578007e-04 -1.49216833909785449343e-03 9.99974538252760725143e-01 -2.19020359529667024397e-04
9.99550658583903789520e+08 9.98812726932299277394e-01 -1.01890926259583756985e-02 -1.74267853923860391091e-04 -1.49555426941151334806e-03 -1.74267853923860391091e-04 -1.49555426941151334806e-03 9.99974420977164046853e-01 -2.19517346133127794509e-04
9.99551705999792098999e+08 9.98807245963640566444e-01 -1.02122641127994889104e-02 -1.75072350102160932770e-04 -1.49895537855302329530e-03 -1.75072350102160932770e-04 -1.49895537855302329530e-03 9.99974302893273936377e-01 -2.20016560683828916577e-04
9.99552753415680408478e+08 9.98801727133371453071e-01 -1.02355396980605261453e-02 -1.75882403604878258902e-04 -1.50237176725298592940e-03 -1.75882403604878258902e-04 -1.50237176725298592940e-03 9.99974183993680099114e-01 -2.20518017967000668107e-04
9.99553800831568837166e+08 9.98796170093606661133e-01 -1.02589200740083163338e-02 -1.76698065494567215818e-04 -1.50580353712227526207e-03 -1.76698065494567215818e-04 -1.50580353712227526207e-03 9.99974064270887641470e-01 -2.21021732897079705273e-04
9.99554848247457146645e+08 9.98790574492479987789e-01 -1.02824059389376408491e-02 -1.77519387418136151847e-04 -1.50925079065654865404e-03 -1.77519387418136151847e-04 -1.50925079065654865404e-03 9.99973943717315849611e-01 -2.21527720518371103869e-04
9.99555895663345456123e+08 9.98784939974080354652e-01 -1.03059979972732439213e-02 -1.78346421616164442373e-04 -1.51271363125121834602e-03 -1.78346421616164442373e-04 -1.51271363125121834602e-03 9.99973822325296857194e-01 -2.22035996007245928696e-04
9.99556943079233765602e+08 9.98779266178404290244e-01 -1.03296969596044889428e-02 -1.79179220929967801708e-04 -1.51619216320653853528e-03 -1.79179220929967801708e-04 -1.51619216320653853528e-03 9.99973700087074535148e-01 -2.22546574672887842276e-04
9.99557990495122075081e+08 9.98773552741295200796e-01 -1.03535035427667274077e-02 -1.80017838810397396874e-04 -1.51968649173955046468e-03 -1.80017838810397396874e-04 -1.51968649173955046468e-03 9.99973576994803492468e-01 -2.23059471959046395299e-04
