#  HZ   S   RI   R     50.00 
! Rohde & Schwarz Vector Network Analyzer 
! Rohde-Schwarz,ZNA26-4Port,1332450024101213,1.95
! Created: UTC 3/3/2023, 5:55:50 PM
! freq[Hz]                re:S11                  im:S11                  re:S21                  im:S21                  re:S12                  im:S12                  re:S22                  im:S22
 1.490038250000000E9    -8.159431281486142E-1    2.165847896105982E-1   -1.962123810097343E-4   -1.345953505133316E-4   -1.812612896687565E-4   -1.403613007303710E-4   -1.139063682666212E-1    8.225871821838707E-1
 1.490068875000000E9    -8.154124047172329E-1    2.184852373252243E-1   -1.964844130038069E-4   -1.325186549100140E-4   -1.834478312047840E-4   -1.369960534185016E-4   -1.118937215272967E-1    8.228370574968775E-1
 1.490099500000000E9    -8.148677761359981E-1    2.204449215336194E-1   -1.980705918811380E-4   -1.313501476548404E-4   -1.833247979714930E-4   -1.399089750859536E-4   -1.098606014653425E-1    8.231146310811485E-1
 1.490130125000000E9    -8.142881142711966E-1    2.223808377177854E-1   -1.936489333465097E-4   -1.307190076256582E-4   -1.840143432778364E-4   -1.401574307813529E-4   -1.078840129080529E-1    8.233598593870574E-1
 1.490160750000000E9    -8.137001542408893E-1    2.243059716689015E-1   -1.969030223233945E-4   -1.332709488688320E-4   -1.856378820691278E-4   -1.384111759103460E-4   -1.059797547634938E-1    8.235934388625661E-1
 1.490191375000000E9    -8.131429643951740E-1    2.262364205552365E-1   -1.974163415038586E-4   -1.301070044496760E-4   -1.841970236706308E-4   -1.406795928361895E-4   -1.040123931477367E-1    8.238341220039700E-1
 1.490222000000000E9    -8.125749815687114E-1    2.281621610774761E-1   -2.005362949962582E-4   -1.313589954975229E-4   -1.861054633834568E-4   -1.367320582052127E-4   -1.019748709914216E-1    8.241072614341641E-1
 1.490252625000000E9    -8.119874638419233E-1    2.300707204335857E-1   -1.999951144163716E-4   -1.300062517723673E-4   -1.871081830478582E-4   -1.373705052992170E-4   -9.997399376834319E-2    8.243354500693523E-1
 1.490283250000000E9    -8.114094824671817E-1    2.320011329807599E-1   -2.018168378531416E-4   -1.322523954267412E-4   -1.894547768335504E-4   -1.395185135540398E-4   -9.805969193679021E-2    8.245890852517421E-1
 1.490313875000000E9    -8.108287042926284E-1    2.339332384937911E-1   -2.021284675606984E-4   -1.280100651126215E-4   -1.909079689271907E-4   -1.396606890034508E-4   -9.609099127024255E-2    8.248076898337710E-1
 1.490344500000000E9    -8.102135143095477E-1    2.358434373678306E-1   -2.025654424938858E-4   -1.306438125779385E-4   -1.896229542602709E-4   -1.355808499543711E-4   -9.409538458046263E-2    8.250320814621181E-1
 1.490375125000000E9    -8.096197676617390E-1    2.377816183807216E-1   -2.037713551403365E-4   -1.284860213000218E-4   -1.925382148076463E-4   -1.385944398168365E-4   -9.208900287936819E-2    8.252579011885355E-1
 1.490405750000000E9    -8.090085763819105E-1    2.396901455706899E-1   -2.067060421670604E-4   -1.307655829768801E-4   -1.895128596435185E-4   -1.389317807477818E-4   -9.014449712291922E-2    8.254768784465749E-1
 1.490436375000000E9    -8.083972846514095E-1    2.416159580583805E-1   -2.068792051114956E-4   -1.272192123835386E-4   -1.953133402596249E-4   -1.369698908840187E-4   -8.819761165827331E-2    8.256576344995430E-1
 1.490467000000000E9    -8.077903667660166E-1    2.435087850699469E-1   -2.103709466399017E-4   -1.259670107034767E-4   -1.940789794345749E-4   -1.367808344834465E-4   -8.620419761090337E-2    8.258812320784991E-1
 1.490497625000000E9    -8.071509760073592E-1    2.454398602573034E-1   -2.075489180527507E-4   -1.285825117191322E-4   -1.979359045546025E-4   -1.353905786266609E-4   -8.420589141219453E-2    8.260791858401159E-1
 1.490528250000000E9    -8.065398220702888E-1    2.473592532102739E-1   -2.095156405508381E-4   -1.267525329455193E-4   -1.977387456676295E-4   -1.367299912728539E-4   -8.222640808155739E-2    8.263129544382577E-1
 1.490558875000000E9    -8.059155524456951E-1    2.492636917428370E-1   -2.099531452398409E-4   -1.287285934895417E-4   -1.982121222916421E-4   -1.345989277754781E-4   -8.028395976893241E-2    8.264801120585101E-1
 1.490589500000000E9    -8.052820538458296E-1    2.511642713466797E-1   -2.092431601914494E-4   -1.269722083801038E-4   -1.974738023336806E-4   -1.351825744297119E-4   -7.830877202745160E-2    8.266899556072830E-1
 1.490620125000000E9    -8.046514708001209E-1    2.530606921746655E-1   -2.134897418062286E-4   -1.276339778278405E-4   -1.973348337597888E-4   -1.334179144124504E-4   -7.629629829788039E-2    8.268998862551378E-1
 1.490650750000000E9    -8.040067086452802E-1    2.549673674644430E-1   -2.149344186156259E-4   -1.277324214549493E-4   -2.009722963798521E-4   -1.368979974514976E-4   -7.430616720482448E-2    8.270670542146796E-1
 1.490681375000000E9    -8.033800255816429E-1    2.568849636076619E-1   -2.156291313388741E-4   -1.267657632591623E-4   -2.016206120771964E-4   -1.343213070386699E-4   -7.236537396298368E-2    8.272237785225888E-1
 1.490712000000000E9    -8.026800407966459E-1    2.587804630785422E-1   -2.155616837362179E-4   -1.283396785915521E-4   -2.035939834403138E-4   -1.360876500828764E-4   -7.039440688862118E-2    8.274008978958364E-1
 1.490742625000000E9    -8.020124083545572E-1    2.606699098931970E-1   -2.161746547104490E-4   -1.241613163322525E-4   -2.039669249618692E-4   -1.348308672434627E-4   -6.841160291134740E-2    8.275697485335893E-1
 1.490773250000000E9    -8.014084764824621E-1    2.625788239481637E-1   -2.157578036875164E-4   -1.231084301212846E-4   -2.025755545305923E-4   -1.363984503268061E-4   -6.640108374014041E-2    8.277474679262453E-1
 1.490803875000000E9    -8.007330057168512E-1    2.644641856243386E-1   -2.172131014659201E-4   -1.259453253253602E-4   -2.022393543902942E-4   -1.334269666898805E-4   -6.443044283020150E-2    8.278857167701570E-1
 1.490834500000000E9    -8.000539654712607E-1    2.663671589035440E-1   -2.187308123694812E-4   -1.218931935129974E-4   -2.069883849634319E-4   -1.356702318207877E-4   -6.246302464180361E-2    8.280282352760433E-1
 1.490865125000000E9    -7.993872755179303E-1    2.682707913560581E-1   -2.208100482587728E-4   -1.243173766443422E-4   -2.073564303060159E-4   -1.357988699833098E-4   -6.049735265719986E-2    8.281627953413419E-1
 1.490895750000000E9    -7.987170269816636E-1    2.701716119267124E-1   -2.224429198077257E-4   -1.245487072382234E-4   -2.079342338173463E-4   -1.326450020799921E-4   -5.847078895552817E-2    8.283430968126015E-1
 1.490926375000000E9    -7.980251819164286E-1    2.720516107770883E-1   -2.228833619284656E-4   -1.261645587109757E-4   -2.073809393884857E-4   -1.329970475350777E-4   -5.649165178059731E-2    8.284665264928855E-1
 1.490957000000000E9    -7.973454377788411E-1    2.739264884767988E-1   -2.215373629197750E-4   -1.217734754698575E-4   -2.071331498673031E-4   -1.315097936747486E-4   -5.452971271731861E-2    8.286096356117801E-1
 1.490987625000000E9    -7.966523249063764E-1    2.758261979693347E-1   -2.238331828953546E-4   -1.235102268895535E-4   -2.100528067803317E-4   -1.343345673013233E-4   -5.256179913399506E-2    8.287320113822586E-1
 1.491018250000000E9    -7.959407338240855E-1    2.777118264047390E-1   -2.258138811423947E-4   -1.264318593482105E-4   -2.105563509308891E-4   -1.318612017943083E-4   -5.056530781758589E-2    8.288679199476158E-1
 1.491048875000000E9    -7.952618619241512E-1    2.795984721977138E-1   -2.254886741455501E-4   -1.260520935396558E-4   -2.114087278458307E-4   -1.316079768092023E-4   -4.856926964253847E-2    8.289859207475975E-1
 1.491079500000000E9    -7.945593399622172E-1    2.814644370665438E-1   -2.276256286405930E-4   -1.229710987423600E-4   -2.132148228675758E-4   -1.309858648323703E-4   -4.660146956488465E-2    8.291055919042891E-1
 1.491110125000000E9    -7.938248274111528E-1    2.833409008562903E-1   -2.285103044327332E-4   -1.199461140120335E-4   -2.165969808294537E-4   -1.325223968202477E-4   -4.464982527106122E-2    8.292135964062664E-1
 1.491140750000000E9    -7.931325405336570E-1    2.852176317931816E-1   -2.268313421564248E-4   -1.237081175394417E-4   -2.157913329867738E-4   -1.297376713269413E-4   -4.264129065331641E-2    8.293201117857852E-1
 1.491171375000000E9    -7.924088578133013E-1    2.871000962156480E-1   -2.314458671621874E-4   -1.230944714146894E-4   -2.175012148649485E-4   -1.312204100990704E-4   -4.063717433430880E-2    8.294300940113229E-1
 1.491202000000000E9    -7.916582204827308E-1    2.889708262643764E-1   -2.304747238651524E-4   -1.210360119272358E-4   -2.183474348810084E-4   -1.310135728936111E-4   -3.868457616879798E-2    8.295419827090624E-1
 1.491232625000000E9    -7.909469797769347E-1    2.908545362217186E-1   -2.342035925505127E-4   -1.208454364571421E-4   -2.198303603545850E-4   -1.312987335120443E-4   -3.670948660279948E-2    8.295952500603220E-1
 1.491263250000000E9    -7.902308544386585E-1    2.927267986731590E-1   -2.326210866693187E-4   -1.202619558986597E-4   -2.183815753974888E-4   -1.312450186950440E-4   -3.472480315027728E-2    8.297001633838151E-1
 1.491293875000000E9    -7.895192108242828E-1    2.945991919866092E-1   -2.346418062745194E-4   -1.181310019483372E-4   -2.195499760026367E-4   -1.294847215530383E-4   -3.271078751408839E-2    8.297980780024447E-1
 1.491324500000000E9    -7.887539259915410E-1    2.964830826294820E-1   -2.364633189070242E-4   -1.180976454503834E-4   -2.204845361154270E-4   -1.319512252233788E-4   -3.073839965295756E-2    8.298723876671197E-1
 1.491355125000000E9    -7.880083866410132E-1    2.983563689373589E-1   -2.358197547301285E-4   -1.197537118054451E-4   -2.231769869509246E-4   -1.280187037981758E-4   -2.876455770815945E-2    8.299470218458094E-1
 1.491385750000000E9    -7.872525927955278E-1    3.001995698659192E-1   -2.354154056316940E-4   -1.191416199283645E-4   -2.239963443900840E-4   -1.288677493962366E-4   -2.678386436082495E-2    8.300307438062865E-1
 1.491416375000000E9    -7.864906734376468E-1    3.020424657356987E-1   -2.384766785244535E-4   -1.175694052738303E-4   -2.275117404626583E-4   -1.292386709218372E-4   -2.478138985267998E-2    8.300924206944607E-1
 1.491447000000000E9    -7.857260591969427E-1    3.039226856580904E-1   -2.417293418850196E-4   -1.142157380614448E-4   -2.275636222945717E-4   -1.290901450361654E-4   -2.278931438351193E-2    8.301493992454789E-1
 1.491477625000000E9    -7.849793353969823E-1    3.057689944167894E-1   -2.411087015865182E-4   -1.157536612501136E-4   -2.273110309140584E-4   -1.306618003963000E-4   -2.083636564420008E-2    8.301905346847351E-1
 1.491508250000000E9    -7.842132416348478E-1    3.076345059760121E-1   -2.414427583568593E-4   -1.170011038917553E-4   -2.303783954213377E-4   -1.279074185082951E-4   -1.884520982617710E-2    8.302680636283952E-1
 1.491538875000000E9    -7.834509250010364E-1    3.094823359973303E-1   -2.409727378677178E-4   -1.166730588674048E-4   -2.284109984530591E-4   -1.283919656303586E-4   -1.684306928153865E-2    8.303038196841160E-1
 1.491569500000000E9    -7.826792564176200E-1    3.113369292398386E-1   -2.431807791880882E-4   -1.132976821219206E-4   -2.304048123536613E-4   -1.266395680235270E-4   -1.485005087408628E-2    8.303473397307800E-1
 1.491600125000000E9    -7.818740071369192E-1    3.132048762506906E-1   -2.445851236165462E-4   -1.126802530144440E-4   -2.310564655506647E-4   -1.229263639553921E-4   -1.287863540463424E-2    8.303861399602305E-1
 1.491630750000000E9    -7.810840052193824E-1    3.150354043245023E-1   -2.455897872154929E-4   -1.157900482725352E-4   -2.325013672185263E-4   -1.265310284813601E-4   -1.089004874246708E-2    8.304309685277537E-1
 1.491661375000000E9    -7.803165392652207E-1    3.168743209589387E-1   -2.488825472136868E-4   -1.147699573207984E-4   -2.301177088811028E-4   -1.261288329244234E-4   -8.919259906507472E-3    8.304429904585031E-1
 1.491692000000000E9    -7.795182100657286E-1    3.187305467841178E-1   -2.480922580248585E-4   -1.112713401598365E-4   -2.303071487455102E-4   -1.245611868217373E-4   -6.912027521173099E-3    8.304788290084896E-1
 1.491722625000000E9    -7.787537557591026E-1    3.205862881393236E-1   -2.501715211474643E-4   -1.125044768420794E-4   -2.367607450357947E-4   -1.256384823956669E-4   -4.927523072610589E-3    8.305023090125351E-1
 1.491753250000000E9    -7.779201137568442E-1    3.223948984621787E-1   -2.529758167728246E-4   -1.127279323758133E-4   -2.356681456145938E-4   -1.232415977933618E-4   -2.976879832112801E-3    8.304757986074813E-1
 1.491783875000000E9    -7.771353010321654E-1    3.242485724795675E-1   -2.508534793882294E-4   -1.127525727052223E-4   -2.379308926975206E-4   -1.239993034817723E-4   -9.833723381695602E-4    8.305053576600648E-1
 1.491814500000000E9    -7.763179847048933E-1    3.261105604601466E-1   -2.532598284940736E-4   -1.100488936828010E-4   -2.397286281548855E-4   -1.240423099982240E-4    1.005900429000190E-3    8.305070721326381E-1
 1.491845125000000E9    -7.754861145791972E-1    3.279481493108290E-1   -2.536906887825132E-4   -1.142017355667425E-4   -2.398101941512570E-4   -1.210530086759554E-4    3.004555751510431E-3    8.305018276960034E-1
 1.491875750000000E9    -7.746521555800047E-1    3.297780579345030E-1   -2.543914235246623E-4   -1.105646874318384E-4   -2.370228474147591E-4   -1.238097453889037E-4    4.963785571321887E-3    8.304751309926116E-1
 1.491906375000000E9    -7.738481306439283E-1    3.316188023304538E-1   -2.549641155957536E-4   -1.100677491148620E-4   -2.446196010267985E-4   -1.216477863080296E-4    6.942033608602459E-3    8.304673252220633E-1
 1.491937000000000E9    -7.730338081284663E-1    3.334399463780056E-1   -2.572982369203800E-4   -1.067408566519265E-4   -2.465268670913408E-4   -1.203703652844867E-4    8.965870031245503E-3    8.304654052269469E-1
 1.491967625000000E9    -7.721970575084450E-1    3.352436028944094E-1   -2.578702057375604E-4   -1.096717894229819E-4   -2.467295568730078E-4   -1.216791249983404E-4    1.095818769047119E-2    8.304555257693879E-1
 1.491998250000000E9    -7.713559622898487E-1    3.370639249242096E-1   -2.573640357269908E-4   -1.059961763024255E-4   -2.481919636386988E-4   -1.219374857507373E-4    1.294043882203039E-2    8.304368213569774E-1
 1.492028875000000E9    -7.705112471425354E-1    3.389160358286121E-1   -2.631371156160996E-4   -1.066715063359452E-4   -2.474823197117582E-4   -1.211001236415288E-4    1.488796435477421E-2    8.303736163767987E-1
 1.492059500000000E9    -7.696790897877551E-1    3.407298641413488E-1   -2.600025533105928E-4   -1.088858847707507E-4   -2.486780103181455E-4   -1.205479410435755E-4    1.688571222395078E-2    8.303311986968369E-1
 1.492090125000000E9    -7.688328825449362E-1    3.425559345433394E-1   -2.630203041314632E-4   -1.045330240302118E-4   -2.475090320723040E-4   -1.194744681186769E-4    1.890636537238136E-2    8.303116694673529E-1
 1.492120750000000E9    -7.679950032947265E-1    3.443609481616537E-1   -2.629943900293746E-4   -1.072953820991416E-4   -2.484533613545377E-4   -1.198895469703512E-4    2.086966365956141E-2    8.302800900219841E-1
 1.492151375000000E9    -7.671450811971533E-1    3.461774759851381E-1   -2.648746639987325E-4   -1.076522317519679E-4   -2.533351768786069E-4   -1.199381597190191E-4    2.283525277184208E-2    8.302448459848002E-1
 1.492182000000000E9    -7.662707875793534E-1    3.479934418233149E-1   -2.665276223039731E-4   -1.064646606611887E-4   -2.534302782603132E-4   -1.188319778986268E-4    2.483160077071391E-2    8.301868281424765E-1
 1.492212625000000E9    -7.653752980862104E-1    3.498251937935453E-1   -2.658428621497607E-4   -1.038972190913531E-4   -2.564985891961940E-4   -1.193219017412236E-4    2.683667486040874E-2    8.300913702234152E-1
 1.492243250000000E9    -7.644922820610504E-1    3.516195853973078E-1   -2.683442461049210E-4   -1.042805323600632E-4   -2.547734275429639E-4   -1.189744871672035E-4    2.881310497337579E-2    8.300271657302619E-1
 1.492273875000000E9    -7.636261052300792E-1    3.534090707465018E-1   -2.696727124216537E-4   -1.051881201162852E-4   -2.562301767289358E-4   -1.182522770490816E-4    3.078012413542431E-2    8.299707598929196E-1
 1.492304500000000E9    -7.627723736500146E-1    3.552192415033026E-1   -2.723535882369926E-4   -1.031677232659901E-4   -2.564420879757954E-4   -1.195993581342444E-4    3.274809948732695E-2    8.299016763676969E-1
 1.492335125000000E9    -7.618918559699420E-1    3.570235890286665E-1   -2.699113995854114E-4   -1.035040097078147E-4   -2.584609271648097E-4   -1.184360927453553E-4    3.475270617656365E-2    8.298468647841244E-1
 1.492365750000000E9    -7.610021432643009E-1    3.588136404596359E-1   -2.735228685426568E-4   -1.031668681928316E-4   -2.600891211232693E-4   -1.174889036714517E-4    3.675944233466052E-2    8.297688693247408E-1
 1.492396375000000E9    -7.601120577758860E-1    3.606169312486020E-1   -2.749858451131512E-4   -1.015036208733794E-4   -2.628652867635888E-4   -1.146336550444063E-4    3.870206198975883E-2    8.296924126121966E-1
 1.492427000000000E9    -7.592076208744840E-1    3.624355133014972E-1   -2.764771495682114E-4   -1.030324235039150E-4   -2.619680684989334E-4   -1.148948364214833E-4    4.067566246099295E-2    8.295932086313537E-1
 1.492457625000000E9    -7.583277063973700E-1    3.642223705474649E-1   -2.765081762562475E-4   -1.010848692834138E-4   -2.663385178342900E-4   -1.144354149927065E-4    4.268137883912246E-2    8.295133034631605E-1
 1.492488250000000E9    -7.574078315206650E-1    3.659825010099353E-1   -2.758377959609357E-4   -9.658649717704563E-5   -2.609979699704794E-4   -1.116093358396045E-4    4.468979273440336E-2    8.294220303239999E-1
 1.492518875000000E9    -7.564879535488860E-1    3.677877402086260E-1   -2.770506778825531E-4   -1.013600626484929E-4   -2.638673811621465E-4   -1.112883809780329E-4    4.665206017353374E-2    8.293104389927247E-1
 1.492549500000000E9    -7.555982613993746E-1    3.696062726852510E-1   -2.757728295437743E-4   -9.991064350240544E-5   -2.686051067536139E-4   -1.162197111950217E-4    4.861625481604290E-2    8.291890621736996E-1
 1.492580125000000E9    -7.546657146763894E-1    3.713691176158148E-1   -2.816632644816558E-4   -9.668210972919884E-5   -2.680405158212544E-4   -1.113381316911859E-4    5.062112891593162E-2    8.290933513957952E-1
 1.492610750000000E9    -7.537560339634019E-1    3.731516927768192E-1   -2.826663368360364E-4   -9.812978846317684E-5   -2.686702437753163E-4   -1.123879683001454E-4    5.261314648273533E-2    8.289552591888110E-1
 1.492641375000000E9    -7.528270894319196E-1    3.749270293404379E-1   -2.854184404471671E-4   -9.699272330754747E-5   -2.696240499413962E-4   -1.146326035248967E-4    5.459286030557752E-2    8.288415958929146E-1
 1.492672000000000E9    -7.519007661833262E-1    3.767002759724619E-1   -2.832377008038585E-4   -9.489210439069304E-5   -2.712794608691348E-4   -1.125201907772029E-4    5.656411492595263E-2    8.287115731810988E-1
 1.492702625000000E9    -7.509826011451523E-1    3.785026111424603E-1   -2.863929422388286E-4   -9.540979909175626E-5   -2.696644327966269E-4   -1.107695270436469E-4    5.853525285549011E-2    8.285778090803483E-1
 1.492733250000000E9    -7.500456582702605E-1    3.802573524865128E-1   -2.872199550403120E-4   -9.600945224127413E-5   -2.732607951132499E-4   -1.115446394257898E-4    6.052850667763512E-2    8.284439553443846E-1
 1.492763875000000E9    -7.491049515035842E-1    3.820416475060348E-1   -2.867295845215334E-4   -9.629976168442633E-5   -2.776931242676034E-4   -1.105140646643543E-4    6.252795718140670E-2    8.283023514424736E-1
 1.492794500000000E9    -7.481479441118669E-1    3.838003961883694E-1   -2.884087073566918E-4   -9.345285367825173E-5   -2.758076447688646E-4   -1.073939263633695E-4    6.448604681208814E-2    8.281552921967191E-1
