! File generated for n1 = 5, n2 = 7
! b1 = 4.641589
! b2 = 0.046416
! Q0 = 10000.000000
! f0 = 1000000000.000000
! n = 1001
! rel_span = 10.000000
# Hz S RI R 50
9.97155997639025568962e+08 9.83886502972408982792e-01 -1.61364757910435197008e-01 -1.61134970275910002942e-03 -1.61364757910435162314e-02 -1.61134970275910002942e-03 -1.61364757910435162314e-02 9.99838865029724077615e-01 -1.61364757910435144966e-03
9.97161685643747568130e+08 9.83822404419575691215e-01 -1.61682182414219610678e-01 -1.61775955804243569240e-03 -1.61682182414219603739e-02 -1.61775955804243569240e-03 -1.61682182414219603739e-02 9.99838224044195755802e-01 -1.61682182414219573381e-03
9.97167373648469448090e+08 9.83757924290666441181e-01 -1.62000843419345591512e-01 -1.62420757093335974171e-03 -1.62000843419345570695e-02 -1.62420757093335974171e-03 -1.62000843419345570695e-02 9.99837579242906615562e-01 -1.62000843419345531664e-03
9.97173061653191447258e+08 9.83693059562068206070e-01 -1.62320748085526128657e-01 -1.63069404379317700778e-03 -1.62320748085526093962e-02 -1.63069404379317700778e-03 -1.62320748085526093962e-02 9.99836930595620732021e-01 -1.62320748085526076615e-03
9.97178749657913327217e+08 9.83627807180269431164e-01 -1.62641903627187833781e-01 -1.63721928197305285034e-03 -1.62641903627187799086e-02 -1.63721928197305285034e-03 -1.62641903627187799086e-02 9.99836278071802642131e-01 -1.62641903627187790413e-03
9.97184437662635326385e+08 9.83562164061500543433e-01 -1.62964317314013062976e-01 -1.64378359384994708788e-03 -1.62964317314013042159e-02 -1.64378359384994708788e-03 -1.62964317314013042159e-02 9.99835621640615013206e-01 -1.62964317314013011802e-03
9.97190125667357206345e+08 9.83496127091379790386e-01 -1.63287996471437546475e-01 -1.65038729086202057110e-03 -1.63287996471437497903e-02 -1.65038729086202057110e-03 -1.63287996471437497903e-02 9.99834961270913757936e-01 -1.63287996471437484892e-03
9.97195813672079205513e+08 9.83429693124544423988e-01 -1.63612948481204112383e-01 -1.65703068754555551956e-03 -1.63612948481204091566e-02 -1.65703068754555551956e-03 -1.63612948481204091566e-02 9.99834296931245480877e-01 -1.63612948481204061209e-03
9.97201501676801204681e+08 9.83362858984284438080e-01 -1.63939180781881715943e-01 -1.66371410157155471751e-03 -1.63939180781881715943e-02 -1.66371410157155471751e-03 -1.63939180781881715943e-02 9.99833628589842815515e-01 -1.63939180781881685585e-03
9.97207189681523084641e+08 9.83295621462171642868e-01 -1.64266700869390075423e-01 -1.67043785378283814180e-03 -1.64266700869390054607e-02 -1.67043785378283814180e-03 -1.64266700869390054607e-02 9.99832956214621759727e-01 -1.64266700869390019912e-03
9.97212877686245083809e+08 9.83227977317668977442e-01 -1.64595516297600247269e-01 -1.67720226823310373035e-03 -1.64595516297600247269e-02 -1.67720226823310373035e-03 -1.64595516297600247269e-02 9.99832279773176679782e-01 -1.64595516297600199564e-03
9.97218565690966963768e+08 9.83159923277759695281e-01 -1.64925634678820931533e-01 -1.68400767222403181626e-03 -1.64925634678820924595e-02 -1.68400767222403181626e-03 -1.64925634678820924595e-02 9.99831599232777645803e-01 -1.64925634678820881227e-03
9.97224253695688962936e+08 9.83091456036546573749e-01 -1.65257063684408289639e-01 -1.69085439634534509708e-03 -1.65257063684408275761e-02 -1.69085439634534509708e-03 -1.65257063684408275761e-02 9.99830914560365435761e-01 -1.65257063684408236730e-03
9.97229941700410962105e+08 9.83022572254860893537e-01 -1.65589811045309343029e-01 -1.69774277451391472291e-03 -1.65589811045309329152e-02 -1.69774277451391472291e-03 -1.65589811045309329152e-02 9.99830225722548648903e-01 -1.65589811045309311804e-03
9.97235629705132842064e+08 9.82953268559863979625e-01 -1.65923884552620498622e-01 -1.70467314401359865475e-03 -1.65923884552620498622e-02 -1.70467314401359865475e-03 -1.65923884552620498622e-02 9.99829532685598598718e-01 -1.65923884552620455254e-03
9.97241317709854841232e+08 9.82883541544632088893e-01 -1.66259292058208218990e-01 -1.71164584553679458012e-03 -1.66259292058208198173e-02 -1.71164584553679458012e-03 -1.66259292058208198173e-02 9.99828835415446315338e-01 -1.66259292058208176489e-03
9.97247005714576721191e+08 9.82813387767751844848e-01 -1.66596041475251699371e-01 -1.71866122322481690299e-03 -1.66596041475251671615e-02 -1.71866122322481690299e-03 -1.66596041475251671615e-02 9.99828133877677549535e-01 -1.66596041475251636921e-03
9.97252693719298720360e+08 9.82742803752898685943e-01 -1.66934140778854017695e-01 -1.72571962471013010468e-03 -1.66934140778853996878e-02 -1.72571962471013010468e-03 -1.66934140778853996878e-02 9.99827428037528997962e-01 -1.66934140778853944836e-03
9.97258381724020600319e+08 9.82671785988414314694e-01 -1.67273598006630414003e-01 -1.73282140115856540807e-03 -1.67273598006630400126e-02 -1.73282140115856540807e-03 -1.67273598006630400126e-02 9.99826717859884195327e-01 -1.67273598006630356758e-03
9.97264069728742599487e+08 9.82600330926871046167e-01 -1.67614421259340146131e-01 -1.73996690731289659765e-03 -1.67614421259340111436e-02 -1.73996690731289659765e-03 -1.67614421259340111436e-02 9.99826003309268740438e-01 -1.67614421259340085416e-03
9.97269757733464598656e+08 9.82528434984642928818e-01 -1.67956618701462001564e-01 -1.74715650153571110809e-03 -1.67956618701461980747e-02 -1.74715650153571110809e-03 -1.67956618701461980747e-02 9.99825284349846410414e-01 -1.67956618701461946053e-03
9.97275445738186478615e+08 9.82456094541461322223e-01 -1.68300198561823460830e-01 -1.75439054585386643333e-03 -1.68300198561823419197e-02 -1.75439054585386643333e-03 -1.68300198561823419197e-02 9.99824560945414608781e-01 -1.68300198561823388839e-03
9.97281133742908477783e+08 9.82383305939961370967e-01 -1.68645169134250039189e-01 -1.76166940600386333696e-03 -1.68645169134250018372e-02 -1.76166940600386333696e-03 -1.68645169134250018372e-02 9.99823833059399591505e-01 -1.68645169134250001025e-03
9.97286821747630357742e+08 9.82310065485231254101e-01 -1.68991538778175687252e-01 -1.76899345147687818945e-03 -1.68991538778175652558e-02 -1.76899345147687818945e-03 -1.68991538778175652558e-02 9.99823100654852359170e-01 -1.68991538778175630874e-03
9.97292509752352356911e+08 9.82236369444347778845e-01 -1.69339315919296712343e-01 -1.77636305556521842917e-03 -1.69339315919296677648e-02 -1.77636305556521842917e-03 -1.69339315919296677648e-02 9.99822363694443438931e-01 -1.69339315919296660301e-03
9.97298197757074236870e+08 9.82162214045914194749e-01 -1.69688509050193031547e-01 -1.78377859540858221647e-03 -1.69688509050192996852e-02 -1.78377859540858221647e-03 -1.69688509050192996852e-02 9.99821622140459109751e-01 -1.69688509050192970831e-03
9.97303885761796236038e+08 9.82087595479575026225e-01 -1.70039126731027639972e-01 -1.79124045204249906886e-03 -1.70039126731027639972e-02 -1.79124045204249906886e-03 -1.70039126731027639972e-02 9.99820875954795740270e-01 -1.70039126731027600940e-03
9.97309573766518235207e+08 9.82012509895541230165e-01 -1.70391177590179770940e-01 -1.79874901044587234313e-03 -1.70391177590179764001e-02 -1.79874901044587234313e-03 -1.70391177590179764001e-02 9.99820125098955458931e-01 -1.70391177590179724970e-03
9.97315261771240115166e+08 9.81936953404103696208e-01 -1.70744670324904840308e-01 -1.80630465958963367518e-03 -1.70744670324904819492e-02 -1.80630465958963367518e-03 -1.70744670324904819492e-02 9.99819369534041046954e-01 -1.70744670324904780460e-03
9.97320949775962114334e+08 9.81860922075127096065e-01 -1.71099613702058145348e-01 -1.81390779248728978637e-03 -1.71099613702058138409e-02 -1.81390779248728978637e-03 -1.71099613702058138409e-02 9.99818609220751275402e-01 -1.71099613702058108052e-03
9.97326637780683994293e+08 9.81784411937558054717e-01 -1.71456016558733492783e-01 -1.82155880624419795437e-03 -1.71456016558733485844e-02 -1.82155880624419795437e-03 -1.71456016558733485844e-02 9.99817844119375576106e-01 -1.71456016558733438139e-03
9.97332325785405993462e+08 9.81707418978906676266e-01 -1.71813887802991949183e-01 -1.82925810210933558267e-03 -1.71813887802991921427e-02 -1.82925810210933558267e-03 -1.71813887802991921427e-02 9.99817074189789045668e-01 -1.71813887802991886733e-03
9.97338013790127992630e+08 9.81629939144734398049e-01 -1.72173236414540659078e-01 -1.83700608552655932776e-03 -1.72173236414540631323e-02 -1.83700608552655932776e-03 -1.72173236414540631323e-02 9.99816299391447338429e-01 -1.72173236414540600965e-03
9.97343701794849872589e+08 9.81551968338129521285e-01 -1.72534071445439918246e-01 -1.84480316618704644031e-03 -1.72534071445439897430e-02 -1.84480316618704644031e-03 -1.72534071445439897430e-02 9.99815519683381337401e-01 -1.72534071445439875746e-03
9.97349389799571871758e+08 9.81473502419159649079e-01 -1.72896402020889405904e-01 -1.85264975808403765077e-03 -1.72896402020889378148e-02 -1.85264975808403765077e-03 -1.72896402020889378148e-02 9.99814735024191603152e-01 -1.72896402020889352127e-03
9.97355077804293751717e+08 9.81394537204355987825e-01 -1.73260237339839806570e-01 -1.86054627956439835521e-03 -1.73260237339839771875e-02 -1.86054627956439835521e-03 -1.73260237339839771875e-02 9.99813945372043599846e-01 -1.73260237339839745854e-03
9.97360765809015750885e+08 9.81315068466142248482e-01 -1.73625586675834858719e-01 -1.86849315338577146549e-03 -1.73625586675834851780e-02 -1.86849315338577146549e-03 -1.73625586675834851780e-02 9.99813150684661477996e-01 -1.73625586675834795401e-03
9.97366453813737630844e+08 9.81235091932292857742e-01 -1.73992459377685537714e-01 -1.87649080677070880484e-03 -1.73992459377685509958e-02 -1.87649080677070880484e-03 -1.73992459377685509958e-02 9.99812350919322967435e-01 -1.73992459377685483937e-03
9.97372141818459630013e+08 9.81154603285354420805e-01 -1.74360864870287901596e-01 -1.88453967146455405972e-03 -1.74360864870287887718e-02 -1.88453967146455405972e-03 -1.74360864870287887718e-02 9.99811546032853493138e-01 -1.74360864870287853023e-03
9.97377829823181629181e+08 9.81073598162085502850e-01 -1.74730812655325334903e-01 -1.89264018379144572518e-03 -1.74730812655325314087e-02 -1.89264018379144572518e-03 -1.74730812655325314087e-02 9.99810735981620846147e-01 -1.74730812655325283729e-03
9.97383517827903509140e+08 9.80992072152875427271e-01 -1.75102312312039432030e-01 -1.90079278471245701268e-03 -1.75102312312039390396e-02 -1.90079278471245701268e-03 -1.75102312312039390396e-02 9.99809920721528744281e-01 -1.75102312312039364375e-03
9.97389205832625508308e+08 9.80910020801133875068e-01 -1.75475373498101577807e-01 -1.90899791988661084521e-03 -1.75475373498101550052e-02 -1.90899791988661084521e-03 -1.75475373498101550052e-02 9.99809100208011392041e-01 -1.75475373498101502347e-03
9.97394893837347388268e+08 9.80827439602718453848e-01 -1.75850005950283660994e-01 -1.91725603972815955914e-03 -1.75850005950283633238e-02 -1.91725603972815955914e-03 -1.75850005950283633238e-02 9.99808274396027152342e-01 -1.75850005950283589870e-03
9.97400581842069387436e+08 9.80744324005308754089e-01 -1.76226219485337315396e-01 -1.92556759946912428756e-03 -1.76226219485337322335e-02 -1.92556759946912428756e-03 -1.76226219485337322335e-02 9.99807443240053106415e-01 -1.76226219485337270293e-03
9.97406269846791267395e+08 9.80660669407798946118e-01 -1.76604024000762999114e-01 -1.93393305922010460760e-03 -1.76604024000762971358e-02 -1.93393305922010460760e-03 -1.76604024000762971358e-02 9.99806606694077948383e-01 -1.76604024000762941000e-03
9.97411957851513266563e+08 9.80576471159662954591e-01 -1.76983429475665254849e-01 -1.94235288403370263272e-03 -1.76983429475665240971e-02 -1.94235288403370263272e-03 -1.76983429475665240971e-02 9.99805764711596656191e-01 -1.76983429475665188929e-03
9.97417645856235265732e+08 9.80491724560329958038e-01 -1.77364445971533390978e-01 -1.95082754396700818605e-03 -1.77364445971533377100e-02 -1.95082754396700818605e-03 -1.77364445971533377100e-02 9.99804917245603275155e-01 -1.77364445971533329395e-03
9.97423333860957145691e+08 9.80406424858533243061e-01 -1.77747083633105845690e-01 -1.95935751414667022954e-03 -1.77747083633105831812e-02 -1.95935751414667022954e-03 -1.77747083633105831812e-02 9.99804064248585366848e-01 -1.77747083633105797118e-03
9.97429021865679144859e+08 9.80320567251648955498e-01 -1.78131352689251815091e-01 -1.96794327483510497062e-03 -1.78131352689251815091e-02 -1.96794327483510497062e-03 -1.78131352689251815091e-02 9.99803205672516459579e-01 -1.78131352689251754376e-03
9.97434709870401024818e+08 9.80234146885046175868e-01 -1.78517263453759594816e-01 -1.97658531149537755600e-03 -1.78517263453759553182e-02 -1.97658531149537755600e-03 -1.78517263453759553182e-02 9.99802341468850497286e-01 -1.78517263453759522825e-03
9.97440397875123023987e+08 9.80147158851398470070e-01 -1.78904826326272720083e-01 -1.98528411486015125831e-03 -1.78904826326272692327e-02 -1.98528411486015125831e-03 -1.78904826326272692327e-02 9.99801471588513956945e-01 -1.78904826326272661970e-03
9.97446085879844903946e+08 9.80059598190013647745e-01 -1.79294051793101760772e-01 -1.99404018099863912863e-03 -1.79294051793101767711e-02 -1.99404018099863912863e-03 -1.79294051793101767711e-02 9.99800595981900186437e-01 -1.79294051793101711333e-03
9.97451773884566903114e+08 9.79971459886121110117e-01 -1.79684950428193712657e-01 -2.00285401138788812098e-03 -1.79684950428193671024e-02 -2.00285401138788812098e-03 -1.79684950428193671024e-02 9.99799714598861188897e-01 -1.79684950428193640666e-03
9.97457461889288902283e+08 9.79882738870179292867e-01 -1.80077532893976266504e-01 -2.01172611298206958572e-03 -1.80077532893976252626e-02 -2.01172611298206958572e-03 -1.80077532893976252626e-02 9.99798827388701738528e-01 -1.80077532893976226605e-03
9.97463149894010782242e+08 9.79793430017161681711e-01 -1.80471809942257976900e-01 -2.02065699828383495140e-03 -1.80471809942257949144e-02 -2.02065699828383495140e-03 -1.80471809942257949144e-02 9.99797934300171609046e-01 -1.80471809942257918787e-03
9.97468837898732781410e+08 9.79703528145811408656e-01 -1.80867792415231487535e-01 -2.02964718541886199668e-03 -1.80867792415231494474e-02 -2.02964718541886199668e-03 -1.80867792415231494474e-02 9.99797035281458135181e-01 -1.80867792415231442432e-03
9.97474525903454661369e+08 9.79613028017929265978e-01 -1.81265491246292570482e-01 -2.03869719820706958580e-03 -1.81265491246292535787e-02 -2.03869719820706958580e-03 -1.81265491246292535787e-02 9.99796130280179329297e-01 -1.81265491246292522777e-03
9.97480213908176660538e+08 9.79521924337597993393e-01 -1.81664917461100944296e-01 -2.04780756624019927292e-03 -1.81664917461100937357e-02 -2.04780756624019927292e-03 -1.81664917461100937357e-02 9.99795219243375998808e-01 -1.81664917461100885315e-03
9.97485901912898659706e+08 9.79430211750439205787e-01 -1.82066082178456573049e-01 -2.05697882495608098258e-03 -1.82066082178456538354e-02 -2.05697882495608098258e-03 -1.82066082178456538354e-02 9.99794302117504418703e-01 -1.82066082178456507996e-03
9.97491589917620539665e+08 9.79337884842838457544e-01 -1.82468996611279410391e-01 -2.06621151571615736808e-03 -1.82468996611279410391e-02 -2.06621151571615736808e-03 -1.82468996611279410391e-02 9.99793378848428337946e-01 -1.82468996611279349676e-03
9.97497277922342538834e+08 9.79244938141145215837e-01 -1.82873672067656700690e-01 -2.07550618588547364576e-03 -1.82873672067656659057e-02 -2.07550618588547364576e-03 -1.82873672067656659057e-02 9.99792449381411429954e-01 -1.82873672067656624363e-03
9.97502965927064418793e+08 9.79151366110902587891e-01 -1.83280119951721970351e-01 -2.08486338890974442009e-03 -1.83280119951721928717e-02 -2.08486338890974442009e-03 -1.83280119951721928717e-02 9.99791513661109076949e-01 -1.83280119951721894023e-03
9.97508653931786417961e+08 9.79057163156008547489e-01 -1.83688351764785540166e-01 -2.09428368439914342966e-03 -1.83688351764785540166e-02 -2.09428368439914342966e-03 -1.83688351764785540166e-02 9.99790571631560043286e-01 -1.83688351764785501134e-03
9.97514341936508297920e+08 9.78962323617922680619e-01 -1.84098379106233389635e-01 -2.10376763820773393307e-03 -1.84098379106233389635e-02 -2.10376763820773393307e-03 -1.84098379106233389635e-02 9.99789623236179259003e-01 -1.84098379106233350604e-03
9.97520029941230297089e+08 9.78866841774810980681e-01 -1.84510213674643791526e-01 -2.11331582251890253907e-03 -1.84510213674643763770e-02 -2.11331582251890253907e-03 -1.84510213674643763770e-02 9.99788668417748160877e-01 -1.84510213674643724739e-03
9.97525717945952296257e+08 9.78770711840705409656e-01 -1.84923867268802277763e-01 -2.12292881592945556490e-03 -1.84923867268802256947e-02 -2.12292881592945556490e-03 -1.84923867268802256947e-02 9.99787707118407031892e-01 -1.84923867268802226589e-03
9.97531405950674176216e+08 9.78673927964654688516e-01 -1.85339351788708389668e-01 -2.13260720353453028103e-03 -1.85339351788708396607e-02 -2.13260720353453028103e-03 -1.85339351788708396607e-02 9.99786739279646563539e-01 -1.85339351788708331555e-03
9.97537093955396175385e+08 9.78576484229822907146e-01 -1.85756679236761118590e-01 -2.14235157701770859151e-03 -1.85756679236761118590e-02 -2.14235157701770859151e-03 -1.85756679236761118590e-02 9.99785764842298196875e-01 -1.85756679236761070885e-03
9.97542781960118055344e+08 9.78478374652635207731e-01 -1.86175861718699015013e-01 -2.15216253473648122183e-03 -1.86175861718698987257e-02 -2.15216253473648122183e-03 -1.86175861718698987257e-02 9.99784783746526350967e-01 -1.86175861718698948226e-03
9.97548469964840054512e+08 9.78379593181849638306e-01 -1.86596911444808721825e-01 -2.16204068181503504184e-03 -1.86596911444808707947e-02 -2.16204068181503504184e-03 -1.86596911444808707947e-02 9.99783795931818541902e-01 -1.86596911444808673253e-03
9.97554157969561934471e+08 9.78280133697659870506e-01 -1.87019840730956399266e-01 -2.17198663023401286262e-03 -1.87019840730956385388e-02 -2.17198663023401286262e-03 -1.87019840730956385388e-02 9.99782801336976612028e-01 -1.87019840730956324673e-03
9.97559845974283933640e+08 9.78179990010747513196e-01 -1.87444661999783823703e-01 -2.18200099892524755282e-03 -1.87444661999783823703e-02 -2.18200099892524755282e-03 -1.87444661999783823703e-02 9.99781799900107515100e-01 -1.87444661999783767324e-03
9.97565533979005932808e+08 9.78079155861357962820e-01 -1.87871387781758963920e-01 -2.19208441386420892216e-03 -1.87871387781758936164e-02 -2.19208441386420892216e-03 -1.87871387781758936164e-02 9.99780791558613546322e-01 -1.87871387781758897133e-03
9.97571221983727812767e+08 9.77977624918323851233e-01 -1.88300030716396282759e-01 -2.20223750816761140725e-03 -1.88300030716396261943e-02 -2.20223750816761140725e-03 -1.88300030716396261943e-02 9.99779776249183238512e-01 -1.88300030716396214238e-03
9.97576909988449811935e+08 9.77875390778095709976e-01 -1.88730603553401765637e-01 -2.21246092219042631358e-03 -1.88730603553401744821e-02 -2.21246092219042631358e-03 -1.88730603553401744821e-02 9.99778753907780926014e-01 -1.88730603553401697116e-03
9.97582597993171691895e+08 9.77772446963757757565e-01 -1.89163119153823250373e-01 -2.22275530362422025360e-03 -1.89163119153823236496e-02 -2.22275530362422025360e-03 -1.89163119153823236496e-02 9.99777724469637529836e-01 -1.89163119153823184454e-03
9.97588285997893691063e+08 9.77668786924006383288e-01 -1.89597590491312417704e-01 -2.23312130759936592131e-03 -1.89597590491312369132e-02 -2.23312130759936592131e-03 -1.89597590491312369132e-02 9.99776687869240010542e-01 -1.89597590491312343111e-03
9.97593974002615690231e+08 9.77564404032148503987e-01 -1.90034030653245866738e-01 -2.24355959678515298403e-03 -1.90034030653245845921e-02 -2.24355959678515298403e-03 -1.90034030653245845921e-02 9.99775644040321487260e-01 -1.90034030653245819900e-03
9.97599662007337570190e+08 9.77459291585047518325e-01 -1.90472452842017636598e-01 -2.25407084149524539196e-03 -1.90472452842017636598e-02 -2.25407084149524539196e-03 -1.90472452842017636598e-02 9.99774592915850468522e-01 -1.90472452842017588893e-03
