! Created Tue Mar  9 10:46:14 2021
# hz S db R 50
! 2 Port Network Data from SP1.SP block
! freq  dbS11  angS11  dbS21  angS21  dbS12  angS12  dbS22  angS22  
!     
         999450000       -46.8902135        -95.4511311     -0.00364526468        -0.25812328     -0.00364526468        -0.25812328        -46.8902135        -95.4511311
         999455500       -46.8036894        -95.5058715     -0.00371864865       -0.260685745     -0.00371864865       -0.260685745        -46.8036894        -95.5058715
         999461000       -46.7163034        -95.5617185     -0.00379426387       -0.263299105     -0.00379426387       -0.263299105        -46.7163034        -95.5617185
         999466500       -46.6280382        -95.6187062     -0.00387220143       -0.265964878     -0.00387220143       -0.265964878        -46.6280382        -95.6187062
         999472000       -46.5388763        -95.6768695     -0.00395255711       -0.268684639     -0.00395255711       -0.268684639        -46.5388763        -95.6768695
         999477500       -46.4487993        -95.7362453     -0.00403543164       -0.271460028     -0.00403543164       -0.271460028        -46.4487993        -95.7362453
         999483000       -46.3577885        -95.7968716     -0.00412093105       -0.274292751     -0.00412093105       -0.274292751        -46.3577885        -95.7968716
         999488500       -46.2658245        -95.8587883     -0.00420916698       -0.277184584     -0.00420916698       -0.277184584        -46.2658245        -95.8587883
         999494000       -46.1728874        -95.9220368     -0.00430025707       -0.280137377     -0.00430025707       -0.280137377        -46.1728874        -95.9220368
         999499500       -46.0789566        -95.9866604     -0.00439432529       -0.283153053     -0.00439432529       -0.283153053        -46.0789566        -95.9866604
         999505000       -45.9840109        -96.0527042     -0.00449150242       -0.286233622     -0.00449150242       -0.286233622        -45.9840109        -96.0527042
         999510500       -45.8880282        -96.1202156     -0.00459192645       -0.289381174     -0.00459192645       -0.289381174        -45.8880282        -96.1202156
         999516000       -45.7909861        -96.1892436     -0.00469574309       -0.292597891     -0.00469574309       -0.292597891        -45.7909861        -96.1892436
         999521500        -45.692861        -96.2598398     -0.00480310629        -0.29588605     -0.00480310629        -0.29588605         -45.692861        -96.2598398
         999527000        -45.593629        -96.3320581      -0.0049141788       -0.299248026      -0.0049141788       -0.299248026         -45.593629        -96.3320581
         999532500        -45.493265        -96.4059546     -0.00502913274       -0.302686301     -0.00502913274       -0.302686301         -45.493265        -96.4059546
         999538000       -45.3917433        -96.4815885     -0.00514815033       -0.306203465     -0.00514815033       -0.306203465        -45.3917433        -96.4815885
         999543500       -45.2890372        -96.5590214     -0.00527142454       -0.309802228     -0.00527142454       -0.309802228        -45.2890372        -96.5590214
         999549000       -45.1851191        -96.6383179     -0.00539915989       -0.313485421     -0.00539915989       -0.313485421        -45.1851191        -96.6383179
         999554500       -45.0799605        -96.7195458     -0.00553157326       -0.317256006     -0.00553157326       -0.317256006        -45.0799605        -96.7195458
         999560000       -44.9735318        -96.8027763     -0.00566889483       -0.321117085     -0.00566889483       -0.321117085        -44.9735318        -96.8027763
         999565500       -44.8658025         -96.888084     -0.00581136902       -0.325071903     -0.00581136902       -0.325071903        -44.8658025         -96.888084
         999571000       -44.7567408        -96.9755472      -0.0059592556       -0.329123861      -0.0059592556       -0.329123861        -44.7567408        -96.9755472
         999576500        -44.646314        -97.0652481     -0.00611283081       -0.333276523     -0.00611283081       -0.333276523         -44.646314        -97.0652481
         999582000       -44.5344879        -97.1572735     -0.00627238869       -0.337533627     -0.00627238869       -0.337533627        -44.5344879        -97.1572735
         999587500       -44.4212272        -97.2517143     -0.00643824237       -0.341899093     -0.00643824237       -0.341899093        -44.4212272        -97.2517143
         999593000       -44.3064953        -97.3486663     -0.00661072566       -0.346377037     -0.00661072566       -0.346377037        -44.3064953        -97.3486663
         999598500       -44.1902541        -97.4482304     -0.00679019465       -0.350971782     -0.00679019465       -0.350971782        -44.1902541        -97.4482304
         999604000       -44.0724641        -97.5505131     -0.00697702952        -0.35568787     -0.00697702952        -0.35568787        -44.0724641        -97.5505131
         999609500       -43.9530843        -97.6556265     -0.00717163651       -0.360530076     -0.00717163651       -0.360530076        -43.9530843        -97.6556265
         999615000        -43.832072        -97.7636892     -0.00737445008       -0.365503423     -0.00737445008       -0.365503423         -43.832072        -97.7636892
         999620500       -43.7093828        -97.8748261     -0.00758593528         -0.3706132     -0.00758593528         -0.3706132        -43.7093828        -97.8748261
         999626000       -43.5849705        -97.9891694     -0.00780659035       -0.375864975     -0.00780659035       -0.375864975        -43.5849705        -97.9891694
         999631500       -43.4587871        -98.1068591      -0.0080369496       -0.381264615      -0.0080369496       -0.381264615        -43.4587871        -98.1068591
         999637000       -43.3307825        -98.2280431     -0.00827758654       -0.386818308     -0.00827758654       -0.386818308        -43.3307825        -98.2280431
         999642500       -43.2009046        -98.3528783     -0.00852911736       -0.392532581     -0.00852911736       -0.392532581        -43.2009046        -98.3528783
         999648000       -43.0690991         -98.481531      -0.0087922048       -0.398414325      -0.0087922048       -0.398414325        -43.0690991         -98.481531
         999653500       -42.9353092        -98.6141777     -0.00906756236       -0.404470817     -0.00906756236       -0.404470817        -42.9353092        -98.6141777
         999659000       -42.7994757        -98.7510057     -0.00935595903       -0.410709752     -0.00935595903       -0.410709752        -42.7994757        -98.7510057
         999664500       -42.6615369        -98.8922144     -0.00965822448       -0.417139266     -0.00965822448       -0.417139266        -42.6615369        -98.8922144
         999670000       -42.5214284        -99.0380157     -0.00997525486       -0.423767969     -0.00997525486       -0.423767969        -42.5214284        -99.0380157
         999675500       -42.3790825        -99.1886354      -0.0103080192       -0.430604981      -0.0103080192       -0.430604981        -42.3790825        -99.1886354
         999681000       -42.2344288        -99.3443141      -0.0106575667       -0.437659963      -0.0106575667       -0.437659963        -42.2344288        -99.3443141
         999686500       -42.0873934        -99.5053088      -0.0110250346       -0.444943161      -0.0110250346       -0.444943161        -42.0873934        -99.5053088
         999692000       -41.9378991        -99.6718937       -0.011411657       -0.452465447       -0.011411657       -0.452465447        -41.9378991        -99.6718937
         999697500        -41.785865        -99.8443621      -0.0118187753       -0.460238362      -0.0118187753       -0.460238362         -41.785865        -99.8443621
         999703000       -41.6312061        -100.023028      -0.0122478486       -0.468274169      -0.0122478486       -0.468274169        -41.6312061        -100.023028
         999708500       -41.4738333        -100.208228      -0.0127004674       -0.476585904      -0.0127004674       -0.476585904        -41.4738333        -100.208228
         999714000       -41.3136534        -100.400323      -0.0131783665       -0.485187436      -0.0131783665       -0.485187436        -41.3136534        -100.400323
         999719500        -41.150568        -100.599702       -0.013683442       -0.494093525       -0.013683442       -0.494093525         -41.150568        -100.599702
         999725000       -40.9844742         -100.80678      -0.0142177685       -0.503319894      -0.0142177685       -0.503319894        -40.9844742         -100.80678
         999730500       -40.8152635        -101.022007        -0.01478362       -0.512883299        -0.01478362       -0.512883299        -40.8152635        -101.022007
         999736000       -40.6428217        -101.245867      -0.0153834924       -0.522801609      -0.0153834924       -0.522801609        -40.6428217        -101.245867
         999741500       -40.4670288        -101.478884      -0.0160201303       -0.533093888      -0.0160201303       -0.533093888        -40.4670288        -101.478884
         999747000       -40.2877582        -101.721622      -0.0166965563       -0.543780485      -0.0166965563       -0.543780485        -40.2877582        -101.721622
         999752500       -40.1048765        -101.974693      -0.0174161049       -0.554883134      -0.0174161049       -0.554883134        -40.1048765        -101.974693
         999758000       -39.9182429        -102.238761      -0.0181824617       -0.566425051      -0.0181824617       -0.566425051        -39.9182429        -102.238761
         999763500        -39.727709        -102.514548      -0.0189997073       -0.578431051      -0.0189997073       -0.578431051         -39.727709        -102.514548
         999769000       -39.5331177        -102.802836      -0.0198723685       -0.590927657      -0.0198723685       -0.590927657        -39.5331177        -102.802836
         999774500       -39.3343035         -103.10448       -0.020805477       -0.603943222       -0.020805477       -0.603943222        -39.3343035         -103.10448
         999780000        -39.131091        -103.420412      -0.0218046363       -0.617508057      -0.0218046363       -0.617508057         -39.131091        -103.420412
         999785500       -38.9232948        -103.751651      -0.0228761005       -0.631654556      -0.0228761005       -0.631654556        -38.9232948        -103.751651
         999791000       -38.7107187        -104.099315      -0.0240268639       -0.646417325      -0.0240268639       -0.646417325        -38.7107187        -104.099315
         999796500       -38.4931551        -104.464626      -0.0252647662       -0.661833308      -0.0252647662       -0.661833308        -38.4931551        -104.464626
         999802000        -38.270384        -104.848933      -0.0265986146         -0.6779419      -0.0265986146         -0.6779419         -38.270384        -104.848933
         999807500       -38.0421726        -105.253719      -0.0280383254       -0.694785052      -0.0280383254       -0.694785052        -38.0421726        -105.253719
         999813000        -37.808274        -105.680621      -0.0295950912       -0.712407344      -0.0295950912       -0.712407344         -37.808274        -105.680621
         999818500        -37.568427        -106.131453      -0.0312815748       -0.730856018      -0.0312815748       -0.730856018         -37.568427        -106.131453
         999824000       -37.3223549        -106.608222      -0.0331121385       -0.750180959      -0.0331121385       -0.750180959        -37.3223549        -106.608222
         999829500       -37.0697651        -107.113161      -0.0351031131       -0.770434587      -0.0351031131       -0.770434587        -37.0697651        -107.113161
         999835000        -36.810348        -107.648758      -0.0372731153       -0.791671624      -0.0372731153       -0.791671624         -36.810348        -107.648758
         999840500       -36.5437769        -108.217789      -0.0396434223       -0.813948705      -0.0396434223       -0.813948705        -36.5437769        -108.217789
         999846000       -36.2697076        -108.823362      -0.0422384151       -0.837323742      -0.0422384151       -0.837323742        -36.2697076        -108.823362
         999851500       -35.9877782        -109.468965      -0.0450861031       -0.861854964      -0.0450861031       -0.861854964        -35.9877782        -109.468965
         999857000       -35.6976097         -110.15852      -0.0482187454       -0.887599516      -0.0482187454       -0.887599516        -35.6976097         -110.15852
         999862500       -35.3988068        -110.896453      -0.0516735863       -0.914611431      -0.0516735863       -0.914611431        -35.3988068        -110.896453
         999868000       -35.0909603        -111.687766      -0.0554937244       -0.942938753      -0.0554937244       -0.942938753        -35.0909603        -111.687766
         999873500       -34.7736496        -112.538133      -0.0597291372       -0.972619506      -0.0597291372       -0.972619506        -34.7736496        -112.538133
         999879000       -34.4464482        -113.453999      -0.0644378829        -1.00367605      -0.0644378829        -1.00367605        -34.4464482        -113.453999
         999884500       -34.1089301        -114.442708      -0.0696874979        -1.03610728      -0.0696874979        -1.03610728        -34.1089301        -114.442708
         999890000       -33.7606809        -115.512645      -0.0755566035        -1.06987779      -0.0755566035        -1.06987779        -33.7606809        -115.512645
         999895500       -33.4013119        -116.673402      -0.0821367166        -1.10490304      -0.0821367166        -1.10490304        -33.4013119        -116.673402
         999901000       -33.0304808        -117.935969      -0.0895342303        -1.14102892      -0.0895342303        -1.14102892        -33.0304808        -117.935969
         999906500       -32.6479205        -119.312951      -0.0978724712        -1.17800386      -0.0978724712        -1.17800386        -32.6479205        -119.312951
         999912000       -32.2534781        -120.818809       -0.107293644        -1.21544091       -0.107293644        -1.21544091        -32.2534781        -120.818809
         999917500       -31.8471693        -122.470122       -0.117960308        -1.25276662       -0.117960308        -1.25276662        -31.8471693        -122.470122
         999923000       -31.4292514         -124.28585        -0.13005576        -1.28915271        -0.13005576        -1.28915271        -31.4292514         -124.28585
         999928500       -31.0003211        -126.287585       -0.143782271        -1.32342647       -0.143782271        -1.32342647        -31.0003211        -126.287585
         999934000       -30.5614455        -128.499733       -0.159355489        -1.35395595       -0.159355489        -1.35395595        -30.5614455        -128.499733
         999939500       -30.1143317         -130.94956       -0.176992377        -1.37850862       -0.176992377        -1.37850862        -30.1143317         -130.94956
         999945000       -29.6615423        -133.666993        -0.19688888        -1.39408843        -0.19688888        -1.39408843        -29.6615423        -133.666993
         999950500       -29.2067597        -136.683976       -0.219182166        -1.39676944       -0.219182166        -1.39676944        -29.2067597        -136.683976
         999956000       -28.7550901        -140.033166       -0.243891501        -1.38156877       -0.243891501        -1.38156877        -28.7550901        -140.033166
         999961500       -28.3133802        -143.745636       -0.270832903         -1.3424406       -0.270832903         -1.3424406        -28.3133802        -143.745636
         999967000       -27.8904862        -147.847279       -0.299508327        -1.27252472       -0.299508327        -1.27252472        -27.8904862        -147.847279
         999972500       -27.4973889        -152.353701       -0.328983899        -1.16482723       -0.328983899        -1.16482723        -27.4973889        -152.353701
         999978000       -27.1469993         -157.26377       -0.357795779        -1.01349729       -0.357795779        -1.01349729        -27.1469993         -157.26377
         999983500        -26.853482        -162.552676       -0.383951263       -0.815706982       -0.383951263       -0.815706982         -26.853482        -162.552676
         999989000       -26.6309778        -168.166291       -0.405105582       -0.573776097       -0.405105582       -0.573776097        -26.6309778        -168.166291
         999994500       -26.4917906        -174.019384       -0.418956112       -0.296699761       -0.418956112       -0.296699761        -26.4917906        -174.019384
             1e+09       -26.4443859                180       -0.423785981     1.59742602e-09       -0.423785981     1.59742602e-09        -26.4443859                180
     1.0000055e+09         -26.49179         174.019417       -0.418956165        0.296698169       -0.418956165        0.296698169          -26.49179         174.019417
      1.000011e+09       -26.6309738         168.166418       -0.405105974        0.573770345       -0.405105974        0.573770345        -26.6309738         168.166418
     1.0000165e+09       -26.8534692         162.552947       -0.383952454        0.815696056       -0.383952454        0.815696056        -26.8534692         162.552947
      1.000022e+09       -27.1469707          157.26422        -0.35779823         1.01348194        -0.35779823         1.01348194        -27.1469707          157.26422
     1.0000275e+09       -27.4973374         152.354348       -0.328987946         1.16480953       -0.328987946         1.16480953        -27.4973374         152.354348
      1.000033e+09       -27.8904051         147.848131       -0.299514123         1.27250736       -0.299514123         1.27250736        -27.8904051         147.848131
     1.0000385e+09       -28.3132632         143.746688       -0.270840428         1.34242622       -0.270840428         1.34242622        -28.3132632         143.746688
      1.000044e+09       -28.7549324         140.034407       -0.243900609         1.38155959       -0.243900609         1.38155959        -28.7549324         140.034407
     1.0000495e+09       -29.2065574         136.685392        -0.21919264         1.39676706        -0.21919264         1.39676706        -29.2065574         136.685392
      1.000055e+09       -29.6612924         133.668567       -0.196900474         1.39409385       -0.196900474         1.39409385        -29.6612924         133.668567
     1.0000605e+09       -30.1140319         130.951276       -0.177004846         1.37852235       -0.177004846         1.37852235        -30.1140319         130.951276
      1.000066e+09       -30.5610944         128.501575       -0.159368611          1.3539781       -0.159368611          1.3539781        -30.5610944         128.501575
     1.0000715e+09       -30.9999176          126.28954       -0.143795854         1.32345688       -0.143795854         1.32345688        -30.9999176          126.28954
      1.000077e+09       -31.4287948         124.287904        -0.13006964         1.28919104        -0.13006964         1.28919104        -31.4287948         124.287904
     1.0000825e+09       -31.8466593         122.472263       -0.117974352         1.25281243       -0.117974352         1.25281243        -31.8466593         122.472263
