! File generated for n1 = 1, n2 = 5
! b1 = 100.000000
! b2 = 4.641589
! Q0 = 10000.000000
! f0 = 1000000000.000000
! n = 1001
! rel_span = 10.000000
# Hz S RI R 50
9.47179205583193659782e+08 9.82249265123913972708e-01 -1.82456823538759554948e-01 -3.82427989905985508262e-03 -3.93091310064929491674e-02 -3.82427989905985508262e-03 -3.93091310064929491674e-02 9.99176083872107434480e-01 -8.46889554753963401390e-03
9.47284847172027230263e+08 9.82176696686660410940e-01 -1.82825865287961353278e-01 -3.83991429492191223977e-03 -3.93886386411479855196e-02 -3.83991429492191223977e-03 -3.93886386411479855196e-02 9.99172715543627076862e-01 -8.48602494816195346283e-03
9.47390488760860919952e+08 9.82103692357384150391e-01 -1.83196344600317778673e-01 -3.85564260087342550523e-03 -3.94684559893959674426e-02 -3.85564260087342550523e-03 -3.94684559893959674426e-02 9.99169326982831340622e-01 -8.50322107455513467866e-03
9.47496130349694490433e+08 9.82030248665923699569e-01 -1.83568269806561462643e-01 -3.87146556453807529075e-03 -3.95485848460388339509e-02 -3.87146556453807529075e-03 -3.95485848460388339509e-02 9.99165918028649513438e-01 -8.52048431339753366276e-03
9.47601771938528060913e+08 9.81956362107698099706e-01 -1.83941649301157084118e-01 -3.88738394095490677124e-03 -3.96290270196091726218e-02 -3.88738394095490677124e-03 -3.96290270196091726218e-02 9.99162488518413383076e-01 -8.53781505432568352254e-03
9.47707413527361750603e+08 9.81882029143299028817e-01 -1.84316491542903138079e-01 -3.90339849266633544256e-03 -3.97097843324998728276e-02 -3.90339849266633544256e-03 -3.97097843324998728276e-02 9.99159038287838141557e-01 -8.55521368996223045833e-03
9.47813055116195321083e+08 9.81807246198076910559e-01 -1.84692805055537784265e-01 -3.91950998980725683063e-03 -3.97908586210946532691e-02 -3.91950998980725683063e-03 -3.97908586210946532691e-02 9.99155567171003289317e-01 -8.57268061594405710035e-03
9.47918696705028891563e+08 9.81732009661719806637e-01 -1.85070598428361487997e-01 -3.93571921019580418799e-03 -3.98722517359022116112e-02 -3.93571921019580418799e-03 -3.98722517359022116112e-02 9.99152075000332873245e-01 -8.59021623095117259350e-03
9.48024338293862581253e+08 9.81656315887828645472e-01 -1.85449880316854637252e-01 -3.95202693942486513179e-03 -3.99539655416892500184e-02 -3.95202693942486513179e-03 -3.99539655416892500184e-02 9.99148561606576279814e-01 -8.60782093673538410694e-03
9.48129979882696151733e+08 9.81580161193484679316e-01 -1.85830659443309981205e-01 -3.96843397095520897255e-03 -4.00360019176168036026e-02 -3.96843397095520897255e-03 -4.00360019176168036026e-02 9.99145026818787362899e-01 -8.62549513814966570258e-03
9.48235621471529841423e+08 9.81503541858811945353e-01 -1.86212944597470675401e-01 -3.98494110620982791571e-03 -4.01183627573775958286e-02 -3.98494110620982791571e-03 -4.01183627573775958286e-02 9.99141470464304792820e-01 -8.64323924317774577863e-03
9.48341263060363411903e+08 9.81426454126533620581e-01 -1.86596744637171657599e-01 -4.00154915466945440561e-03 -4.02010499693343376082e-02 -4.00154915466945440561e-03 -4.02010499693343376082e-02 9.99137892368731184156e-01 -8.66105366296390788428e-03
9.48446904649196982384e+08 9.81348894201521271263e-01 -1.86982068488996261424e-01 -4.01825893396972905897e-03 -4.02840654766611003246e-02 -4.01825893396972905897e-03 -4.02840654766611003246e-02 9.99134292355912556616e-01 -8.67893881184344552493e-03
9.48552546238030672073e+08 9.81270858250339328421e-01 -1.87368925148930637326e-01 -4.03507126999934091077e-03 -4.03674112174843557899e-02 -4.03507126999934091077e-03 -4.03674112174843557899e-02 9.99130670247916241600e-01 -8.69689510737304757870e-03
9.48658187826864242554e+08 9.81192342400781569722e-01 -1.87757323683031912553e-01 -4.05198699699979483085e-03 -4.04510891450268819658e-02 -4.05198699699979483085e-03 -4.04510891450268819658e-02 9.99127025865010565120e-01 -8.71492297036180821324e-03
9.48763829415697813034e+08 9.81113342741401939229e-01 -1.88147273228104122689e-01 -4.06900695766661268937e-03 -4.05351012277534519801e-02 -4.06900695766661268937e-03 -4.05351012277534519801e-02 9.99123359025642199249e-01 -8.73302282490260456393e-03
9.48869471004531502724e+08 9.81033855321038705810e-01 -1.88538782992378417536e-01 -4.08613200325178872740e-03 -4.06194494495173280546e-02 -4.08613200325178872740e-03 -4.06194494495173280546e-02 9.99119669546414512773e-01 -8.75119509840366349707e-03
9.48975112593365073204e+08 9.80953876148331960216e-01 -1.88931862256201260619e-01 -4.10336299366771770775e-03 -4.07041358097085387291e-02 -4.10336299366771770775e-03 -4.07041358097085387291e-02 9.99115957242064922639e-01 -8.76944022162051174674e-03
9.49080754182198643684e+08 9.80873401191233895702e-01 -1.89326520372736006870e-01 -4.12070079759282569681e-03 -4.07891623234050496039e-02 -4.12070079759282569681e-03 -4.07891623234050496039e-02 9.99112221925442356429e-01 -8.78775862868853493981e-03
9.49186395771032333374e+08 9.80792426376512094244e-01 -1.89722766768664730108e-01 -4.13814629257836744808e-03 -4.08745310215239479601e-02 -4.13814629257836744808e-03 -4.08745310215239479601e-02 9.99108463407484270746e-01 -8.80615075715555570279e-03
9.49292037359865903854e+08 9.80710947589247150624e-01 -1.90120610944902151962e-01 -4.15570036515690126311e-03 -4.09602439509752502822e-02 -4.15570036515690126311e-03 -4.09602439509752502822e-02 9.99104681497192781414e-01 -8.82461704801497034967e-03
9.49397678948699474335e+08 9.80628960672320526548e-01 -1.90520062477320756278e-01 -4.17336391095245954480e-03 -4.10463031748181522707e-02 -4.17336391095245954480e-03 -4.10463031748181522707e-02 9.99100876001611681865e-01 -8.84315794573940772150e-03
9.49503320537533164024e+08 9.80546461425897630804e-01 -1.90921131017477208047e-01 -4.19113783479196227999e-03 -4.11327107724175008996e-02 -4.19113783479196227999e-03 -4.11327107724175008996e-02 9.99097046725801907208e-01 -8.86177389831444180246e-03
9.49608962126366734505e+08 9.80463445606902572749e-01 -1.91323826293351012540e-01 -4.20902305081839907264e-03 -4.12194688396029518263e-02 -4.20902305081839907264e-03 -4.12194688396029518263e-02 9.99093193472817331369e-01 -8.88046535727288720297e-03
9.49714603715200424194e+08 9.80379908928484478103e-01 -1.91728158110094831779e-01 -4.22702048260577886024e-03 -4.13065794888306039856e-02 -4.22702048260577886024e-03 -4.13065794888306039856e-02 9.99089316043679898094e-01 -8.89923277772961159038e-03
9.49820245304033994675e+08 9.80295847059478253627e-01 -1.92134136350785716951e-01 -4.24513106327537026452e-03 -4.13940448493448631684e-02 -4.24513106327537026452e-03 -4.13940448493448631684e-02 9.99085414237354751954e-01 -8.91807661841641924338e-03
9.49925886892867565155e+08 9.80211255623855026720e-01 -1.92541770977193604786e-01 -4.26335573561399672204e-03 -4.14818670673439901520e-02 -4.26335573561399672204e-03 -4.14818670673439901520e-02 9.99081487850724703215e-01 -8.93699734171770482360e-03
9.50031528481701254845e+08 9.80126130200166922890e-01 -1.92951072030552062131e-01 -4.28169545219375061867e-03 -4.15700483061462039425e-02 -4.28169545219375061867e-03 -4.15700483061462039425e-02 9.99077536678564248618e-01 -8.95599541370625112924e-03
9.50137170070534825325e+08 9.80040466320982517345e-01 -1.93362049632339633165e-01 -4.30015117549348725029e-03 -4.16585907463579291354e-02 -4.30015117549348725029e-03 -4.16585907463579291354e-02 9.99073560513513592163e-01 -8.97507130417947267265e-03
9.50242811659368395805e+08 9.79954259472314737067e-01 -1.93774713985075258682e-01 -4.31872387802231111342e-03 -4.17474965860452490451e-02 -4.31872387802231111342e-03 -4.17474965860452490451e-02 9.99069559146051999754e-01 -8.99422548669635141261e-03
9.50348453248202085495e+08 9.79867505093040103148e-01 -1.94189075373114361511e-01 -4.33741454244446471983e-03 -4.18367680409053657731e-02 -4.33741454244446471983e-03 -4.18367680409053657731e-02 9.99065532364470931803e-01 -9.01345843861437595601e-03
9.50454094837035655975e+08 9.79780198574309535431e-01 -1.94605144163461585283e-01 -4.35622416170636066191e-03 -4.19264073444417309511e-02 -4.35622416170636066191e-03 -4.19264073444417309511e-02 9.99061479954846509699e-01 -9.03277064112728046708e-03
9.50559736425869226456e+08 9.79692335258951496613e-01 -1.95022930806588196129e-01 -4.37515373916523304249e-03 -4.20164167481401271131e-02 -4.37515373916523304249e-03 -4.20164167481401271131e-02 9.99057401701011982276e-01 -9.05216257930297092671e-03
9.50665378014702916145e+08 9.79603910440864256159e-01 -1.95442445837264083819e-01 -4.39420428871990526726e-03 -4.21067985216479132027e-02 -4.39420428871990526726e-03 -4.21067985216479132027e-02 9.99053297384529526148e-01 -9.07163474212215048542e-03
9.50771019603536486626e+08 9.79514919364402714130e-01 -1.95863699875391844563e-01 -4.41337683494310954735e-03 -4.21975549529537627413e-02 -4.41337683494310954735e-03 -4.21975549529537627413e-02 9.99049166784661490937e-01 -9.09118762251703155242e-03
9.50876661192370057106e+08 9.79425357223752457436e-01 -1.96286703626859793115e-01 -4.43267241321615695221e-03 -4.22886883485713779840e-02 -4.43267241321615695221e-03 -4.22886883485713779840e-02 9.99045009678341977555e-01 -9.11082171741093085893e-03
9.50982302781203746796e+08 9.79335219162297043738e-01 -1.96711467884399693329e-01 -4.45209206986534739015e-03 -4.23802010337243420524e-02 -4.45209206986534739015e-03 -4.23802010337243420524e-02 9.99040825840146640147e-01 -9.13053752775808136199e-03
9.51087944370037317276e+08 9.79244500271976070493e-01 -1.97138003528450844737e-01 -4.47163686230020104850e-03 -4.24720953525322339472e-02 -4.47163686230020104850e-03 -4.24720953525322339472e-02 9.99036615042263487219e-01 -9.15033555858373905123e-03
9.51193585958870887756e+08 9.79153195592632141775e-01 -1.97566321528046262568e-01 -4.49130785915427717392e-03 -4.25643736682015730310e-02 -4.49130785915427717392e-03 -4.25643736682015730310e-02 9.99032377054462572552e-01 -9.17021631902531150771e-03
9.51299227547704577446e+08 9.79061300111349841480e-01 -1.97996432941696498542e-01 -4.51110614042747257169e-03 -4.26570383632162430931e-02 -4.51110614042747257169e-03 -4.26570383632162430931e-02 9.99028111644064686914e-01 -9.19018032237339625723e-03
9.51404869136538147926e+08 9.78968808761783604311e-01 -1.98428348918291724834e-01 -4.53103279763079382081e-03 -4.27500918395318160736e-02 -4.53103279763079382081e-03 -4.27500918395318160736e-02 9.99023818575911159989e-01 -9.21022808611362923947e-03
9.51510510725371837616e+08 9.78875716423477038042e-01 -1.98862080698012783087e-01 -4.55108893393317733012e-03 -4.28435365187718464330e-02 -4.55108893393317733012e-03 -4.28435365187718464330e-02 9.99019497612331441871e-01 -9.23036013196899124411e-03
9.51616152314205408096e+08 9.78782017921171254571e-01 -1.99297639613249671919e-01 -4.57127566431033988820e-03 -4.29373748424257545286e-02 -4.57127566431033988820e-03 -4.29373748424257545286e-02 9.99015148513111128636e-01 -9.25057698594243180135e-03
9.51721793903038978577e+08 9.78687708024102431814e-01 -1.99735037089538214339e-01 -4.59159411569618099158e-03 -4.30316092720505957714e-02 -4.59159411569618099158e-03 -4.30316092720505957714e-02 9.99010771035459765876e-01 -9.27087917836034482166e-03
9.51827435491872668266e+08 9.78592781445290160747e-01 -2.00174284646500943996e-01 -4.61204542713611331806e-03 -4.31262422894738220447e-02 -4.61204542713611331806e-03 -4.31262422894738220447e-02 9.99006364933977542009e-01 -9.29126724391624372879e-03
9.51933077080706238747e+08 9.78497232840814579191e-01 -2.00615393898800703498e-01 -4.63263074994274721974e-03 -4.32212763969986868418e-02 -4.63263074994274721974e-03 -4.32212763969986868418e-02 9.99001929960621537496e-01 -9.31174172171502292916e-03
9.52038718669539809227e+08 9.78401056809082292354e-01 -2.01058376557109730332e-01 -4.65335124785410184090e-03 -4.33167141176130365832e-02 -4.65335124785410184090e-03 -4.33167141176130365832e-02 9.98997465864671974067e-01 -9.33230315531793572226e-03
9.52144360258373498917e+08 9.78304247890081968286e-01 -2.01503244429085820455e-01 -4.67420809719397423176e-03 -4.34125579951996284911e-02 -4.67420809719397423176e-03 -4.34125579951996284911e-02 9.98992972392697686779e-01 -9.35295209278790874718e-03
9.52250001847207069397e+08 9.78206800564628276007e-01 -2.01950009420362092127e-01 -4.69520248703480299474e-03 -4.35088105947493697379e-02 -4.69520248703480299474e-03 -4.35088105947493697379e-02 9.98988449288520818925e-01 -9.37368908673547919508e-03
9.52355643436040639877e+08 9.78108709253594721389e-01 -2.02398683535547935231e-01 -4.71633561936294840033e-03 -4.36054745025769435740e-02 -4.71633561936294840033e-03 -4.36054745025769435740e-02 9.98983896293181183879e-01 -9.39451469436525590795e-03
9.52461285024874329567e+08 9.78009968317134381621e-01 -2.02849278879244532270e-01 -4.73760870924658933356e-03 -4.37025523265396204087e-02 -4.73760870924658933356e-03 -4.37025523265396204087e-02 9.98979313144900182841e-01 -9.41542947752305701969e-03
9.52566926613707900047e+08 9.77910572053890314592e-01 -2.03301807657066263557e-01 -4.75902298500585109464e-03 -4.38000466962573109519e-02 -4.75902298500585109464e-03 -4.38000466962573109519e-02 9.98974699579044389530e-01 -9.43643400274331474453e-03
9.52672568202541470528e+08 9.77810514700191535375e-01 -2.03756282176684289098e-01 -4.78057968838598544570e-03 -4.38979602633373724996e-02 -4.78057968838598544570e-03 -4.38979602633373724996e-02 9.98970055328087913615e-01 -9.45752884129751926479e-03
9.52778209791375160217e+08 9.77709790429239222753e-01 -2.04212714848874349327e-01 -4.80228007473276503198e-03 -4.39962957016003936017e-02 -4.80228007473276503198e-03 -4.39962957016003936017e-02 9.98965380121574653138e-01 -9.47871456924285343826e-03
9.52883851380208730698e+08 9.77608393350279714085e-01 -2.04671118188578388120e-01 -4.82412541317060825780e-03 -4.40950557073088791893e-02 -4.82412541317060825780e-03 -4.40950557073088791893e-02 9.98960673686080102840e-01 -9.49999176747146414912e-03
9.52989492969042420387e+08 9.77506317507763400343e-01 -2.05131504815985604706e-01 -4.84611698678373819388e-03 -4.41942429994001684257e-02 -4.84611698678373819388e-03 -4.41942429994001684257e-02 9.98955935745172052265e-01 -9.52136102176064438862e-03
9.53095134557875990868e+08 9.77403556880493851189e-01 -2.05593887457617446879e-01 -4.86825609279964086062e-03 -4.42938603197201921646e-02 -4.86825609279964086062e-03 -4.42938603197201921646e-02 9.98951166019371283866e-01 -9.54282292282319227761e-03
9.53200776146709561348e+08 9.77300105380760619767e-01 -2.06058278947433864969e-01 -4.89054404277575183180e-03 -4.43939104332617962001e-02 -4.89054404277575183180e-03 -4.43939104332617962001e-02 9.98946364226111493956e-01 -9.56437806635875888139e-03
9.53306417735543251038e+08 9.77195956853461056291e-01 -2.06524692227947781475e-01 -4.91298216278872497409e-03 -4.44943961284048755678e-02 -4.91298216278872497409e-03 -4.44943961284048755678e-02 9.98941530079697992406e-01 -9.58602705310557939855e-03
9.53412059324376821518e+08 9.77091105075208354869e-01 -2.06993140351353854811e-01 -4.93557179362665542077e-03 -4.45953202171595133874e-02 -4.93557179362665542077e-03 -4.45953202171595133874e-02 9.98936663291266735420e-01 -9.60777048889286527933e-03
9.53517700913210391998e+08 9.76985543753423946178e-01 -2.07463636480674840090e-01 -4.95831429098443545594e-03 -4.46966855354129985467e-02 -4.95831429098443545594e-03 -4.46966855354129985467e-02 9.98931763568742248083e-01 -9.62960898469400819466e-03
9.53623342502044081688e+08 9.76879266525418343825e-01 -2.07936193890919551741e-01 -4.98121102566202213213e-03 -4.47984949431792789376e-02 -4.98121102566202213213e-03 -4.47984949431792789376e-02 9.98926830616794436679e-01 -9.65154315668033564724e-03
9.53728984090877652168e+08 9.76772266957456558600e-01 -2.08410825970250457306e-01 -5.00426338376553422188e-03 -4.49007513248505310544e-02 -5.00426338376553422188e-03 -4.49007513248505310544e-02 9.98921864136795956135e-01 -9.67357362627530373289e-03
9.53834625679711222649e+08 9.76664538543809190863e-01 -2.08887546221175585126e-01 -5.02747276691195132264e-03 -4.50034575894539060070e-02 -5.02747276691195132264e-03 -4.50034575894539060070e-02 9.98916863826777468027e-01 -9.69570102020981400281e-03
9.53940267268544912338e+08 9.76556074705787979795e-01 -2.09366368261747509694e-01 -5.05084059243662755051e-03 -4.51066166709099131138e-02 -5.05084059243662755051e-03 -4.51066166709099131138e-02 9.98911829381383342685e-01 -9.71792597057787900516e-03
9.54045908857378482819e+08 9.76446868790768807145e-01 -2.09847305826777102977e-01 -5.07436829360403095224e-03 -4.52102315282938288510e-02 -5.07436829360403095224e-03 -4.52102315282938288510e-02 9.98906760491826140047e-01 -9.74024911489294181743e-03
9.54151550446212053299e+08 9.76336914071195827169e-01 -2.10330372769069073868e-01 -5.09805731982209374420e-03 -4.53143051461019769066e-02 -5.09805731982209374420e-03 -4.53143051461019769066e-02 9.98901656845840424381e-01 -9.76267109614523988237e-03
9.54257192035045742989e+08 9.76226203743573495153e-01 -2.10815583060664918369e-01 -5.12190913685954193890e-03 -4.54188405345194376461e-02 -5.12190913685954193890e-03 -4.54188405345194376461e-02 9.98896518127635801854e-01 -9.78519256285949323715e-03
9.54362833623879313469e+08 9.76114730927440721331e-01 -2.11302950794103855392e-01 -5.14592522706673865390e-03 -4.55238407296917405032e-02 -5.14592522706673865390e-03 -4.55238407296917405032e-02 9.98891344017849736048e-01 -9.80781416915342540985e-03
9.54468475212712883949e+08 9.76002488664329037604e-01 -2.11792490183705051088e-01 -5.17010708960028483178e-03 -4.56293087940011291015e-02 -5.17010708960028483178e-03 -4.56293087940011291015e-02 9.98886134193498587130e-01 -9.83053657479729219026e-03
9.54574116801546573639e+08 9.75889469916705443175e-01 -2.12284215566857087376e-01 -5.19445624065070863523e-03 -4.57352478163443182391e-02 -5.19445624065070863523e-03 -4.57352478163443182391e-02 9.98880888327928984083e-01 -9.85336044527371571200e-03
9.54679758390380144119e+08 9.75775667566898152749e-01 -2.12778141405326470803e-01 -5.21897421367390444702e-03 -4.58416609124144766585e-02 -5.21897421367390444702e-03 -4.58416609124144766585e-02 9.98875606090767864664e-01 -9.87628645183843967281e-03
9.54785399979213833809e+08 9.75661074416004026055e-01 -2.13274282286589178526e-01 -5.24366255962655219286e-03 -4.59485512249880115321e-02 -5.24366255962655219286e-03 -4.59485512249880115321e-02 9.98870287147871960265e-01 -9.89931527158211671535e-03
9.54891041568047404289e+08 9.75545683182781120379e-01 -2.13772652925166062321e-01 -5.26852284720463488049e-03 -4.60559219242123521476e-02 -5.26852284720463488049e-03 -4.60559219242123521476e-02 9.98864931161275726446e-01 -9.92244758749230744421e-03
9.54996683156880974770e+08 9.75429486502521703173e-01 -2.14273268163988034329e-01 -5.29355666308637794887e-03 -4.61637762079000132931e-02 -5.29355666308637794887e-03 -4.61637762079000132931e-02 9.98859537789139717567e-01 -9.94568408851683079253e-03
9.55102324745714664459e+08 9.75312476925907945180e-01 -2.14776142975769801513e-01 -5.31876561217864245179e-03 -4.62721173018246015318e-02 -5.31876561217864245179e-03 -4.62721173018246015318e-02 9.98854106685697407109e-01 -9.96902546962754460003e-03
9.55207966334548234940e+08 9.75194646917849627954e-01 -2.15281292464404250264e-01 -5.34415131786739570907e-03 -4.63809484600211929806e-02 -5.34415131786739570907e-03 -4.63809484600211929806e-02 9.98848637501200675715e-01 -9.99247243188505253342e-03
9.55313607923381805420e+08 9.75075988856303421670e-01 -2.15788731866373040269e-01 -5.36971542227212151471e-03 -4.64902729650902568626e-02 -5.36971542227212151471e-03 -4.64902729650902568626e-02 9.98843129881865743336e-01 -1.00160256825041881629e-02
9.55419249512215495110e+08 9.74956495031071623814e-01 -2.16298476552178903232e-01 -5.39545958650450643845e-03 -4.66000941285062073027e-02 -5.39545958650450643845e-03 -4.66000941285062073027e-02 9.98837583469816991943e-01 -1.00396859349204878309e-02
