! File generated for n1 = 2, n2 = 11
! b1 = 46.415888
! b2 = 0.021544
! Q0 = 10000.000000
! f0 = 1000000000.000000
! n = 1001
! rel_span = 10.000000
# Hz S RI R 50
9.76281283658485889435e+08 9.81082265741024195371e-01 -1.91475370730948640796e-01 -4.07570229443420916759e-04 -4.12521180989471221434e-03 -4.07570229443420916759e-04 -4.12521180989471221434e-03 9.99991219165590639051e-01 -8.88749942696637695253e-05
9.76328721091168880463e+08 9.81006178950279306150e-01 -1.91856273335029553495e-01 -4.09209469657760116067e-04 -4.13341810773226563114e-03 -4.09209469657760116067e-04 -4.13341810773226563114e-03 9.99991183849230802494e-01 -8.90517935970433710882e-05
9.76376158523851990700e+08 9.80929637536479104298e-01 -1.92238659971154302042e-01 -4.10858504428913680426e-04 -4.14165637807098301060e-03 -4.10858504428913680426e-04 -4.14165637807098301060e-03 9.99991148321853651204e-01 -8.92292817510793043537e-05
9.76423595956534981728e+08 9.80852637890214595906e-01 -1.92622539235183937167e-01 -4.12517411519236487649e-04 -4.14992680610307747985e-03 -4.12517411519236487649e-04 -4.14992680610307747985e-03 9.99991112581783858637e-01 -8.94074627216168615809e-05
9.76471033389217972755e+08 9.80775176366338596878e-01 -1.93007919788709264575e-01 -4.14186269461049917130e-04 -4.15822957843686377699e-03 -4.14186269461049917130e-04 -4.15822957843686377699e-03 9.99991076627329333881e-01 -8.95863405290103233768e-05
9.76518470821901082993e+08 9.80697249283541738762e-01 -1.93394810359667990163e-01 -4.15865157565755382257e-04 -4.16656488311006097808e-03 -4.15865157565755382257e-04 -4.16656488311006097808e-03 9.99991040456781665746e-01 -8.97659192244095268829e-05
9.76565908254584074020e+08 9.80618852923924144704e-01 -1.93783219742970025390e-01 -4.17554155933077967081e-04 -4.17493290960325828809e-03 -4.17554155933077967081e-04 -4.17493290960325828809e-03 9.99991004068414901518e-01 -8.99462028900500389344e-05
9.76613345687267065048e+08 9.80539983532558001578e-01 -1.94173156801141388872e-01 -4.19253345460488468458e-04 -4.18333384885379196139e-03 -4.19253345460488468458e-04 -4.18333384885379196139e-03 9.99990967460486324114e-01 -9.01271956395520434935e-05
9.76660783119950056076e+08 9.80460637317047023487e-01 -1.94564630464958587819e-01 -4.20962807852684039317e-04 -4.19176789326940885116e-03 -4.20962807852684039317e-04 -4.19176789326940885116e-03 9.99990930631235452886e-01 -9.03089016182147838550e-05
9.76708220552633166313e+08 9.80380810447078032688e-01 -1.94957649734104732087e-01 -4.22682625631262633061e-04 -4.20023523674240353842e-03 -4.22682625631262633061e-04 -4.20023523674240353842e-03 9.99990893578884709747e-01 -9.04913250033211285887e-05
9.76755657985316157341e+08 9.80300499053968321661e-01 -1.95352223677817710135e-01 -4.24412882144466186395e-04 -4.20873607466358285595e-03 -4.24412882144466186395e-04 -4.20873607466358285595e-03 9.99990856301638086912e-01 -9.06744700044383969851e-05
9.76803095417999148369e+08 9.80219699230203689311e-01 -1.95748361435562956423e-01 -4.26153661577135492618e-04 -4.21727060393676037031e-03 -4.26153661577135492618e-04 -4.21727060393676037031e-03 9.99990818797682146091e-01 -9.08583408637306770431e-05
9.76850532850682258606e+08 9.80138407028972591384e-01 -1.96146072217701583629e-01 -4.27905048960748992173e-04 -4.22583902299315198464e-03 -4.27905048960748992173e-04 -4.22583902299315198464e-03 9.99990781065184797249e-01 -9.10429418562688801868e-05
9.76897970283365249634e+08 9.80056618463693074439e-01 -1.96545365306167285624e-01 -4.29667130183609014688e-04 -4.23444153180595715680e-03 -4.29667130183609014688e-04 -4.23444153180595715680e-03 9.99990743102295631672e-01 -9.12282772903449972650e-05
9.76945407716048240662e+08 9.79974329507532049277e-01 -1.96946250055159893799e-01 -4.31439992001209191193e-04 -4.24307833190530094003e-03 -4.31439992001209191193e-04 -4.24307833190530094003e-03 9.99990704907145699920e-01 -9.14143515077939710712e-05
9.76992845148731350899e+08 9.79891536092919013257e-01 -1.97348735891834214939e-01 -4.33223722046692614075e-04 -4.25174962639307801177e-03 -4.33223722046692614075e-04 -4.25174962639307801177e-03 9.99990666477846734672e-01 -9.16011688843134546691e-05
9.77040282581414341927e+08 9.79808234111053222293e-01 -1.97752832317005133866e-01 -4.35018408841494257176e-04 -4.26045561995813844292e-03 -4.35018408841494257176e-04 -4.26045561995813844292e-03 9.99990627812491927884e-01 -9.17887338297910642662e-05
9.77087720014097332954e+08 9.79724419411402203117e-01 -1.98158548905858128419e-01 -4.36824141806121685888e-04 -4.26919651889160183672e-03 -4.36824141806121685888e-04 -4.26919651889160183672e-03 9.99990588909154487496e-01 -9.19770507886342206195e-05
9.77135157446780443192e+08 9.79640087801194270334e-01 -1.98565895308671164221e-01 -4.38641011271103113851e-04 -4.27797253110240305318e-03 -4.38641011271103113851e-04 -4.27797253110240305318e-03 9.99990549765888414591e-01 -9.21661242401051539544e-05
9.77182594879463434219e+08 9.79555235044905492359e-01 -1.98974881251533314286e-01 -4.40469108488038187804e-04 -4.28678386613277895290e-03 -4.40469108488038187804e-04 -4.28678386613277895290e-03 9.99990510380727837259e-01 -9.23559586986544994204e-05
9.77230032312146425247e+08 9.79469856863734777974e-01 -1.99385516537091911360e-01 -4.42308525640897867888e-04 -4.29563073517436489618e-03 -4.42308525640897867888e-04 -4.29563073517436489618e-03 9.99990470751686677531e-01 -9.25465587142681333664e-05
9.77277469744829535484e+08 9.79383948935076520392e-01 -1.99797811045289597232e-01 -4.44159355857399009478e-04 -4.30451335108407179969e-03 -4.44159355857399009478e-04 -4.30451335108407179969e-03 9.99990430876758429335e-01 -9.27379288728091442581e-05
9.77324907177512526512e+08 9.79297506891983915445e-01 -2.00211774734112807339e-01 -4.46021693220557242064e-04 -4.31343192840021472795e-03 -4.46021693220557242064e-04 -4.31343192840021472795e-03 9.99990390753916158495e-01 -9.29300737963654550000e-05
9.77372344610195517540e+08 9.79210526322622509809e-01 -2.00627417640363903129e-01 -4.47895632780468452155e-04 -4.32238668335914542201e-03 -4.47895632780468452155e-04 -4.32238668335914542201e-03 9.99990350381112280687e-01 -9.31229981436079891225e-05
9.77419782042878508568e+08 9.79123002769719086302e-01 -2.01044749880421091959e-01 -4.49781270566168057696e-04 -4.33137783391162461966e-03 -4.49781270566168057696e-04 -4.33137783391162461966e-03 9.99990309756277673259e-01 -9.33167066101435921420e-05
9.77467219475561618805e+08 9.79034931730000446137e-01 -2.01463781651025103381e-01 -4.51678703597737372152e-04 -4.34040559973977203845e-03 -4.51678703597737372152e-04 -4.34040559973977203845e-03 9.99990268877322230345e-01 -9.35112039288800553274e-05
9.77514656908244609833e+08 9.78946308653626751095e-01 -2.01884523230057483234e-01 -4.53588029898506950484e-04 -4.34947020227383334551e-03 -4.53588029898506950484e-04 -4.34947020227383334551e-03 9.99990227742134085709e-01 -9.37064948703873854159e-05
9.77562094340927600861e+08 9.78857128943612542216e-01 -2.02306984977346893118e-01 -4.55509348507521173634e-04 -4.35857186470955167840e-03 -4.55509348507521173634e-04 -4.35857186470955167840e-03 9.99990186348579390696e-01 -9.39025842432720983088e-05
9.77609531773610711098e+08 9.78767387955243428621e-01 -2.02731177335471607348e-01 -4.57442759492122366302e-04 -4.36771081202545416455e-03 -4.57442759492122366302e-04 -4.36771081202545416455e-03 9.99990144694502425260e-01 -9.40994768945496425170e-05
9.77656969206293702126e+08 9.78677080995482673309e-01 -2.03157110830572640303e-01 -4.59388363960722481694e-04 -4.37688727100037609785e-03 -4.59388363960722481694e-04 -4.37688727100037609785e-03 9.99990102777724820804e-01 -9.42971777100219048055e-05
9.77704406638976693153e+08 9.78586203322368675117e-01 -2.03584796073181722997e-01 -4.61346264075784579396e-04 -4.38610147023129389593e-03 -4.61346264075784579396e-04 -4.38610147023129389593e-03 9.99990060596045560182e-01 -9.44956916146614378906e-05
9.77751844071659803391e+08 9.78494750144403901970e-01 -2.04014243759059299421e-01 -4.63316563066993713366e-04 -4.39535364015137923477e-03 -4.63316563066993713366e-04 -4.39535364015137923477e-03 9.99990018147240644630e-01 -9.46950235730004586266e-05
9.77799281504342794418e+08 9.78402716619937717901e-01 -2.04445464670027388099e-01 -4.65299365244551418972e-04 -4.40464401304794736514e-03 -4.65299365244551418972e-04 -4.40464401304794736514e-03 9.99989975429062649681e-01 -9.48951785895174338434e-05
9.77846718937025785446e+08 9.78310097856534555127e-01 -2.04878469674839441828e-01 -4.67294776012788359160e-04 -4.41397282308119212613e-03 -4.67294776012788359160e-04 -4.41397282308119212613e-03 9.99989932439240836182e-01 -9.50961617090408507878e-05
9.77894156369708895683e+08 9.78216888910338866481e-01 -2.05313269730031555671e-01 -4.69302901883842348008e-04 -4.42334030630252891120e-03 -4.69302901883842348008e-04 -4.42334030630252891120e-03 9.99989889175480484163e-01 -9.52979780171442461848e-05
9.77941593802391886711e+08 9.78123084785426533116e-01 -2.05749875880804261596e-01 -4.71323850491632578320e-04 -4.43274670067358902287e-03 -4.71323850491632578320e-04 -4.43274670067358902287e-03 9.99989845635462559770e-01 -9.55006326405555738737e-05
9.77989031235074877739e+08 9.78028680433149721907e-01 -2.06188299261903379422e-01 -4.73357730605984553321e-04 -4.44219224608519928227e-03 -4.73357730605984553321e-04 -4.44219224608519928227e-03 9.99989801816843826288e-01 -9.57041307475660032360e-05
9.78036468667757987976e+08 9.77933670751468309135e-01 -2.06628551098522739160e-01 -4.75404652147017666320e-04 -4.45167718437682914667e-03 -4.75404652147017666320e-04 -4.45167718437682914667e-03 9.99989757717256066982e-01 -9.59084775484490039939e-05
9.78083906100440979004e+08 9.77838050584277751476e-01 -2.07070642707195301524e-01 -4.77464726199638598517e-04 -4.46120175935579149629e-03 -4.77464726199638598517e-04 -4.46120175935579149629e-03 9.99989713334306085102e-01 -9.61136782958738609180e-05
9.78131343533123970032e+08 9.77741814720719082388e-01 -2.07514585496726966518e-01 -4.79538065028399279784e-04 -4.47076621681735588559e-03 -4.79538065028399279784e-04 -4.47076621681735588559e-03 9.99989668665575148765e-01 -9.63197382853391649614e-05
9.78178780965806961060e+08 9.77644957894485688854e-01 -2.07960390969111119652e-01 -4.81624782092433291469e-04 -4.48037080456446107357e-03 -4.81624782092433291469e-04 -4.48037080456446107357e-03 9.99989623708618768916e-01 -9.65266628555973326201e-05
9.78226218398490071297e+08 9.77547474783116432384e-01 -2.08408070720472071713e-01 -4.83724992060696225293e-04 -4.49001577242802950296e-03 -4.83724992060696225293e-04 -4.49001577242802950296e-03 9.99989578460966699325e-01 -9.67344573890924880853e-05
9.78273655831173062325e+08 9.77449360007277667783e-01 -2.08857636442015576206e-01 -4.85838810827413721156e-04 -4.49970137228745525187e-03 -4.85838810827413721156e-04 -4.49970137228745525187e-03 9.99989532920121937387e-01 -9.69431273124016251079e-05
9.78321093263856053352e+08 9.77350608130037712407e-01 -2.09309099920984592602e-01 -4.87966355527729486047e-04 -4.50942785809118826257e-03 -4.87966355527729486047e-04 -4.50942785809118826257e-03 9.99989487083560835146e-01 -9.71526780966782760795e-05
9.78368530696539163589e+08 9.77251213656126105356e-01 -2.09762473041640584714e-01 -4.90107744553654558518e-04 -4.51919548587788062061e-03 -4.90107744553654558518e-04 -4.51919548587788062061e-03 9.99989440948732766223e-01 -9.73631152581079853652e-05
9.78415968129222154617e+08 9.77151171031187537608e-01 -2.10217767786234799310e-01 -4.92263097570149604776e-04 -4.52900451379731078944e-03 -4.92263097570149604776e-04 -4.52900451379731078944e-03 9.99989394513059681735e-01 -9.75744443583590934620e-05
9.78463405561905145645e+08 9.77050474641018018573e-01 -2.10674996236017042506e-01 -4.94432535531571831951e-04 -4.53885520213211449136e-03 -4.94432535531571831951e-04 -4.53885520213211449136e-03 9.99989347773935666197e-01 -9.77866710050510310219e-05
9.78510842994588255882e+08 9.76949118810795380519e-01 -2.11134170572233575980e-01 -4.96616180698258836111e-04 -4.54874781331928747241e-03 -4.96616180698258836111e-04 -4.54874781331928747241e-03 9.99989300728726715484e-01 -9.79998008522174493626e-05
9.78558280427271246910e+08 9.76847097804294905998e-01 -2.11595303077150409532e-01 -4.98814156653424375237e-04 -4.55868261197222863351e-03 -4.98814156653424375237e-04 -4.55868261197222863351e-03 9.99989253374770292737e-01 -9.82138396007812365445e-05
9.78605717859954237938e+08 9.76744405823094075103e-01 -2.12058406135086086053e-01 -5.01026588320296461382e-04 -4.56865986490299306327e-03 -5.01026588320296461382e-04 -4.56865986490299306327e-03 9.99989205709374995301e-01 -9.84287929990338567032e-05
9.78653155292637348175e+08 9.76641037005764878209e-01 -2.12523492233456900991e-01 -5.03253601979511758224e-04 -4.57867984114480961605e-03 -5.03253601979511758224e-04 -4.57867984114480961605e-03 9.99989157729820110632e-01 -9.86446668431205034170e-05
9.78700592725320339203e+08 9.76536985427056469788e-01 -2.12990573963825646775e-01 -5.05495325286730830608e-04 -4.58874281197467568522e-03 -5.05495325286730830608e-04 -4.58874281197467568522e-03 9.99989109433355505274e-01 -9.88614669775269200346e-05
9.78748030158003330231e+08 9.76432245097060280692e-01 -2.13459664022984552112e-01 -5.07751887290622456496e-04 -4.59884905093668576448e-03 -5.07751887290622456496e-04 -4.59884905093668576448e-03 9.99989060817200958731e-01 -9.90791992955819951451e-05
9.78795467590686321259e+08 9.76326809960367802965e-01 -2.13930775214027701914e-01 -5.10023418451007533488e-04 -4.60899883386514230138e-03 -5.10023418451007533488e-04 -4.60899883386514230138e-03 9.99989011878545608347e-01 -9.92978697399555740050e-05
9.78842905023369431496e+08 9.76220673895212609494e-01 -2.14403920447450629938e-01 -5.12310050657346243742e-04 -4.61919243890823814219e-03 -5.12310050657346243742e-04 -4.61919243890823814219e-03 9.99988962614548171359e-01 -9.95174843031688738165e-05
9.78890342456052422523e+08 9.76113830712600050177e-01 -2.14879112742258598923e-01 -5.14611917247484993744e-04 -4.62943014655193933737e-03 -5.14611917247484993744e-04 -4.62943014655193933737e-03 9.99988913022335834668e-01 -9.97380490281088292375e-05
9.78937779888735413551e+08 9.76006274155423736438e-01 -2.15356365227089868730e-01 -5.16929153026696739173e-04 -4.63971223964418279934e-03 -5.16929153026696739173e-04 -4.63971223964418279934e-03 9.99988863099004254842e-01 -9.99595700085494987593e-05
9.78985217321418523788e+08 9.75897997897567481829e-01 -2.15835691141354285572e-01 -5.19261894287019790638e-04 -4.65003900341940789448e-03 -5.19261894287019790638e-04 -4.65003900341940789448e-03 9.99988812841617336069e-01 -1.00182053389680599713e-04
9.79032654754101514816e+08 9.75788995542996695498e-01 -2.16317103836375895787e-01 -5.21610278826845010121e-04 -4.66041072552317130195e-03 -5.21610278826845010121e-04 -4.66041072552317130195e-03 9.99988762247206230960e-01 -1.00405505368637764448e-04
9.79080092186784505844e+08 9.75679260624831123927e-01 -2.16800616776565147070e-01 -5.23974445970881393987e-04 -4.67082769603740198538e-03 -5.23974445970881393987e-04 -4.67082769603740198538e-03 9.99988711312769118500e-01 -1.00629932195046742057e-04
9.79127529619467616081e+08 9.75568786604406712470e-01 -2.17286243540595364054e-01 -5.26354536590377094021e-04 -4.68129020750574810494e-03 -5.26354536590377094021e-04 -4.68129020750574810494e-03 9.99988660035271093030e-01 -1.00855340171569348383e-04
9.79174967052150607109e+08 9.75457566870322589914e-01 -2.17773997822592324525e-01 -5.28750693123648677144e-04 -4.69179855495920668934e-03 -5.28750693123648677144e-04 -4.69179855495920668934e-03 9.99988608411643609131e-01 -1.01081735654455745054e-04
9.79222404484833598137e+08 9.75345594737471732749e-01 -2.18263893433344569051e-01 -5.31163059596955052996e-04 -4.70235303594219652967e-03 -5.31163059596955052996e-04 -4.70235303594219652967e-03 9.99988556438783371405e-01 -1.01309125054106096862e-04
9.79269841917516708374e+08 9.75232863446057751666e-01 -2.18755944301528837403e-01 -5.33591781645697746383e-04 -4.71295395053896067072e-03 -5.33591781645697746383e-04 -4.71295395053896067072e-03 9.99988504113553111630e-01 -1.01537514835639452646e-04
9.79317279350199699402e+08 9.75119366160597911275e-01 -2.19250164474938419312e-01 -5.36037006535889292910e-04 -4.72360160140003308704e-03 -5.36037006535889292910e-04 -4.72360160140003308704e-03 9.99988451432779812400e-01 -1.01766911519463873004e-04
9.79364716782882690430e+08 9.75005095968906498882e-01 -2.19746568121746782554e-01 -5.38498883186054773387e-04 -4.73429629376945562691e-03 -5.38498883186054773387e-04 -4.73429629376945562691e-03 9.99988398393255151220e-01 -1.01997321681862902353e-04
9.79412154215565800667e+08 9.74890045881066757971e-01 -2.20245169531769202642e-01 -5.40977562189387376802e-04 -4.74503833551196633339e-03 -5.40977562189387376802e-04 -4.74503833551196633339e-03 9.99988344991734945388e-01 -1.02228751955581268493e-04
9.79459591648248791695e+08 9.74774208828384391978e-01 -2.20745983117747207602e-01 -5.43473195836287011930e-04 -4.75582803714066915113e-03 -5.43473195836287011930e-04 -4.75582803714066915113e-03 9.99988291224937930757e-01 -1.02461209030420976967e-04
9.79507029080931782722e+08 9.74657577662324303702e-01 -2.21249023416653728402e-01 -5.45985938137273402355e-04 -4.76666571184515205917e-03 -5.45985938137273402355e-04 -4.76666571184515205917e-03 9.99988237089546094793e-01 -1.02694699653847163227e-04
9.79554466513614773750e+08 9.74540145153433456926e-01 -2.21754305091001024941e-01 -5.48515944846192675041e-04 -4.77755167551966418438e-03 -5.48515944846192675041e-04 -4.77755167551966418438e-03 9.99988182582203899429e-01 -1.02929230631595110333e-04
9.79601903946297883987e+08 9.74421903990242532778e-01 -2.22261842930182362821e-01 -5.51063373483876386451e-04 -4.78848624679202496818e-03 -5.51063373483876386451e-04 -4.78848624679202496818e-03 9.99988127699517614921e-01 -1.03164808828293109544e-04
9.79649341378980875015e+08 9.74302846778155040575e-01 -2.22771651851810775780e-01 -5.53628383362074201306e-04 -4.79946974705246481169e-03 -5.53628383362074201306e-04 -4.79946974705246481169e-03 9.99988072438054986790e-01 -1.03401441168083775926e-04
9.79696778811663866043e+08 9.74182966038314224200e-01 -2.23283746903095769998e-01 -5.56211135607871101291e-04 -4.81050250048328537772e-03 -5.56211135607871101291e-04 -4.81050250048328537772e-03 9.99988016794344680704e-01 -1.03639134635263050008e-04
9.79744216244346976280e+08 9.74062254206455424566e-01 -2.23798143262221110872e-01 -5.58811793188409905095e-04 -4.82158483408854244417e-03 -5.58811793188409905095e-04 -4.82158483408854244417e-03 9.99987960764875505326e-01 -1.03877896274919782199e-04
9.79791653677029967308e+08 9.73940703631739790325e-01 -2.24314856239742149713e-01 -5.61430520936017111652e-04 -4.83271707772415202997e-03 -5.61430520936017111652e-04 -4.83271707772415202997e-03 9.99987904346096523334e-01 -1.04117733193584221206e-04
9.79839091109712958336e+08 9.73818306575566783323e-01 -2.24833901280011960733e-01 -5.64067485573785084088e-04 -4.84389956412861494989e-03 -5.64067485573785084088e-04 -4.84389956412861494989e-03 9.99987847534415608131e-01 -1.04358652559890068543e-04
9.79886528542396068573e+08 9.73695055210372029109e-01 -2.25355293962609282143e-01 -5.66722855741480036409e-04 -4.85513262895377953332e-03 -5.66722855741480036409e-04 -4.85513262895377953332e-03 9.99987790326199554869e-01 -1.04600661605237183556e-04
9.79933965975079059601e+08 9.73570941618402074802e-01 -2.25879050003796794099e-01 -5.69396802021925442852e-04 -4.86641661079626180325e-03 -5.69396802021925442852e-04 -4.86641661079626180325e-03 9.99987732717773303293e-01 -1.04843767624468505047e-04
9.79981403407762050629e+08 9.73445957790471383397e-01 -2.26405185257994689962e-01 -5.72089496967792890403e-04 -4.87775185122918744640e-03 -5.72089496967792890403e-04 -4.87775185122918744640e-03 9.99987674705419271604e-01 -1.05087977976553993112e-04
