! File generated for n1 = 2, n2 = 13
! b1 = 46.415888
! b2 = 0.004642
! Q0 = 10000.000000
! f0 = 1000000000.000000
! n = 1001
! rel_span = 10.000000
# Hz S RI R 50
9.76289735037519335747e+08 9.81075358443544542908e-01 -1.91544443749835480162e-01 -1.89246415564553943168e-04 -1.91544443749835403834e-03 -1.89246415564553943168e-04 -1.91544443749835403834e-03 9.99998107535844393823e-01 -1.91544443749835333361e-05
9.76337155567444324493e+08 9.80999244219866506356e-01 -1.91925481987290730279e-01 -1.90007557801334864885e-04 -1.91925481987290677370e-03 -1.90007557801334864885e-04 -1.91925481987290677370e-03 9.99998099924422012563e-01 -1.91925481987290617739e-05
9.76384576097369313240e+08 9.80922675209907390936e-01 -1.92308004785199382347e-01 -1.90773247900925791397e-04 -1.92308004785199317295e-03 -1.90773247900925791397e-04 -1.92308004785199317295e-03 9.99998092267521010434e-01 -1.92308004785199257664e-05
9.76431996627294182777e+08 9.80845647802965570072e-01 -1.92692020742481789908e-01 -1.91543521970344760063e-04 -1.92692020742481727458e-03 -1.91543521970344760063e-04 -1.92692020742481727458e-03 9.99998084564780342909e-01 -1.92692020742481677313e-05
9.76479417157219171524e+08 9.80768158352587682280e-01 -1.93077538523810543492e-01 -1.92318416474122709904e-04 -1.93077538523810468031e-03 -1.92318416474122709904e-04 -1.93077538523810468031e-03 9.99998076815835301723e-01 -1.93077538523810385361e-05
9.76526837687144160271e+08 9.80690203176146302333e-01 -1.93464566860229003620e-01 -1.93097968238537318194e-04 -1.93464566860228944639e-03 -1.93097968238537318194e-04 -1.93464566860228944639e-03 9.99998069020317625899e-01 -1.93464566860228885008e-05
9.76574258217069149017e+08 9.80611778554408841657e-01 -1.93853114549780103371e-01 -1.93882214455911645228e-04 -1.93853114549780028777e-03 -1.93882214455911645228e-04 -1.93853114549780028777e-03 9.99998061177855390724e-01 -1.93853114549779969146e-05
9.76621678746994018555e+08 9.80532880731102673977e-01 -1.94243190458142395149e-01 -1.94671192688973060739e-04 -1.94243190458142311015e-03 -1.94671192688973060739e-04 -1.94243190458142311015e-03 9.99998053288073118772e-01 -1.94243190458142248674e-05
9.76669099276919007301e+08 9.80453505912472822459e-01 -1.94634803519272814309e-01 -1.95464940875271259331e-04 -1.94634803519272750992e-03 -1.95464940875271259331e-04 -1.94634803519272750992e-03 9.99998045350591224789e-01 -1.94634803519272677808e-05
9.76716519806843996048e+08 9.80373650266834650857e-01 -1.95027962736054605308e-01 -1.96263497331653657312e-04 -1.95027962736054531583e-03 -1.96263497331653657312e-04 -1.95027962736054531583e-03 9.99998037365026681833e-01 -1.95027962736054466530e-05
9.76763940336768984795e+08 9.80293309924118894116e-01 -1.95422677180956100296e-01 -1.97066900758810666355e-04 -1.95422677180956015294e-03 -1.97066900758810666355e-04 -1.95422677180956015294e-03 9.99998029330992466157e-01 -1.95422677180955970571e-05
9.76811360866693854332e+08 9.80212480975412137063e-01 -1.95818955996694327171e-01 -1.97875190245878185931e-04 -1.95818955996694254312e-03 -1.97875190245878185931e-04 -1.95818955996694254312e-03 9.99998021248097557212e-01 -1.95818955996694189260e-05
9.76858781396618843079e+08 9.80131159472489077444e-01 -1.96216808396908082290e-01 -1.98688405275109078105e-04 -1.96216808396908019840e-03 -1.98688405275109078105e-04 -1.96216808396908019840e-03 9.99998013115947270713e-01 -1.96216808396907953433e-05
9.76906201926543831825e+08 9.80049341427339237853e-01 -1.96616243666837359205e-01 -1.99506585726607227902e-04 -1.96616243666837293286e-03 -1.99506585726607227902e-04 -1.96616243666837293286e-03 9.99998004934142703526e-01 -1.96616243666837211971e-05
9.76953622456468820572e+08 9.79967022811687682449e-01 -1.97017271164007995443e-01 -2.00329771883122861095e-04 -1.97017271164007896564e-03 -2.00329771883122861095e-04 -1.97017271164007896564e-03 9.99997996702281177761e-01 -1.97017271164007840999e-05
9.77001042986393809319e+08 9.79884199556506851891e-01 -1.97419900318931890171e-01 -2.01158004434931264245e-04 -1.97419900318931843333e-03 -2.01158004434931264245e-04 -1.97419900318931843333e-03 9.99997988419955685657e-01 -1.97419900318931767439e-05
9.77048463516318678856e+08 9.79800867551524290455e-01 -1.97824140635804085475e-01 -2.01991324484757041238e-04 -1.97824140635804003943e-03 -2.01991324484757041238e-04 -1.97824140635804003943e-03 9.99997980086755111628e-01 -1.97824140635803975483e-05
9.77095884046243667603e+08 9.79717022644720381130e-01 -1.98230001693221163928e-01 -2.02829773552796110633e-04 -1.98230001693221061579e-03 -2.02829773552796110633e-04 -1.98230001693221061579e-03 9.99997971702264454308e-01 -1.98230001693221027698e-05
9.77143304576168656349e+08 9.79632660641822861081e-01 -1.98637493144890042718e-01 -2.03673393581771286194e-04 -1.98637493144889973329e-03 -2.03673393581771286194e-04 -1.98637493144889973329e-03 9.99997963266064160415e-01 -1.98637493144889896079e-05
9.77190725106093645096e+08 9.79547777305789235669e-01 -1.99046624720367909545e-01 -2.04522226942107065431e-04 -1.99046624720367873115e-03 -2.04522226942107065431e-04 -1.99046624720367873115e-03 9.99997954777730568843e-01 -1.99046624720367794511e-05
9.77238145636018514633e+08 9.79462368356287194082e-01 -1.99457406225786393339e-01 -2.05376316437127945337e-04 -1.99457406225786318746e-03 -2.05376316437127945337e-04 -1.99457406225786318746e-03 9.99997946236835577594e-01 -1.99457406225786256404e-05
9.77285566165943503380e+08 9.79376429469162479435e-01 -1.99869847544605211409e-01 -2.06235705308374590904e-04 -1.99869847544605159367e-03 -2.06235705308374590904e-04 -1.99869847544605159367e-03 9.99997937642946865822e-01 -1.99869847544605061789e-05
9.77332986695868492126e+08 9.79289956275904094340e-01 -2.00283958638356907045e-01 -2.07100437240958845176e-04 -2.00283958638356818574e-03 -2.07100437240958845176e-04 -2.00283958638356818574e-03 9.99997928995627560766e-01 -2.00283958638356779272e-05
9.77380407225793480873e+08 9.79202944363097738112e-01 -2.00699749547413458517e-01 -2.07970556369022985341e-04 -2.00699749547413389128e-03 -2.07970556369022985341e-04 -2.00699749547413389128e-03 9.99997920294436348776e-01 -2.00699749547413296971e-05
9.77427827755718350410e+08 9.79115389271873581833e-01 -2.01117230391755441588e-01 -2.08846107281264193592e-04 -2.01117230391755375668e-03 -2.08846107281264193592e-04 -2.01117230391755375668e-03 9.99997911538927142239e-01 -2.01117230391755301129e-05
9.77475248285643339157e+08 9.79027286497346160843e-01 -2.01536411371750268096e-01 -2.09727135026538147626e-04 -2.01536411371750195237e-03 -2.09727135026538147626e-04 -2.01536411371750195237e-03 9.99997902728649745718e-01 -2.01536411371750157290e-05
9.77522668815568327904e+08 9.78938631488045496454e-01 -2.01957302768940194504e-01 -2.10613685119544902105e-04 -2.01957302768940132054e-03 -2.10613685119544902105e-04 -2.01957302768940132054e-03 9.99997893863148856752e-01 -2.01957302768940057515e-05
9.77570089345493316650e+08 9.78849419645340335094e-01 -2.02379914946839434275e-01 -2.11505803546596817108e-04 -2.02379914946839356213e-03 -2.11505803546596817108e-04 -2.02379914946839356213e-03 9.99997884941964509942e-01 -2.02379914946839315555e-05
9.77617509875418305397e+08 9.78759646322852505662e-01 -2.02804258351743316169e-01 -2.12403536771474740633e-04 -2.02804258351743258923e-03 -2.12403536771474740633e-04 -2.02804258351743258923e-03 9.99997875964632298995e-01 -2.02804258351743181674e-05
9.77664930405343174934e+08 9.78669306825865059629e-01 -2.03230343513537553557e-01 -2.13306931741349622717e-04 -2.03230343513537484168e-03 -2.13306931741349622717e-04 -2.03230343513537484168e-03 9.99997866930682599573e-01 -2.03230343513537402853e-05
9.77712350935268163681e+08 9.78578396410717532561e-01 -2.03658181046533409697e-01 -2.14216035892824936768e-04 -2.03658181046533328165e-03 -2.14216035892824936768e-04 -2.03658181046533328165e-03 9.99997857839641124400e-01 -2.03658181046533261758e-05
9.77759771465193152428e+08 9.78486910284197541898e-01 -2.04087781650293009772e-01 -2.15130897158024664501e-04 -2.04087781650292947322e-03 -2.15130897158024664501e-04 -2.04087781650292947322e-03 9.99997848691028368151e-01 -2.04087781650292891757e-05
9.77807191995118141174e+08 9.78394843602919728198e-01 -2.04519156110480021526e-01 -2.16051563970802901248e-04 -2.04519156110479979893e-03 -2.16051563970802901248e-04 -2.04519156110479979893e-03 9.99997839484360273588e-01 -2.04519156110479901288e-05
9.77854612525043010712e+08 9.78302191472697035834e-01 -2.04952315299712917174e-01 -2.16978085273029274111e-04 -2.04952315299712856458e-03 -2.16978085273029274111e-04 -2.04952315299712856458e-03 9.99997830219147232356e-01 -2.04952315299712776499e-05
9.77902033054967999458e+08 9.78208948947903111915e-01 -2.05387270178430114687e-01 -2.17910510520968956748e-04 -2.05387270178430036624e-03 -2.17910510520968956748e-04 -2.05387270178430036624e-03 9.99997820894894751120e-01 -2.05387270178429972927e-05
9.77949453584892988205e+08 9.78115111030825379324e-01 -2.05824031795760503671e-01 -2.18848889691746140629e-04 -2.05824031795760449895e-03 -2.18848889691746140629e-04 -2.05824031795760449895e-03 9.99997811511103118498e-01 -2.05824031795760360448e-05
9.77996874114817976952e+08 9.78020672671007562649e-01 -2.06262611290414538123e-01 -2.19793273289924166432e-04 -2.06262611290414449652e-03 -2.19793273289924166432e-04 -2.06262611290414449652e-03 9.99997802067267071990e-01 -2.06262611290414403574e-05
9.78044294644742965698e+08 9.77925628764583332320e-01 -2.06703019891578410050e-01 -2.20743712354166753782e-04 -2.06703019891578323314e-03 -2.20743712354166753782e-04 -2.06703019891578323314e-03 9.99997792562876464117e-01 -2.06703019891578255551e-05
9.78091715174667835236e+08 9.77829974153601289011e-01 -2.07145268919814579123e-01 -2.21700258463987349500e-04 -2.07145268919814483713e-03 -2.21700258463987349500e-04 -2.07145268919814483713e-03 9.99997782997415374240e-01 -2.07145268919814425437e-05
9.78139135704592823982e+08 9.77733703625336847409e-01 -2.07589369787987920724e-01 -2.22662963746630965375e-04 -2.07589369787987854804e-03 -2.22662963746630965375e-04 -2.07589369787987854804e-03 9.99997773370362552647e-01 -2.07589369787987788397e-05
9.78186556234517812729e+08 9.77636811911597902736e-01 -2.08035334002186295121e-01 -2.23631880884021447525e-04 -2.08035334002186229202e-03 -2.23631880884021447525e-04 -2.08035334002186229202e-03 9.99997763681191198515e-01 -2.08035334002186141111e-05
9.78233976764442801476e+08 9.77539293688016952544e-01 -2.08483173162660739841e-01 -2.24607063119830501667e-04 -2.08483173162660661779e-03 -2.24607063119830501667e-04 -2.08483173162660661779e-03 9.99997753929368848880e-01 -2.08483173162660611634e-05
9.78281397294367671013e+08 9.77441143573335113892e-01 -2.08932898964775709549e-01 -2.25588564266649067077e-04 -2.08932898964775621078e-03 -2.25588564266649067077e-04 -2.08932898964775621078e-03 9.99997744114357378642e-01 -2.08932898964775556026e-05
9.78328817824292659760e+08 9.77342356128672928861e-01 -2.09384523199972916174e-01 -2.26576438713270363360e-04 -2.09384523199972845051e-03 -2.26576438713270363360e-04 -2.09384523199972845051e-03 9.99997734235612889542e-01 -2.09384523199972752893e-05
9.78376238354217648506e+08 9.77242925856793731576e-01 -2.09838057756738111115e-01 -2.27570741432062221285e-04 -2.09838057756738015705e-03 -2.27570741432062221285e-04 -2.09838057756738015705e-03 9.99997724292585710160e-01 -2.09838057756737969626e-05
9.78423658884142637253e+08 9.77142847201352138242e-01 -2.10293514621592292357e-01 -2.28571527986478299907e-04 -2.10293514621592240316e-03 -2.28571527986478299907e-04 -2.10293514621592240316e-03 9.99997714284720173872e-01 -2.10293514621592160356e-05
9.78471079414067506790e+08 9.77042114546135209707e-01 -2.10750905880079525412e-01 -2.29578854538647393353e-04 -2.10750905880079456023e-03 -2.29578854538647393353e-04 -2.10750905880079456023e-03 9.99997704211454618850e-01 -2.10750905880079377418e-05
9.78518499943992495537e+08 9.76940722214288403968e-01 -2.11210243717784101891e-01 -2.30592777857115420383e-04 -2.11210243717784018624e-03 -2.30592777857115420383e-04 -2.11210243717784018624e-03 9.99997694072221388062e-01 -2.11210243717783956283e-05
9.78565920473917484283e+08 9.76838664467533535074e-01 -2.11671540421342341265e-01 -2.31613355324664798880e-04 -2.11671540421342263202e-03 -2.31613355324664798880e-04 -2.11671540421342263202e-03 9.99997683866446718248e-01 -2.11671540421342177821e-05
9.78613341003842473030e+08 9.76735935505371855037e-01 -2.12134808379480094276e-01 -2.32640644946281027880e-04 -2.12134808379479998866e-03 -2.32640644946281027880e-04 -2.12134808379479998866e-03 9.99997673593550517879e-01 -2.12134808379479951432e-05
9.78660761533767461777e+08 9.76632529464277254760e-01 -2.12600060084056879939e-01 -2.33674705357226795369e-04 -2.12600060084056812285e-03 -2.33674705357226795369e-04 -2.12600060084056812285e-03 9.99997663252946478174e-01 -2.12600060084056732325e-05
9.78708182063692331314e+08 9.76528440416877585584e-01 -2.13067308131116323056e-01 -2.34715595831223720240e-04 -2.13067308131116269279e-03 -2.34715595831223720240e-04 -2.13067308131116269279e-03 9.99997652844041740039e-01 -2.13067308131116181188e-05
9.78755602593617320061e+08 9.76423662371119549519e-01 -2.13536565221970231487e-01 -2.35763376288804530831e-04 -2.13536565221970160364e-03 -2.35763376288804530831e-04 -2.13536565221970160364e-03 9.99997642366237116107e-01 -2.13536565221970095312e-05
9.78803023123542308807e+08 9.76318189269427039179e-01 -2.14007844164267574394e-01 -2.36818107305729428236e-04 -2.14007844164267480719e-03 -2.36818107305729428236e-04 -2.14007844164267480719e-03 9.99997631818926979719e-01 -2.14007844164267431930e-05
9.78850443653467297554e+08 9.76212014987841603109e-01 -2.14481157873100430900e-01 -2.37879850121583538486e-04 -2.14481157873100359776e-03 -2.37879850121583538486e-04 -2.14481157873100359776e-03 9.99997621201498820831e-01 -2.14481157873100262198e-05
9.78897864183392167091e+08 9.76105133335153807295e-01 -2.14956519372103777021e-01 -2.38948666648461317732e-04 -2.14956519372103702428e-03 -2.38948666648461317732e-04 -2.14956519372103702428e-03 9.99997610513333468063e-01 -2.14956519372103626534e-05
9.78945284713317155838e+08 9.75997538052016611054e-01 -2.15433941794591049534e-01 -2.40024619479834296033e-04 -2.15433941794590955859e-03 -2.40024619479834296033e-04 -2.15433941794590955859e-03 9.99997599753805199718e-01 -2.15433941794590897584e-05
9.78992705243242144585e+08 9.75889222810049861145e-01 -2.15913438384680189674e-01 -2.41107771899501518650e-04 -2.15913438384680118551e-03 -2.41107771899501518650e-04 -2.15913438384680118551e-03 9.99997588922280966628e-01 -2.15913438384680029104e-05
9.79040125773167133331e+08 9.75780181210928465596e-01 -2.16395022498450106951e-01 -2.42198187890714869159e-04 -2.16395022498450020215e-03 -2.42198187890714869159e-04 -2.16395022498450020215e-03 9.99997578018121058285e-01 -2.16395022498449959229e-05
9.79087546303092002869e+08 9.75670406785458244059e-01 -2.16878707605099363409e-01 -2.43295932145417474844e-04 -2.16878707605099290551e-03 -2.43295932145417474844e-04 -2.16878707605099290551e-03 9.99997567040678547734e-01 -2.16878707605099216012e-05
9.79134966833016991615e+08 9.75559892992633792552e-01 -2.17364507288135472285e-01 -2.44401070073661710186e-04 -2.17364507288135425447e-03 -2.44401070073661710186e-04 -2.17364507288135425447e-03 9.99997555989299291568e-01 -2.17364507288135354974e-05
9.79182387362941980362e+08 9.75448633218687799484e-01 -2.17852435246556785930e-01 -2.45513667813122122251e-04 -2.17852435246556740828e-03 -2.45513667813122122251e-04 -2.17852435246556740828e-03 9.99997544863321818909e-01 -2.17852435246556637828e-05
9.79229807892866969109e+08 9.75336620776120155618e-01 -2.18342505296067440623e-01 -2.46633792238798281189e-04 -2.18342505296067372969e-03 -2.46633792238798281189e-04 -2.18342505296067372969e-03 9.99997533662077664474e-01 -2.18342505296067287588e-05
9.79277228422791957855e+08 9.75223848902715517717e-01 -2.18834731370297380648e-01 -2.47761510972844428181e-04 -2.18834731370297309525e-03 -2.47761510972844428181e-04 -2.18834731370297309525e-03 9.99997522384890258351e-01 -2.18834731370297249893e-05
9.79324648952716827393e+08 9.75110310760543996800e-01 -2.19329127522040839837e-01 -2.48896892394560398463e-04 -2.19329127522040765244e-03 -2.48896892394560398463e-04 -2.19329127522040765244e-03 9.99997511031076036225e-01 -2.19329127522040690705e-05
9.79372069482641816139e+08 9.74995999434945304074e-01 -2.19825707924514307523e-01 -2.50040005650546692546e-04 -2.19825707924514203440e-03 -2.50040005650546692546e-04 -2.19825707924514203440e-03 9.99997499599943440174e-01 -2.19825707924514145164e-05
9.79419490012566804886e+08 9.74880907933501350549e-01 -2.20324486872615965538e-01 -2.51190920664986507525e-04 -2.20324486872615875332e-03 -2.51190920664986507525e-04 -2.20324486872615875332e-03 9.99997488090793362758e-01 -2.20324486872615818412e-05
9.79466910542491793633e+08 9.74765029184986864230e-01 -2.20825478784219764172e-01 -2.52349708150130947869e-04 -2.20825478784219706926e-03 -2.52349708150130947869e-04 -2.20825478784219706926e-03 9.99997476502918480890e-01 -2.20825478784219614769e-05
9.79514331072416663170e+08 9.74648356038309793270e-01 -2.21328698201465029483e-01 -2.53516439616902197404e-04 -2.21328698201464935807e-03 -2.53516439616902197404e-04 -2.21328698201464935807e-03 9.99997464835603810940e-01 -2.21328698201464897860e-05
9.79561751602341651917e+08 9.74530881261427950335e-01 -2.21834159792087232121e-01 -2.54691187385720091158e-04 -2.21834159792087164467e-03 -2.54691187385720091158e-04 -2.21834159792087164467e-03 9.99997453088126153631e-01 -2.21834159792087077731e-05
9.79609172132266640663e+08 9.74412597540255775996e-01 -2.22341878350740485004e-01 -2.55874024597442582644e-04 -2.22341878350740393064e-03 -2.55874024597442582644e-04 -2.22341878350740393064e-03 9.99997441259753983012e-01 -2.22341878350740337498e-05
9.79656592662191629410e+08 9.74293497477550007879e-01 -2.22851868800346158972e-01 -2.57065025224499361760e-04 -2.22851868800346070501e-03 -2.57065025224499361760e-04 -2.22851868800346070501e-03 9.99997429349747779526e-01 -2.22851868800346008159e-05
9.79704013192116498947e+08 9.74173573591777586245e-01 -2.23364146193467449919e-01 -2.58264264082223773261e-04 -2.23364146193467385734e-03 -2.58264264082223773261e-04 -2.23364146193467385734e-03 9.99997417357359141832e-01 -2.23364146193467303064e-05
9.79751433722041487694e+08 9.74052818315966240093e-01 -2.23878725713690024390e-01 -2.59471816840337390908e-04 -2.23878725713689934185e-03 -2.59471816840337390908e-04 -2.23878725713689934185e-03 9.99997405281831563961e-01 -2.23878725713689879975e-05
9.79798854251966476440e+08 9.73931223996538975030e-01 -2.24395622677016820523e-01 -2.60687760034609636046e-04 -2.24395622677016738991e-03 -2.60687760034609636046e-04 -2.24395622677016738991e-03 9.99997393122399658161e-01 -2.24395622677016667163e-05
9.79846274781891465187e+08 9.73808782892125801567e-01 -2.24914852533297043857e-01 -2.61912171078741392357e-04 -2.24914852533296969264e-03 -2.61912171078741392357e-04 -2.24914852533296969264e-03 9.99997380878289265915e-01 -2.24914852533296875752e-05
9.79893695311816453934e+08 9.73685487172361030517e-01 -2.25436430867652359833e-01 -2.63145128276390054788e-04 -2.25436430867652273097e-03 -2.63145128276390054788e-04 -2.25436430867652273097e-03 9.99997368548717235903e-01 -2.25436430867652233794e-05
9.79941115841741323471e+08 9.73561328916657697796e-01 -2.25960373401937170135e-01 -2.64386710833422803029e-04 -2.25960373401937111154e-03 -2.64386710833422803029e-04 -2.25960373401937111154e-03 9.99997356132891646041e-01 -2.25960373401937033905e-05
9.79988536371666312218e+08 9.73436300112963781572e-01 -2.26486695996214848492e-01 -2.65636998870361887206e-04 -2.26486695996214789511e-03 -2.65636998870361887206e-04 -2.26486695996214789511e-03 9.99997343630011248372e-01 -2.26486695996214714972e-05
