! File generated for n1 = 2, n2 = 3
! b1 = 46.415888
! b2 = 10.000000
! Q0 = 10000.000000
! f0 = 1000000000.000000
! n = 1001
! rel_span = 10.000000
# Hz S RI R 50
9.71292055831936120987e+08 9.84450183538985723608e-01 -1.57796151400552919775e-01 -7.21758544501719875863e-03 -7.32424854327877877802e-02 -7.21758544501719875863e-03 -7.32424854327877877802e-02 9.96649893599276248679e-01 -3.39961502530874357109e-02
9.71349471720272302628e+08 9.84387472326988866023e-01 -1.58110924946759684451e-01 -7.24669341115188533897e-03 -7.33885903705067815794e-02 -7.24669341115188533897e-03 -7.33885903705067815794e-02 9.96636382878218207715e-01 -3.40639661578326577440e-02
9.71406887608608365059e+08 9.84324386076375401622e-01 -1.58426924886609754584e-01 -7.27597545479210811720e-03 -7.35352645497298201827e-02 -7.27597545479210811720e-03 -7.35352645497298201827e-02 9.96622791357539616897e-01 -3.41320462810787567109e-02
9.71464303496944546700e+08 9.84260921808198463445e-01 -1.58744158324240047797e-01 -7.30543295864243425602e-03 -7.36825112679051624776e-02 -7.30543295864243425602e-03 -7.36825112679051624776e-02 9.96609118395445858773e-01 -3.42003921533656288223e-02
9.71521719385280609131e+08 9.84197076514007784809e-01 -1.59062632418109806132e-01 -7.33506731910188100598e-03 -7.38303338476952453195e-02 -7.33506731910188100598e-03 -7.38303338476952453195e-02 9.96595363343785844989e-01 -3.42690053169365793639e-02
9.71579135273616790771e+08 9.84132847155497536562e-01 -1.59382354381521179620e-01 -7.36487994642700399828e-03 -7.39787356372183374509e-02 -7.36487994642700399828e-03 -7.39787356372183374509e-02 9.96581525547976521118e-01 -3.43378873258504344057e-02
9.71636551161952853203e+08 9.84068230664154053322e-01 -1.59703331483129123969e-01 -7.39487226489570978472e-03 -7.41277200102852251717e-02 -7.39487226489570978472e-03 -7.41277200102852251717e-02 9.96567604346926705361e-01 -3.44070397460914390031e-02
9.71693967050289034843e+08 9.84003223940893900767e-01 -1.60025571047476167230e-01 -7.42504571297509900762e-03 -7.42772903666473749418e-02 -7.42504571297509900762e-03 -7.42772903666473749418e-02 9.96553599072959039873e-01 -3.44764641556844428361e-02
9.71751382938625097275e+08 9.83937823855701165776e-01 -1.60349080455514103605e-01 -7.45540174348987769171e-03 -7.44274501322391285330e-02 -7.45540174348987769171e-03 -7.44274501322391285330e-02 9.96539509051732053102e-01 -3.45461621448073033513e-02
9.71808798826961278915e+08 9.83872027247256197846e-01 -1.60673867145148308033e-01 -7.48594182379466732691e-03 -7.45782027594303481566e-02 -7.48594182379466732691e-03 -7.45782027594303481566e-02 9.96525333602160001689e-01 -3.46161353159081600084e-02
9.71866214715297341347e+08 9.83805830922561574958e-01 -1.60999938611776277630e-01 -7.51666743594757436053e-03 -7.47295517272763554217e-02 -7.51666743594757436053e-03 -7.47295517272763554217e-02 9.96511072036332490320e-01 -3.46863852838214456464e-02
9.71923630603633522987e+08 9.83739231656561297079e-01 -1.61327302408839884373e-01 -7.54758007688694637638e-03 -7.48815005417743095872e-02 -7.54758007688694637638e-03 -7.48815005417743095872e-02 9.96496723659432315223e-01 -3.47569136758868885151e-02
9.71981046491969704628e+08 9.83672226191756426950e-01 -1.61655966148376628588e-01 -7.57868125860986473208e-03 -7.50340527361190307021e-02 -7.57868125860986473208e-03 -7.50340527361190307021e-02 9.96482287769652641529e-01 -3.48277221320682436878e-02
9.72038462380305767059e+08 9.83604811237813625446e-01 -1.61985937501583660003e-01 -7.60997250835377964800e-03 -7.51872118709648179502e-02 -7.60997250835377964800e-03 -7.51872118709648179502e-02 9.96467763658112515301e-01 -3.48988123050748416665e-02
9.72095878268641948700e+08 9.83536983471168579918e-01 -1.62317224199387905026e-01 -7.64145536878066064523e-03 -7.53409815346900851862e-02 -7.64145536878066064523e-03 -7.53409815346900851862e-02 9.96453150608771709429e-01 -3.49701858604843998646e-02
9.72153294156978011131e+08 9.83468739534624547538e-01 -1.62649834033015999735e-01 -7.67313139816309334323e-03 -7.54953653436618715711e-02 -7.67313139816309334323e-03 -7.54953653436618715711e-02 9.96438447898344237252e-01 -3.50418444768658132737e-02
9.72210710045314192772e+08 9.83400076036944903457e-01 -1.62983774854578822300e-01 -7.70500217057378325447e-03 -7.56503669425072217125e-02 -7.70500217057378325447e-03 -7.56503669425072217125e-02 9.96423654796210200857e-01 -3.51137898459050815103e-02
9.72268125933650255203e+08 9.83330989552439582724e-01 -1.63319054577656469496e-01 -7.73706927607712389994e-03 -7.58059900043846213169e-02 -7.73706927607712389994e-03 -7.58059900043846213169e-02 9.96408770564327195274e-01 -3.51860236725313538231e-02
9.72325541821986436844e+08 9.83261476620546304162e-01 -1.63655681177893780331e-01 -7.76933432092385013040e-03 -7.59622382312604843557e-02 -7.76933432092385013040e-03 -7.59622382312604843557e-02 9.96393794457139492238e-01 -3.52585476750452361805e-02
9.72382957710322499275e+08 9.83191533745405354949e-01 -1.63993662693601688352e-01 -7.80179892774835164609e-03 -7.61191153541882215006e-02 -7.80179892774835164609e-03 -7.61191153541882215006e-02 9.96378725721487112921e-01 -3.53313635852483057254e-02
9.72440373598658680916e+08 9.83121157395428157955e-01 -1.64333007226366067943e-01 -7.83446473576885314694e-03 -7.62766251335908890274e-02 -7.83446473576885314694e-03 -7.62766251335908890274e-02 9.96363563596512236131e-01 -3.54044731485743252586e-02
9.72497789486994862556e+08 9.83050344002860843062e-01 -1.64673722941658273733e-01 -7.86733340098991727751e-03 -7.64347713595445593660e-02 -7.86733340098991727751e-03 -7.64347713595445593660e-02 9.96348307313565606513e-01 -3.54778781242207838509e-02
9.72555205375330924988e+08 9.82979089963340157965e-01 -1.65015818069462610884e-01 -7.90040659640879085190e-03 -7.65935578520695464766e-02 -7.90040659640879085190e-03 -7.65935578520695464766e-02 9.96332956096110833322e-01 -3.55515802852840318016e-02
9.72612621263667106628e+08 9.82907391635443938860e-01 -1.65359300904903416818e-01 -7.93368601222397586137e-03 -7.67529884614215063277e-02 -7.93368601222397586137e-03 -7.67529884614215063277e-02 9.96317509159627134885e-01 -3.56255814188944502918e-02
9.72670037152003169060e+08 9.82835245340235141853e-01 -1.65704179808879137337e-01 -7.96717335604674344041e-03 -7.69130670683857431413e-02 -7.96717335604674344041e-03 -7.69130670683857431413e-02 9.96301965711511638979e-01 -3.56998833263530018778e-02
9.72727453040339350700e+08 9.82762647360798657914e-01 -1.66050463208710058494e-01 -8.00087035311629508894e-03 -7.70737975845778161554e-02 -8.00087035311629508894e-03 -7.70737975845778161554e-02 9.96286324950979240711e-01 -3.57744878232707924637e-02
9.72784868928675413132e+08 9.82689593941772132624e-01 -1.66398159598786815616e-01 -8.03477874651736811984e-03 -7.72351839527445904743e-02 -8.03477874651736811984e-03 -7.72351839527445904743e-02 9.96270586068961572224e-01 -3.58493967397088136861e-02
9.72842284817011594772e+08 9.82616081288870013566e-01 -1.66747277541229976805e-01 -8.06890029740131402292e-03 -7.73972301470703949455e-02 -8.06890029740131402292e-03 -7.73972301470703949455e-02 9.96254748248004751154e-01 -3.59246119203200306447e-02
9.72899700705347657204e+08 9.82542105568400603310e-01 -1.67097825666556176749e-01 -8.10323678521024728938e-03 -7.75599401734861915170e-02 -8.10323678521024728938e-03 -7.75599401734861915170e-02 9.96238810662164797627e-01 -3.60001352244928643498e-02
9.72957116593683838844e+08 9.82467662906775229814e-01 -1.67449812674354658881e-01 -8.13779000790473307225e-03 -7.77233180699836156968e-02 -8.13779000790473307225e-03 -7.77233180699836156968e-02 9.96222772476902385108e-01 -3.60759685264970264562e-02
9.73014532482019901276e+08 9.82392749390012864907e-01 -1.67803247333962485266e-01 -8.17256178219378549843e-03 -7.78873679069283647580e-02 -8.17256178219378549843e-03 -7.78873679069283647580e-02 9.96206632848975925931e-01 -3.61521137156288960290e-02
9.73071948370356082916e+08 9.82317361063233862595e-01 -1.68158138485165198350e-01 -8.20755394377000770112e-03 -7.80520937873853959399e-02 -8.20755394377000770112e-03 -7.80520937873853959399e-02 9.96190390926332214327e-01 -3.62285726963625376307e-02
9.73129364258692264557e+08 9.82241493930149922598e-01 -1.68514495038884937195e-01 -8.24276834754608840605e-03 -7.82174998474384347569e-02 -8.24276834754608840605e-03 -7.82174998474384347569e-02 9.96174045847997291503e-01 -3.63053473884979438502e-02
9.73186780147028326988e+08 9.82165143952544617001e-01 -1.68872325977890008764e-01 -8.27820686789601523081e-03 -7.83835902565191561253e-02 -8.27820686789601523081e-03 -7.83835902565191561253e-02 9.96157596743963758001e-01 -3.63824397273138644415e-02
9.73244196035364508629e+08 9.82088307049745812272e-01 -1.69231640357514395712e-01 -8.31387139890003845633e-03 -7.85503692177412504716e-02 -8.31387139890003845633e-03 -7.85503692177412504716e-02 9.96141042735077308912e-01 -3.64598516637228697856e-02
9.73301611923700571060e+08 9.82010979098093428341e-01 -1.69592447306370464055e-01 -8.34976385459165228176e-03 -7.87178409682312701934e-02 -8.34976385459165228176e-03 -7.87178409682312701934e-02 9.96124382932922380895e-01 -3.65375851644248808570e-02
9.73359027812036752701e+08 9.81933155930394763189e-01 -1.69954756027091147264e-01 -8.38588616921031627938e-03 -7.88860097794730347198e-02 -8.38588616921031627938e-03 -7.88860097794730347198e-02 9.96107616439704579570e-01 -3.66156422120670482778e-02
9.73416443700372815132e+08 9.81854833335376597780e-01 -1.70318575797060889343e-01 -8.42224029745587861318e-03 -7.90548799576469424233e-02 -8.42224029745587861318e-03 -7.90548799576469424233e-02 9.96090742348132551776e-01 -3.66940248054012721490e-02
9.73473859588708996773e+08 9.81776007057125421618e-01 -1.70683915969172234073e-01 -8.45882821474845843224e-03 -7.92244558439811757955e-02 -8.45882821474845843224e-03 -7.92244558439811757955e-02 9.96073759741297526382e-01 -3.67727349594471619731e-02
9.73531275477045059204e+08 9.81696672794522329220e-01 -1.71050785972576363525e-01 -8.49565191749063024218e-03 -7.93947418150999784103e-02 -8.49565191749063024218e-03 -7.93947418150999784103e-02 9.96056667692551411797e-01 -3.68517747056537614547e-02
9.73588691365381240845e+08 9.81616826200666925395e-01 -1.71419195313454564289e-01 -8.53271342333472918029e-03 -7.95657422833818683827e-02 -8.53271342333472918029e-03 -7.95657422833818683827e-02 9.96039465265383117121e-01 -3.69311460920657419482e-02
9.73646107253717303276e+08 9.81536462882295346333e-01 -1.71789153575791414541e-01 -8.57001477145331695684e-03 -7.97374616973184208168e-02 -8.57001477145331695684e-03 -7.97374616973184208168e-02 9.96022151513292541836e-01 -3.70108511834899775450e-02
9.73703523142053484917e+08 9.81455578399186734373e-01 -1.72160670422162542792e-01 -8.60755802281424307887e-03 -7.99099045418799475149e-02 -8.60755802281424307887e-03 -7.99099045418799475149e-02 9.96004725479663122201e-01 -3.70908920616653051128e-02
9.73760939030389666557e+08 9.81374168263564383707e-01 -1.72533755594524329524e-01 -8.64534526045900551805e-03 -8.00830753388820509864e-02 -8.64534526045900551805e-03 -8.00830753388820509864e-02 9.95987186197632601292e-01 -3.71712708254325757684e-02
9.73818354918725728989e+08 9.81292227939484895671e-01 -1.72908418915019873596e-01 -8.68337858978598248205e-03 -8.02569786473596863408e-02 -8.68337858978598248205e-03 -8.02569786473596863408e-02 9.95969532689961689620e-01 -3.72519895909083909036e-02
9.73875770807061910629e+08 9.81209752842218896340e-01 -1.73284670286796782523e-01 -8.72166013883808599605e-03 -8.04316190639468020507e-02 -8.72166013883808599605e-03 -8.04316190639468020507e-02 9.95951763968900394275e-01 -3.73330504916612113120e-02
9.73933186695397973061e+08 9.81126738337624981767e-01 -1.73662519694819800220e-01 -8.76019205859321532792e-03 -8.06070012232534827135e-02 -8.76019205859321532792e-03 -8.06070012232534827135e-02 9.95933879036053015810e-01 -3.74144556788864948715e-02
9.73990602583734154701e+08 9.81043179741509563385e-01 -1.74041977206715881010e-01 -8.79897652326135093492e-03 -8.07831297982582324790e-02 -8.79897652326135093492e-03 -8.07831297982582324790e-02 9.95915876882240924672e-01 -3.74962073215887106703e-02
9.74048018472070217133e+08 9.80959072318982938654e-01 -1.74423052973605635652e-01 -8.83801573058371793545e-03 -8.09600095006938053066e-02 -8.83801573058371793545e-03 -8.09600095006938053066e-02 9.95897756487362895150e-01 -3.75783076067604873693e-02
9.74105434360406398773e+08 9.80874411283799263472e-01 -1.74805757230967723226e-01 -8.87731190213876357464e-03 -8.11376450814486060992e-02 -8.87731190213876357464e-03 -8.11376450814486060992e-02 9.95879516820253440912e-01 -3.76607587395688669929e-02
9.74162850248742461205e+08 9.80789191797693415964e-01 -1.75190100299489365243e-01 -8.91686728365027880816e-03 -8.13160413309612500887e-02 -8.91686728365027880816e-03 -8.13160413309612500887e-02 9.95861156838540151348e-01 -3.77435629435384917274e-02
9.74220266137078642845e+08 9.80703408969700762832e-01 -1.75576092585954468550e-01 -8.95668414530296531917e-03 -8.14952030796329690565e-02 -8.95668414530296531917e-03 -8.14952030796329690565e-02 9.95842675488496476000e-01 -3.78267224607430063710e-02
9.74277682025414824486e+08 9.80617057855472928907e-01 -1.75963744584114512026e-01 -8.99676478205991420056e-03 -8.16751351982317047584e-02 -8.99676478205991420056e-03 -8.16751351982317047584e-02 9.95824071704894953072e-01 -3.79102395519926305134e-02
9.74335097913750886917e+08 9.80530133456579910955e-01 -1.76353066875590047680e-01 -9.03711151398696281578e-03 -8.18558425983106491275e-02 -9.03711151398696281578e-03 -8.18558425983106491275e-02 9.95805344410856441151e-01 -3.79941164970283851154e-02
9.74392513802087068558e+08 9.80442630719799979033e-01 -1.76744070130781388839e-01 -9.07772668658181347556e-03 -8.20373302326308784238e-02 -9.07772668658181347556e-03 -8.20373302326308784238e-02 9.95786492517697352511e-01 -3.80783555947183452450e-02
9.74449929690423130989e+08 9.80354544536404248767e-01 -1.77136765109772470472e-01 -9.11861267110629890309e-03 -8.22196030955809620266e-02 -9.11861267110629890309e-03 -8.22196030955809620266e-02 9.95767514924775332119e-01 -3.81629591632523246236e-02
9.74507345578759312630e+08 9.80265869741424045181e-01 -1.77531162663273844871e-01 -9.15977186492663436601e-03 -8.24026662236145707174e-02 -9.15977186492663436601e-03 -8.24026662236145707174e-02 9.95748410519331605961e-01 -3.82479295403450256230e-02
9.74564761467095375061e+08 9.80176601112912382341e-01 -1.77927273733547219869e-01 -9.20120669185578617111e-03 -8.25865246956797027789e-02 -9.20120669185578617111e-03 -8.25865246956797027789e-02 9.95729178176331886085e-01 -3.83332690834352896037e-02
9.74622177355431556702e+08 9.80086733371189677833e-01 -1.78325109355369298969e-01 -9.24291960250397601206e-03 -8.27711836336659789737e-02 -9.24291960250397601206e-03 -8.27711836336659789737e-02 9.95709816758303722928e-01 -3.84189801698936739260e-02
9.74679593243767619133e+08 9.79996261178081362608e-01 -1.78724680656986323335e-01 -9.28491307463239629039e-03 -8.29566482028477603095e-02 -9.28491307463239629039e-03 -8.29566482028477603095e-02 9.95690325115172081283e-01 -3.85050651972281693380e-02
9.74737009132103800774e+08 9.79905179136141724072e-01 -1.79125998861090152126e-01 -9.32718961351336126042e-03 -8.31429236123371467881e-02 -9.32718961351336126042e-03 -8.31429236123371467881e-02 9.95670702084092695827e-01 -3.85915265832944276436e-02
9.74794425020439863205e+08 9.79813481787866646933e-01 -1.79529075285804862183e-01 -9.36975175229591387971e-03 -8.33300151155419721594e-02 -9.36975175229591387971e-03 -8.33300151155419721594e-02 9.95650946489281984952e-01 -3.86783667665083694120e-02
9.74851840908776044846e+08 9.79721163614893142402e-01 -1.79933921345687475313e-01 -9.41260205237725959548e-03 -8.35179280106302934783e-02 -9.41260205237725959548e-03 -8.35179280106302934783e-02 9.95631057141844522107e-01 -3.87655882060617476559e-02
9.74909256797112226486e+08 9.79628219037188996410e-01 -1.80340548552731266829e-01 -9.45574310377891684432e-03 -8.37066676409960741534e-02 -9.45574310377891684432e-03 -8.37066676409960741534e-02 9.95611032839598841804e-01 -3.88531933821383429484e-02
9.74966672685448288918e+08 9.79534642412226319585e-01 -1.80748968517396052524e-01 -9.49917752553027829043e-03 -8.38962393957373292475e-02 -9.49917752553027829043e-03 -8.38962393957373292475e-02 9.95590872366899359847e-01 -3.89411847961358831283e-02
9.75024088573784470558e+08 9.79440428034144550118e-01 -1.81159192949643138570e-01 -9.54290796605728602886e-03 -8.40866487101366438806e-02 -9.54290796605728602886e-03 -8.40866487101366438806e-02 9.95570574494455406978e-01 -3.90295649708890593499e-02
9.75081504462120532990e+08 9.79345570132900800076e-01 -1.81571233659977931962e-01 -9.58693710357658504528e-03 -8.42779010661450361797e-02 -9.58693710357658504528e-03 -8.42779010661450361797e-02 9.95550137979149041279e-01 -3.91183364508941242010e-02
9.75138920350456714630e+08 9.79250062873404325536e-01 -1.81985102560519279580e-01 -9.63126764649734762314e-03 -8.44700019928782686041e-02 -9.63126764649734762314e-03 -8.44700019928782686041e-02 9.95529561563848197636e-01 -3.92075018025392907361e-02
9.75196336238792777061e+08 9.79153900354640893688e-01 -1.82400811666067835803e-01 -9.67590233382783701521e-03 -8.46629570671127984482e-02 -9.67590233382783701521e-03 -8.46629570671127984482e-02 9.95508843977217727783e-01 -3.92970636143348817093e-02
9.75253752127128958702e+08 9.79057076608779941473e-01 -1.82818373095198466460e-01 -9.72084393558950848879e-03 -8.48567719137928028195e-02 -9.72084393558950848879e-03 -8.48567719137928028195e-02 9.95487983933527553759e-01 -3.93870244971487107333e-02
9.75311168015465021133e+08 9.78959585600271298134e-01 -1.83237799071357010394e-01 -9.76609525323664760810e-03 -8.50514522065392714056e-02 -9.76609525323664760810e-03 -8.50514522065392714056e-02 9.95466980132457823771e-01 -3.94773870844423585558e-02
9.75368583903801202774e+08 9.78861421224923367035e-01 -1.83659101923983714144e-01 -9.81165912008398824473e-03 -8.52470036681713949633e-02 -9.81165912008398824473e-03 -8.52470036681713949633e-02 9.95445831258900293292e-01 -3.95681540325131947400e-02
9.75425999792137265205e+08 9.78762577308972203660e-01 -1.84082294089630227329e-01 -9.85753840173890505394e-03 -8.54434320712251366148e-02 -9.85753840173890505394e-03 -8.54434320712251366148e-02 9.95424535982757929808e-01 -3.96593280207350531996e-02
9.75483415680473446846e+08 9.78663047608129721411e-01 -1.84507388113117037909e-01 -9.90373599654326836061e-03 -8.56407432384903161138e-02 -9.90373599654326836061e-03 -8.56407432384903161138e-02 9.95403092958739632579e-01 -3.97509117518075744124e-02
9.75540831568809628487e+08 9.78562825806621683356e-01 -1.84934396648680859920e-01 -9.95025483601970177350e-03 -8.58389430435433503641e-02 -9.95025483601970177350e-03 -8.58389430435433503641e-02 9.95381500826152953998e-01 -3.98429079520034104545e-02
9.75598247457145690918e+08 9.78461905516208707567e-01 -1.85363332461149110664e-01 -9.99709788532624800406e-03 -8.60380374112922757801e-02 -9.99709788532624800406e-03 -8.60380374112922757801e-02 9.95359758208693601311e-01 -3.99353193714212725829e-02
9.75655663345481872559e+08 9.78360280275190397070e-01 -1.85794208427132206962e-01 -1.00442681437186466520e-02 -8.62380323185302083422e-02 -1.00442681437186466520e-02 -8.62380323185302083422e-02 9.95337863714230275392e-01 -4.00281487842427743939e-02
9.75713079233817934990e+08 9.78257943547396036088e-01 -1.86227037536217387981e-01 -1.00917686450185204589e-02 -8.64389337944894420307e-02 -1.00917686450185204589e-02 -8.64389337944894420307e-02 9.95315815934587844183e-01 -4.01213989889896427421e-02
9.75770495122154116631e+08 9.78154888721156190456e-01 -1.86661832892195678202e-01 -1.01396024580910001922e-02 -8.66407479214109932375e-02 -1.01396024580910001922e-02 -8.66407479214109932375e-02 9.95293613445325187072e-01 -4.02150728087880826589e-02
