! File generated for n1 = 2, n2 = 9
! b1 = 46.415888
! b2 = 0.100000
! Q0 = 10000.000000
! f0 = 1000000000.000000
! n = 1001
! rel_span = 10.000000
# Hz S RI R 50
9.76242055831936120987e+08 9.81114262243126589169e-01 -1.91155405504121578275e-01 -8.76598294868428311137e-04 -8.87264795672653219794e-03 -8.76598294868428311137e-04 -8.87264795672653219794e-03 9.99959311911429726827e-01 -4.11831836805190984810e-04
9.76289571720272302628e+08 9.81038302529239736316e-01 -1.91535679817475684716e-01 -8.80124032466247062378e-04 -8.89029872679227353705e-03 -8.80124032466247062378e-04 -8.89029872679227353705e-03 9.99959148261187147355e-01 -4.12651112977609137340e-04
9.76337087608608365059e+08 9.80961888948402749300e-01 -1.91917435715137724150e-01 -8.83670836701740364076e-04 -8.90801826590981345178e-03 -8.83670836701740364076e-04 -8.90801826590981345178e-03 9.99958983633117748369e-01 -4.13473581126656483664e-04
9.76384603496944546700e+08 9.80885017897195621295e-01 -1.92300681778801524358e-01 -8.87238874830848325316e-04 -8.92580697240609281795e-03 -8.87238874830848325316e-04 -8.92580697240609281795e-03 9.99958818019458406390e-01 -4.14299259741031931144e-04
9.76432119385280609131e+08 9.80807685736521106534e-01 -1.92685426655771985249e-01 -8.90828315765509201954e-04 -8.94366524765344977910e-03 -8.90828315765509201954e-04 -8.94366524765344977910e-03 9.99958651412368726419e-01 -4.15128167450789142736e-04
9.76479635273616790771e+08 9.80729888791178727736e-01 -1.93071679059597378636e-01 -8.94439330093410632852e-04 -8.96159349609897126765e-03 -8.94439330093410632852e-04 -8.96159349609897126765e-03 9.99958483803930930911e-01 -4.15960323028698782805e-04
9.76527151161952853203e+08 9.80651623349437673305e-01 -1.93459447770690462498e-01 -8.98072090097841706918e-04 -8.97959212529331196606e-03 -8.98072090097841706918e-04 -8.97959212529331196606e-03 9.99958315186148194442e-01 -4.16795745391586693659e-04
9.76574667050289034843e+08 9.80572885662601256840e-01 -1.93848741636963445290e-01 -9.01726769777886879090e-04 -8.99766154592017766700e-03 -9.01726769777886879090e-04 -8.99766154592017766700e-03 9.99958145550944310642e-01 -4.17634453601701833431e-04
9.76622182938625097275e+08 9.80493671944566491661e-01 -1.94239569574468112778e-01 -9.05403544868878793796e-04 -9.01580217182603414761e-03 -9.05403544868878793796e-04 -9.01580217182603414761e-03 9.99957974890162248904e-01 -4.18476466868095489660e-04
9.76669698826961278915e+08 9.80413978371376115817e-01 -1.94631940568049194296e-01 -9.09102592863192415264e-04 -9.03401442005042840111e-03 -9.09102592863192415264e-04 -9.03401442005042840111e-03 9.99957803195563599274e-01 -4.19321804548028844763e-04
9.76717214715297341347e+08 9.80333801080766509273e-01 -1.95025863671993260340e-01 -9.12824093031219026967e-04 -9.05229871085611731418e-03 -9.12824093031219026967e-04 -9.05229871085611731418e-03 9.99957630458827351205e-01 -4.20170486148371000526e-04
9.76764730603633522987e+08 9.80253136171707506463e-01 -1.95421348010697049080e-01 -9.16568226442743445859e-04 -9.07065546776007931851e-03 -9.16568226442743445859e-04 -9.07065546776007931851e-03 9.99957456671549005378e-01 -4.21022531327038690169e-04
9.76812246491969704628e+08 9.80171979703936546713e-01 -1.95818402779336125930e-01 -9.20335175988555641118e-04 -9.08908511756455900210e-03 -9.20335175988555641118e-04 -9.08908511756455900210e-03 9.99957281825239463480e-01 -4.21877959894437345664e-04
9.76859762380305767059e+08 9.80090327697486496383e-01 -1.96217037244541481211e-01 -9.24125126402363110574e-04 -9.10758809038846213479e-03 -9.24125126402363110574e-04 -9.10758809038846213479e-03 9.99957105911324251046e-01 -4.22736791814918048613e-04
9.76907278268641948700e+08 9.80008176132205477415e-01 -1.96617260745090921548e-01 -9.27938264283084462622e-04 -9.12616481969945846087e-03 -9.27938264283084462622e-04 -9.12616481969945846087e-03 9.99956928921142185196e-01 -4.23599047208267766133e-04
9.76954794156978011131e+08 9.79925520947272699068e-01 -1.97019082692595215445e-01 -9.31774778117325686196e-04 -9.14481574234582428318e-03 -9.31774778117325686196e-04 -9.14481574234582428318e-03 9.99956750845944486450e-01 -4.24464746351187226844e-04
9.77002310045314192772e+08 9.79842358040703964583e-01 -1.97422512572208136428e-01 -9.35634858302329783415e-04 -9.16354129858939353559e-03 -9.35634858302329783415e-04 -9.16354129858939353559e-03 9.99956571676893668510e-01 -4.25333909678820621704e-04
9.77049825933650255203e+08 9.79758683268853847181e-01 -1.97827559943326597436e-01 -9.39518697169077106335e-04 -9.18234193213807170508e-03 -9.39518697169077106335e-04 -9.18234193213807170508e-03 9.99956391405062539057e-01 -4.26206557786264488182e-04
9.77097341821986436844e+08 9.79674492445906763827e-01 -1.98234234440319734283e-01 -9.43426489005912399105e-04 -9.20121809017965600064e-03 -9.43426489005912399105e-04 -9.20121809017965600064e-03 9.99956210021432978508e-01 -4.27082711430137797626e-04
9.77144857710322499275e+08 9.79589781343366161614e-01 -1.98642545773241252505e-01 -9.47358430082266274146e-04 -9.22017022341491652992e-03 -9.47358430082266274146e-04 -9.22017022341491652992e-03 9.99956027516895051832e-01 -4.27962391530117022918e-04
9.77192373598658680916e+08 9.79504545689529937391e-01 -1.99052503728578605857e-01 -9.51314718672989262545e-04 -9.23919878609236189249e-03 -9.51314718672989262545e-04 -9.23919878609236189249e-03 9.99955843882245565268e-01 -4.28845619170550407077e-04
9.77239889486994862556e+08 9.79418781168964414086e-01 -1.99464118169982690398e-01 -9.55295555082759481787e-04 -9.25830423604211139033e-03 -9.55295555082759481787e-04 -9.25830423604211139033e-03 9.99955659108187289164e-01 -4.29732415602029460110e-04
9.77287405375330924988e+08 9.79332483421967658899e-01 -1.99877399039024572502e-01 -9.59301141671020803602e-04 -9.27748703471101797413e-03 -9.59301141671020803602e-04 -9.27748703471101797413e-03 9.99955473185327514685e-01 -4.30622802243019815911e-04
9.77334921263667106628e+08 9.79245648044024252776e-01 -2.00292356355960099457e-01 -9.63331682877266448628e-04 -9.29674764719815548142e-03 -9.63331682877266448628e-04 -9.29674764719815548142e-03 9.99955286104176943596e-01 -4.31516800681508243785e-04
9.77382437152003169060e+08 9.79158270585256063079e-01 -2.00709000220488625876e-01 -9.67387385246542565696e-04 -9.31608654229004566616e-03 -9.67387385246542565696e-04 -9.31608654229004566616e-03 9.99955097855148578034e-01 -4.32414432676637462694e-04
9.77429953040339350700e+08 9.79070346549861247887e-01 -2.01127340812538746295e-01 -9.71468457455494129038e-04 -9.33550419249711341263e-03 -9.71468457455494129038e-04 -9.33550419249711341263e-03 9.99954908428556721312e-01 -4.33315720160398689265e-04
9.77477468928675413132e+08 9.78981871395547043058e-01 -2.01547388393050114219e-01 -9.75575110338659443054e-04 -9.35500107408998929359e-03 -9.75575110338659443054e-04 -9.35500107408998929359e-03 9.99954717814614979510e-01 -4.34220685239316379553e-04
9.77524984817011594772e+08 9.78892840532954888744e-01 -2.01969153304771442681e-01 -9.79707556915210145757e-04 -9.37457766713654244706e-03 -9.79707556915210145757e-04 -9.37457766713654244706e-03 9.99954526003436150461e-01 -4.35129350196167014736e-04
9.77572500705347657204e+08 9.78803249325075785947e-01 -2.02392645973062085263e-01 -9.83866012416023194911e-04 -9.39423445553909039485e-03 -9.83866012416023194911e-04 -9.39423445553909039485e-03 9.99954332985030003300e-01 -4.36041737491706560444e-04
9.77620016593683838844e+08 9.78713093086657437425e-01 -2.02817876906714295027e-01 -9.88050694311253105070e-04 -9.41397192707255775490e-03 -9.88050694311253105070e-04 -9.41397192707255775490e-03 9.99954138749302390288e-01 -4.36957869766441511002e-04
9.77667532482019901276e+08 9.78622367083605060323e-01 -2.03244856698766018788e-01 -9.92261822338118314527e-04 -9.43379057342221515048e-03 -9.92261822338118314527e-04 -9.43379057342221515048e-03 9.99953943286054136586e-01 -4.37877769842380363836e-04
9.77715048370356082916e+08 9.78531066532370097377e-01 -2.03673596027341169412e-01 -9.96499618529265215189e-04 -9.45369089022266538558e-03 -9.96499618529265215189e-04 -9.45369089022266538558e-03 9.99953746584979374923e-01 -4.38801460724843640782e-04
9.77762564258692264557e+08 9.78439186599332488825e-01 -2.04104105656492146315e-01 -1.00076430724147283878e-03 -9.47367337709696492876e-03 -1.00076430724147283878e-03 -9.47367337709696492876e-03 9.99953548635664324351e-01 -4.39728965604279276209e-04
9.77810080147028326988e+08 9.78346722400172841283e-01 -2.04536396437050266295e-01 -1.00505611518475219263e-03 -9.49373853769608713749e-03 -1.00505611518475219263e-03 -9.49373853769608713749e-03 9.99953349427586068998e-01 -4.40660307858094593431e-04
9.77857596035364508629e+08 9.78253668999236491999e-01 -2.04970479307490127674e-01 -1.00937527145191223606e-03 -9.51388687973904988160e-03 -1.00937527145191223606e-03 -9.51388687973904988160e-03 9.99953148950111003757e-01 -4.41595511052518855614e-04
9.77905111923700571060e+08 9.78160021408886470873e-01 -2.05406365294803328059e-01 -1.01372200754854847882e-03 -9.53411891505346296982e-03 -1.01372200754854847882e-03 -9.53411891505346296982e-03 9.99952947192493724060e-01 -4.42534598944485223909e-04
9.77952627812036752701e+08 9.78065774588848246829e-01 -2.05844065515382645959e-01 -1.01809655742347501817e-03 -9.55443515961656997248e-03 -1.01809655742347501817e-03 -9.55443515961656997248e-03 9.99952744143875249527e-01 -4.43477595483535917513e-04
9.78000143700372815132e+08 9.77970923445546591601e-01 -2.06283591175908831428e-01 -1.02249915749952108475e-03 -9.57483613359641667906e-03 -1.02249915749952108475e-03 -9.57483613359641667906e-03 9.99952539793281691693e-01 -4.44424524813732686312e-04
9.78047659588708996773e+08 9.77875462831427455512e-01 -2.06724953574266706591e-01 -1.02693004670497398979e-03 -9.59532236139436223166e-03 -1.02693004670497398979e-03 -9.59532236139436223166e-03 9.99952334129623143788e-01 -4.45375411275630600939e-04
9.78095175477045059204e+08 9.77779387544276068489e-01 -2.07168164100449608833e-01 -1.03138946650525430843e-03 -9.61589437168706463732e-03 -1.03138946650525430843e-03 -9.61589437168706463732e-03 9.99952127141691682333e-01 -4.46330279408226309867e-04
9.78142691365381240845e+08 9.77682692326520608184e-01 -2.07613234237490590361e-01 -1.03587766093522662229e-03 -9.63655269746970313816e-03 -1.03587766093522662229e-03 -9.63655269746970313816e-03 9.99951918818160145896e-01 -4.47289153950964626580e-04
9.78190207253717303276e+08 9.77585371864527874486e-01 -2.08060175562396726390e-01 -1.04039487663190144233e-03 -9.65729787609934629822e-03 -1.04039487663190144233e-03 -9.65729787609934629822e-03 9.99951709147580802828e-01 -4.48252059845751242486e-04
9.78237723142053484917e+08 9.77487420787886307494e-01 -2.08508999747101880784e-01 -1.04494136286770221769e-03 -9.67813044933917530910e-03 -1.04494136286770221769e-03 -9.67813044933917530910e-03 9.99951498118383352853e-01 -4.49219022239005284260e-04
9.78285239030389666557e+08 9.77388833668681455968e-01 -2.08959718559418167194e-01 -1.04951737158409446823e-03 -9.69905096340264137600e-03 -1.04951737158409446823e-03 -9.69905096340264137600e-03 9.99951285718873705832e-01 -4.50190066483709485940e-04
9.78332754918725728989e+08 9.77289605020758123111e-01 -2.09412343864011557537e-01 -1.05412315742584592262e-03 -9.72005996899875240880e-03 -1.05412315742584592262e-03 -9.72005996899875240880e-03 9.99951071937232427445e-01 -4.51165218141511752212e-04
9.78380270807061910629e+08 9.77189729298971965221e-01 -2.09866887623385234285e-01 -1.05875897777576197072e-03 -9.74115802137772400504e-03 -1.05875897777576197072e-03 -9.74115802137772400504e-03 9.99950856761512740789e-01 -4.52144502984843852083e-04
9.78427786695397973061e+08 9.77089200898431320397e-01 -2.10323361898868244069e-01 -1.06342509278986867456e-03 -9.76234568037685941644e-03 -1.06342509278986867456e-03 -9.76234568037685941644e-03 9.99950640179639194116e-01 -4.53127946999051659308e-04
9.78475302583734154701e+08 9.76988014153724715349e-01 -2.10781778851629547633e-01 -1.06812176543326429849e-03 -9.78362351046761606621e-03 -1.06812176543326429849e-03 -9.78362351046761606621e-03 9.99950422179406217538e-01 -4.54115576384579277668e-04
9.78522818472070217133e+08 9.76886163338141488843e-01 -2.11242150743685602743e-01 -1.07284926151631908493e-03 -9.80499208080238236762e-03 -1.07284926151631908493e-03 -9.80499208080238236762e-03 9.99950202748476013603e-01 -4.55107417559140481084e-04
9.78570334360406398773e+08 9.76783642662874762586e-01 -2.11704489938942225224e-01 -1.07760784973164416324e-03 -9.82645196526282793670e-03 -1.07760784973164416324e-03 -9.82645196526282793670e-03 9.99949981874376669921e-01 -4.56103497159962741059e-04
9.78617850248742461205e+08 9.76680446276218416912e-01 -2.12168808904225320022e-01 -1.08239780169137682873e-03 -9.84800374250775420459e-03 -1.08239780169137682873e-03 -9.84800374250775420459e-03 9.99949759544501382003e-01 -4.57103842046008377459e-04
9.78665366137078642845e+08 9.76576568262746635973e-01 -2.12635120210347028369e-01 -1.08721939196526401136e-03 -9.86964799602257393529e-03 -1.08721939196526401136e-03 -9.86964799602257393529e-03 9.99949535746105677703e-01 -4.58108479300271061348e-04
9.78712882025414824486e+08 9.76472002642484793178e-01 -2.13103436533166712419e-01 -1.09207289811913410560e-03 -9.89138531416855829037e-03 -1.09207289811913410560e-03 -9.89138531416855829037e-03 9.99949310466305973932e-01 -4.59117436232061963686e-04
9.78760397913750886917e+08 9.76366743370067124985e-01 -2.13573770654670064273e-01 -1.09695860075401368378e-03 -9.91321629023292870408e-03 -1.09695860075401368378e-03 -9.91321629023292870408e-03 9.99949083692078022345e-01 -4.60130740379334501628e-04
9.78807913802087068558e+08 9.76260784333878195440e-01 -2.14046135464074388510e-01 -1.10187678354596520387e-03 -9.93514152248015612601e-03 -1.10187678354596520387e-03 -9.93514152248015612601e-03 9.99948855410254799914e-01 -4.61148419511065409127e-04
9.78855429690423130989e+08 9.76154119355187033236e-01 -2.14520543958921533489e-01 -1.10682773328627122832e-03 -9.95716161420269300908e-03 -1.10682773328627122832e-03 -9.95716161420269300908e-03 9.99948625607524510528e-01 -4.62170501629609949308e-04
9.78902945578759312630e+08 9.76046742187262839074e-01 -2.14997009246209458411e-01 -1.11181173992249034133e-03 -9.97927717377348859340e-03 -1.11181173992249034133e-03 -9.97927717377348859340e-03 9.99948394270428919661e-01 -4.63197014973139038329e-04
9.78950461467095375061e+08 9.75938646514480812044e-01 -2.15475544543519692553e-01 -1.11682909659995975755e-03 -1.00014888146983359218e-02 -1.11682909659995975755e-03 -1.00014888146983359218e-02 9.99948161385361689035e-01 -4.64227988018068888233e-04
9.78997977355431556702e+08 9.75829825951411100604e-01 -2.15956163180172827643e-01 -1.12188009970407660473e-03 -1.00237971556694904079e-02 -1.12188009970407660473e-03 -1.00237971556694904079e-02 9.99947926938565601063e-01 -4.65263449481550280928e-04
9.79045493243767619133e+08 9.75720274041897650541e-01 -2.16438878598381512219e-01 -1.12696504890305950787e-03 -1.00462028206191912594e-02 -1.12696504890305950787e-03 -1.00462028206191912594e-02 9.99947690916131448624e-01 -4.66303428323952312735e-04
9.79093009132103800774e+08 9.75609984258118734246e-01 -2.16923704354436114317e-01 -1.13208424719156127217e-03 -1.00687064387747007843e-02 -1.13208424719156127217e-03 -1.00687064387747007843e-02 9.99947453303995259510e-01 -4.67347953751417262598e-04
9.79140525020439863205e+08 9.75498949999636377761e-01 -2.17410654119886609381e-01 -1.13723800093476121696e-03 -1.00913086447131546131e-02 -1.13723800093476121696e-03 -1.00913086447131546131e-02 9.99947214087936964155e-01 -4.68397055218406678252e-04
9.79188040908776044846e+08 9.75387164592427691190e-01 -2.17899741682760550443e-01 -1.14242661991336650479e-03 -1.01140100784180998056e-02 -1.14242661991336650479e-03 -1.01140100784180998056e-02 9.99946973253577842122e-01 -4.69450762430325470743e-04
9.79235556797112226486e+08 9.75274621287905874034e-01 -2.18390980948769658498e-01 -1.14765041736903175562e-03 -1.01368113853355003989e-02 -1.14765041736903175562e-03 -1.01368113853355003989e-02 9.99946730786378523703e-01 -4.70509105346121289139e-04
9.79283072685448288918e+08 9.75161313261921569584e-01 -2.18884385942552411874e-01 -1.15290971005070695503e-03 -1.01597132164314082892e-02 -1.15290971005070695503e-03 -1.01597132164314082892e-02 9.99946486671636658450e-01 -4.71572114180961849371e-04
9.79330588573784470558e+08 9.75047233613749453340e-01 -2.19379970808929986026e-01 -1.15820481826168684113e-03 -1.01827162282502638180e-02 -1.15820481826168684113e-03 -1.01827162282502638180e-02 9.99946240894485249839e-01 -4.72639819408940506547e-04
9.79378104462120532990e+08 9.74932375365063497163e-01 -2.19877749814157780195e-01 -1.16353606590717832334e-03 -1.02058210829729881924e-02 -1.16353606590717832334e-03 -1.02058210829729881924e-02 9.99945993439889768695e-01 -4.73712251765772828383e-04
9.79425620350456714630e+08 9.74816731458887919537e-01 -2.20377737347226820841e-01 -1.16890378054298007572e-03 -1.02290284484773744134e-02 -1.16890378054298007572e-03 -1.02290284484773744134e-02 9.99945744292646598872e-01 -4.74789442251600233603e-04
9.79473136238792777061e+08 9.74700294758541696538e-01 -2.20879947921139518918e-01 -1.17430829342447719948e-03 -1.02523389983973298167e-02 -1.17430829342447719948e-03 -1.02523389983973298167e-02 9.99945493437380261703e-01 -4.75871422133738607076e-04
9.79520652127128958702e+08 9.74583058046556094389e-01 -2.21384396174247072286e-01 -1.17974993955689290946e-03 -1.02757534121849253977e-02 -1.17974993955689290946e-03 -1.02757534121849253977e-02 9.99945240858540973505e-01 -4.76958222949559458668e-04
9.79568168015465021133e+08 9.74465014023585762715e-01 -2.21891096871556975367e-01 -1.18522905774583295520e-03 -1.02992723751710989893e-02 -1.18522905774583295520e-03 -1.02992723751710989893e-02 9.99944986540402980246e-01 -4.78049876509307222587e-04
9.79615683903801202774e+08 9.74346155307292516312e-01 -2.22400064906098787754e-01 -1.19074599064907579032e-03 -1.03228965786290507317e-02 -1.19074599064907579032e-03 -1.03228965786290507317e-02 9.99944730467061337897e-01 -4.79146414899041511032e-04
9.79663199792137265205e+08 9.74226474431219569006e-01 -2.22911315300276080542e-01 -1.19630108482884889819e-03 -1.03466267198369862856e-02 -1.19630108482884889819e-03 -1.03466267198369862856e-02 9.99944472622430247100e-01 -4.80247870483549552274e-04
9.79710715680473446846e+08 9.74105963843642896904e-01 -2.23424863207253160402e-01 -1.20189469080512448436e-03 -1.03704635021424854818e-02 -1.20189469080512448436e-03 -1.03704635021424854818e-02 9.99944212990239833516e-01 -4.81354275909334197638e-04
9.79758231568809628487e+08 9.73984615906407169561e-01 -2.23940723912351785652e-01 -1.20752716310968061589e-03 -1.03944076350273393455e-02 -1.20752716310968061589e-03 -1.03944076350273393455e-02 9.99943951554034260454e-01 -4.82465664107622961999e-04
9.79805747457145690918e+08 9.73862422893741697116e-01 -2.24458912834464618946e-01 -1.21319886034101302556e-03 -1.04184598341731469301e-02 -1.21319886034101302556e-03 -1.04184598341731469301e-02 9.99943688297168842283e-01 -4.83582068297413114003e-04
9.79853263345481872559e+08 9.73739376991058391830e-01 -2.24979445527492244450e-01 -1.21891014522018214898e-03 -1.04426208215280206387e-02 -1.21891014522018214898e-03 -1.04426208215280206387e-02 9.99943423202807712968e-01 -4.84703521988567506956e-04
9.79900779233817934990e+08 9.73615470293730078666e-01 -2.25502337681790288038e-01 -1.22466138464746875959e-03 -1.04668913253737564523e-02 -1.22466138464746875959e-03 -1.04668913253737564523e-02 9.99943156253920606424e-01 -4.85830058984932744263e-04
9.79948295122154116631e+08 9.73490694805848044702e-01 -2.26027605125649233564e-01 -1.23045294976008973663e-03 -1.04912720803945168357e-02 -1.23045294976008973663e-03 -1.04912720803945168357e-02 9.99942887433281080156e-01 -4.86961713387526842246e-04
