! File generated for n1 = 4, n2 = 5
! b1 = 10.000000
! b2 = 0.464159
! Q0 = 10000.000000
! f0 = 1000000000.000000
! n = 1001
! rel_span = 10.000000
# Hz S RI R 50
9.94267920558319330215e+08 9.82825229256096499775e-01 -1.72242780991451738259e-01 -3.70019218840103667617e-03 -3.71085822475547832955e-02 -3.70019218840103667617e-03 -3.71085822475547832955e-02 9.99202817758952366312e-01 -7.99480168920333432447e-03
9.94279384717202663422e+08 9.82756807160657164246e-01 -1.72582118495565345340e-01 -3.71493328199895079048e-03 -3.71816902966039114498e-02 -3.71493328199895079048e-03 -3.71816902966039114498e-02 9.99199641886610701036e-01 -8.01055234090253254209e-03
9.94290848876085996628e+08 9.82687977543882817955e-01 -1.72922777911530378692e-01 -3.72976217340698383215e-03 -3.72550831429280110418e-02 -3.72976217340698383215e-03 -3.72550831429280110418e-02 9.99196447098804285680e-01 -8.02636435031461523137e-03
9.94302313034969449043e+08 9.82618737175709910936e-01 -1.73264766893965110883e-01 -3.74467955852120486931e-03 -3.73287624356646238755e-02 -3.74467955852120486931e-03 -3.73287624356646238755e-02 9.99193233245606826642e-01 -8.04223807273549140540e-03
9.94313777193852782249e+08 9.82549082794129002849e-01 -1.73608093155989656742e-01 -3.75968614012027295412e-03 -3.74027298365550917025e-02 -3.75968614012027295412e-03 -3.74027298365550917025e-02 9.99190000175609327471e-01 -8.05817386617648477587e-03
9.94325241352736115456e+08 9.82479011104803623411e-01 -1.73952764469788967450e-01 -3.77478262794743750150e-03 -3.74769870200659035997e-02 -3.77478262794743750150e-03 -3.74769870200659035997e-02 9.99186747735901992229e-01 -8.07417209139045868871e-03
9.94336705511619448662e+08 9.82408518780685025007e-01 -1.74298788667181403511e-01 -3.78996973879364498772e-03 -3.75515356735111743847e-02 -3.78996973879364498772e-03 -3.75515356735111743847e-02 9.99183475772057239084e-01 -8.09023311189822555423e-03
9.94348169670502901077e+08 9.82337602461626047123e-01 -1.74646173640167795549e-01 -3.80524819658065822578e-03 -3.76263774971709388795e-02 -3.80524819658065822578e-03 -3.76263774971709388795e-02 9.99180184128110493447e-01 -8.10635729401400911831e-03
9.94359633829386234283e+08 9.82266258753986432062e-01 -1.74994927341504236118e-01 -3.82061873244609251019e-03 -3.77015142044145601385e-02 -3.82061873244609251019e-03 -3.77015142044145601385e-02 9.99176872646543201562e-01 -8.12254500687205338583e-03
9.94371097988269567490e+08 9.82194484230229813981e-01 -1.75345057785295632691e-01 -3.83608208483026368041e-03 -3.77769475218286063245e-02 -3.83608208483026368041e-03 -3.77769475218286063245e-02 9.99173541168263179557e-01 -8.13879662245415441690e-03
9.94382562147152900696e+08 9.82122275428521818164e-01 -1.75696573047563142644e-01 -3.85163899956280503245e-03 -3.78526791893390793242e-02 -3.85163899956280503245e-03 -3.78526791893390793242e-02 9.99170189532586183745e-01 -8.15511251561600730708e-03
9.94394026306036353111e+08 9.82049628852314948624e-01 -1.76049481266852353434e-01 -3.86729022995200644522e-03 -3.79287109603424904547e-02 -3.86729022995200644522e-03 -3.79287109603424904547e-02 9.99166817577217036828e-01 -8.17149306411543707718e-03
9.94405490464919686317e+08 9.81976540969938582748e-01 -1.76403790644800467780e-01 -3.88303653687326879793e-03 -3.80050446018279919347e-02 -3.88303653687326879793e-03 -3.80050446018279919347e-02 9.99163425138229865929e-01 -8.18793864863871963256e-03
9.94416954623803019524e+08 9.81903008214167649648e-01 -1.76759509446780094244e-01 -3.89887868886192425280e-03 -3.80816818945161478238e-02 -3.89887868886192425280e-03 -3.80816818945161478238e-02 9.99160012050049006760e-01 -8.20444965283046757920e-03
9.94428418782686352730e+08 9.81829026981799524165e-01 -1.77116646002485000899e-01 -3.91481746220444758178e-03 -3.81586246329850553582e-02 -3.91481746220444758178e-03 -3.81586246329850553582e-02 9.99156578145428464488e-01 -8.22102646332081507530e-03
9.94439882941569805145e+08 9.81754593633217043092e-01 -1.77475208706559001159e-01 -3.93085364103257228763e-03 -3.82358746258059239986e-02 -3.93085364103257228763e-03 -3.82358746258059239986e-02 9.99153123255432151772e-01 -8.23766946975461322733e-03
9.94451347100453138351e+08 9.81679704491950855250e-01 -1.77835206019207159311e-01 -3.94698801741762746870e-03 -3.83134336956746715530e-02 -3.94698801741762746870e-03 -3.83134336956746715530e-02 9.99149647209413571680e-01 -8.25437906481979802309e-03
9.94462811259336471558e+08 9.81604355844227116634e-01 -1.78196646466852959279e-01 -3.96322139146793386844e-03 -3.83913036795535470014e-02 -3.96322139146793386844e-03 -3.83913036795535470014e-02 9.99146149834994501404e-01 -8.27115564427788503565e-03
9.94474275418219804764e+08 9.81528543938518849288e-01 -1.78559538642755394333e-01 -3.97955457142546570326e-03 -3.84694864288040797029e-02 -3.97955457142546570326e-03 -3.84694864288040797029e-02 9.99142630958044564160e-01 -8.28799960699262705521e-03
9.94485739577103137970e+08 9.81452264985084199544e-01 -1.78923891207666357905e-01 -3.99598837376535526850e-03 -3.85479838093287091594e-02 -3.99598837376535526850e-03 -3.85479838093287091594e-02 9.99139090402659579837e-01 -8.30491135496051573195e-03
9.94497203735986590385e+08 9.81375515155499811293e-01 -1.79289712890487007435e-01 -4.01252362329643143951e-03 -3.86267977017121719174e-02 -4.01252362329643143951e-03 -3.86267977017121719174e-02 9.99135527991139804627e-01 -8.32189129334125372861e-03
9.94508667894869923592e+08 9.81298290582190535503e-01 -1.79657012488915607262e-01 -4.02916115326245813377e-03 -3.87059300013611051750e-02 -4.02916115326245813377e-03 -3.87059300013611051750e-02 9.99131943543968281674e-01 -8.33893983048781921308e-03
9.94520132053753256798e+08 9.81220587357945372986e-01 -1.80025798870141806596e-01 -4.04590180544658634815e-03 -3.87853826186536146392e-02 -4.04590180544658634815e-03 -3.87853826186536146392e-02 9.99128336879788303548e-01 -8.35605737797869875527e-03
9.94531596212636590004e+08 9.81142401535435637605e-01 -1.80396080971497618783e-01 -4.06274643027495444697e-03 -3.88651574790795026337e-02 -4.06274643027495444697e-03 -3.88651574790795026337e-02 9.99124707815381207787e-01 -8.37324435064809753648e-03
9.94543060371520042419e+08 9.81063729126715133866e-01 -1.80767867801176124187e-01 -4.07969588692452637957e-03 -3.89452565233951372714e-02 -4.07969588692452637957e-03 -3.89452565233951372714e-02 9.99121056165642951186e-01 -8.39050116661929808182e-03
9.94554524530403375626e+08 9.80984566102731658788e-01 -1.81141168438867322665e-01 -4.09675104342830959797e-03 -3.90256817077604262201e-02 -4.09675104342830959797e-03 -3.90256817077604262201e-02 9.99117381743561350227e-01 -8.40782824733417831486e-03
9.94565988689286708832e+08 9.80904908392806196282e-01 -1.81515992036520135144e-01 -4.11391277678749712338e-03 -3.91064350039030048101e-02 -4.11391277678749712338e-03 -3.91064350039030048101e-02 9.99113684360192322309e-01 -8.42522601758857563048e-03
9.94577452848170042038e+08 9.80824751884122769674e-01 -1.81892347819029936984e-01 -4.13118197308143687146e-03 -3.91875183992663328469e-02 -4.13118197308143687146e-03 -3.91875183992663328469e-02 9.99109963824635904928e-01 -8.44269490556420754146e-03
9.94588917007053494453e+08 9.80744092421209079369e-01 -1.82270245084941773239e-01 -4.14855952757951177562e-03 -3.92689338971611984208e-02 -4.14855952757951177562e-03 -3.92689338971611984208e-02 9.99106219944012052814e-01 -8.46023534286130009241e-03
9.94600381165936827660e+08 9.80662925805405594204e-01 -1.82649693207179386611e-01 -4.16604634485546326816e-03 -3.93506835169228144644e-02 -4.16604634485546326816e-03 -3.93506835169228144644e-02 9.99102452523436324050e-01 -8.47784776453243404948e-03
9.94611845324820160866e+08 9.80581247794322985456e-01 -1.83030701633804887551e-01 -4.18364333890437756214e-03 -3.94327692940744586880e-02 -4.18364333890437756214e-03 -3.94327692940744586880e-02 9.99098661365994344941e-01 -8.49553260911780662445e-03
9.94623309483703494072e+08 9.80499054101302669473e-01 -1.83413279888732516643e-01 -4.20135143325884707205e-03 -3.95151932804812464073e-02 -4.20135143325884707205e-03 -3.95151932804812464073e-02 9.99094846272717163060e-01 -8.51329031867835775427e-03
9.94634773642586946487e+08 9.80416340394860252871e-01 -1.83797437572496280556e-01 -4.21917156110892220544e-03 -3.95979575445155468350e-02 -4.21917156110892220544e-03 -3.95979575445155468350e-02 9.99091007042555045992e-01 -8.53112133883140305590e-03
9.94646237801470279694e+08 9.80333102298127312402e-01 -1.84183184362993773719e-01 -4.23710466542227826015e-03 -3.96810641712171743856e-02 -4.23710466542227826015e-03 -3.96810641712171743856e-02 9.99087143472351835172e-01 -8.54902611878515308885e-03
9.94657701960353612900e+08 9.80249335388276965553e-01 -1.84570530016281070251e-01 -4.25515169906812585482e-03 -3.97645152624646891493e-02 -4.25515169906812585482e-03 -3.97645152624646891493e-02 9.99083255356817967474e-01 -8.56700511137562133179e-03
9.94669166119236946106e+08 9.80165035195951772629e-01 -1.84959484367321180809e-01 -4.27331362494030603943e-03 -3.98483129371366567861e-02 -4.27331362494030603943e-03 -3.98483129371366567861e-02 9.99079342488504273945e-01 -8.58505877310134987712e-03
9.94680630278120279312e+08 9.80080197204670988675e-01 -1.85350057330803064115e-01 -4.29159141608509344529e-03 -3.99324593312880490870e-02 -4.29159141608509344529e-03 -3.99324593312880490870e-02 9.99075404657774335249e-01 -8.60318756416143630428e-03
9.94692094437003731728e+08 9.79994816850241257100e-01 -1.85742258901912205005e-01 -4.30998605582814074688e-03 -4.00169565983163055822e-02 -4.30998605582814074688e-03 -4.00169565983163055822e-02 9.99071441652777059161e-01 -8.62139194849129153475e-03
9.94703558595887064934e+08 9.79908889520152759367e-01 -1.86136099157137940852e-01 -4.32849853790459853514e-03 -4.01018069091352430400e-02 -4.32849853790459853514e-03 -4.01018069091352430400e-02 9.99067453259418591927e-01 -8.63967239380012200223e-03
9.94715022754770398140e+08 9.79822410552961264862e-01 -1.86531588255112235064e-01 -4.34712986659216166913e-03 -4.01870124523557581409e-02 -4.34712986659216166913e-03 -4.01870124523557581409e-02 9.99063439261334007568e-01 -8.65802937160985164322e-03
9.94726486913653731346e+08 9.79735375237673511428e-01 -1.86928736437403764103e-01 -4.36588105684353362801e-03 -4.02725754344569614185e-02 -4.36588105684353362801e-03 -4.02725754344569614185e-02 9.99059399439858331071e-01 -8.67646335729199170983e-03
9.94737951072537183762e+08 9.79647778813109049167e-01 -1.87327554029387916001e-01 -4.38475313442396145980e-03 -4.03584980799735273949e-02 -4.38475313442396145980e-03 -4.03584980799735273949e-02 9.99055333573997117469e-01 -8.69497483010801298919e-03
9.94749415231420516968e+08 9.79559616467268967632e-01 -1.87728051441051008164e-01 -4.40374713604722769350e-03 -4.04447826316690142723e-02 -4.40374713604722769350e-03 -4.04447826316690142723e-02 9.99051241440397141957e-01 -8.71356427324667358325e-03
9.94760879390303850174e+08 9.79470883336677644593e-01 -1.88130239167881740947e-01 -4.42286410951733474639e-03 -4.05314313507279394555e-02 -4.42286410951733474639e-03 -4.05314313507279394555e-02 9.99047122813315868761e-01 -8.73223217386541114560e-03
9.94772343549187183380e+08 9.79381574505729379787e-01 -1.88534127791713246314e-01 -4.44210511386944426754e-03 -4.06184465169371206050e-02 -4.44210511386944426754e-03 -4.06184465169371206050e-02 9.99042977464591142045e-01 -8.75097902312940538472e-03
9.94783807708070635796e+08 9.79291685006016265902e-01 -1.88939727981610045005e-01 -4.46147121951458256600e-03 -4.07058304288768352253e-02 -4.46147121951458256600e-03 -4.07058304288768352253e-02 9.99038805163609877624e-01 -8.76980531625276733820e-03
9.94795271866953969002e+08 9.79201209815651174573e-01 -1.89347050494746232951e-01 -4.48096350838557942742e-03 -4.07935854041099957290e-02 -4.48096350838557942742e-03 -4.07935854041099957290e-02 9.99034605677276754676e-01 -8.78871155253928802720e-03
9.94806736025837302208e+08 9.79110143858576087439e-01 -1.89756106177309730176e-01 -4.50058307408592907228e-03 -4.08817137793769450060e-02 -4.50058307408592907228e-03 -4.08817137793769450060e-02 9.99030378769981908249e-01 -8.80769823542441356035e-03
9.94818200184720635414e+08 9.79018482003864987107e-01 -1.90166905965401755729e-01 -4.52033102204015685421e-03 -4.09702179107892597298e-02 -4.52033102204015685421e-03 -4.09702179107892597298e-02 9.99026124203568954840e-01 -8.82676587251699819314e-03
9.94829664343604087830e+08 9.78926219065009761700e-01 -1.90579460885970802808e-01 -4.54020846964755652592e-03 -4.10591001740309921586e-02 -4.54020846964755652592e-03 -4.10591001740309921586e-02 9.99021841737301463660e-01 -8.84591497564265159814e-03
9.94841128502487421036e+08 9.78833349799208440878e-01 -1.90993782057702093935e-01 -4.56021654643557535630e-03 -4.11483629645502460570e-02 -4.56021654643557535630e-03 -4.11483629645502460570e-02 9.99017531127830205051e-01 -8.86514606088502354897e-03
9.94852592661370754242e+08 9.78739868906619570055e-01 -1.91409880692019751525e-01 -4.58035639422043130975e-03 -4.12380086977751289523e-02 -4.58035639422043130975e-03 -4.12380086977751289523e-02 9.99013192129158178467e-01 -8.88445964863232746922e-03
9.94864056820254087448e+08 9.78645771029632571825e-01 -1.91827768093980721709e-01 -4.60062916726434751463e-03 -4.13280398093063341958e-02 -4.60062916726434751463e-03 -4.13280398093063341958e-02 9.99008824492607305778e-01 -8.90385626361882287494e-03
9.94875520979137420654e+08 9.78551050752104911723e-01 -1.92247455663276195503e-01 -4.62103603243983404592e-03 -4.14184587551328642352e-02 -4.62103603243983404592e-03 -4.14184587551328642352e-02 9.99004427966782460047e-01 -8.92333643497130249433e-03
9.94886985138020873070e+08 9.78455702598602150566e-01 -1.92668954895184263432e-01 -4.64157816939353949637e-03 -4.15092680118373247300e-02 -4.64157816939353949637e-03 -4.15092680118373247300e-02 9.99000002297536382478e-01 -8.94290069625331210390e-03
9.94898449296904206276e+08 9.78359721033618012775e-01 -1.93092277381564980665e-01 -4.66225677071406031937e-03 -4.16004700768102392283e-02 -4.66225677071406031937e-03 -4.16004700768102392283e-02 9.98995547227933711198e-01 -8.96254958551133060207e-03
9.94909913455787539482e+08 9.78263100460786239054e-01 -1.93517434811861122057e-01 -4.68307304210203046574e-03 -4.16920674684657238673e-02 -4.68307304210203046574e-03 -4.16920674684657238673e-02 9.98991062498214232868e-01 -8.98228364532123110808e-03
9.94921377614670872688e+08 9.78165835222077784117e-01 -1.93944438974111371676e-01 -4.70402820254280183004e-03 -4.17840627264597155865e-02 -4.70402820254280183004e-03 -4.17840627264597155865e-02 9.98986547845755357145e-01 -9.00210342283530064178e-03
9.94932841773554325104e+08 9.78067919596989354680e-01 -1.94373301755969257743e-01 -4.72512348448146050212e-03 -4.18764584119095395476e-02 -4.72512348448146050212e-03 -4.18764584119095395476e-02 9.98982003005034924215e-01 -9.02200946982953735920e-03
9.94944305932437658310e+08 9.77969347801721955449e-01 -1.94804035145718673627e-01 -4.74636013399972866295e-03 -4.19692571076126508256e-02 -4.74636013399972866295e-03 -4.19692571076126508256e-02 9.98977427707592680051e-01 -9.04200234275078819357e-03
9.94955770091320991516e+08 9.77870113988330236232e-01 -1.95236651233375940739e-01 -4.76773941099925633452e-03 -4.20624614182841180532e-02 -4.76773941099925633452e-03 -4.20624614182841180532e-02 9.98972821681991085541e-01 -9.06208260276790064647e-03
9.94967234250204324722e+08 9.77770212243883607428e-01 -1.95671162211695365274e-01 -4.78926258938230757500e-03 -4.21560739707732279324e-02 -4.78926258938230757500e-03 -4.21560739707732279324e-02 9.98968184653776236637e-01 -9.08225081581839552292e-03
9.94978698409087777138e+08 9.77669636589593937792e-01 -1.96107580377278767347e-01 -4.81093095723975766598e-03 -4.22500974143025231911e-02 -4.81093095723975766598e-03 -4.22500974143025231911e-02 9.98963516345437452237e-01 -9.10250755265997260612e-03
9.94990162567971110344e+08 9.77568380979944806519e-01 -1.96545918131629804293e-01 -4.83274581703858896464e-03 -4.23445344206949750299e-02 -4.83274581703858896464e-03 -4.23445344206949750299e-02 9.98958816476366529002e-01 -9.12285338891944026785e-03
9.95001626726854443550e+08 9.77466439301789002947e-01 -1.96986187982305410715e-01 -4.85470848581648871389e-03 -4.24393876846220416410e-02 -4.85470848581648871389e-03 -4.24393876846220416410e-02 9.98954084762816441057e-01 -9.14328890514616229868e-03
9.95013090885737776756e+08 9.77363805373454019865e-01 -1.97428402543979891748e-01 -4.87682029537440074607e-03 -4.25346599238329223236e-02 -4.87682029537440074607e-03 -4.25346599238329223236e-02 9.98949320917859373559e-01 -9.16381468686145589375e-03
9.95024555044621229172e+08 9.77260472943814129110e-01 -1.97872574539611351119e-01 -4.89908259247653129348e-03 -4.26303538794058287098e-02 -4.89908259247653129348e-03 -4.26303538794058287098e-02 9.98944524651343757071e-01 -9.18443132461271849465e-03
9.95036019203504562378e+08 9.77156435691367453167e-01 -1.98318716801537203720e-01 -4.92149673904921248352e-03 -4.27264723159840667521e-02 -4.92149673904921248352e-03 -4.27264723159840667521e-02 9.98939695669851412951e-01 -9.20513941402429855532e-03
9.95047483362387895584e+08 9.77051687223273068739e-01 -1.98766842272690591464e-01 -4.94406411238823822324e-03 -4.28230180220380354794e-02 -4.94406411238823822324e-03 -4.28230180220380354794e-02 9.98934833676652922385e-01 -9.22593955585392783147e-03
9.95058947521271228790e+08 9.76946221074396992101e-01 -1.99216964007732977304e-01 -4.96678610536451826951e-03 -4.29199938101093025900e-02 -4.96678610536451826951e-03 -4.29199938101093025900e-02 9.98929938371663439511e-01 -9.24683235604531993113e-03
9.95070411680154561996e+08 9.76840030706332407284e-01 -1.99669095174243582669e-01 -4.98966412663507004333e-03 -4.30174025170668022922e-02 -4.98966412663507004333e-03 -4.30174025170668022922e-02 9.98925009451396950233e-01 -9.26781842578335880722e-03
9.95081875839038014412e+08 9.76733109506403018862e-01 -2.00123249053933083275e-01 -5.01269960085784938714e-03 -4.31152470043683691547e-02 -5.01269960085784938714e-03 -4.31152470043683691547e-02 9.98920046608920308984e-01 -9.28889838155044604562e-03
9.95093339997921347618e+08 9.76625450786659077274e-01 -2.00579439043832519207e-01 -5.03589396890791098776e-03 -4.32135301583168388029e-02 -5.03589396890791098776e-03 -4.32135301583168388029e-02 9.98915049533806276294e-01 -9.31007284518167721465e-03
9.95104804156804680824e+08 9.76517047782845315496e-01 -2.01037678657554230721e-01 -5.05924868809992569346e-03 -4.33122548903317264313e-02 -5.05924868809992569346e-03 -4.33122548903317264313e-02 9.98910017912085890224e-01 -9.33134244392337490470e-03
9.95116268315688014030e+08 9.76407893653361225184e-01 -2.01497981526525177243e-01 -5.08276523241198586317e-03 -4.34114241372149448073e-02 -5.08276523241198586317e-03 -4.34114241372149448073e-02 9.98904951426200393705e-01 -9.35270781049032939869e-03
9.95127732474571466446e+08 9.76297981478202125949e-01 -2.01960361401254701041e-01 -5.10644509271395829336e-03 -4.35110408614239330127e-02 -5.10644509271395829336e-03 -4.35110408614239330127e-02 9.98899849754951385528e-01 -9.37416958312464743130e-03
9.95139196633454799652e+08 9.76187304257889909564e-01 -2.02424832152583250577e-01 -5.13028977699765860454e-03 -4.36111080513406704218e-02 -5.13028977699765860454e-03 -4.36111080513406704218e-02 9.98894712573452081550e-01 -9.39572840565371103505e-03
9.95150660792338132858e+08 9.76075854912371587702e-01 -2.02891407773016035909e-01 -5.15430081061426029199e-03 -4.37116287215590232362e-02 -5.15430081061426029199e-03 -4.37116287215590232362e-02 9.98889539553075356260e-01 -9.41738492755207941276e-03
9.95162124951221466064e+08 9.75963626279914620021e-01 -2.03360102378010526580e-01 -5.17847973651225888803e-03 -4.38126059131621128917e-02 -5.17847973651225888803e-03 -4.38126059131621128917e-02 9.98884330361403116605e-01 -9.43913980400124842662e-03
