! File generated for n1 = 4, n2 = 4
! b1 = 10.000000
! b2 = 1.000000
! Q0 = 10000.000000
! f0 = 1000000000.000000
! n = 1001
! rel_span = 10.000000
# Hz S RI R 50
9.94000000000000000000e+08 9.83596532324372052614e-01 -1.64529751233410348465e-01 -5.18723193799324258646e-03 -5.20288756758474357778e-02 -5.18723193799324258646e-03 -5.20288756758474357778e-02 9.98359653232437249670e-01 -1.64529751233410299893e-02
9.94012000000000000000e+08 9.83531173934719227248e-01 -1.64853939019260542498e-01 -5.20790007554359536679e-03 -5.21313928551367863906e-02 -5.20790007554359536679e-03 -5.21313928551367863906e-02 9.98353117393471878316e-01 -1.64853939019260486987e-02
9.94024000000000000000e+08 9.83465426252726704348e-01 -1.65179389704400408911e-01 -5.22869131814089876248e-03 -5.22343093982472195247e-02 -5.22869131814089876248e-03 -5.22343093982472195247e-02 9.98346542625272670435e-01 -1.65179389704400367278e-02
9.94036000000000000000e+08 9.83399286192742638768e-01 -1.65506110601749162337e-01 -5.24960664155386339674e-03 -5.23376276177268326406e-02 -5.24960664155386339674e-03 -5.23376276177268326406e-02 9.98339928619274230570e-01 -1.65506110601749134581e-02
9.94048000000000000000e+08 9.83332750638592267833e-01 -1.65834109080141040016e-01 -5.27064703120351963489e-03 -5.24413498438056208117e-02 -5.27064703120351963489e-03 -5.24413498438056208117e-02 9.98333275063859271192e-01 -1.65834109080141012260e-02
9.94060000000000000000e+08 9.83265816443220530552e-01 -1.66163392564829870413e-01 -5.29181348227606741796e-03 -5.25454784245550018951e-02 -5.29181348227606741796e-03 -5.25454784245550018951e-02 9.98326581644322086362e-01 -1.66163392564829814901e-02
9.94072000000000000000e+08 9.83198480428324028679e-01 -1.66493968538030223669e-01 -5.31310699983928227952e-03 -5.26500157260589921049e-02 -5.31310699983928227952e-03 -5.26500157260589921049e-02 9.98319848042832358459e-01 -1.66493968538030182036e-02
9.94084000000000000000e+08 9.83130739383976770540e-01 -1.66825844539469941852e-01 -5.33452859896085124225e-03 -5.27549641325888787891e-02 -5.33452859896085124225e-03 -5.27549641325888787891e-02 9.98313073938397632645e-01 -1.66825844539469879402e-02
9.94096000000000000000e+08 9.83062590068257469156e-01 -1.67159028166917800196e-01 -5.35607930482636090258e-03 -5.28603260467701008274e-02 -5.35607930482636090258e-03 -5.28603260467701008274e-02 9.98306259006825791325e-01 -1.67159028166917744684e-02
9.94108000000000000000e+08 9.82994029206866182236e-01 -1.67493527076738701886e-01 -5.37776015286031781187e-03 -5.29661038897578304030e-02 -5.37776015286031781187e-03 -5.29661038897578304030e-02 9.98299402920686640428e-01 -1.67493527076738660253e-02
9.94120000000000000000e+08 9.82925053492733957761e-01 -1.67829348984469217676e-01 -5.39957218884975359563e-03 -5.30723001014189663116e-02 -5.39957218884975359563e-03 -5.30723001014189663116e-02 9.98292505349273384674e-01 -1.67829348984469169104e-02
9.94132000000000000000e+08 9.82855659585634366948e-01 -1.68166501665360651474e-01 -5.42151646906703556933e-03 -5.31789171405038507690e-02 -5.42151646906703556933e-03 -5.31789171405038507690e-02 9.98285565958563436695e-01 -1.68166501665360616780e-02
9.94144000000000000000e+08 9.82785844111783157828e-01 -1.68504992954959409435e-01 -5.44359406039641134656e-03 -5.32859574848298239713e-02 -5.44359406039641134656e-03 -5.32859574848298239713e-02 9.98278584411178337987e-01 -1.68504992954959346985e-02
9.94156000000000000000e+08 9.82715603663433245885e-01 -1.68844830749690949512e-01 -5.46580604046213204550e-03 -5.33934236314658680622e-02 -5.46580604046213204550e-03 -5.33934236314658680622e-02 9.98271560366343346793e-01 -1.68844830749690887062e-02
9.94168000000000000000e+08 9.82644934798467706294e-01 -1.69186023007431324272e-01 -5.48815349775712713748e-03 -5.35013180969133514409e-02 -5.48815349775712713748e-03 -5.35013180969133514409e-02 9.98264493479846803936e-01 -1.69186023007431296517e-02
9.94180000000000000000e+08 9.82573834039982996202e-01 -1.69528577748105951928e-01 -5.51063753177484082907e-03 -5.36096434172953703601e-02 -5.51063753177484082907e-03 -5.36096434172953703601e-02 9.98257383403998277416e-01 -1.69528577748105924172e-02
9.94192000000000000000e+08 9.82502297875867180998e-01 -1.69872503054290052704e-01 -5.53325925314259413346e-03 -5.37184021485466178802e-02 -5.53325925314259413346e-03 -5.37184021485466178802e-02 9.98250229787586706998e-01 -1.69872503054290004132e-02
9.94204000000000000000e+08 9.82430322758375496051e-01 -1.70217807071800453222e-01 -5.55601978375580302788e-03 -5.38275968666005744101e-02 -5.55601978375580302788e-03 -5.38275968666005744101e-02 9.98243032275837549605e-01 -1.70217807071800404650e-02
9.94216000000000000000e+08 9.82357905103693140880e-01 -1.70564498010325971133e-01 -5.57892025691618213823e-03 -5.39372301675887788619e-02 -5.57892025691618213823e-03 -5.39372301675887788619e-02 9.98235790510369258577e-01 -1.70564498010325922561e-02
9.94228000000000000000e+08 9.82285041291502070138e-01 -1.70912584144018275811e-01 -5.60196181746883559854e-03 -5.40473046680277346976e-02 -5.60196181746883559854e-03 -5.40473046680277346976e-02 9.98228504129150207014e-01 -1.70912584144018234178e-02
9.94240000000000000000e+08 9.82211727664529243853e-01 -1.71262073812146059515e-01 -5.62514562194502045628e-03 -5.41578230050257444783e-02 -5.62514562194502045628e-03 -5.41578230050257444783e-02 9.98221172766452946590e-01 -1.71262073812145990126e-02
9.94252000000000000000e+08 9.82137960528098652446e-01 -1.71612975419711405456e-01 -5.64847283870394036714e-03 -5.42687878364778580886e-02 -5.64847283870394036714e-03 -5.42687878364778580886e-02 9.98213796052809909654e-01 -1.71612975419711370761e-02
9.94264000000000000000e+08 9.82063736149671795417e-01 -1.71965297438092828974e-01 -5.67194464807785347915e-03 -5.43802018412691615112e-02 -5.67194464807785347915e-03 -5.43802018412691615112e-02 9.98206373614967223951e-01 -1.71965297438092801219e-02
9.94276000000000000000e+08 9.81989050758384274253e-01 -1.72319048405689040360e-01 -5.69556224251881095672e-03 -5.44920677194783986685e-02 -5.69556224251881095672e-03 -5.44920677194783986685e-02 9.98198905075838416323e-01 -1.72319048405688984849e-02
9.94288000000000000000e+08 9.81913900544572282314e-01 -1.72674236928581498196e-01 -5.71932682674825346170e-03 -5.46043881925874982630e-02 -5.71932682674825346170e-03 -5.46043881925874982630e-02 9.98191390054457228231e-01 -1.72674236928581428807e-02
9.94300000000000000000e+08 9.81838281659296985282e-01 -1.73030871681186942945e-01 -5.74323961790755652818e-03 -5.47171660036878879096e-02 -5.74323961790755652818e-03 -5.47171660036878879096e-02 9.98183828165929654119e-01 -1.73030871681186873556e-02
9.94312000000000000000e+08 9.81762190213856911214e-01 -1.73388961406936742415e-01 -5.76730184571203931265e-03 -5.48304039176953361689e-02 -5.76730184571203931265e-03 -5.48304039176953361689e-02 9.98176219021385646712e-01 -1.73388961406936714660e-02
9.94324000000000000000e+08 9.81685622279298786275e-01 -1.73748514918944801932e-01 -5.79151475260588147198e-03 -5.49441047215611516608e-02 -5.79151475260588147198e-03 -5.49441047215611516608e-02 9.98168562227929934139e-01 -1.73748514918944767238e-02
9.94336000000000000000e+08 9.81608573885915380863e-01 -1.74109541100704118266e-01 -5.81587959392069597103e-03 -5.50582712244924860068e-02 -5.81587959392069597103e-03 -5.50582712244924860068e-02 9.98160857388591504780e-01 -1.74109541100704069694e-02
9.94348000000000000000e+08 9.81531041022742578583e-01 -1.74472048906767290832e-01 -5.84039763803473506443e-03 -5.51729062581675158694e-02 -5.84039763803473506443e-03 -5.51729062581675158694e-02 9.98153104102274313369e-01 -1.74472048906767242260e-02
9.94360000000000000000e+08 9.81453019637044010715e-01 -1.74836047363454316628e-01 -5.86507016653572185033e-03 -5.52880126769592222802e-02 -5.86507016653572185033e-03 -5.52880126769592222802e-02 9.98145301963704434378e-01 -1.74836047363454254178e-02
9.94372000000000000000e+08 9.81374505633789140369e-01 -1.75201545569568739591e-01 -5.88989847438605839541e-03 -5.54035933581619455257e-02 -5.88989847438605839541e-03 -5.54035933581619455257e-02 9.98137450563378880730e-01 -1.75201545569568691019e-02
9.94384000000000000000e+08 9.81295494875127016776e-01 -1.75568552697102503446e-01 -5.91488387008908163278e-03 -5.55196512022142069087e-02 -5.91488387008908163278e-03 -5.55196512022142069087e-02 9.98129549487512646166e-01 -1.75568552697102434057e-02
9.94396000000000000000e+08 9.81215983179847817119e-01 -1.75937077991973722657e-01 -5.94002767585942535039e-03 -5.56361891329320290556e-02 -5.94002767585942535039e-03 -5.56361891329320290556e-02 9.98121598317984748405e-01 -1.75937077991973681024e-02
9.94408000000000000000e+08 9.81135966322841057696e-01 -1.76307130774751436020e-01 -5.96533122779438051281e-03 -5.57532100977381414597e-02 -5.96533122779438051281e-03 -5.57532100977381414597e-02 9.98113596632284050258e-01 -1.76307130774751401325e-02
9.94420000000000000000e+08 9.81055440034540926497e-01 -1.76678720441409198294e-01 -5.99079587604915524135e-03 -5.58707170679002690372e-02 -5.99079587604915524135e-03 -5.58707170679002690372e-02 9.98105544003454081547e-01 -1.76678720441409142783e-02
9.94432000000000000000e+08 9.80974400000368840224e-01 -1.77051856464067070007e-01 -6.01642298501330833466e-03 -5.59887130387657708241e-02 -6.01642298501330833466e-03 -5.59887130387657708241e-02 9.98097440000036861818e-01 -1.77051856464067007557e-02
9.94444000000000000000e+08 9.80892841860163233747e-01 -1.77426548391760890988e-01 -6.04221393349101999759e-03 -5.61072010300049384135e-02 -6.04221393349101999759e-03 -5.61072010300049384135e-02 9.98089284186016278966e-01 -1.77426548391760863232e-02
9.94456000000000000000e+08 9.80810761207603243328e-01 -1.77802805851209472232e-01 -6.06817011488325515345e-03 -5.62261840858535311138e-02 -6.06817011488325515345e-03 -5.62261840858535311138e-02 9.98081076120760357639e-01 -1.77802805851209437538e-02
9.94468000000000000000e+08 9.80728153589624174202e-01 -1.78180638547592973264e-01 -6.09429293737277343740e-03 -5.63456652753590025995e-02 -6.09429293737277343740e-03 -5.63456652753590025995e-02 9.98072815358962417420e-01 -1.78180638547592931631e-02
9.94480000000000000000e+08 9.80645014505823642281e-01 -1.78560056265338329418e-01 -6.12058382411168836607e-03 -5.64656476926288231066e-02 -6.12058382411168836607e-03 -5.64656476926288231066e-02 9.98064501450582342024e-01 -1.78560056265338294723e-02
9.94492000000000000000e+08 9.80561339407858389983e-01 -1.78941068868923552904e-01 -6.14704421341247947419e-03 -5.65861344570848384672e-02 -6.14704421341247947419e-03 -5.65861344570848384672e-02 9.98056133940785850100e-01 -1.78941068868923511270e-02
9.94504000000000000000e+08 9.80477123698832886411e-01 -1.79323686303681534282e-01 -6.17367555894114510007e-03 -5.67071287137174487314e-02 -6.17367555894114510007e-03 -5.67071287137174487314e-02 9.98047712369883321948e-01 -1.79323686303681506526e-02
9.94516000000000000000e+08 9.80392362732680155979e-01 -1.79707918596611532225e-01 -6.20047932991306480904e-03 -5.68286336333422292810e-02 -6.20047932991306480904e-03 -5.68286336333422292810e-02 9.98039236273267960087e-01 -1.79707918596611476714e-02
9.94528000000000000000e+08 9.80307051813527952078e-01 -1.80093775857223165060e-01 -6.22745701129340765989e-03 -5.69506524128668215057e-02 -6.22745701129340765989e-03 -5.69506524128668215057e-02 9.98030705181352839617e-01 -1.80093775857223109549e-02
9.94540000000000000000e+08 9.80221186195065929958e-01 -1.80481268278344597622e-01 -6.25461010399728113002e-03 -5.70731882755465061430e-02 -6.25461010399728113002e-03 -5.70731882755465061430e-02 9.98022118619506626302e-01 -1.80481268278344549050e-02
9.94552000000000000000e+08 9.80134761079890726165e-01 -1.80870406136997369240e-01 -6.28194012509688572143e-03 -5.71962444712608431008e-02 -6.28194012509688572143e-03 -5.71962444712608431008e-02 9.98013476107989072617e-01 -1.80870406136997320667e-02
9.94564000000000000000e+08 9.80047771618850704911e-01 -1.81261199795236666032e-01 -6.30944860802860798404e-03 -5.73198242767794102770e-02 -6.30944860802860798404e-03 -5.73198242767794102770e-02 9.98004777161885070491e-01 -1.81261199795236596644e-02
9.94576000000000000000e+08 9.79960212910377603812e-01 -1.81653659701018099781e-01 -6.33713710280436534616e-03 -5.74439309960358482354e-02 -6.33713710280436534616e-03 -5.74439309960358482354e-02 9.97996021291037704870e-01 -1.81653659701018037331e-02
9.94588000000000000000e+08 9.79872079999807077400e-01 -1.82047796389082361390e-01 -6.36500717622665631440e-03 -5.75685679604076919191e-02 -6.36500717622665631440e-03 -5.75685679604076919191e-02 9.97987207999980752149e-01 -1.82047796389082326696e-02
9.94600000000000000000e+08 9.79783367878691024977e-01 -1.82443620481835350189e-01 -6.39306041210578775147e-03 -5.76937385289946064182e-02 -6.39306041210578775147e-03 -5.76937385289946064182e-02 9.97978336787869069191e-01 -1.82443620481835301617e-02
9.94612000000000000000e+08 9.79694071484096706826e-01 -1.82841142690257835168e-01 -6.42129841148171218168e-03 -5.78194460889061290221e-02 -6.42129841148171218168e-03 -5.78194460889061290221e-02 9.97969407148409648478e-01 -1.82841142690257779657e-02
9.94624000000000000000e+08 9.79604185697900309293e-01 -1.83240373814798240826e-01 -6.44972279284724159948e-03 -5.79456940555439295459e-02 -6.44972279284724159948e-03 -5.79456940555439295459e-02 9.97960418569790008725e-01 -1.83240373814798178376e-02
9.94636000000000000000e+08 9.79513705346063967561e-01 -1.83641324746307538218e-01 -6.47833519237687137371e-03 -5.80724858728974835387e-02 -6.47833519237687137371e-03 -5.80724858728974835387e-02 9.97951370534606363449e-01 -1.83641324746307461890e-02
9.94648000000000000000e+08 9.79422625197904572758e-01 -1.84044006466967308144e-01 -6.50713726415780378126e-03 -5.81998250138375389229e-02 -6.50713726415780378126e-03 -5.81998250138375389229e-02 9.97942262519790457276e-01 -1.84044006466967252633e-02
9.94660000000000000000e+08 9.79330939965353586274e-01 -1.84448430051224770976e-01 -6.53613068042414521730e-03 -5.83277149804117961418e-02 -6.53613068042414521730e-03 -5.83277149804117961418e-02 9.97933093996535403036e-01 -1.84448430051224708526e-02
9.94672000000000000000e+08 9.79238644302200866854e-01 -1.84854606666756515754e-01 -6.56531713179595282498e-03 -5.84561593041496921352e-02 -6.56531713179595282498e-03 -5.84561593041496921352e-02 9.97923864430220075583e-01 -1.84854606666756474120e-02
9.94684000000000000000e+08 9.79145732803330726135e-01 -1.85262547575430758240e-01 -6.59469832752095693612e-03 -5.85851615463666222650e-02 -6.59469832752095693612e-03 -5.85851615463666222650e-02 9.97914573280333061511e-01 -1.85262547575430723545e-02
9.94696000000000000000e+08 9.79052200003945105600e-01 -1.85672264134280867731e-01 -6.62427599571997587080e-03 -5.87147252984718953650e-02 -6.62427599571997587080e-03 -5.87147252984718953650e-02 9.97905220000394499458e-01 -1.85672264134280791403e-02
9.94708000000000000000e+08 9.78958040378773541867e-01 -1.86083767796502930203e-01 -6.65405188363696158127e-03 -5.88448541822841272864e-02 -6.65405188363696158127e-03 -5.88448541822841272864e-02 9.97895804037877365289e-01 -1.86083767796502881631e-02
9.94720000000000000000e+08 9.78863248341273695097e-01 -1.86497070112449508938e-01 -6.68402775789172631099e-03 -5.89755518503454964629e-02 -6.68402775789172631099e-03 -5.89755518503454964629e-02 9.97886324834127313999e-01 -1.86497070112449439550e-02
9.94732000000000000000e+08 9.78767818242815668128e-01 -1.86912182730653492202e-01 -6.71420540473787862829e-03 -5.91068219862455404567e-02 -6.71420540473787862829e-03 -5.91068219862455404567e-02 9.97876781824281522404e-01 -1.86912182730653436691e-02
9.94744000000000000000e+08 9.78671744371857887934e-01 -1.87329117398846611842e-01 -6.74458663032343960775e-03 -5.92386683049432316572e-02 -6.74458663032343960775e-03 -5.92386683049432316572e-02 9.97867174437185755487e-01 -1.87329117398846584086e-02
9.94756000000000000000e+08 9.78575020953108443145e-01 -1.87747885964998972863e-01 -6.77517326095609245806e-03 -5.93710945530956588079e-02 -6.77517326095609245806e-03 -5.93710945530956588079e-02 9.97857502095310877621e-01 -1.87747885964998917352e-02
9.94768000000000000000e+08 9.78477642146673098900e-01 -1.88168500378370406878e-01 -6.80596714337250094373e-03 -5.95041045093905943131e-02 -6.80596714337250094373e-03 -5.95041045093905943131e-02 9.97847764214667365401e-01 -1.88168500378370351367e-02
9.94780000000000000000e+08 9.78379602047189433911e-01 -1.88590972690581532012e-01 -6.83697014501229161088e-03 -5.96377019848850845052e-02 -6.83697014501229161088e-03 -5.96377019848850845052e-02 9.97837960204718932289e-01 -1.88590972690581490379e-02
9.94792000000000000000e+08 9.78280894682948765073e-01 -1.89015315056687838169e-01 -6.86818415429555056279e-03 -5.97718908233451778900e-02 -6.86818415429555056279e-03 -5.97718908233451778900e-02 9.97828089468294820996e-01 -1.89015315056687768780e-02
9.94804000000000000000e+08 9.78181514015004971441e-01 -1.89441539736267122729e-01 -6.89961108090467525877e-03 -5.99066749015897820341e-02 -6.89961108090467525877e-03 -5.99066749015897820341e-02 9.97818151401500541553e-01 -1.89441539736267053340e-02
9.94816000000000000000e+08 9.78081453936265887705e-01 -1.89869659094536291644e-01 -6.93125285607178349967e-03 -6.00420581298438046924e-02 -6.93125285607178349967e-03 -6.00420581298438046924e-02 9.97808145393626610975e-01 -1.89869659094536250010e-02
9.94828000000000000000e+08 9.77980708270576593044e-01 -1.90299685603454421523e-01 -6.96311143286860827206e-03 -6.01780444520870066993e-02 -6.96311143286860827206e-03 -6.01780444520870066993e-02 9.97798070827057625998e-01 -1.90299685603454379890e-02
9.94840000000000000000e+08 9.77879270771782715954e-01 -1.90731631842860960280e-01 -6.99518878650251443169e-03 -6.03146378464139085174e-02 -6.99518878650251443169e-03 -6.03146378464139085174e-02 9.97787927077178227186e-01 -1.90731631842860904769e-02
9.94852000000000000000e+08 9.77777135122778973120e-01 -1.91165510501634577922e-01 -7.02748691461767011762e-03 -6.04518423254002679190e-02 -7.02748691461767011762e-03 -6.04518423254002679190e-02 9.97777713512277841801e-01 -1.91165510501634522411e-02
9.94864000000000000000e+08 9.77674294934547383207e-01 -1.91601334378838500383e-01 -7.06000783759888703855e-03 -6.05896619364652624928e-02 -7.06000783759888703855e-03 -6.05896619364652624928e-02 9.97767429493454760525e-01 -1.91601334378838430994e-02
9.94876000000000000000e+08 9.77570743745177495043e-01 -1.92039116384899621881e-01 -7.09275359888171010037e-03 -6.07281007622443372296e-02 -7.09275359888171010037e-03 -6.07281007622443372296e-02 9.97757074374517771709e-01 -1.92039116384899559431e-02
9.94888000000000000000e+08 9.77466475018868075075e-01 -1.92478869542809405413e-01 -7.12572626526794625917e-03 -6.08671629209690048801e-02 -7.12572626526794625917e-03 -6.08671629209690048801e-02 9.97746647501886796405e-01 -1.92478869542809377657e-02
9.94900000000000000000e+08 9.77361482144920246107e-01 -1.92920606989312820589e-01 -7.15892792724418230293e-03 -6.10068525668427674713e-02 -7.15892792724418230293e-03 -6.10068525668427674713e-02 9.97736148214491969100e-01 -1.92920606989312772017e-02
9.94912000000000000000e+08 9.77255758436707755443e-01 -1.93364341976136694390e-01 -7.19236069930721810817e-03 -6.11471738904295833428e-02 -7.19236069930721810817e-03 -6.11471738904295833428e-02 9.97725575843670831055e-01 -1.93364341976136645818e-02
9.94924000000000000000e+08 9.77149297130633254227e-01 -1.93810087871229774770e-01 -7.22602672029439094953e-03 -6.12881311190460464911e-02 -7.22602672029439094953e-03 -6.12881311190460464911e-02 9.97714929713063303218e-01 -1.93810087871229726197e-02
9.94936000000000000000e+08 9.77042091385068367515e-01 -1.94257858160010010717e-01 -7.25992815371856014400e-03 -6.14297285171557377881e-02 -7.25992815371856014400e-03 -6.14297285171557377881e-02 9.97704209138506881160e-01 -1.94257858160009969084e-02
