! File generated for n1 = 14, n2 = 2
! b1 = 0.004642
! b2 = 0.002154
! Q0 = 10000.000000
! f0 = 1000000000.000000
! n = 1001
! rel_span = 10.000000
# Hz S RI R 50
9.99496601988238215446e+08 9.99908753281210316288e-01 -9.12696970652718199586e-04 -6.21656658389565467543e-05 -6.21813207558923747298e-04 -6.21656658389565467543e-05 -6.21813207558923747298e-04 9.99957647024896201238e-01 -4.23636406745386687785e-04
9.99497608784261703491e+08 9.99908390742248243122e-01 -9.14490165994249278210e-04 -6.24126607585928991221e-05 -6.23034897323380596444e-04 -6.24126607585928991221e-05 -6.23034897323380596444e-04 9.99957478749216366332e-01 -4.24468734292760387430e-04
9.99498615580285310745e+08 9.99908026045994602349e-01 -9.16290346345321289265e-04 -6.26611254237607483066e-05 -6.24261345919439989034e-04 -6.26611254237607483066e-05 -6.24261345919439989034e-04 9.99957309472210509327e-01 -4.25304303994362932137e-04
9.99499622376308798790e+08 9.99907659175358953796e-01 -9.18097552149480422741e-04 -6.29110714781975957199e-05 -6.25492580900969099081e-04 -6.29110714781975957199e-05 -6.25492580900969099081e-04 9.99957139185945975690e-01 -4.26143134622425433060e-04
9.99500629172332286835e+08 9.99907290113081548277e-01 -9.19911824159494592376e-04 -6.31625106807861408376e-05 -6.26728630032505557371e-04 -6.31625106807861408376e-05 -6.26728630032505557371e-04 9.99956967882411396076e-01 -4.26985245092707257041e-04
9.99501635968355774879e+08 9.99906918841731662262e-01 -9.21733203440376624993e-04 -6.34154549069324241332e-05 -6.27969521291317001911e-04 -6.34154549069324241332e-05 -6.27969521291317001911e-04 9.99956795553516242236e-01 -4.27830654465898767378e-04
9.99502642764379382133e+08 9.99906545343705488449e-01 -9.23561731372441168525e-04 -6.36699161499635940716e-05 -6.29215282869483505043e-04 -6.36699161499635940716e-05 -6.29215282869483505043e-04 9.99956622191089494756e-01 -4.28679381949040761313e-04
9.99503649560402870178e+08 9.99906169601224470433e-01 -9.25397449652979567532e-04 -6.39259065223469975835e-05 -6.30465943175039021489e-04 -6.39259065223469975835e-05 -6.30465943175039021489e-04 9.99956447786878976913e-01 -4.29531446896301355096e-04
9.99504656356426358223e+08 9.99905791596332305105e-01 -9.27240400301396054152e-04 -6.41834382574061468449e-05 -6.31721530835470434020e-04 -6.41834382574061468449e-05 -6.31721530835470434020e-04 9.99956272332550355486e-01 -4.30386868811360307190e-04
9.99505663152449965477e+08 9.99905411310894054466e-01 -9.29090625660343449876e-04 -6.44425237104944223379e-05 -6.32982074698491240135e-04 -6.44425237104944223379e-05 -6.32982074698491240135e-04 9.99956095819685919501e-01 -4.31245667347936048955e-04
9.99506669948473453522e+08 9.99905028726592925992e-01 -9.30948168399921304784e-04 -6.47031753606109406645e-05 -6.34247603834901785801e-04 -6.47031753606109406645e-05 -6.34247603834901785801e-04 9.99955918239783914103e-01 -4.32107862311734375414e-04
9.99507676744496941566e+08 9.99904643824928607287e-01 -9.32813071520393992386e-04 -6.49654058118254401459e-05 -6.35518147540441299612e-04 -6.49654058118254401459e-05 -6.35518147540441299612e-04 9.99955739584257319308e-01 -4.32973473661709914485e-04
9.99508683540520548820e+08 9.99904256587215045649e-01 -9.34685378356276850773e-04 -6.52292277949110486370e-05 -6.36793735338571256603e-04 -6.52292277949110486370e-05 -6.36793735338571256603e-04 9.99955559844432517735e-01 -4.33842521511962992894e-04
9.99509690336544036865e+08 9.99903866994578338634e-01 -9.36565132576951467347e-04 -6.54946541685040681431e-05 -6.38074396980895181333e-04 -6.54946541685040681431e-05 -6.38074396980895181333e-04 9.99955379011549294610e-01 -4.34715026132024998182e-04
9.99510697132567524910e+08 9.99903475027953736465e-01 -9.38452378193403995328e-04 -6.57616979211428034522e-05 -6.39360162451748617780e-04 -6.57616979211428034522e-05 -6.39360162451748617780e-04 9.99955197076758506292e-01 -4.35591007949986030925e-04
9.99511703928591012955e+08 9.99903080668084420779e-01 -9.40347159558805201912e-04 -6.60303721724549125922e-05 -6.40651061968595296817e-04 -6.60303721724549125922e-05 -6.40651061968595296817e-04 9.99955014031121969253e-01 -4.36470487552764437392e-04
9.99512710724614620209e+08 9.99902683895518396007e-01 -9.42249521373058804806e-04 -6.63006901749210920570e-05 -6.41947125985125027076e-04 -6.63006901749210920570e-05 -6.41947125985125027076e-04 9.99954829865610794748e-01 -4.37353485688217534337e-04
9.99513717520638108253e+08 9.99902284690606379947e-01 -9.44159508685514254483e-04 -6.65726653153964699526e-05 -6.43248385193102259656e-04 -6.65726653153964699526e-05 -6.43248385193102259656e-04 9.99954644571104611650e-01 -4.38240023266401018242e-04
9.99514724316661596298e+08 9.99901883033499472297e-01 -9.46077166898869536746e-04 -6.68463111168181702091e-05 -6.44554870525024985531e-04 -6.68463111168181702091e-05 -6.44554870525024985531e-04 9.99954458138390345212e-01 -4.39130121361380612935e-04
9.99515731112685203552e+08 9.99901478904146490123e-01 -9.48002541773019873593e-04 -6.71216412399235019728e-05 -6.45866613156747095340e-04 -6.71216412399235019728e-05 -6.45866613156747095340e-04 9.99954270558161106841e-01 -4.40023801213018075831e-04
9.99516737908708691597e+08 9.99901072282291747406e-01 -9.49935679426392267678e-04 -6.73986694846263271596e-05 -6.47183644508387049231e-04 -6.73986694846263271596e-05 -6.47183644508387049231e-04 9.99954081821015083875e-01 -4.40921084227591090522e-04
9.99517744704732179642e+08 9.99900663147472612557e-01 -9.51876626342091952844e-04 -6.76774097920992571747e-05 -6.48505996248515716174e-04 -6.76774097920992571747e-05 -6.48505996248515716174e-04 9.99953891917454207316e-01 -4.41821991980645748486e-04
9.99518751500755786896e+08 9.99900251479016510814e-01 -9.53825429370279832646e-04 -6.79578762463364896866e-05 -6.49833700295776388843e-04 -6.79578762463364896866e-05 -6.49833700295776388843e-04 9.99953700837883374675e-01 -4.42726546218100537947e-04
9.99519758296779274940e+08 9.99899837256038925837e-01 -9.55782135730777601332e-04 -6.82400830757657868644e-05 -6.51166788820658646794e-04 -6.82400830757657868644e-05 -6.51166788820658646794e-04 9.99953508572608673610e-01 -4.43634768857455066664e-04
9.99520765092802762985e+08 9.99899420457440402110e-01 -9.57746793018836458343e-04 -6.85240446553357136382e-05 -6.52505294249430107222e-04 -6.85240446553357136382e-05 -6.52505294249430107222e-04 9.99953315111836493756e-01 -4.44546681990468041303e-04
9.99521771888826251030e+08 9.99899001061903991427e-01 -9.59719449207080215446e-04 -6.88097755080714813683e-05 -6.53849249265458717928e-04 -6.88097755080714813683e-05 -6.53849249265458717928e-04 9.99953120445672638539e-01 -4.45462307884058998381e-04
9.99522778684849858284e+08 9.99898579047892810401e-01 -9.61700152649416230809e-04 -6.90972903069331755022e-05 -6.55198686811878051525e-04 -6.90972903069331755022e-05 -6.55198686811878051525e-04 9.99952924564120437800e-01 -4.46381668982123475543e-04
9.99523785480873346329e+08 9.99898154393646820814e-01 -9.63688952085872034894e-04 -6.93866038768293222957e-05 -6.56553640094882304257e-04 -6.93866038768293222957e-05 -6.56553640094882304257e-04 9.99952727457079859619e-01 -4.47304787907778340049e-04
9.99524792276896834373e+08 9.99897727077180609179e-01 -9.65685896644637099991e-04 -6.96777311962449945586e-05 -6.57914142585117327384e-04 -6.96777311962449945586e-05 -6.57914142585117327384e-04 9.99952529114346067018e-01 -4.48231687464309164638e-04
9.99525799072920441628e+08 9.99897297076280056061e-01 -9.67691035847979006204e-04 -6.99706873994539228995e-05 -6.59280228021711474026e-04 -6.99706873994539228995e-05 -6.59280228021711474026e-04 9.99952329525608196725e-01 -4.49162390637916240574e-04
9.99526805868943929672e+08 9.99896864368500115638e-01 -9.69704419614033567669e-04 -7.02654877781508840689e-05 -6.60651930413494459238e-04 -7.02654877781508840689e-05 -6.60651930413494459238e-04 9.99952128680448248943e-01 -4.50096920598545889667e-04
9.99527812664967417717e+08 9.99896428931161262987e-01 -9.71726098262380992739e-04 -7.05621477836576729099e-05 -6.62029284042797380207e-04 -7.05621477836576729099e-05 -6.62029284042797380207e-04 9.99951926568339310997e-01 -4.51035300702478129595e-04
9.99528819460991024971e+08 9.99895990741347051589e-01 -9.73756122517580166228e-04 -7.08606830288534701159e-05 -6.63412323467859970337e-04 -7.08606830288534701159e-05 -6.63412323467859970337e-04 9.99951723178644447110e-01 -4.51977554493967722312e-04
9.99529826257014513016e+08 9.99895549775901004708e-01 -9.75794543511614717937e-04 -7.11611092899658493520e-05 -6.64801083524496909567e-04 -7.11611092899658493520e-05 -6.64801083524496909567e-04 9.99951518500615366136e-01 -4.52923705706378954255e-04
9.99530833053038001060e+08 9.99895106011423506764e-01 -9.77841412790752661371e-04 -7.14634425090340168283e-05 -6.66195599330771928356e-04 -7.14634425090340168283e-05 -6.66195599330771928356e-04 9.99951312523390978271e-01 -4.53873778265370100751e-04
9.99531839849061489105e+08 9.99894659424268805736e-01 -9.79896782317417293015e-04 -7.17676987956609904306e-05 -6.67595906288271962077e-04 -7.17676987956609904306e-05 -6.67595906288271962077e-04 9.99951105235995951759e-01 -4.54827796289761546698e-04
9.99532846645085096359e+08 9.99894209990541904531e-01 -9.81960704475924681806e-04 -7.20738944293590136228e-05 -6.69002040086016025108e-04 -7.20738944293590136228e-05 -6.69002040086016025108e-04 9.99950896627339158584e-01 -4.55785784094198966575e-04
9.99533853441108584404e+08 9.99893757686095674408e-01 -9.84033232074421138416e-04 -7.23820458613560802118e-05 -6.70414036701775443820e-04 -7.23820458613560802118e-05 -6.70414036701775443820e-04 9.99950686686212453225e-01 -4.56747766190052507506e-04
9.99534860237132072449e+08 9.99893302486527191242e-01 -9.86114418352324311606e-04 -7.26921697172432172392e-05 -6.71831932407143152253e-04 -7.26921697172432172392e-05 -6.71831932407143152253e-04 9.99950475401289007316e-01 -4.57713767288870894759e-04
9.99535867033155679703e+08 9.99892844367174737918e-01 -9.88204316981785776952e-04 -7.30042827987584312362e-05 -6.73255763768530290751e-04 -7.30042827987584312362e-05 -6.73255763768530290751e-04 9.99950262761121977384e-01 -4.58683812303059925460e-04
9.99536873829179167747e+08 9.99892383303114584692e-01 -9.90302982073527947662e-04 -7.33184020862458820387e-05 -6.74685567651143059537e-04 -7.33184020862458820387e-05 -6.74685567651143059537e-04 9.99950048754142617469e-01 -4.59657926348592323507e-04
9.99537880625202655792e+08 9.99891919269157658512e-01 -9.92410468181032998092e-04 -7.36345447408952617167e-05 -6.76121381221836121982e-04 -7.36345447408952617167e-05 -6.76121381221836121982e-04 9.99949833368659279920e-01 -4.60636134746951280382e-04
9.99538887421226263046e+08 9.99891452239845879291e-01 -9.94526830304771252214e-04 -7.39527281070129135230e-05 -6.77563241951993546625e-04 -7.39527281070129135230e-05 -6.77563241951993546625e-04 9.99949616592855528019e-01 -4.61618463027093674234e-04
9.99539894217249751091e+08 9.99890982189449162298e-01 -9.96652123896716451990e-04 -7.42729697143618383367e-05 -6.79011187620605556094e-04 -7.42729697143618383367e-05 -6.79011187620605556094e-04 9.99949398414788248601e-01 -4.62604936927545832680e-04
9.99540901013273239136e+08 9.99890509091961532384e-01 -9.98786404865030594952e-04 -7.45952872805537970215e-05 -6.80465256317459334101e-04 -7.45952872805537970215e-05 -6.80465256317459334101e-04 9.99949178822386652854e-01 -4.63595582398577791845e-04
9.99541907809296727180e+08 9.99890032921097793306e-01 -1.00092972957927959718e-03 -7.49196987135496432660e-05 -6.81925486446693040164e-04 -7.49196987135496432660e-05 -6.81925486446693040164e-04 9.99948957803450277915e-01 -4.64590425604624211384e-04
9.99542914605320334435e+08 9.99889553650289863995e-01 -1.00308215487369891024e-03 -7.52462221138919398018e-05 -6.83391916729020700884e-04 -7.52462221138919398018e-05 -6.83391916729020700884e-04 9.99948735345647210515e-01 -4.65589492925800468599e-04
9.99543921401343822479e+08 9.99889071252683336866e-01 -1.00524373805334485063e-03 -7.55748757774022230163e-05 -6.84864586205922542921e-04 -7.55748757774022230163e-05 -6.84864586205922542921e-04 9.99948511436512865735e-01 -4.66592810960757471174e-04
9.99544928197367310524e+08 9.99888585701133369987e-01 -1.00741453689770043937e-03 -7.59056781975212533416e-05 -6.86343534242102228798e-04 -7.59056781975212533416e-05 -6.86343534242102228798e-04 9.99948286063447544514e-01 -4.67600406528355502702e-04
9.99545934993390917778e+08 9.99888096968201134374e-01 -1.00959460966707739900e-03 -7.62386480681036818796e-05 -6.87828800529848060144e-04 -7.62386480681036818796e-05 -6.87828800529848060144e-04 9.99948059213715545468e-01 -4.68612306670635858207e-04
9.99546941789414405823e+08 9.99887605026150483312e-01 -1.01178401510524794589e-03 -7.65738042856674717539e-05 -6.89320425090825922819e-04 -7.65738042856674717539e-05 -6.89320425090825922819e-04 9.99947830874442611382e-01 -4.69628538654042197893e-04
9.99547948585437893867e+08 9.99887109846943067382e-01 -1.01398281244681367878e-03 -7.69111659523964062918e-05 -6.90818448281100444021e-04 -7.69111659523964062918e-05 -6.90818448281100444021e-04 9.99947601032614596939e-01 -4.70649129972841096577e-04
9.99548955381461501122e+08 9.99886611402235336854e-01 -1.01619106142115641148e-03 -7.72507523786521719047e-05 -6.92322910793825548395e-04 -7.72507523786521719047e-05 -6.92322910793825548395e-04 9.99947369675075692363e-01 -4.71674108350955754825e-04
9.99549962177484989166e+08 9.99886109663374211820e-01 -1.01840882225642825366e-03 -7.75925830855209457040e-05 -6.93833853661963637083e-04 -7.75925830855209457040e-05 -6.93833853661963637083e-04 9.99947136788526091955e-01 -4.72703501743817924678e-04
9.99550968973508477211e+08 9.99885604601392641300e-01 -1.02063615568688797336e-03 -7.79366778079076678431e-05 -6.95351318263283542896e-04 -7.79366778079076678431e-05 -6.95351318263283542896e-04 9.99946902359520772841e-01 -4.73737338341773334474e-04
9.99551975769531965256e+08 9.99885096187006272572e-01 -1.02287312295678200699e-03 -7.82830564971307270522e-05 -6.96875346323004465736e-04 -7.82830564971307270522e-05 -6.96875346323004465736e-04 9.99946666374466941463e-01 -4.74775646571882982330e-04
9.99552982565555572510e+08 9.99884584390608677218e-01 -1.02511978582598361175e-03 -7.86317393238206429089e-05 -6.98405979917638601931e-04 -7.86317393238206429089e-05 -6.98405979917638601931e-04 9.99946428819622479267e-01 -4.75818455100540942289e-04
9.99553989361579060555e+08 9.99884069182267354314e-01 -1.02737620657446845213e-03 -7.89827466806709713523e-05 -6.99943261478039053386e-04 -7.89827466806709713523e-05 -6.99943261478039053386e-04 9.99946189681094055324e-01 -4.76865792835550828324e-04
9.99554996157602548599e+08 9.99883550531719400567e-01 -1.02964244800907590155e-03 -7.93360991855788860120e-05 -7.01487233794007686814e-04 -7.93360991855788860120e-05 -7.01487233794007686814e-04 9.99945948944834905880e-01 -4.77917688929265264356e-04
9.99556002953626155853e+08 9.99883028408367180440e-01 -1.03191857346836800280e-03 -7.96918176845251850955e-05 -7.03037940017604227189e-04 -7.96918176845251850955e-05 -7.03037940017604227189e-04 9.99945706596642724939e-01 -4.78974172780840428462e-04
9.99557009749649643898e+08 9.99882502781273774239e-01 -1.03420464682804137159e-03 -8.00499232545751326093e-05 -7.04595423666834496691e-04 -8.00499232545751326093e-05 -7.04595423666834496691e-04 9.99945462622157998922e-01 -4.80035274038748420358e-04
9.99558016545673131943e+08 9.99881973619158537225e-01 -1.03650073250627643325e-03 -8.04104372069049138554e-05 -7.06159728629293550854e-04 -8.04104372069049138554e-05 -7.06159728629293550854e-04 9.99945217006861453157e-01 -4.81101022603259813326e-04
9.99559023341696739197e+08 9.99881440890392436671e-01 -1.03880689547106142522e-03 -8.07733810901755235143e-05 -7.07730899167156803260e-04 -8.07733810901755235143e-05 -7.07730899167156803260e-04 9.99944969736072275523e-01 -4.82171448629843603807e-04
9.99560030137720227242e+08 9.99880904562993944040e-01 -1.04112320124276607619e-03 -8.11387766931967588033e-05 -7.09308979918932313094e-04 -8.11387766931967588033e-05 -7.09308979918932313094e-04 9.99944720794945896003e-01 -4.83246582530361243248e-04
9.99561036933743715286e+08 9.99880364604623372848e-01 -1.04344971590351279916e-03 -8.15066460486985760753e-05 -7.10894015905846193837e-04 -8.15066460486985760753e-05 -7.10894015905846193837e-04 9.99944470168471544191e-01 -4.84326454977417161958e-04
9.99562043729767203331e+08 9.99879820982578881861e-01 -1.04578650610052167197e-03 -8.18770114361922190377e-05 -7.12486052534120738872e-04 -8.18770114361922190377e-05 -7.12486052534120738872e-04 9.99944217841470361918e-01 -4.85411096905910370829e-04
9.99563050525790810585e+08 9.99879273663791146021e-01 -1.04813363905360465954e-03 -8.22498953855253312276e-05 -7.14085135600080688455e-04 -8.22498953855253312276e-05 -7.14085135600080688455e-04 9.99943963798592960757e-01 -4.86500539516513774534e-04
9.99564057321814298630e+08 9.99878722614818804537e-01 -1.05049118255965269302e-03 -8.26253206800005957989e-05 -7.15691311293210354581e-04 -8.26253206800005957989e-05 -7.15691311293210354581e-04 9.99943708024317312599e-01 -4.87594814277756707054e-04
9.99565064117837786674e+08 9.99878167801843242835e-01 -1.05285920500042501184e-03 -8.30033103600594479284e-05 -7.17304626201459814838e-04 -8.30033103600594479284e-05 -7.17304626201459814838e-04 9.99943450502946085123e-01 -4.88693952929640041197e-04
9.99566070913861393929e+08 9.99877609190663374505e-01 -1.05523777534796301888e-03 -8.33838877266305654630e-05 -7.18925127314933910296e-04 -8.33838877266305654630e-05 -7.18925127314933910296e-04 9.99943191218604643389e-01 -4.89797987486149531862e-04
9.99567077709884881973e+08 9.99877046746690645307e-01 -1.05762696317005986356e-03 -8.37670763445275687927e-05 -7.20552862029618431533e-04 -8.37670763445275687927e-05 -7.20552862029618431533e-04 9.99942930155238274281e-01 -4.90906950237794421216e-04
9.99568084505908370018e+08 9.99876480434943815112e-01 -1.06002683863830869139e-03 -8.41529000463029394456e-05 -7.22187878152862929027e-04 -8.41529000463029394456e-05 -7.22187878152862929027e-04 9.99942667296610188110e-01 -4.92020873755342840437e-04
9.99569091301931977272e+08 9.99875910220043184751e-01 -1.06243747253334085839e-03 -8.45413829356962708873e-05 -7.23830223906950665641e-04 -8.45413829356962708873e-05 -7.23830223906950665641e-04 9.99942402626298743051e-01 -4.93139790892253783612e-04
9.99570098097955465317e+08 9.99875336066206266139e-01 -1.06485893625092196621e-03 -8.49325493912628763519e-05 -7.25479947933250352010e-04 -8.49325493912628763519e-05 -7.25479947933250352010e-04 9.99942136127694891634e-01 -4.94263734787506116460e-04
9.99571104893978953362e+08 9.99874757937240676853e-01 -1.06729130181012783068e-03 -8.53264240703842526776e-05 -7.27137099297786994138e-04 -8.53264240703842526776e-05 -7.27137099297786994138e-04 9.99941867783999738251e-01 -4.95392738869393500778e-04
9.99572111690002441406e+08 9.99874175796540032302e-01 -1.06973464185840987442e-03 -8.57230319128227184452e-05 -7.28801727494693234177e-04 -8.57230319128227184452e-05 -7.28801727494693234177e-04 9.99941597578222207687e-01 -4.96526836857876028956e-04
9.99573118486026048660e+08 9.99873589607077173369e-01 -1.07218902967995584341e-03 -8.61223981448563035649e-05 -7.30473882451904989697e-04 -8.61223981448563035649e-05 -7.30473882451904989697e-04 9.99941325493175603434e-01 -4.97666062768460366710e-04
9.99574125282049536705e+08 9.99872999331399170408e-01 -1.07465453920009188470e-03 -8.65245482828187506856e-05 -7.32153614534160573739e-04 -8.65245482828187506856e-05 -7.32153614534160573739e-04 9.99941051511476053371e-01 -4.98810450914243257332e-04
9.99575132078073024750e+08 9.99872404931620994972e-01 -1.07713124499462901962e-03 -8.69295081374922280586e-05 -7.33840974549368539430e-04 -8.69295081374922280586e-05 -7.33840974549368539430e-04 9.99940775615538846033e-01 -4.99960035910249956694e-04
