! File generated for n1 = 3, n2 = 2
! b1 = 21.544347
! b2 = 10.000000
! Q0 = 10000.000000
! f0 = 1000000000.000000
! n = 1001
! rel_span = 10.000000
# Hz S RI R 50
9.83727826549840569496e+08 9.87103187445605101402e-01 -1.30034778154434621511e-01 -8.78649610943638657845e-03 -8.85916630583277464606e-02 -8.78649610943638657845e-03 -8.85916630583277464606e-02 9.94013829885832311817e-01 -6.03567974262938650165e-02
9.83760370896740913391e+08 9.87051523392103447030e-01 -1.30292407414949740208e-01 -8.82169441934241641001e-03 -8.87671838302739601989e-02 -8.82169441934241641001e-03 -8.87671838302739601989e-02 9.93989849556449089896e-01 -6.04763783361757512047e-02
9.83792915243641257286e+08 9.86999551052789914074e-01 -1.30551040388589972840e-01 -8.85710276192718665156e-03 -8.89433884240119349007e-02 -8.85710276192718665156e-03 -8.89433884240119349007e-02 9.93965726133467675218e-01 -6.05964251284210123072e-02
9.83825459590541481972e+08 9.86947267981770570699e-01 -1.30810682888399559820e-01 -8.89272280355864891410e-03 -8.91202807999225826707e-02 -8.89272280355864891410e-03 -8.91202807999225826707e-02 9.93941458481604644959e-01 -6.07169405012057614157e-02
9.83858003937441825867e+08 9.86894671708944626332e-01 -1.31071340771866551300e-01 -8.92855622709697038797e-03 -8.92978649486660669421e-02 -8.92855622709697038797e-03 -8.92978649486660669421e-02 9.93917045454340786215e-01 -6.08379271733351031926e-02
9.83890548284342169762e+08 9.86841759739717439004e-01 -1.31333019941340140013e-01 -8.96460473208967462133e-03 -8.94761448914661028375e-02 -8.96460473208967462133e-03 -8.94761448914661028375e-02 9.93892485893787869244e-01 -6.09593878844368677883e-02
9.83923092631242513657e+08 9.86788529554709525904e-01 -1.31595726344456570578e-01 -9.00087003497001582331e-03 -8.96551246804000723234e-02 -9.00087003497001582331e-03 -8.96551246804000723234e-02 9.93867778630553422303e-01 -6.10813253951592582958e-02
9.83955636978142857552e+08 9.86734978609461355070e-01 -1.31859465974570516655e-01 -9.03735386925817382742e-03 -8.98348083986929835110e-02 -9.03735386925817382742e-03 -8.98348083986929835110e-02 9.93842922483604174211e-01 -6.12037424873710655948e-02
9.83988181325043082237e+08 9.86681104334134473355e-01 -1.32124244871186846684e-01 -9.07405798576467297056e-03 -9.00152001610116103691e-02 -9.07405798576467297056e-03 -9.00152001610116103691e-02 9.93817916260126499317e-01 -6.13266419643621260582e-02
9.84020725671943426132e+08 9.86626904133207749403e-01 -1.32390069120402714686e-01 -9.11098415279732419536e-03 -9.01963041137656684754e-02 -9.11098415279732419536e-03 -9.01963041137656684754e-02 9.93792758755386418379e-01 -6.14500266510485185223e-02
9.84053270018843770027e+08 9.86572375385171840279e-01 -1.32656944855346015100e-01 -9.14813415636988279400e-03 -9.03781244354065621538e-02 -9.14813415636988279400e-03 -9.03781244354065621538e-02 9.93767448752586934901e-01 -6.15738993941760195949e-02
9.84085814365744113922e+08 9.86517515442215331412e-01 -1.32924878256629630524e-01 -9.18550980041510888030e-03 -9.05606653367368175100e-02 -9.18550980041510888030e-03 -9.05606653367368175100e-02 9.93741985022723040011e-01 -6.16982630625310113359e-02
9.84118358712644338608e+08 9.86462321629909877352e-01 -1.33193875552804097406e-01 -9.22311290699987657016e-03 -9.07439310612185023874e-02 -9.22311290699987657016e-03 -9.07439310612185023874e-02 9.93716366324434829949e-01 -6.18231205471505493310e-02
9.84150903059544682503e+08 9.86406791246888792202e-01 -1.33463943020819597596e-01 -9.26094531654389485631e-03 -9.09279258852880301056e-02 -9.26094531654389485631e-03 -9.09279258852880301056e-02 9.93690591403859180275e-01 -6.19484747615368300244e-02
9.84183447406445026398e+08 9.86350921564523863694e-01 -1.33735086986482565319e-01 -9.29900888803995850918e-03 -9.11126541186671329298e-02 -9.29900888803995850918e-03 -9.11126541186671329298e-02 9.93664658994478866560e-01 -6.20743286418691114781e-02
9.84215991753345370293e+08 9.86294709826593729574e-01 -1.34007313824934276569e-01 -9.33730549927968937751e-03 -9.12981201046890178397e-02 -9.33730549927968937751e-03 -9.12981201046890178397e-02 9.93638567816969464630e-01 -6.22006851472258273650e-02
9.84248536100245714188e+08 9.86238153248951254781e-01 -1.34280629961121611426e-01 -9.37583704708059260946e-03 -9.14843282206190128170e-02 -9.37583704708059260946e-03 -9.14843282206190128170e-02 9.93612316579044141385e-01 -6.23275472598031621274e-02
9.84281080447145938873e+08 9.86181249019184358318e-01 -1.34555041870275754468e-01 -9.41460544751664477059e-03 -9.16712828779807781254e-02 -9.41460544751664477059e-03 -9.16712828779807781254e-02 9.93585903975297002333e-01 -6.24549179851371788486e-02
9.84313624794046282768e+08 9.86123994296271177973e-01 -1.34830556078405411347e-01 -9.45361263615345816247e-03 -9.18589885228923014315e-02 -9.45361263615345816247e-03 -9.18589885228923014315e-02 9.93559328687042553341e-01 -6.25828003523328096902e-02
9.84346169140946626663e+08 9.86066386210233125631e-01 -1.35107179162782281567e-01 -9.49286056828482771586e-03 -9.20474496363966054879e-02 -9.49286056828482771586e-03 -9.20474496363966054879e-02 9.93532589382154496249e-01 -6.27111974142891270834e-02
9.84378713487846970558e+08 9.86008421861780948170e-01 -1.35384917752437022864e-01 -9.53235121917339785214e-03 -9.22366707347997277777e-02 -9.53235121917339785214e-03 -9.22366707347997277777e-02 9.93505684714902193022e-01 -6.28401122479296109224e-02
9.84411257834747314453e+08 9.85950098321955681335e-01 -1.35663778528667983148e-01 -9.57208658429570084791e-03 -9.24266563700172211204e-02 -9.57208658429570084791e-03 -9.24266563700172211204e-02 9.93478613325783244115e-01 -6.29695479544382236137e-02
9.84443802181647539139e+08 9.85891412631766161923e-01 -1.35943768225544214800e-01 -9.61206867958905482319e-03 -9.26174111299169489087e-02 -9.61206867958905482319e-03 -9.26174111299169489087e-02 9.93451373841355511729e-01 -6.30995076594929732439e-02
9.84476346528547883034e+08 9.85832361801818213287e-01 -1.36224893630427612568e-01 -9.65229954170389661816e-03 -9.28089396386747172984e-02 -9.65229954170389661816e-03 -9.28089396386747172984e-02 9.93423964874065368313e-01 -6.32299945135081364889e-02
9.84508890875448226929e+08 9.85772942811943275743e-01 -1.36507161584482977768e-01 -9.69278122825713815691e-03 -9.30012465571218444049e-02 -9.69278122825713815691e-03 -9.30012465571218444049e-02 9.93396385022074501769e-01 -6.33610116918711385736e-02
9.84541435222348570824e+08 9.85713152610816489840e-01 -1.36790578983214949904e-01 -9.73351581809213557694e-03 -9.31943365831109787889e-02 -9.73351581809213557694e-03 -9.31943365831109787889e-02 9.93368632869083612036e-01 -6.34925623951917289522e-02
9.84573979569248914719e+08 9.85652988115574335559e-01 -1.37075152776991171510e-01 -9.77450541153953612883e-03 -9.33882144518724532922e-02 -9.77450541153953612883e-03 -9.33882144518724532922e-02 9.93340706984153998249e-01 -6.36246498495447870836e-02
9.84606523916149139404e+08 9.85592446211421946423e-01 -1.37360889971587685210e-01 -9.81575213068419313855e-03 -9.35828849363859321953e-02 -9.81575213068419313855e-03 -9.35828849363859321953e-02 9.93312605921526037278e-01 -6.37572773067234949140e-02
9.84639068263049483299e+08 9.85531523751237870101e-01 -1.37647797628734913644e-01 -9.85725811963512714431e-03 -9.37783528477523498079e-02 -9.85725811963512714431e-03 -9.37783528477523498079e-02 9.93284328220435441814e-01 -6.38904480444927452831e-02
9.84671612609949827194e+08 9.85470217555173388924e-01 -1.37935882866660447510e-01 -9.89902554479795901421e-03 -9.39746230355636841258e-02 -9.89902554479795901421e-03 -9.39746230355636841258e-02 9.93255872404926964947e-01 -6.40241653668411209166e-02
9.84704156956850171089e+08 9.85408524410243291669e-01 -1.38225152860657340970e-01 -9.94105659515411368976e-03 -9.41717003882902026213e-02 -9.94105659515411368976e-03 -9.41717003882902026213e-02 9.93227236983665218162e-01 -6.41584326042446417837e-02
9.84736701303750395775e+08 9.85346441069913980826e-01 -1.38515614843638751319e-01 -9.98335348254108037591e-03 -9.43695898336582988941e-02 -9.98335348254108037591e-03 -9.43695898336582988941e-02 9.93198420449742602756e-01 -6.42932531139242119389e-02
9.84769245650650739670e+08 9.85283964253682476020e-01 -1.38807276106718557873e-01 -1.00259184419396185639e-02 -9.45682963390459818687e-02 -1.00259184419396185639e-02 -9.45682963390459818687e-02 9.93169421280484576720e-01 -6.44286302801150706498e-02
9.84801789997551083565e+08 9.85221090646651753708e-01 -1.39100143999782210891e-01 -1.00687537317627005123e-02 -9.47678249118719673305e-02 -1.00687537317627005123e-02 -9.47678249118719673305e-02 9.93140237937252368106e-01 -6.45645675143318581446e-02
9.84834334344451427460e+08 9.85157816899099647578e-01 -1.39394225932069820706e-01 -1.01118616341495121819e-02 -9.49681805999927630690e-02 -1.01118616341495121819e-02 -9.49681805999927630690e-02 9.93110868865242468750e-01 -6.47010682556392047182e-02
9.84866878691351771355e+08 9.85094139626039089208e-01 -1.39689529372774540183e-01 -1.01552444552649237530e-02 -9.51693684921104121610e-02 -1.01552444552649237530e-02 -9.51693684921104121610e-02 9.93081312493283130394e-01 -6.48381359709294530225e-02
9.84899423038251996040e+08 9.85030055406775351123e-01 -1.39986061851631621300e-01 -1.01989045256010400775e-02 -9.53713937181738385940e-02 -1.01989045256010400775e-02 -9.53713937181738385940e-02 9.93051567233628640352e-01 -6.49757741551961059967e-02
9.84931967385152339935e+08 9.84965560784452964782e-01 -1.40283830959535615879e-01 -1.02428442002861896237e-02 -9.55742614497992887257e-02 -1.02428442002861896237e-02 -9.55742614497992887257e-02 9.93021631481748712211e-01 -6.51139863318203060416e-02
9.84964511732052683830e+08 9.84900652265600307089e-01 -1.40582844349139729490e-01 -1.02870658593948432341e-02 -9.57779769006787129459e-02 -1.02870658593948432341e-02 -9.57779769006787129459e-02 9.92991503616117321407e-01 -6.52527760528490152758e-02
9.84997056078953027725e+08 9.84835326319663861838e-01 -1.40883109735482403568e-01 -1.03315719082650026017e-02 -9.59825453270066186739e-02 -1.03315719082650026017e-02 -9.59825453270066186739e-02 9.92961181997996988891e-01 -6.53921468992858939684e-02
9.85029600425853371620e+08 9.84769579378537152081e-01 -1.41184634896615396338e-01 -1.03763647778194450372e-02 -9.61879720279079364342e-02 -1.03763647778194450372e-02 -9.61879720279079364342e-02 9.92930664971219290038e-01 -6.55321024813826924493e-02
9.85062144772753596306e+08 9.84703407836083566274e-01 -1.41487427674230725749e-01 -1.04214469248904186005e-02 -9.63942623458652891877e-02 -1.04214469248904186005e-02 -9.63942623458652891877e-02 9.92899950861963698223e-01 -6.56726464389304903646e-02
9.85094689119653940201e+08 9.84636808047648304232e-01 -1.41791495974316145157e-01 -1.04668208325523048180e-02 -9.66014216671654268875e-02 -1.04668208325523048180e-02 -9.66014216671654268875e-02 9.92869037978531432387e-01 -6.58137824415637034958e-02
9.85127233466554284096e+08 9.84569776329569323892e-01 -1.42096847767789163930e-01 -1.05124890104548469189e-02 -9.68094554223312142582e-02 -1.05124890104548469189e-02 -9.68094554223312142582e-02 9.92837924611118083362e-01 -6.59555141890545010286e-02
9.85159777813454627991e+08 9.84502308958675631523e-01 -1.42403491091162515136e-01 -1.05584539951649181155e-02 -9.70183690865750736343e-02 -1.05584539951649181155e-02 -9.70183690865750736343e-02 9.92806609031580800107e-01 -6.60978454116216695979e-02
9.85192322160354971886e+08 9.84434402171779465718e-01 -1.42711434047211538356e-01 -1.06047183505124549552e-02 -9.72281681802535241443e-02 -1.06047183505124549552e-02 -9.72281681802535241443e-02 9.92775089493202478330e-01 -6.62407798702403516344e-02
9.85224866507255196571e+08 9.84366052165163707421e-01 -1.43020684805637537940e-01 -1.06512846679398202193e-02 -9.74388582693193200379e-02 -1.06512846679398202193e-02 -9.74388582693193200379e-02 9.92743364230453950725e-01 -6.63843213569499934756e-02
9.85257410854155540466e+08 9.84297255094055856262e-01 -1.43331251603764059377e-01 -1.06981555668600718939e-02 -9.76504449657956408171e-02 -1.06981555668600718939e-02 -9.76504449657956408171e-02 9.92711431458749959944e-01 -6.65284736951774896552e-02
9.85289955201055884361e+08 9.84228007072100674613e-01 -1.43643142747211099985e-01 -1.07453336950160977664e-02 -9.78629339282355154017e-02 -1.07453336950160977664e-02 -9.78629339282355154017e-02 9.92679289374204243401e-01 -6.66732407400501408956e-02
9.85322499547956228256e+08 9.84158304170820508183e-01 -1.43956366610600211553e-01 -1.07928217288485537445e-02 -9.80763308622022295102e-02 -1.07928217288485537445e-02 -9.80763308622022295102e-02 9.92646936153379066958e-01 -6.68186263787229339783e-02
9.85355043894856452942e+08 9.84088142419069389355e-01 -1.44270931638258131935e-01 -1.08406223738678093860e-02 -9.82906415207485534280e-02 -1.08406223738678093860e-02 -9.82906415207485534280e-02 9.92614369953031538962e-01 -6.69646345307051416018e-02
9.85387588241756796837e+08 9.84017517802476593403e-01 -1.44586846344936653663e-01 -1.08887383650327750767e-02 -9.85058717049074189509e-02 -1.08887383650327750767e-02 -9.85058717049074189509e-02 9.92581588909856038505e-01 -6.71112691481944578786e-02
9.85420132588657140732e+08 9.83946426262885198710e-01 -1.44904119316528745554e-01 -1.09371724671334692724e-02 -9.87220272641795709712e-02 -1.09371724671334692724e-02 -9.87220272641795709712e-02 9.92548591140222868923e-01 -6.72585342164093574757e-02
9.85452676935557484627e+08 9.83874863697779877825e-01 -1.45222759210804547303e-01 -1.09859274751811647475e-02 -9.89391140970351246064e-02 -1.09859274751811647475e-02 -9.89391140970351246064e-02 9.92515374739913136537e-01 -6.74064337539307528724e-02
9.85485221282457828522e+08 9.83802825959706805925e-01 -1.45542774758148474312e-01 -1.10350062148032411480e-02 -9.91571381514157884629e-02 -1.10350062148032411480e-02 -9.91571381514157884629e-02 9.92481937783849188506e-01 -6.75549718130441650965e-02
9.85517765629358053207e+08 9.83730308855683799329e-01 -1.45864174762312753808e-01 -1.10844115426451689937e-02 -9.93761054252481068616e-02 -1.10844115426451689937e-02 -9.93761054252481068616e-02 9.92448278325821275914e-01 -6.77041524800893745883e-02
9.85550309976258397102e+08 9.83657308146601683241e-01 -1.46186968101178371704e-01 -1.11341463467784264341e-02 -9.95960219669619895022e-02 -1.11341463467784264341e-02 -9.95960219669619895022e-02 9.92414394398209220860e-01 -6.78539798758136941670e-02
9.85582854323158740997e+08 9.83583819546618554064e-01 -1.46511163727515825173e-01 -1.11842135471131379210e-02 -9.98168938760089774487e-02 -1.11842135471131379210e-02 -9.98168938760089774487e-02 9.92380284011701196967e-01 -6.80044581557250893411e-02
9.85615398670059084892e+08 9.83509838722541496203e-01 -1.46836770669769106634e-01 -1.12346160958191991497e-02 -1.00038727303396343671e-01 -1.12346160958191991497e-02 -1.00038727303396343671e-01 9.92345945155007513883e-01 -6.81555915104560539053e-02
9.85647943016959428787e+08 9.83435361293201748545e-01 -1.47163798032838299967e-01 -1.12853569777521846318e-02 -1.00261528452220333163e-01 -1.12853569777521846318e-02 -1.00261528452220333163e-01 9.92311375794569516806e-01 -6.83073841661268332803e-02
9.85680487363859653473e+08 9.83360382828818435641e-01 -1.47492254998877331262e-01 -1.13364392108866642722e-02 -1.00485303578209575481e-01 -1.13364392108866642722e-02 -1.00485303578209575481e-01 9.92276573874265266362e-01 -6.84598403847157532809e-02
9.85713031710759997368e+08 9.83284898850351307686e-01 -1.47822150828108317411e-01 -1.13878658467572464047e-02 -1.00710058990279932578e-01 -1.13878658467572464047e-02 -1.00710058990279932578e-01 9.92241537315108224071e-01 -6.86129644644371400330e-02
9.85745576057660341263e+08 9.83208904828848484492e-01 -1.48153494859623230395e-01 -1.14396399709029601699e-02 -1.00935801051080742408e-01 -1.14396399709029601699e-02 -1.00935801051080742408e-01 9.92206264014945382712e-01 -6.87667607401135361211e-02
9.85778120404560685158e+08 9.83132396184777768156e-01 -1.48486296512222865074e-01 -1.14917647033226932862e-02 -1.01162536177566250717e-01 -1.14917647033226932862e-02 -1.01162536177566250717e-01 9.92170751848146070806e-01 -6.89212335835649725357e-02
9.85810664751461029053e+08 9.83055368287352737688e-01 -1.48820565285245370868e-01 -1.15442431989345624388e-02 -1.01390270841560214965e-01 -1.15442431989345624388e-02 -1.01390270841560214965e-01 9.92134998665289535857e-01 -6.90763874039936331961e-02
9.85843209098361253738e+08 9.82977816453844965849e-01 -1.49156310759417570777e-01 -1.15970786480443285166e-02 -1.01619011570335843198e-01 -1.15970786480443285166e-02 -1.01619011570335843198e-01 9.92099002292845977280e-01 -6.92322266483790110803e-02
9.85875753445261597633e+08 9.82899735948886688064e-01 -1.49493542597712775200e-01 -1.16502742768204749224e-02 -1.01848764947200201569e-01 -1.16502742768204749224e-02 -1.01848764947200201569e-01 9.92062760532852250250e-01 -6.93887558018759786904e-02
9.85908297792161941528e+08 9.82821121983763035246e-01 -1.49832270546217199980e-01 -1.17038333477764450868e-02 -1.02079537612084547682e-01 -1.17038333477764450868e-02 -1.02079537612084547682e-01 9.92026271162583794805e-01 -6.95459793882170634882e-02
9.85940842139062285423e+08 9.82741969715693275411e-01 -1.50172504435006820556e-01 -1.17577591602602941900e-02 -1.02311336262141672204e-01 -1.17577591602602941900e-02 -1.02311336262141672204e-01 9.91989531934221013820e-01 -6.97039019701193168776e-02
9.85973386485962510109e+08 9.82662274247100175906e-01 -1.50514254179038658998e-01 -1.18120550509526484745e-02 -1.02544167652353135356e-01 -1.18120550509526484745e-02 -1.02544167652353135356e-01 9.91952540574509877835e-01 -6.98625281496981359597e-02
9.86005930832862854004e+08 9.82582030624866820112e-01 -1.50857529779054366781e-01 -1.18667243943726616329e-02 -1.02778038596144954964e-01 -1.18667243943726616329e-02 -1.02778038596144954964e-01 9.91915294784417311824e-01 -7.00218625688865947687e-02
9.86038475179763197899e+08 9.82501233839584209306e-01 -1.51202341322490163567e-01 -1.19217706033911303998e-02 -1.03012955966007402342e-01 -1.19217706033911303998e-02 -1.03012955966007402342e-01 9.91877792238781252898e-01 -7.01819099098578425000e-02
9.86071019526663541794e+08 9.82419878824785319793e-01 -1.51548698984397850476e-01 -1.19771971297517060978e-02 -1.03248926694122569736e-01 -1.19771971297517060978e-02 -1.03248926694122569736e-01 9.91840030585956378140e-01 -7.03426748954525254964e-02
9.86103563873563885689e+08 9.82337960456167502699e-01 -1.51896613028382698740e-01 -1.20330074646011822570e-02 -1.03485957773003331428e-01 -1.20330074646011822570e-02 -1.03485957773003331428e-01 9.91802007447451949851e-01 -7.05041622896142444743e-02
9.86136108220464110374e+08 9.82255473550802449267e-01 -1.52246093807549082166e-01 -1.20892051390275451217e-02 -1.03724056256137564525e-01 -1.20892051390275451217e-02 -1.03724056256137564525e-01 9.91763720417565775023e-01 -7.06663768978283285405e-02
9.86168652567364454269e+08 9.82172412866332833481e-01 -1.52597151765461847006e-01 -1.21457937246072147225e-02 -1.03963229258643222175e-01 -1.21457937246072147225e-02 -1.03963229258643222175e-01 9.91725167063011170399e-01 -7.08293235675682142372e-02
9.86201196914264798164e+08 9.82088773100158518581e-01 -1.52949797437111234544e-01 -1.22027768339596082159e-02 -1.04203483957925571723e-01 -1.22027768339596082159e-02 -1.04203483957925571723e-01 9.91686344922539153579e-01 -7.09930071887431846100e-02
9.86233741261165142059e+08 9.82004548888606554335e-01 -1.53304041449902922478e-01 -1.22601581213126371861e-02 -1.04444827594351821731e-01 -1.22601581213126371861e-02 -1.04444827594351821731e-01 9.91647251506553195632e-01 -7.11574326941580015404e-02
9.86266285608065485954e+08 9.81919734806091071277e-01 -1.53659894524645429525e-01 -1.23179412830748229168e-02 -1.04687267471923778350e-01 -1.23179412830748229168e-02 -1.04687267471923778350e-01 9.91607884296719421791e-01 -7.13226050599711502986e-02
