! File generated for n1 = 1, n2 = 6
! b1 = 100.000000
! b2 = 2.154435
! Q0 = 10000.000000
! f0 = 1000000000.000000
! n = 1001
! rel_span = 10.000000
# Hz S RI R 50
9.48422782654984116554e+08 9.81797000277007780866e-01 -1.86979583480980982024e-01 -2.67183496619327349314e-03 -2.74448495693663425954e-02 -2.67183496619327349314e-03 -2.74448495693663425954e-02 9.99607828259341468780e-01 -4.02835300979137878735e-03
9.48525937089674115181e+08 9.81722636606994991659e-01 -1.87357495508620963687e-01 -2.68275006023152096449e-03 -2.75003194691058987231e-02 -2.68275006023152096449e-03 -2.75003194691058987231e-02 9.99606226142637943610e-01 -4.03649487761265687163e-03
9.48629091524364233017e+08 9.81647826363387876469e-01 -1.87736879679753804195e-01 -2.69373070230923342128e-03 -2.75560054499595155630e-02 -2.69373070230923342128e-03 -2.75560054499595155630e-02 9.99604614404797975347e-01 -4.04466846180403290928e-03
9.48732245959054231644e+08 9.81572565991406076336e-01 -1.88117744525324454008e-01 -2.70477741419682376350e-03 -2.76119087640986742016e-02 -2.70477741419682376350e-03 -2.76119087640986742016e-02 9.99602992969236159304e-01 -4.05287394615914346035e-03
9.48835400393744230270e+08 9.81496851901013322994e-01 -1.88500098641539687305e-01 -2.71589072283952813469e-03 -2.76680306732739744735e-02 -2.71589072283952813469e-03 -2.76680306732739744735e-02 9.99601361758607476204e-01 -4.06111151587764881987e-03
9.48938554828434228897e+08 9.81420680466499550931e-01 -1.88883950690484941903e-01 -2.72707116041883074545e-03 -2.77243724489056840576e-02 -2.72707116041883074545e-03 -2.77243724489056840576e-02 9.99599720694798410392e-01 -4.06938135757852446905e-03
9.49041709263124346733e+08 9.81344048026056348100e-01 -1.89269309400746571503e-01 -2.73831926441470271602e-03 -2.77809353721750612598e-02 -2.73831926441470271602e-03 -2.77809353721750612598e-02 9.99598069698917623960e-01 -4.07768365931346007947e-03
9.49144863697814345360e+08 9.81266950881346633473e-01 -1.89656183568043257281e-01 -2.74963557766875902125e-03 -2.78377207341170586352e-02 -2.74963557766875902125e-03 -2.78377207341170586352e-02 9.99596408691287074966e-01 -4.08601861058047188813e-03
9.49248018132504343987e+08 9.81189385297068783487e-01 -1.90044582055866023707e-01 -2.76102064844833960944e-03 -2.78947298357142374481e-02 -2.76102064844833960944e-03 -2.78947298357142374481e-02 9.99594737591431803381e-01 -4.09438640233768507554e-03
9.49351172567194461823e+08 9.81111347500513542030e-01 -1.90434513796122639739e-01 -2.77247503051139543295e-03 -2.79519639879913621427e-02 -2.77247503051139543295e-03 -2.79519639879913621427e-02 9.99593056318071493394e-01 -4.10278722701721849236e-03
9.49454327001884460449e+08 9.81032833681117044655e-01 -1.90825987789787876459e-01 -2.78399928317224010579e-03 -2.80094245121108552377e-02 -2.78399928317224010579e-03 -2.80094245121108552377e-02 9.99591364789109926292e-01 -4.11122127853919515361e-03
9.49557481436574459076e+08 9.80953839990004627936e-01 -1.91219013107567059606e-01 -2.79559397136839226858e-03 -2.80671127394701777624e-02 -2.79559397136839226858e-03 -2.80671127394701777624e-02 9.99589662921625654590e-01 -4.11968875232603809478e-03
9.49660635871264457703e+08 9.80874362539531086114e-01 -1.91613598890560093979e-01 -2.80725966572814610370e-03 -2.81250300117993033699e-02 -2.80725966572814610370e-03 -2.81250300117993033699e-02 9.99587950631861898998e-01 -4.12818984531677403427e-03
9.49763790305954575539e+08 9.80794397402812156983e-01 -1.92009754350939892964e-01 -2.81899694263928980373e-03 -2.81831776812602984028e-02 -2.81899694263928980373e-03 -2.81831776812602984028e-02 9.99586227835216556414e-01 -4.13672475598165188815e-03
9.49866944740644574165e+08 9.80713940613251233813e-01 -1.92407488772630669294e-01 -2.83080638431855912893e-03 -2.82415571105468776736e-02 -2.83080638431855912893e-03 -2.82415571105468776736e-02 9.99584494446231763831e-01 -4.14529368433675521333e-03
9.49970099175334572792e+08 9.80632988164058194691e-01 -1.92806811512002795883e-01 -2.84268857888233085832e-03 -2.83001696729864027358e-02 -2.84268857888233085832e-03 -2.83001696729864027358e-02 9.99582750378583906326e-01 -4.15389683195897373852e-03
9.50073253610024571419e+08 9.80551536007762125635e-01 -1.93207731998568249532e-01 -2.85464412041808949377e-03 -2.83590167526419495436e-02 -2.85464412041808949377e-03 -2.83590167526419495436e-02 9.99580995545072847897e-01 -4.16253440200098530355e-03
9.50176408044714689255e+08 9.80469580055717049305e-01 -1.93610259735686851545e-01 -2.86667360905698987567e-03 -2.84180997444159720577e-02 -2.86667360905698987567e-03 -2.84180997444159720577e-02 9.99579229857611495369e-01 -4.17120659920646851687e-03
9.50279562479404687881e+08 9.80387116177600548284e-01 -1.94014404301281057075e-01 -2.87877765104746887251e-03 -2.84774200541552356680e-02 -2.87877765104746887251e-03 -2.84774200541552356680e-02 9.99577453227214585141e-01 -4.17991362992550883476e-03
9.50382716914094686508e+08 9.80304140200904616798e-01 -1.94420175348559820527e-01 -2.89095685882991785404e-03 -2.85369790987570377816e-02 -2.89095685882991785404e-03 -2.85369790987570377816e-02 9.99575665563988247087e-01 -4.18865570213018852119e-03
9.50485871348784804344e+08 9.80220647910421183369e-01 -1.94827582606746319005e-01 -2.90321185111227586875e-03 -2.85967783062760425028e-02 -2.90321185111227586875e-03 -2.85967783062760425028e-02 9.99573866777118569260e-01 -4.19743302543026594598e-03
9.50589025783474802971e+08 9.80136635047718418612e-01 -1.95236635881819359239e-01 -2.91554325294688570017e-03 -2.86568191160331067757e-02 -2.91554325294688570017e-03 -2.86568191160331067757e-02 9.99572056774860384643e-01 -4.20624581108915065325e-03
9.50692180218164801598e+08 9.80052097310610048631e-01 -1.95647345057259502976e-01 -2.92795169580829491365e-03 -2.87171029787247761300e-02 -2.92795169580829491365e-03 -2.87171029787247761300e-02 9.99570235464525946867e-01 -4.21509427203997730921e-03
9.50795334652854800224e+08 9.79967030352617562983e-01 -1.96059720094807515833e-01 -2.94043781767230893998e-03 -2.87776313565346331114e-02 -2.94043781767230893998e-03 -2.87776313565346331114e-02 9.99568402752473272876e-01 -4.22397862290194332779e-03
9.50898489087544918060e+08 9.79881429782424762109e-01 -1.96473771035226479897e-01 -2.95300226309601039978e-03 -2.88384057232451522512e-02 -2.95300226309601039978e-03 -2.88384057232451522512e-02 9.99566558544094152516e-01 -4.23289907999673236522e-03
9.51001643522234916687e+08 9.79795291163323756045e-01 -1.96889507999076895928e-01 -2.96564568329904998042e-03 -2.88994275643514597629e-02 -2.96564568329904998042e-03 -2.88994275643514597629e-02 9.99564702743802713236e-01 -4.24185586136521190076e-03
9.51104797956924915314e+08 9.79708610012653635657e-01 -1.97306941187499668144e-01 -2.97836873624607702607e-03 -2.89606983771762659108e-02 -2.97836873624607702607e-03 -2.89606983771762659108e-02 9.99562835255022985592e-01 -4.25084918678429735106e-03
9.51207952391615033150e+08 9.79621381801230595165e-01 -1.97726080883007637734e-01 -2.99117208673034496932e-03 -2.90222196709860602581e-02 -2.99117208673034496932e-03 -2.90222196709860602581e-02 9.99560955980176579772e-01 -4.25987927778401567758e-03
9.51311106826305031776e+08 9.79533601952770505150e-01 -1.98146937450286331206e-01 -3.00405640645851155363e-03 -2.90839929671086218355e-02 -3.00405640645851155363e-03 -2.90839929671086218355e-02 9.99559064820670473139e-01 -4.26894635766474506849e-03
9.51414261260995030403e+08 9.79445265843302492748e-01 -1.98569521337004589734e-01 -3.01702237413669195967e-03 -2.91460197990520177014e-02 -3.01702237413669195967e-03 -2.91460197990520177014e-02 9.99557161676884242674e-01 -4.27805065151468880830e-03
9.51517415695685029030e+08 9.79356368800574084155e-01 -1.98993843074634302326e-01 -3.03007067555774315185e-03 -2.92083017126249198936e-02 -3.03007067555774315185e-03 -2.92083017126249198936e-02 9.99555246448157297401e-01 -4.28719238622752869122e-03
9.51620570130375146866e+08 9.79266906103448242504e-01 -1.99419913279280103247e-01 -3.04320200368983105263e-03 -2.92708402660583899557e-02 -3.04320200368983105263e-03 -2.92708402660583899557e-02 9.99553319032775777764e-01 -4.29637179052030828558e-03
9.51723724565065145493e+08 9.79176872981291301912e-01 -1.99847742652515897310e-01 -3.05641705876619380888e-03 -2.93336370301286557261e-02 -3.05641705876619380888e-03 -2.93336370301286557261e-02 9.99551379327959566012e-01 -4.30558909495144543494e-03
9.51826878999755144119e+08 9.79086264613351575647e-01 -2.00277341982238482609e-01 -3.06971654837643638525e-03 -2.93966935882824312309e-02 -3.06971654837643638525e-03 -2.93966935882824312309e-02 9.99549427229848519438e-01 -4.31484453193913333746e-03
9.51930033434445142746e+08 9.78995076128129526616e-01 -2.00708722143521950398e-01 -3.08310118755887986944e-03 -2.94600115367622886198e-02 -3.08310118755887986944e-03 -2.94600115367622886198e-02 9.99547462633489591788e-01 -4.32413833577973989036e-03
9.52033187869135260582e+08 9.78903302602738611959e-01 -2.01141894099489265679e-01 -3.09657169889447376337e-03 -2.95235924847346113686e-02 -3.09657169889447376337e-03 -2.95235924847346113686e-02 9.99545485432822400362e-01 -4.33347074266658954106e-03
9.52136342303825259209e+08 9.78810939062256468723e-01 -2.01576868902189232369e-01 -3.11012881260194122904e-03 -2.95874380544183177011e-02 -3.11012881260194122904e-03 -2.95874380544183177011e-02 9.99543495520665237208e-01 -4.34284199070885529315e-03
9.52239496738515257835e+08 9.78717980479066662625e-01 -2.02013657693488002387e-01 -3.12377326663444742152e-03 -2.96515498812157073105e-02 -3.12377326663444742152e-03 -2.96515498812157073105e-02 9.99541492788701635419e-01 -4.35225231995076729946e-03
9.52342651173205375671e+08 9.78624421772190999924e-01 -2.02452271705969161220e-01 -3.13750580677763608525e-03 -2.97159296138445709612e-02 -3.13750580677763608525e-03 -2.97159296138445709612e-02 9.99539477127465159079e-01 -4.36170197239100273373e-03
9.52445805607895374298e+08 9.78530257806611625249e-01 -2.02892722263841335240e-01 -3.15132718674900145356e-03 -2.97805789144714207206e-02 -3.15132718674900145356e-03 -2.97805789144714207206e-02 9.99537448426325192408e-01 -4.37119119200223872623e-03
9.52548960042585372925e+08 9.78435483392583571494e-01 -2.03335020783863618110e-01 -3.16523816829897015196e-03 -2.98454994588473222772e-02 -3.16523816829897015196e-03 -2.98454994588473222772e-02 9.99535406573472173797e-01 -4.38072022475109647960e-03
9.52652114477275371552e+08 9.78340093284936429541e-01 -2.03779178776275687879e-01 -3.17923952131326289366e-03 -2.99106929364444176778e-02 -3.17923952131326289366e-03 -2.99106929364444176778e-02 9.99533351455902163707e-01 -4.39028931861817212079e-03
9.52755268911965489388e+08 9.78244082182366248013e-01 -2.04225207845742023904e-01 -3.19333202391687857521e-03 -2.99761610505945019778e-02 -3.19333202391687857521e-03 -2.99761610505945019778e-02 9.99531282959402078703e-01 -4.39989872361838067066e-03
9.52858423346655488014e+08 9.78147444726716996932e-01 -2.04673119692304866790e-01 -3.20751646257955071867e-03 -3.00419055186289182813e-02 -3.20751646257955071867e-03 -3.00419055186289182813e-02 9.99529200968534037308e-01 -4.40954869182149256784e-03
9.52961577781345486641e+08 9.78050175502250707105e-01 -2.05122926112353692885e-01 -3.22179363222292866262e-03 -3.01079280720208571076e-02 -3.22179363222292866262e-03 -3.01079280720208571076e-02 9.99527105366619372795e-01 -4.41923947737301540256e-03
9.53064732216035604477e+08 9.77952269034906951362e-01 -2.05574638999600989298e-01 -3.23616433632919727262e-03 -3.01742304565285578144e-02 -3.23616433632919727262e-03 -3.01742304565285578144e-02 9.99524996035723090060e-01 -4.42897133651521616310e-03
9.53167886650725603104e+08 9.77853719791552000729e-01 -2.06028270346069575236e-01 -3.25062938705131514866e-03 -3.02408144323402586218e-02 -3.25062938705131514866e-03 -3.02408144323402586218e-02 9.99522872856637545347e-01 -4.43874452760839414978e-03
9.53271041085415601730e+08 9.77754522179215213029e-01 -2.06483832243097381598e-01 -3.26518960532508513428e-03 -3.03076817742216515772e-02 -3.26518960532508513428e-03 -3.03076817742216515772e-02 9.99520735708865681879e-01 -4.44855931115252772184e-03
9.53374195520105600357e+08 9.77654670544315429481e-01 -2.06941336882349724569e-01 -3.27984582098276439277e-03 -3.03748342716644824379e-02 -3.27984582098276439277e-03 -3.03748342716644824379e-02 9.99518584470604820602e-01 -4.45841594980908584311e-03
9.53477349954795718193e+08 9.77554159171874825773e-01 -2.07400796556843208807e-01 -3.29459887286836020093e-03 -3.04422737290368228269e-02 -3.29459887286836020093e-03 -3.04422737290368228269e-02 9.99516419018729562751e-01 -4.46831470842308075414e-03
9.53580504389485716820e+08 9.77452982284721660911e-01 -2.07862223661984146794e-01 -3.30944960895474286564e-03 -3.05100019657355073233e-02 -3.30944960895474286564e-03 -3.05100019657355073233e-02 9.99514239228774359347e-01 -4.47825585404544763979e-03
9.53683658824175715446e+08 9.77351134042679370317e-01 -2.08325630696620550664e-01 -3.32439888646256275287e-03 -3.05780208163405307908e-02 -3.32439888646256275287e-03 -3.05780208163405307908e-02 9.99512044974916635809e-01 -4.48823965595570185255e-03
9.53786813258865833282e+08 9.77248608541745777956e-01 -2.08791030264103893987e-01 -3.33944757198086084049e-03 -3.06463321307708959351e-02 -3.33944757198086084049e-03 -3.06463321307708959351e-02 9.99509836129958473272e-01 -4.49826638568482164993e-03
9.53889967693555831909e+08 9.77145399813258097588e-01 -2.09258435073362752954e-01 -3.35459654158949552652e-03 -3.07149377744422164005e-02 -3.35459654158949552652e-03 -3.07149377744422164005e-02 9.99507612565308733998e-01 -4.50833631703837205834e-03
9.53993122128245830536e+08 9.77041501823045499542e-01 -2.09727857939996265024e-01 -3.36984668098363766148e-03 -3.07838396284271891001e-02 -3.36984668098363766148e-03 -3.07838396284271891001e-02 9.99505374150965408830e-01 -4.51844972612006588741e-03
9.54096276562935829163e+08 9.76936908470569242979e-01 -2.10199311787373332994e-01 -3.38519888559992961422e-03 -3.08530395896169547243e-02 -3.38519888559992961422e-03 -3.08530395896169547243e-02 9.99503120755496188288e-01 -4.52860689135544790956e-03
9.54199430997625946999e+08 9.76831613588048819352e-01 -2.10672809647749564865e-01 -3.40065406074470041875e-03 -3.09225395708850360477e-02 -3.40065406074470041875e-03 -3.09225395708850360477e-02 9.99500852246020254910e-01 -4.53880809351595200518e-03
9.54302585432315945625e+08 9.76725610939576660563e-01 -2.11148364663394372265e-01 -3.41621312172404531515e-03 -3.09923415012527854462e-02 -3.41621312172404531515e-03 -3.09923415012527854462e-02 9.99498568488189298442e-01 -4.54905361574318989337e-03
9.54405739867005944252e+08 9.76618894220216526847e-01 -2.11625990087736470802e-01 -3.43187699397603769927e-03 -3.10624473260574865408e-02 -3.43187699397603769927e-03 -3.10624473260574865408e-02 9.99496269346167309777e-01 -4.55934374357362844077e-03
9.54508894301695942879e+08 9.76511457055089571178e-01 -2.12105699286521037772e-01 -3.44764661320490608046e-03 -3.11328590071222426061e-02 -3.44764661320490608046e-03 -3.11328590071222426061e-02 9.99493954682611818185e-01 -4.56967876496351677051e-03
9.54612048736386060715e+08 9.76403292998447192019e-01 -2.12587505738978027603e-01 -3.46352292551717474631e-03 -3.12035785229274366392e-02 -3.46352292551717474631e-03 -3.12035785229274366392e-02 9.99491624358653352189e-01 -4.58005897031406230407e-03
9.54715203171076059341e+08 9.76294395532727787845e-01 -2.13071423039009610889e-01 -3.47950688756006477204e-03 -3.12746078687850398437e-02 -3.47950688756006477204e-03 -3.12746078687850398437e-02 9.99489278233875344526e-01 -4.59048465249700925889e-03
9.54818357605766057968e+08 9.76184758067599411824e-01 -2.13557464896391213660e-01 -3.49559946666199491266e-03 -3.13459490570148768818e-02 -3.49559946666199491266e-03 -3.13459490570148768818e-02 9.99486916166293370978e-01 -4.60095610688051291637e-03
9.54921512040456175804e+08 9.76074373938988548716e-01 -2.14045645137985324213e-01 -3.51180164097521490402e-03 -3.14176041171228132010e-02 -3.51180164097521490402e-03 -3.14176041171228132010e-02 9.99484538012334278179e-01 -4.61147363135529838457e-03
9.55024666475146174431e+08 9.75963236408092793539e-01 -2.14535977708970343469e-01 -3.52811439962062581635e-03 -3.14895750959811246417e-02 -3.52811439962062581635e-03 -3.14895750959811246417e-02 9.99482143626814978354e-01 -4.62203752636112467217e-03
9.55127820909836173058e+08 9.75851338660378653245e-01 -2.15028476674087115628e-01 -3.54453874283496223399e-03 -3.15618640580114240279e-02 -3.54453874283496223399e-03 -3.15618640580114240279e-02 9.99479732862920910996e-01 -4.63264809491364774885e-03
9.55230975344526171684e+08 9.75738673804563028114e-01 -2.15523156218900585612e-01 -3.56107568212025386162e-03 -3.16344730853699088180e-02 -3.56107568212025386162e-03 -3.16344730853699088180e-02 9.99477305572183727378e-01 -4.64330564263160192745e-03
9.55334129779216289520e+08 9.75625234871579705143e-01 -2.16020030651074279593e-01 -3.57772624039552318911e-03 -3.17074042781343712338e-02 -3.57772624039552318911e-03 -3.17074042781343712338e-02 9.99474861604459530184e-01 -4.65401047776425012825e-03
9.55437284213906288147e+08 9.75511014813529864220e-01 -2.16519114401660439650e-01 -3.59449145215086449806e-03 -3.17806597544936231259e-02 -3.59449145215086449806e-03 -3.17806597544936231259e-02 9.99472400807905891895e-01 -4.66476291121919062893e-03
9.55540438648596286774e+08 9.75396006502613932554e-01 -2.17020422026412751482e-01 -3.61137236360414880590e-03 -3.18542416509400988511e-02 -3.61137236360414880590e-03 -3.18542416509400988511e-02 9.99469923028959095213e-01 -4.67556325659062958777e-03
9.55643593083286404610e+08 9.75280202730049339266e-01 -2.17523968207108203687e-01 -3.62837003285996530233e-03 -3.19281521224639708301e-02 -3.62837003285996530233e-03 -3.19281521224639708301e-02 9.99467428112310596333e-01 -4.68641183018786346842e-03
9.55746747517976403236e+08 9.75163596204970173353e-01 -2.18029767752885822452e-01 -3.64548553007107119586e-03 -3.20023933427495618775e-02 -3.64548553007107119586e-03 -3.20023933427495618775e-02 9.99464915900883488220e-01 -4.69730895106411968504e-03
9.55849901952666401863e+08 9.75046179553308300925e-01 -2.18537835601609942149e-01 -3.66271993760266308809e-03 -3.20769675043755253530e-02 -3.66271993760266308809e-03 -3.20769675043755253530e-02 9.99462386235808186719e-01 -4.70825494104593154227e-03
9.55953056387356400490e+08 9.74927945316658828290e-01 -2.19048186821239498911e-01 -3.68007435019887009509e-03 -3.21518768190157538944e-02 -3.68007435019887009509e-03 -3.21518768190157538944e-02 9.99459838956398338716e-01 -4.71925012476263113642e-03
9.56056210822046518326e+08 9.74808885951125470015e-01 -2.19560836611223775261e-01 -3.69754987515220640698e-03 -3.22271235176443057724e-02 -3.69754987515220640698e-03 -3.22271235176443057724e-02 9.99457273900125509059e-01 -4.73029482967642772584e-03
9.56159365256736516953e+08 9.74688993826149929767e-01 -2.20075800303908553079e-01 -3.71514763247548498656e-03 -3.23027098507417745332e-02 -3.71514763247548498656e-03 -3.23027098507417745332e-02 9.99454690902594422575e-01 -4.74138938611269773749e-03
9.56262519691426515579e+08 9.74568261223320075892e-01 -2.20593093365966219643e-01 -3.73286875507666078208e-03 -3.23786380885051905398e-02 -3.73286875507666078208e-03 -3.23786380885051905398e-02 9.99452089797516873837e-01 -4.75253412729079605797e-03
9.56365674126116514206e+08 9.74446680335160686504e-01 -2.21112731399840278801e-01 -3.75071438893638010870e-03 -3.24549105210600874472e-02 -3.75071438893638010870e-03 -3.24549105210600874472e-02 9.99449470416685969987e-01 -4.76372938935517870745e-03
9.56468828560806632042e+08 9.74324243263904432588e-01 -2.21634730145208402874e-01 -3.76868569328834288404e-03 -3.25315294586751846406e-02 -3.76868569328834288404e-03 -3.25315294586751846406e-02 9.99446832589949374359e-01 -4.77497551140692103044e-03
