! File generated for n1 = 15, n2 = 1
! b1 = 0.002154
! b2 = 0.002154
! Q0 = 10000.000000
! f0 = 1000000000.000000
! n = 1001
! rel_span = 10.000000
# Hz S RI R 50
9.99497845565310001373e+08 9.99957542086144068882e-01 -4.24685794265742969436e-04 -4.24579138559482818283e-05 -4.24685794265742969436e-04 -4.24579138559482818283e-05 -4.24685794265742969436e-04 9.99957542086144068882e-01 -4.24685794265742969436e-04
9.99498849874179363251e+08 9.99957373393631665515e-01 -4.25520183027065866232e-04 -4.26266063683592593726e-05 -4.25520183027065866232e-04 -4.26266063683592593726e-05 -4.25520183027065866232e-04 9.99957373393631665515e-01 -4.25520183027065866232e-04
9.99499854183048725128e+08 9.99957203697313112833e-01 -4.26357821971561112059e-04 -4.27963026868881558787e-05 -4.26357821971561112059e-04 -4.27963026868881558787e-05 -4.26357821971561112059e-04 9.99957203697313112833e-01 -4.26357821971561112059e-04
9.99500858491918087006e+08 9.99957032989235994336e-01 -4.27198729917900696558e-04 -4.29670107639589554291e-05 -4.27198729917900696558e-04 -4.29670107639589554291e-05 -4.27198729917900696558e-04 9.99957032989235994336e-01 -4.27198729917900696558e-04
9.99501862800787568092e+08 9.99956861261369289728e-01 -4.28042925828966502964e-04 -4.31387386307037528277e-05 -4.28042925828966502964e-04 -4.31387386307037528277e-05 -4.28042925828966502964e-04 9.99956861261369289728e-01 -4.28042925828966502964e-04
9.99502867109656929970e+08 9.99956688505602264705e-01 -4.28890428812372134608e-04 -4.33114943977243785204e-05 -4.28890428812372134608e-04 -4.33114943977243785204e-05 -4.28890428812372134608e-04 9.99956688505602264705e-01 -4.28890428812372134608e-04
9.99503871418526291847e+08 9.99956514713743804812e-01 -4.29741258122534120541e-04 -4.34852862561781931903e-05 -4.29741258122534120541e-04 -4.34852862561781931903e-05 -4.29741258122534120541e-04 9.99956514713743804812e-01 -4.29741258122534120541e-04
9.99504875727395653725e+08 9.99956339877521305226e-01 -4.30595433162018765682e-04 -4.36601224787274016267e-05 -4.30595433162018765682e-04 -4.36601224787274016267e-05 -4.30595433162018765682e-04 9.99956339877521305226e-01 -4.30595433162018765682e-04
9.99505880036265015602e+08 9.99956163988579560531e-01 -4.31452973482523245360e-04 -4.38360114204230908483e-05 -4.31452973482523245360e-04 -4.38360114204230908483e-05 -4.31452973482523245360e-04 9.99956163988579560531e-01 -4.31452973482523245360e-04
9.99506884345134377480e+08 9.99955987038480320628e-01 -4.32313898786435338566e-04 -4.40129615197174548034e-05 -4.32313898786435338566e-04 -4.40129615197174548034e-05 -4.32313898786435338566e-04 9.99955987038480320628e-01 -4.32313898786435338566e-04
9.99507888654003858566e+08 9.99955809018700403357e-01 -4.33178228928746340051e-04 -4.41909812995596178349e-05 -4.33178228928746340051e-04 -4.41909812995596178349e-05 -4.33178228928746340051e-04 9.99955809018700403357e-01 -4.33178228928746340051e-04
9.99508892962873220444e+08 9.99955629920631805518e-01 -4.34045983917647263100e-04 -4.43700793682311615319e-05 -4.34045983917647263100e-04 -4.43700793682311615319e-05 -4.34045983917647263100e-04 9.99955629920631805518e-01 -4.34045983917647263100e-04
9.99509897271742582321e+08 9.99955449735579482429e-01 -4.34917183916712205873e-04 -4.45502644205187842467e-05 -4.34917183916712205873e-04 -4.45502644205187842467e-05 -4.34917183916712205873e-04 9.99955449735579482429e-01 -4.34917183916712205873e-04
9.99510901580611944199e+08 9.99955268454761236896e-01 -4.35791849246437484802e-04 -4.47315452387660652937e-05 -4.35791849246437484802e-04 -4.47315452387660652937e-05 -4.35791849246437484802e-04 9.99955268454761236896e-01 -4.35791849246437484802e-04
9.99511905889481306076e+08 9.99955086069306275931e-01 -4.36670000384923597762e-04 -4.49139306937581806985e-05 -4.36670000384923597762e-04 -4.49139306937581806985e-05 -4.36670000384923597762e-04 9.99955086069306275931e-01 -4.36670000384923597762e-04
9.99512910198350667953e+08 9.99954902570254100524e-01 -4.37551657970117679423e-04 -4.50974297459408649241e-05 -4.37551657970117679423e-04 -4.50974297459408649241e-05 -4.37551657970117679423e-04 9.99954902570254100524e-01 -4.37551657970117679423e-04
9.99513914507220029831e+08 9.99954717948553506446e-01 -4.38436842801500519830e-04 -4.52820514465367799663e-05 -4.38436842801500519830e-04 -4.52820514465367799663e-05 -4.38436842801500519830e-04 9.99954717948553506446e-01 -4.38436842801500519830e-04
9.99514918816089510918e+08 9.99954532195061474020e-01 -4.39325575840812654598e-04 -4.54678049384727928149e-05 -4.39325575840812654598e-04 -4.54678049384727928149e-05 -4.39325575840812654598e-04 9.99954532195061474020e-01 -4.39325575840812654598e-04
9.99515923124958872795e+08 9.99954345300542390973e-01 -4.40217878214258764771e-04 -4.56546994576268350564e-05 -4.40217878214258764771e-04 -4.56546994576268350564e-05 -4.40217878214258764771e-04 9.99954345300542390973e-01 -4.40217878214258764771e-04
9.99516927433828234673e+08 9.99954157255666054027e-01 -4.41113771214150893630e-04 -4.58427443339705977541e-05 -4.41113771214150893630e-04 -4.58427443339705977541e-05 -4.41113771214150893630e-04 9.99954157255666054027e-01 -4.41113771214150893630e-04
9.99517931742697596550e+08 9.99953968051007335838e-01 -4.42013276300023060742e-04 -4.60319489926131980117e-05 -4.42013276300023060742e-04 -4.60319489926131980117e-05 -4.42013276300023060742e-04 9.99953968051007335838e-01 -4.42013276300023060742e-04
9.99518936051566958427e+08 9.99953777677044963745e-01 -4.42916415100853063259e-04 -4.62223229550895160864e-05 -4.42916415100853063259e-04 -4.62223229550895160864e-05 -4.42916415100853063259e-04 9.99953777677044963745e-01 -4.42916415100853063259e-04
9.99519940360436320305e+08 9.99953586124159521376e-01 -4.43823209416160989558e-04 -4.64138758404253901416e-05 -4.43823209416160989558e-04 -4.64138758404253901416e-05 -4.43823209416160989558e-04 9.99953586124159521376e-01 -4.43823209416160989558e-04
9.99520944669305801392e+08 9.99953393382633559661e-01 -4.44733681218224515333e-04 -4.66066173664505918541e-05 -4.44733681218224515333e-04 -4.66066173664505918541e-05 -4.44733681218224515333e-04 9.99953393382633559661e-01 -4.44733681218224515333e-04
9.99521948978175163269e+08 9.99953199442649154349e-01 -4.45647852652908047204e-04 -4.68005573508320914136e-05 -4.45647852652908047204e-04 -4.68005573508320914136e-05 -4.45647852652908047204e-04 9.99953199442649154349e-01 -4.45647852652908047204e-04
9.99522953287044525146e+08 9.99953004294287461917e-01 -4.46565746042523552782e-04 -4.69957057125505443698e-05 -4.46565746042523552782e-04 -4.69957057125505443698e-05 -4.46565746042523552782e-04 9.99953004294287461917e-01 -4.46565746042523552782e-04
9.99523957595913887024e+08 9.99952807927527054233e-01 -4.47487383886597416861e-04 -4.71920724729469126470e-05 -4.47487383886597416861e-04 -4.71920724729469126470e-05 -4.47487383886597416861e-04 9.99952807927527054233e-01 -4.47487383886597416861e-04
9.99524961904783248901e+08 9.99952610332242919355e-01 -4.48412788864168624769e-04 -4.73896677571073159790e-05 -4.48412788864168624769e-04 -4.73896677571073159790e-05 -4.48412788864168624769e-04 9.99952610332242919355e-01 -4.48412788864168624769e-04
9.99525966213652610779e+08 9.99952411498204907225e-01 -4.49341983835300194400e-04 -4.75885017950949159703e-05 -4.49341983835300194400e-04 -4.75885017950949159703e-05 -4.49341983835300194400e-04 9.99952411498204907225e-01 -4.49341983835300194400e-04
9.99526970522521972656e+08 9.99952211415076841483e-01 -4.50274991842602913955e-04 -4.77885849231978463488e-05 -4.50274991842602913955e-04 -4.77885849231978463488e-05 -4.50274991842602913955e-04 9.99952211415076841483e-01 -4.50274991842602913955e-04
9.99527974831391453743e+08 9.99952010072414521069e-01 -4.51211836113967477199e-04 -4.79899275854507822948e-05 -4.51211836113967477199e-04 -4.79899275854507822948e-05 -4.51211836113967477199e-04 9.99952010072414521069e-01 -4.51211836113967477199e-04
9.99528979140260815620e+08 9.99951807459665276134e-01 -4.52152540063048742364e-04 -4.81925403346890831083e-05 -4.52152540063048742364e-04 -4.81925403346890831083e-05 -4.52152540063048742364e-04 9.99951807459665276134e-01 -4.52152540063048742364e-04
9.99529983449130177498e+08 9.99951603566165858616e-01 -4.53097127292405093754e-04 -4.83964338341877670807e-05 -4.53097127292405093754e-04 -4.83964338341877670807e-05 -4.53097127292405093754e-04 9.99951603566165858616e-01 -4.53097127292405093754e-04
9.99530987757999539375e+08 9.99951398381141109972e-01 -4.54045621594590883847e-04 -4.86016188588759466766e-05 -4.54045621594590883847e-04 -4.86016188588759466766e-05 -4.54045621594590883847e-04 9.99951398381141109972e-01 -4.54045621594590883847e-04
9.99531992066868901253e+08 9.99951191893703184022e-01 -4.54998046954201455436e-04 -4.88081062967711873509e-05 -4.54998046954201455436e-04 -4.88081062967711873509e-05 -4.54998046954201455436e-04 9.99951191893703184022e-01 -4.54998046954201455436e-04
9.99532996375738263130e+08 9.99950984092849548546e-01 -4.55954427549836577554e-04 -4.90159071504122671671e-05 -4.55954427549836577554e-04 -4.90159071504122671671e-05 -4.55954427549836577554e-04 9.99950984092849548546e-01 -4.55954427549836577554e-04
9.99534000684607625008e+08 9.99950774967461653020e-01 -4.56914787756302568505e-04 -4.92250325383599904305e-05 -4.56914787756302568505e-04 -4.92250325383599904305e-05 -4.56914787756302568505e-04 9.99950774967461653020e-01 -4.56914787756302568505e-04
9.99535004993477106094e+08 9.99950564506303485324e-01 -4.57879152145987443692e-04 -4.94354936965341987026e-05 -4.57879152145987443692e-04 -4.94354936965341987026e-05 -4.57879152145987443692e-04 9.99950564506303485324e-01 -4.57879152145987443692e-04
9.99536009302346467972e+08 9.99950352698020239472e-01 -4.58847545491211411713e-04 -4.96473019797792028841e-05 -4.58847545491211411713e-04 -4.96473019797792028841e-05 -4.58847545491211411713e-04 9.99950352698020239472e-01 -4.58847545491211411713e-04
9.99537013611215829849e+08 9.99950139531136650284e-01 -4.59819992766178004592e-04 -4.98604688633593384674e-05 -4.59819992766178004592e-04 -4.98604688633593384674e-05 -4.59819992766178004592e-04 9.99950139531136650284e-01 -4.59819992766178004592e-04
9.99538017920085191727e+08 9.99949924994055439065e-01 -4.60796519149218593119e-04 -5.00750059445359782550e-05 -4.60796519149218593119e-04 -5.00750059445359782550e-05 -4.60796519149218593119e-04 9.99949924994055439065e-01 -4.60796519149218593119e-04
9.99539022228954553604e+08 9.99949709075055981344e-01 -4.61777150024415166448e-04 -5.02909249440252557320e-05 -4.61777150024415166448e-04 -5.02909249440252557320e-05 -4.61777150024415166448e-04 9.99949709075055981344e-01 -4.61777150024415166448e-04
9.99540026537823915482e+08 9.99949491762292419494e-01 -4.62761910983835469090e-04 -5.05082377076076716117e-05 -4.62761910983835469090e-04 -5.05082377076076716117e-05 -4.62761910983835469090e-04 9.99949491762292419494e-01 -4.62761910983835469090e-04
9.99541030846693396568e+08 9.99949273043792219440e-01 -4.63750827830126249873e-04 -5.07269562078352040380e-05 -4.63750827830126249873e-04 -5.07269562078352040380e-05 -4.63750827830126249873e-04 9.99949273043792219440e-01 -4.63750827830126249873e-04
9.99542035155562758446e+08 9.99949052907454616346e-01 -4.64743926577493651764e-04 -5.09470925454001815898e-05 -4.64743926577493651764e-04 -5.09470925454001815898e-05 -4.64743926577493651764e-04 9.99949052907454616346e-01 -4.64743926577493651764e-04
9.99543039464432120323e+08 9.99948831341048949284e-01 -4.65741233455110859290e-04 -5.11686589510592406945e-05 -4.65741233455110859290e-04 -5.11686589510592406945e-05 -4.65741233455110859290e-04 9.99948831341048949284e-01 -4.65741233455110859290e-04
9.99544043773301482201e+08 9.99948608332212884875e-01 -4.66742774908640372603e-04 -5.13916677871594757107e-05 -4.66742774908640372603e-04 -5.13916677871594757107e-05 -4.66742774908640372603e-04 9.99948608332212884875e-01 -4.66742774908640372603e-04
9.99545048082170844078e+08 9.99948383868450640932e-01 -4.67748577602436889453e-04 -5.16161315493339820483e-05 -4.67748577602436889453e-04 -5.16161315493339820483e-05 -4.67748577602436889453e-04 9.99948383868450640932e-01 -4.67748577602436889453e-04
9.99546052391040205956e+08 9.99948157937131765216e-01 -4.68758668421940844113e-04 -5.18420628682595986117e-05 -4.68758668421940844113e-04 -5.18420628682595986117e-05 -4.68758668421940844113e-04 9.99948157937131765216e-01 -4.68758668421940844113e-04
9.99547056699909567833e+08 9.99947930525488581921e-01 -4.69773074475825723993e-04 -5.20694745113795966316e-05 -4.69773074475825723993e-04 -5.20694745113795966316e-05 -4.69773074475825723993e-04 9.99947930525488581921e-01 -4.69773074475825723993e-04
9.99548061008779048920e+08 9.99947701620615192475e-01 -4.70791823098617556297e-04 -5.22983793847527119315e-05 -4.70791823098617556297e-04 -5.22983793847527119315e-05 -4.70791823098617556297e-04 9.99947701620615192475e-01 -4.70791823098617556297e-04
9.99549065317648410797e+08 9.99947471209465255093e-01 -4.71814941852277843198e-04 -5.25287905346897548834e-05 -4.71814941852277843198e-04 -5.25287905346897548834e-05 -4.71814941852277843198e-04 9.99947471209465255093e-01 -4.71814941852277843198e-04
9.99550069626517772675e+08 9.99947239278850208422e-01 -4.72842458529328232494e-04 -5.27607211497575751642e-05 -4.72842458529328232494e-04 -5.27607211497575751642e-05 -4.72842458529328232494e-04 9.99947239278850208422e-01 -4.72842458529328232494e-04
9.99551073935387134552e+08 9.99947005815437495180e-01 -4.73874401154597655206e-04 -5.29941845624945541957e-05 -4.73874401154597655206e-04 -5.29941845624945541957e-05 -4.73874401154597655206e-04 9.99947005815437495180e-01 -4.73874401154597655206e-04
9.99552078244256496429e+08 9.99946770805748563760e-01 -4.74910797988300863431e-04 -5.32291942514481395115e-05 -4.74910797988300863431e-04 -5.32291942514481395115e-05 -4.74910797988300863431e-04 9.99946770805748563760e-01 -4.74910797988300863431e-04
9.99553082553125858307e+08 9.99946534236157091868e-01 -4.75951677527724093669e-04 -5.34657638429196038787e-05 -4.75951677527724093669e-04 -5.34657638429196038787e-05 -4.75951677527724093669e-04 9.99946534236157091868e-01 -4.75951677527724093669e-04
9.99554086861995339394e+08 9.99946296092886877105e-01 -4.76997068510424005339e-04 -5.37039071130740924614e-05 -4.76997068510424005339e-04 -5.37039071130740924614e-05 -4.76997068510424005339e-04 9.99946296092886877105e-01 -4.76997068510424005339e-04
9.99555091170864701271e+08 9.99946056362010393670e-01 -4.78046999915501238856e-04 -5.39436379896356712734e-05 -4.78046999915501238856e-04 -5.39436379896356712734e-05 -4.78046999915501238856e-04 9.99946056362010393670e-01 -4.78046999915501238856e-04
9.99556095479734063148e+08 9.99945815029445683741e-01 -4.79101500967790694396e-04 -5.41849705542700376347e-05 -4.79101500967790694396e-04 -5.41849705542700376347e-05 -4.79101500967790694396e-04 9.99945815029445683741e-01 -4.79101500967790694396e-04
9.99557099788603425026e+08 9.99945572080955691341e-01 -4.80160601139078386211e-04 -5.44279190443134092852e-05 -4.80160601139078386211e-04 -5.44279190443134092852e-05 -4.80160601139078386211e-04 9.99945572080955691341e-01 -4.80160601139078386211e-04
9.99558104097472786903e+08 9.99945327502145042686e-01 -4.81224330151433141688e-04 -5.46724978550080950536e-05 -4.81224330151433141688e-04 -5.46724978550080950536e-05 -4.81224330151433141688e-04 9.99945327502145042686e-01 -4.81224330151433141688e-04
9.99559108406342148781e+08 9.99945081278458602903e-01 -4.82292717979053539752e-04 -5.49187215414221628954e-05 -4.82292717979053539752e-04 -5.49187215414221628954e-05 -4.82292717979053539752e-04 9.99945081278458602903e-01 -4.82292717979053539752e-04
9.99560112715211510658e+08 9.99944833395179144553e-01 -4.83365794851907685983e-04 -5.51666048208066648229e-05 -4.83365794851907685983e-04 -5.51666048208066648229e-05 -4.83365794851907685983e-04 9.99944833395179144553e-01 -4.83365794851907685983e-04
9.99561117024080991745e+08 9.99944583837425349238e-01 -4.84443591257761863294e-04 -5.54161625746076112048e-05 -4.84443591257761863294e-04 -5.54161625746076112048e-05 -4.84443591257761863294e-04 9.99944583837425349238e-01 -4.84443591257761863294e-04
9.99562121332950353622e+08 9.99944332590149476125e-01 -4.85526137944464945915e-04 -5.56674098505612388989e-05 -4.85526137944464945915e-04 -5.56674098505612388989e-05 -4.85526137944464945915e-04 9.99944332590149476125e-01 -4.85526137944464945915e-04
9.99563125641819715500e+08 9.99944079638134808441e-01 -4.86613465924060127708e-04 -5.59203618652399754509e-05 -4.86613465924060127708e-04 -5.59203618652399754509e-05 -4.86613465924060127708e-04 9.99944079638134808441e-01 -4.86613465924060127708e-04
9.99564129950689077377e+08 9.99943824965994099152e-01 -4.87705606474005571183e-04 -5.61750340059545227281e-05 -4.87705606474005571183e-04 -5.61750340059545227281e-05 -4.87705606474005571183e-04 9.99943824965994099152e-01 -4.87705606474005571183e-04
9.99565134259558439255e+08 9.99943568558166684390e-01 -4.88802591141179938218e-04 -5.64314418333299687154e-05 -4.88802591141179938218e-04 -5.64314418333299687154e-05 -4.88802591141179938218e-04 9.99943568558166684390e-01 -4.88802591141179938218e-04
9.99566138568427801132e+08 9.99943310398916485049e-01 -4.89904451744065322707e-04 -5.66896010834859622298e-05 -4.89904451744065322707e-04 -5.66896010834859622298e-05 -4.89904451744065322707e-04 9.99943310398916485049e-01 -4.89904451744065322707e-04
9.99567142877297282219e+08 9.99943050472329564293e-01 -4.91011220375805134374e-04 -5.69495276704488730189e-05 -4.91011220375805134374e-04 -5.69495276704488730189e-05 -4.91011220375805134374e-04 9.99943050472329564293e-01 -4.91011220375805134374e-04
9.99568147186166644096e+08 9.99942788762311463024e-01 -4.92122929406932927213e-04 -5.72112376885155896663e-05 -4.92122929406932927213e-04 -5.72112376885155896663e-05 -4.92122929406932927213e-04 9.99942788762311463024e-01 -4.92122929406932927213e-04
9.99569151495036005974e+08 9.99942525252585090456e-01 -4.93239611488998351031e-04 -5.74747474148582136668e-05 -4.93239611488998351031e-04 -5.74747474148582136668e-05 -4.93239611488998351031e-04 9.99942525252585090456e-01 -4.93239611488998351031e-04
9.99570155803905367851e+08 9.99942259926688281624e-01 -4.94361299556447808534e-04 -5.77400733117473176251e-05 -4.94361299556447808534e-04 -5.77400733117473176251e-05 -4.94361299556447808534e-04 9.99942259926688281624e-01 -4.94361299556447808534e-04
9.99571160112774729729e+08 9.99941992767970688760e-01 -4.95488026830757542426e-04 -5.80072320293367117597e-05 -4.95488026830757542426e-04 -5.80072320293367117597e-05 -4.95488026830757542426e-04 9.99941992767970688760e-01 -4.95488026830757542426e-04
9.99572164421644091606e+08 9.99941723759591893916e-01 -4.96619826822942912921e-04 -5.82762404080965697607e-05 -4.96619826822942912921e-04 -5.82762404080965697607e-05 -4.96619826822942912921e-04 9.99941723759591893916e-01 -4.96619826822942912921e-04
9.99573168730513453484e+08 9.99941452884518633404e-01 -4.97756733336280612554e-04 -5.85471154813268330423e-05 -4.97756733336280612554e-04 -5.85471154813268330423e-05 -4.97756733336280612554e-04 9.99941452884518633404e-01 -4.97756733336280612554e-04
9.99574173039382934570e+08 9.99941180125521911215e-01 -4.98898780470575652253e-04 -5.88198744780711328304e-05 -4.98898780470575652253e-04 -5.88198744780711328304e-05 -4.98898780470575652253e-04 9.99941180125521911215e-01 -4.98898780470575652253e-04
9.99575177348252296448e+08 9.99940905465174556532e-01 -5.00046002623896410078e-04 -5.90945348254600221079e-05 -5.00046002623896410078e-04 -5.90945348254600221079e-05 -5.00046002623896410078e-04 9.99940905465174556532e-01 -5.00046002623896410078e-04
9.99576181657121658325e+08 9.99940628885848226126e-01 -5.01198434497179996783e-04 -5.93711141517724576180e-05 -5.01198434497179996783e-04 -5.93711141517724576180e-05 -5.01198434497179996783e-04 9.99940628885848226126e-01 -5.01198434497179996783e-04
