! File generated for n1 = 3, n2 = 3
! b1 = 21.544347
! b2 = 4.641589
! Q0 = 10000.000000
! f0 = 1000000000.000000
! n = 1001
! rel_span = 10.000000
# Hz S RI R 50
9.86407032133034229279e+08 9.84519244782460778431e-01 -1.55874198100315830562e-01 -7.18553005536226065131e-03 -7.23503937350772202697e-02 -7.18553005536226065131e-03 -7.23503937350772202697e-02 9.96664772393144104967e-01 -3.35820779668222352266e-02
9.86434218068768143654e+08 9.84457317491564065648e-01 -1.56182575473254342535e-01 -7.21427415755449517876e-03 -7.24935298321542354039e-02 -7.21427415755449517876e-03 -7.24935298321542354039e-02 9.96651430562767393084e-01 -3.36485158578101947735e-02
9.86461404004502058029e+08 9.84395020848773505406e-01 -1.56492154247975634451e-01 -7.24318969770929195484e-03 -7.26372235705412261364e-02 -7.24318969770929195484e-03 -7.26372235705412261364e-02 9.96638009157937321270e-01 -3.37152125829659060630e-02
9.86488589940235972404e+08 9.84332351924433801571e-01 -1.56802941382148286475e-01 -7.27227803565225552895e-03 -7.27814781797018472975e-02 -7.27227803565225552895e-03 -7.27814781797018472975e-02 9.96624507547478888370e-01 -3.37821696412736183213e-02
9.86515775875970005989e+08 9.84269307759899625410e-01 -1.57114943886630498149e-01 -7.30154054466492560133e-03 -7.29262969137882272053e-02 -7.30154054466492560133e-03 -7.29262969137882272053e-02 9.96610925093971200539e-01 -3.38493885431769489514e-02
9.86542961811703920364e+08 9.84205885367192001567e-01 -1.57428168825972075728e-01 -7.33097861164420071256e-03 -7.30716830518739340894e-02 -7.33097861164420071256e-03 -7.30716830518739340894e-02 9.96597261153673863454e-01 -3.39168708106870123165e-02
9.86570147747437834740e+08 9.84142081728649142924e-01 -1.57742623318929076071e-01 -7.36059363726462943106e-03 -7.32176398981927850640e-02 -7.36059363726462943106e-03 -7.32176398981927850640e-02 9.96583515076451154080e-01 -3.39846179774933102036e-02
9.86597333683171749115e+08 9.84077893796574287855e-01 -1.58058314538971206309e-01 -7.39038703614175538498e-03 -7.33641707823745048422e-02 -7.39038703614175538498e-03 -7.33641707823745048422e-02 9.96569686205696747550e-01 -3.40526315890730332803e-02
9.86624519618905663490e+08 9.84013318492876765120e-01 -1.58375249714806182189e-01 -7.42036023699873224790e-03 -7.35112790596879756011e-02 -7.42036023699873224790e-03 -7.35112790596879756011e-02 9.96555773878256223597e-01 -3.41209132028040609819e-02
9.86651705554639577866e+08 9.83948352708709617076e-01 -1.58693436130900783487e-01 -7.45051468283442711732e-03 -7.36589681112831684562e-02 -7.45051468283442711732e-03 -7.36589681112831684562e-02 9.96541777424348795833e-01 -3.41894643880771703648e-02
9.86678891490373492241e+08 9.83882993304101227672e-01 -1.59012881128016009269e-01 -7.48085183109462991541e-03 -7.38072413444395142301e-02 -7.48085183109462991541e-03 -7.38072413444395142301e-02 9.96527696167487930801e-01 -3.42582867264113882788e-02
9.86706077426107525826e+08 9.83817237107581399336e-01 -1.59333592103745314006e-01 -7.51137315384535486640e-03 -7.39561021928157452665e-02 -7.51137315384535486640e-03 -7.39561021928157452665e-02 9.96513529424401300894e-01 -3.43273818115699055897e-02
9.86733263361841440201e+08 9.83751080915804654303e-01 -1.59655576513051761234e-01 -7.54208013794789144252e-03 -7.41055541166991682545e-02 -7.54208013794789144252e-03 -7.41055541166991682545e-02 9.96499276504948849897e-01 -3.43967512496758318075e-02
9.86760449297575354576e+08 9.83684521493164876205e-01 -1.59978841868824050998e-01 -7.57297428523752858692e-03 -7.42556006032638188374e-02 -7.57297428523752858692e-03 -7.42556006032638188374e-02 9.96484936712040525464e-01 -3.44663966593319603948e-02
9.86787635233309268951e+08 9.83617555571406398940e-01 -1.60303395742432547300e-01 -7.60405711270416718311e-03 -7.44062451668285051998e-02 -7.60405711270416718311e-03 -7.44062451668285051998e-02 9.96470509341551902160e-01 -3.45363196717405965264e-02
9.86814821169043183327e+08 9.83550179849230432616e-01 -1.60629245764286832099e-01 -7.63533015267502460088e-03 -7.45574913491156426870e-02 -7.63533015267502460088e-03 -7.45574913491156426870e-02 9.96455993682239693499e-01 -3.46065219308236485252e-02
9.86842007104777097702e+08 9.83482390991893828947e-01 -1.60956399624408469373e-01 -7.66679495300075924957e-03 -7.47093427195170273203e-02 -7.66679495300075924957e-03 -7.47093427195170273203e-02 9.96441389015655265560e-01 -3.46770050933460360909e-02
9.86869193040511012077e+08 9.83414185630804071891e-01 -1.61284865073001992819e-01 -7.69845307724340791738e-03 -7.48618028753589709323e-02 -7.69845307724340791738e-03 -7.48618028753589709323e-02 9.96426694616057484488e-01 -3.47477708290387168888e-02
9.86896378976245045662e+08 9.83345560363106607760e-01 -1.61614649921045294700e-01 -7.73030610486823751420e-03 -7.50148754421762070654e-02 -7.73030610486823751420e-03 -7.50148754421762070654e-02 9.96411909750323454560e-01 -3.48188208207258556581e-02
9.86923564911978960037e+08 9.83276511751269621797e-01 -1.61945762040864693621e-01 -7.76235563143616927317e-03 -7.51685640739789689979e-02 -7.76235563143616927317e-03 -7.51685640739789689979e-02 9.96397033677859478296e-01 -3.48901567644487459185e-02
9.86950750847712874413e+08 9.83207036322658933791e-01 -1.62278209366739284425e-01 -7.79460326880112523013e-03 -7.53228724535333626910e-02 -7.79460326880112523013e-03 -7.53228724535333626910e-02 9.96382065650509129995e-01 -3.49617803695959974974e-02
9.86977936783446788788e+08 9.83137130569108674827e-01 -1.62611999895505426883e-01 -7.82705064530954570945e-03 -7.54778042926420311698e-02 -7.82705064530954570945e-03 -7.54778042926420311698e-02 9.96367004912460996202e-01 -3.50336933590337865074e-02
9.87005122719180703163e+08 9.83066790946487634173e-01 -1.62947141687154378742e-01 -7.85969940600136397768e-03 -7.56333633324215021121e-02 -7.85969940600136397768e-03 -7.56333633324215021121e-02 9.96351850700155083906e-01 -3.51058974692345787671e-02
9.87032308654914617538e+08 9.82996013874255947229e-01 -1.63283642865458628046e-01 -7.89255121281602113614e-03 -7.57895533435929552590e-02 -7.89255121281602113614e-03 -7.57895533435929552590e-02 9.96336602242187563405e-01 -3.51783944504121051655e-02
9.87059494590648531914e+08 9.82924795735018119736e-01 -1.63621511618588399983e-01 -7.92560774479971613671e-03 -7.59463781267683407661e-02 -7.92560774479971613671e-03 -7.59463781267683407661e-02 9.96321258759214289924e-01 -3.52511860666541651521e-02
9.87086680526382565498e+08 9.82853132874067281222e-01 -1.63960756199750257167e-01 -7.95887069831712271051e-03 -7.61038415127467809951e-02 -7.95887069831712271051e-03 -7.61038415127467809951e-02 9.96305819463852326834e-01 -3.53242740960602111255e-02
9.87113866462116479874e+08 9.82781021598927884142e-01 -1.64301384927807020420e-01 -7.99234178726357900879e-03 -7.62619473628023958334e-02 -7.99234178726357900879e-03 -7.62619473628023958334e-02 9.96290283560582023981e-01 -3.53976603308749082633e-02
9.87141052397850394249e+08 9.82708458178883415002e-01 -1.64643406187945651187e-01 -8.02602274328432542527e-03 -7.64206995689941520622e-02 -8.02602274328432542527e-03 -7.64206995689941520622e-02 9.96274650245644877167e-01 -3.54713465776320124867e-02
9.87168238333584308624e+08 9.82635438844506214906e-01 -1.64986828432309051706e-01 -8.05991531599259576624e-03 -7.65801020544592953021e-02 -8.05991531599259576624e-03 -7.65801020544592953021e-02 9.96258918706942386834e-01 -3.55453346572905254375e-02
9.87195424269318223000e+08 9.82561959787173533343e-01 -1.65331660180673106764e-01 -8.09402127319460394650e-03 -7.67401587737274737400e-02 -8.09402127319460394650e-03 -7.67401587737274737400e-02 9.96243088123931586075e-01 -3.56196264053805083938e-02
9.87222610205052137375e+08 9.82488017158582249699e-01 -1.65677910021096969073e-01 -8.12834240111433466158e-03 -7.69008737130226355250e-02 -8.12834240111433466158e-03 -7.69008737130226355250e-02 9.96227157667520679674e-01 -3.56942236721432271107e-02
9.87249796140786051750e+08 9.82413607070251271303e-01 -1.66025586610613590244e-01 -8.16288050462486008962e-03 -7.70622508905835224002e-02 -8.16288050462486008962e-03 -7.70622508905835224002e-02 9.96211126499961796554e-01 -3.57691283226798870110e-02
9.87276982076520085335e+08 9.82338725593019934657e-01 -1.66374698675908178069e-01 -8.19763740748098539146e-03 -7.72242943569786122193e-02 -8.19763740748098539146e-03 -7.72242943569786122193e-02 9.96194993774742965087e-01 -3.58443422370978218017e-02
9.87304168012253999710e+08 9.82263368756541077609e-01 -1.66725255013998097109e-01 -8.23261495255466109466e-03 -7.73870081954216443298e-02 -8.23261495255466109466e-03 -7.73870081954216443298e-02 9.96178758636478867139e-01 -3.59198673106569665858e-02
9.87331353947987914085e+08 9.82187532548759234530e-01 -1.67077264492952626274e-01 -8.26781500207699436567e-03 -7.75503965221057689483e-02 -8.26781500207699436567e-03 -7.75503965221057689483e-02 9.96162420220798372483e-01 -3.59957054539249352021e-02
9.87358539883721828461e+08 9.82111212915390385803e-01 -1.67430736052583489792e-01 -8.30323943788002262478e-03 -7.77144634865239852806e-02 -8.30323943788002262478e-03 -7.77144634865239852806e-02 9.96145977654232295251e-01 -3.60718585929257762324e-02
9.87385725819455742836e+08 9.82034405759387052370e-01 -1.67785678705170027136e-01 -8.33889016164470614489e-03 -7.78792132718058582874e-02 -8.33889016164470614489e-03 -7.78792132718058582874e-02 9.96129430054098596869e-01 -3.61483286692962160758e-02
9.87412911755189657211e+08 9.81957106940399726547e-01 -1.68142101536177812626e-01 -8.37476909515101272663e-03 -7.80446500950508909034e-02 -8.37476909515101272663e-03 -7.80446500950508909034e-02 9.96112776528386145714e-01 -3.62251176404404656717e-02
9.87440097690923571587e+08 9.81879312274227422641e-01 -1.68500013704998424791e-01 -8.41087818053299837717e-03 -7.82107782076720825515e-02 -8.41087818053299837717e-03 -7.82107782076720825515e-02 9.96096016175636034262e-01 -3.63022274796896346483e-02
9.87467283626657605171e+08 9.81801017532263009535e-01 -1.68859424445684747074e-01 -8.44721938053626456022e-03 -7.83776018957370868012e-02 -8.44721938053626456022e-03 -7.83776018957370868012e-02 9.96079148084822563192e-01 -3.63796601764601046369e-02
9.87494469562391519547e+08 9.81722218440929106364e-01 -1.69220343067699591222e-01 -8.48379467877971235601e-03 -7.85451254803157944417e-02 -8.48379467877971235601e-03 -7.85451254803157944417e-02 9.96062171335231227864e-01 -3.64574177364148308000e-02
9.87521655498125433922e+08 9.81642910681104208237e-01 -1.69582778956680696458e-01 -8.52060608002191445520e-03 -7.87133533178353134163e-02 -8.52060608002191445520e-03 -7.87133533178353134163e-02 9.96045084996335705618e-01 -3.65355021816281752556e-02
9.87548841433859348297e+08 9.81563089887541151413e-01 -1.69946741575212084685e-01 -8.55765561043116476658e-03 -7.88822898004380990145e-02 -8.55765561043116476658e-03 -7.88822898004380990145e-02 9.96027888127671845453e-01 -3.66139155507520658306e-02
9.87576027369593262672e+08 9.81482751648280138390e-01 -1.70312240463587172279e-01 -8.59494531785776234856e-03 -7.90519393563360595056e-02 -8.59494531785776234856e-03 -7.90519393563360595056e-02 9.96010579778711879761e-01 -3.66926598991803992744e-02
9.87603213305327177048e+08 9.81401891504047219073e-01 -1.70679285240610240093e-01 -8.63247727211334352215e-03 -7.92223064501826890194e-02 -8.63247727211334352215e-03 -7.92223064501826890194e-02 9.95993158988734306192e-01 -3.67717372992217503280e-02
9.87630399241061210632e+08 9.81320504947648220018e-01 -1.71047885604385829783e-01 -8.67025356525212738401e-03 -7.93933955834393162432e-02 -8.67025356525212738401e-03 -7.93933955834393162432e-02 9.95975624786693436441e-01 -3.68511498402694023802e-02
9.87657585176795125008e+08 9.81238587423352792705e-01 -1.71418051333121157498e-01 -8.70827631185680343939e-03 -7.95652112947477230254e-02 -8.70827631185680343939e-03 -7.95652112947477230254e-02 9.95957976191087057671e-01 -3.69308996289742300090e-02
9.87684771112529039383e+08 9.81156134326266915480e-01 -1.71789792285950398965e-01 -8.74654764932986973636e-03 -7.97377581603126023291e-02 -8.74654764932986973636e-03 -7.97377581603126023291e-02 9.95940212209820874278e-01 -3.70109887894223138494e-02
9.87711957048262953758e+08 9.81073141001700177455e-01 -1.72163118403747344987e-01 -8.78506973818720185432e-03 -7.99110407942788397717e-02 -8.78506973818720185432e-03 -7.99110407942788397717e-02 9.95922331840072061482e-01 -3.70914194633099811305e-02
9.87739142983996868134e+08 9.80989602744518074395e-01 -1.72538039709975055125e-01 -8.82384476235880191308e-03 -8.00850638491258370877e-02 -8.82384476235880191308e-03 -8.00850638491258370877e-02 9.95904334068150265402e-01 -3.71721938101268883914e-02
9.87766328919730782509e+08 9.80905514798490529849e-01 -1.72914566311516776365e-01 -8.86287492949109148577e-03 -8.02598320160532591183e-02 -8.86287492949109148577e-03 -8.02598320160532591183e-02 9.95886217869356715759e-01 -3.72533140073350171884e-02
9.87793514855464696884e+08 9.80820872355625650307e-01 -1.73292708399540251740e-01 -8.90216247125622493763e-03 -8.04353500253821435129e-02 -8.90216247125622493763e-03 -8.04353500253821435129e-02 9.95867982207841007103e-01 -3.73347822505549070682e-02
9.87820700791198730469e+08 9.80735670555496152900e-01 -1.73672476250359503203e-01 -8.94170964366467271867e-03 -8.06116226469549140843e-02 -8.94170964366467271867e-03 -8.06116226469549140843e-02 9.95849626036455881639e-01 -3.74166007537512917969e-02
9.87847886726932644844e+08 9.80649904484555468009e-01 -1.74053880226309076740e-01 -8.98151872738280759867e-03 -8.07886546905412089581e-02 -8.98151872738280759867e-03 -8.07886546905412089581e-02 9.95831148296609569570e-01 -3.74987717494214695124e-02
9.87875072662666559219e+08 9.80563569175440852277e-01 -1.74436930776636744955e-01 -9.02159202805611834530e-03 -8.09664510062522296829e-02 -9.02159202805611834530e-03 -8.09664510062522296829e-02 9.95812547918116464096e-01 -3.75812974887876488639e-02
9.87902258598400473595e+08 9.80476659606269951297e-01 -1.74821638438393101023e-01 -9.06193187663587376712e-03 -8.11450164849535915401e-02 -9.06193187663587376712e-03 -8.11450164849535915401e-02 9.95793823819044687795e-01 -3.76641802419885457498e-02
9.87929444534134387970e+08 9.80389170699923262475e-01 -1.75208013837346077146e-01 -9.10254062971227635714e-03 -8.13243560586898728282e-02 -9.10254062971227635714e-03 -8.13243560586898728282e-02 9.95774974905562104688e-01 -3.77474222982764617829e-02
9.87956630469868302345e+08 9.80301097323316605880e-01 -1.75596067688898516135e-01 -9.14342066985182611027e-03 -8.15044747011104964152e-02 -9.14342066985182611027e-03 -8.15044747011104964152e-02 9.95756000071779112659e-01 -3.78310259662149664384e-02
9.87983816405602216721e+08 9.80212434286664713312e-01 -1.75985810799014097405e-01 -9.18457440593959187347e-03 -8.16853774278994970715e-02 -9.18457440593959187347e-03 -8.16853774278994970715e-02 9.95736898199590547698e-01 -3.79149935738783555594e-02
9.88011002341336250305e+08 9.80123176342728719135e-01 -1.76377254065167798913e-01 -9.22600427352809025761e-03 -8.18670692972166824664e-02 -9.22600427352809025761e-03 -8.18670692972166824664e-02 9.95717668158512814180e-01 -3.79993274690564528107e-02
9.88038188277070164680e+08 9.80033318186057322841e-01 -1.76770408477289059368e-01 -9.26771273518956807680e-03 -8.20495554101354496179e-02 -9.26771273518956807680e-03 -8.20495554101354496179e-02 9.95698308805521348219e-01 -3.80840300194577666137e-02
9.88065374212804079056e+08 9.79942854452212186445e-01 -1.77165285118736443026e-01 -9.30970228087579787513e-03 -8.22328409110951175087e-02 -9.30970228087579787513e-03 -8.22328409110951175087e-02 9.95678818984882751941e-01 -3.81691036129195165882e-02
9.88092560148537993431e+08 9.79851779716984006008e-01 -1.77561895167268113394e-01 -9.35197542828173841722e-03 -8.24169309883514417114e-02 -9.35197542828173841722e-03 -8.24169309883514417114e-02 9.95659197527986594700e-01 -3.82545506576167024249e-02
9.88119746084271907806e+08 9.79760088495594039237e-01 -1.77960249896036620809e-01 -9.39453472321612886864e-03 -8.26018308744383145115e-02 -9.39453472321612886864e-03 -8.26018308744383145115e-02 9.95639443253173217485e-01 -3.83403735822764116237e-02
9.88146932020005822182e+08 9.79667775241886862325e-01 -1.78360360674581802654e-01 -9.43738273997633998758e-03 -8.27875458466286601178e-02 -9.43738273997633998758e-03 -8.27875458466286601178e-02 9.95619554965559538928e-01 -3.84265748363917525321e-02
9.88174117955739736557e+08 9.79574834347505474241e-01 -1.78762238969854242443e-01 -9.48052208173097953059e-03 -8.29740812274094574619e-02 -9.48052208173097953059e-03 -8.29740812274094574619e-02 9.95599531456861863710e-01 -3.85131568904423376987e-02
9.88201303891473770142e+08 9.79481260141059295599e-01 -1.79165896347232345143e-01 -9.52395538090645456253e-03 -8.31614423849538209055e-02 -9.52395538090645456253e-03 -8.31614423849538209055e-02 9.95579371505215804383e-01 -3.86001222361134072036e-02
9.88228489827207684517e+08 9.79387046887274181906e-01 -1.79571344471567528878e-01 -9.56768529958121165258e-03 -8.33496347336061538247e-02 -9.56768529958121165258e-03 -8.33496347336061538247e-02 9.95559073874994315823e-01 -3.86874733865210096440e-02
9.88255675762941598892e+08 9.79292188786132666856e-01 -1.79978595108229638688e-01 -9.61171452988479786683e-03 -8.35386637343674132161e-02 -9.61171452988479786683e-03 -8.35386637343674132161e-02 9.95538637316621288775e-01 -3.87752128764372594460e-02
9.88282861698675513268e+08 9.79196679971997330227e-01 -1.80387660124182946930e-01 -9.65604579440504200150e-03 -8.37285348953944741357e-02 -9.65604579440504200150e-03 -8.37285348953944741357e-02 9.95518060566383589105e-01 -3.88633432625220820444e-02
9.88310047634409427643e+08 9.79100514512725061955e-01 -1.80798551489048608953e-01 -9.70068184659876944775e-03 -8.39192537724933046439e-02 -9.70068184659876944775e-03 -8.39192537724933046439e-02 9.95497342346239655342e-01 -3.89518671235521973806e-02
9.88337233570143342018e+08 9.79003686408762341387e-01 -1.81211281276209501545e-01 -9.74562547121208926082e-03 -8.41108259696318333321e-02 -9.74562547121208926082e-03 -8.41108259696318333321e-02 9.95476481363624987608e-01 -3.90407870606590823304e-02
9.88364419505877256393e+08 9.78906189592230080443e-01 -1.81625861663906734700e-01 -9.79087948470497293485e-03 -8.43032571394488755567e-02 -9.79087948470497293485e-03 -8.43032571394488755567e-02 9.95455476311254527921e-01 -3.91301056975652608583e-02
9.88391605441611289978e+08 9.78808017925990037078e-01 -1.82042304936369747637e-01 -9.83644673568465771618e-03 -8.44965529837786166745e-02 -9.83644673568465771618e-03 -8.44965529837786166745e-02 9.95434325866921931869e-01 -3.92198256808277273544e-02
9.88418791377345204353e+08 9.78709165202704012287e-01 -1.82460623484927336735e-01 -9.88233010534232507449e-03 -8.46907192541664216590e-02 -9.88233010534232507449e-03 -8.46907192541664216590e-02 9.95413028693296730864e-01 -3.93099496800773592908e-02
9.88445977313079118729e+08 9.78609625143866512786e-01 -1.82880829809181744139e-01 -9.92853250790206622034e-03 -8.48857617524136909282e-02 -9.92853250790206622034e-03 -8.48857617524136909282e-02 9.95391583437716054306e-01 -3.94004803882718052099e-02
9.88473163248813033104e+08 9.78509391398832417686e-01 -1.83302936518153464229e-01 -9.97505689107220337719e-03 -8.50816863311093102284e-02 -9.97505689107220337719e-03 -8.50816863311093102284e-02 9.95369988731974686402e-01 -3.94914205219421970972e-02
9.88500349184546947479e+08 9.78408457543824772173e-01 -1.83726956331460050675e-01 -1.00219062365059247838e-02 -8.52784988941767546633e-02 -1.00219062365059247838e-02 -8.52784988941767546633e-02 9.95348243192112014377e-01 -3.95827728214470514478e-02
9.88527535120280861855e+08 9.78306817080926260921e-01 -1.84152902080508912297e-01 -1.00690835602692124739e-02 -8.54762053974277569157e-02 -1.00690835602692124739e-02 -8.54762053974277569157e-02 9.95326345418194091685e-01 -3.96745400512292997752e-02
