! File generated for n1 = 13, n2 = 1
! b1 = 0.010000
! b2 = 0.010000
! Q0 = 10000.000000
! f0 = 1000000000.000000
! n = 1001
! rel_span = 10.000000
# Hz S RI R 50
9.99490000000000000000e+08 9.99805960981833941048e-01 -1.94088523363330849557e-03 -1.94039018166039951277e-04 -1.94088523363330849557e-03 -1.94039018166039951277e-04 -1.94088523363330849557e-03 9.99805960981833941048e-01 -1.94088523363330849557e-03
9.99491020000000000000e+08 9.99805190028724144469e-01 -1.94469854564722588290e-03 -1.94809971275898682549e-04 -1.94469854564722588290e-03 -1.94809971275898682549e-04 -1.94469854564722588290e-03 9.99805190028724144469e-01 -1.94469854564722588290e-03
9.99492040000000000000e+08 9.99804414488045467557e-01 -1.94852671160512368881e-03 -1.95585511954586083660e-04 -1.94852671160512368881e-03 -1.95585511954586083660e-04 -1.94852671160512368881e-03 9.99804414488045467557e-01 -1.94852671160512368881e-03
9.99493060000000000000e+08 9.99803634323453871424e-01 -1.95236981751207650318e-03 -1.96365676546135731542e-04 -1.95236981751207650318e-03 -1.96365676546135731542e-04 -1.95236981751207650318e-03 9.99803634323453871424e-01 -1.95236981751207650318e-03
9.99494080000000000000e+08 9.99802849498245937987e-01 -1.95622795003115145657e-03 -1.97150501754073315857e-04 -1.95622795003115145657e-03 -1.97150501754073315857e-04 -1.95622795003115145657e-03 9.99802849498245937987e-01 -1.95622795003115145657e-03
9.99495100000000000000e+08 9.99802059975354429078e-01 -1.96010119648920609972e-03 -1.97940024645591007091e-04 -1.96010119648920609972e-03 -1.97940024645591007091e-04 -1.96010119648920609972e-03 9.99802059975354429078e-01 -1.96010119648920609972e-03
9.99496120000000000000e+08 9.99801265717344400663e-01 -1.96398964488190457336e-03 -1.98734282655605571082e-04 -1.96398964488190457336e-03 -1.98734282655605571082e-04 -1.96398964488190457336e-03 9.99801265717344400663e-01 -1.96398964488190457336e-03
9.99497140000000000000e+08 9.99800466686408428885e-01 -1.96789338388217134937e-03 -1.99533313591562739891e-04 -1.96789338388217134937e-03 -1.99533313591562739891e-04 -1.96789338388217134937e-03 9.99800466686408428885e-01 -1.96789338388217134937e-03
9.99498160000000000000e+08 9.99799662844362391212e-01 -1.97181250284513779475e-03 -2.00337155637573524408e-04 -1.97181250284513779475e-03 -2.00337155637573524408e-04 -1.97181250284513779475e-03 9.99799662844362391212e-01 -1.97181250284513779475e-03
9.99499180000000000000e+08 9.99798854152641025550e-01 -1.97574709181506068256e-03 -2.01145847358997489299e-04 -1.97574709181506068256e-03 -2.01145847358997489299e-04 -1.97574709181506068256e-03 9.99798854152641025550e-01 -1.97574709181506068256e-03
9.99500200000000000000e+08 9.99798040572293156281e-01 -1.97969724153123543056e-03 -2.01959427706869658900e-04 -1.97969724153123543056e-03 -2.01959427706869658900e-04 -1.97969724153123543056e-03 9.99798040572293156281e-01 -1.97969724153123543056e-03
9.99501220000000000000e+08 9.99797222063976920303e-01 -1.98366304343722526377e-03 -2.02777936023056793010e-04 -1.98366304343722526377e-03 -2.02777936023056793010e-04 -1.98366304343722526377e-03 9.99797222063976920303e-01 -1.98366304343722526377e-03
9.99502240000000000000e+08 9.99796398587955992276e-01 -1.98764458968326944432e-03 -2.03601412044058979181e-04 -1.98764458968326944432e-03 -2.03601412044058979181e-04 -1.98764458968326944432e-03 9.99796398587955992276e-01 -1.98764458968326944432e-03
9.99503260000000000000e+08 9.99795570104093478392e-01 -1.99164197313695225458e-03 -2.04429895906562401247e-04 -1.99164197313695225458e-03 -2.04429895906562401247e-04 -1.99164197313695225458e-03 9.99795570104093478392e-01 -1.99164197313695225458e-03
9.99504280000000000000e+08 9.99794736571848141615e-01 -1.99565528738813351486e-03 -2.05263428151860363420e-04 -1.99565528738813351486e-03 -2.05263428151860363420e-04 -1.99565528738813351486e-03 9.99794736571848141615e-01 -1.99565528738813351486e-03
9.99505300000000000000e+08 9.99793897950269183639e-01 -1.99968462675632332667e-03 -2.06102049730830239049e-04 -1.99968462675632332667e-03 -2.06102049730830239049e-04 -1.99968462675632332667e-03 9.99793897950269183639e-01 -1.99968462675632332667e-03
9.99506320000000000000e+08 9.99793054197991137855e-01 -2.00373008629748956128e-03 -2.06945802008844445671e-04 -2.00373008629748956128e-03 -2.06945802008844445671e-04 -2.00373008629748956128e-03 9.99793054197991137855e-01 -2.00373008629748956128e-03
9.99507340000000000000e+08 9.99792205273228984375e-01 -2.00779176181204365922e-03 -2.07794726770981147759e-04 -2.00779176181204365922e-03 -2.07794726770981147759e-04 -2.00779176181204365922e-03 9.99792205273228984375e-01 -2.00779176181204365922e-03
9.99508360000000000000e+08 9.99791351133773154025e-01 -2.01186974985070746516e-03 -2.08648866226847086143e-04 -2.01186974985070746516e-03 -2.08648866226847086143e-04 -2.01186974985070746516e-03 9.99791351133773154025e-01 -2.01186974985070746516e-03
9.99509380000000000000e+08 9.99790491736984088256e-01 -2.01596414772266079030e-03 -2.09508263015930582289e-04 -2.01596414772266079030e-03 -2.09508263015930582289e-04 -2.01596414772266079030e-03 9.99790491736984088256e-01 -2.01596414772266079030e-03
9.99510400000000000000e+08 9.99789627039787243135e-01 -2.02007505350267502903e-03 -2.10372960212799203512e-04 -2.02007505350267502903e-03 -2.10372960212799203512e-04 -2.02007505350267502903e-03 9.99789627039787243135e-01 -2.02007505350267502903e-03
9.99511420000000000000e+08 9.99788756998667538234e-01 -2.02420256603854775007e-03 -2.11243001332417612006e-04 -2.02420256603854775007e-03 -2.11243001332417612006e-04 -2.02420256603854775007e-03 9.99788756998667538234e-01 -2.02420256603854775007e-03
9.99512440000000000000e+08 9.99787881569664360626e-01 -2.02834678495885430832e-03 -2.12118430335588850286e-04 -2.02834678495885430832e-03 -2.12118430335588850286e-04 -2.02834678495885430832e-03 9.99787881569664360626e-01 -2.02834678495885430832e-03
9.99513460000000000000e+08 9.99787000708365791724e-01 -2.03250781067964908164e-03 -2.12999291634233863663e-04 -2.03250781067964908164e-03 -2.12999291634233863663e-04 -2.03250781067964908164e-03 9.99787000708365791724e-01 -2.03250781067964908164e-03
9.99514480000000000000e+08 9.99786114369902723098e-01 -2.03668574441397132180e-03 -2.13885630097322438498e-04 -2.03668574441397132180e-03 -2.13885630097322438498e-04 -2.03668574441397132180e-03 9.99786114369902723098e-01 -2.03668574441397132180e-03
9.99515500000000000000e+08 9.99785222508943971498e-01 -2.04088068817736938143e-03 -2.14777491056022457787e-04 -2.04088068817736938143e-03 -2.14777491056022457787e-04 -2.04088068817736938143e-03 9.99785222508943971498e-01 -2.04088068817736938143e-03
9.99516520000000000000e+08 9.99784325079690172622e-01 -2.04509274479781465866e-03 -2.15674920309841201740e-04 -2.04509274479781465866e-03 -2.15674920309841201740e-04 -2.04509274479781465866e-03 9.99784325079690172622e-01 -2.04509274479781465866e-03
9.99517540000000000000e+08 9.99783422035868007960e-01 -2.04932201792184555400e-03 -2.16577964132028930088e-04 -2.04932201792184555400e-03 -2.16577964132028930088e-04 -2.04932201792184555400e-03 9.99783422035868007960e-01 -2.04932201792184555400e-03
9.99518560000000000000e+08 9.99782513330724320610e-01 -2.05356861202376193842e-03 -2.17486669275693755236e-04 -2.05356861202376193842e-03 -2.17486669275693755236e-04 -2.05356861202376193842e-03 9.99782513330724320610e-01 -2.05356861202376193842e-03
9.99519580000000000000e+08 9.99781598917020120076e-01 -2.05783263241425063220e-03 -2.18401082979862928716e-04 -2.05783263241425063220e-03 -2.18401082979862928716e-04 -2.05783263241425063220e-03 9.99781598917020120076e-01 -2.05783263241425063220e-03
9.99520600000000000000e+08 9.99780678747024698083e-01 -2.06211418524770897370e-03 -2.19321252975331217440e-04 -2.06211418524770897370e-03 -2.19321252975331217440e-04 -2.06211418524770897370e-03 9.99780678747024698083e-01 -2.06211418524770897370e-03
9.99521620000000000000e+08 9.99779752772509300307e-01 -2.06641337753011872930e-03 -2.20247227490691398818e-04 -2.06641337753011872930e-03 -2.20247227490691398818e-04 -2.06641337753011872930e-03 9.99779752772509300307e-01 -2.06641337753011872930e-03
9.99522640000000000000e+08 9.99778820944741131171e-01 -2.07073031712911746413e-03 -2.21179055258906938266e-04 -2.07073031712911746413e-03 -2.21179055258906938266e-04 -2.07073031712911746413e-03 9.99778820944741131171e-01 -2.07073031712911746413e-03
9.99523660000000000000e+08 9.99777883214476803531e-01 -2.07506511278066898760e-03 -2.22116785523221704204e-04 -2.07506511278066898760e-03 -2.22116785523221704204e-04 -2.07506511278066898760e-03 9.99777883214476803531e-01 -2.07506511278066898760e-03
9.99524680000000000000e+08 9.99776939531956010399e-01 -2.07941787409957837968e-03 -2.23060468043969218482e-04 -2.07941787409957837968e-03 -2.23060468043969218482e-04 -2.07941787409957837968e-03 9.99776939531956010399e-01 -2.07941787409957837968e-03
9.99525700000000000000e+08 9.99775989846895418722e-01 -2.08378871158611343045e-03 -2.24010153104611120381e-04 -2.08378871158611343045e-03 -2.24010153104611120381e-04 -2.08378871158611343045e-03 9.99775989846895418722e-01 -2.08378871158611343045e-03
9.99526720000000000000e+08 9.99775034108481119866e-01 -2.08817773663721138744e-03 -2.24965891518843108966e-04 -2.08817773663721138744e-03 -2.24965891518843108966e-04 -2.08817773663721138744e-03 9.99775034108481119866e-01 -2.08817773663721138744e-03
9.99527740000000000000e+08 9.99774072265362967471e-01 -2.09258506155449511277e-03 -2.25927734637083215460e-04 -2.09258506155449511277e-03 -2.25927734637083215460e-04 -2.09258506155449511277e-03 9.99774072265362967471e-01 -2.09258506155449511277e-03
9.99528760000000000000e+08 9.99773104265647138966e-01 -2.09701079955139845987e-03 -2.26895734352838319720e-04 -2.09701079955139845987e-03 -2.26895734352838319720e-04 -2.09701079955139845987e-03 9.99773104265647138966e-01 -2.09701079955139845987e-03
9.99529780000000000000e+08 9.99772130056889807292e-01 -2.10145506476495762260e-03 -2.27869943110165575377e-04 -2.10145506476495762260e-03 -2.27869943110165575377e-04 -2.10145506476495762260e-03 9.99772130056889807292e-01 -2.10145506476495762260e-03
9.99530800000000000000e+08 9.99771149586089369343e-01 -2.10591797226510318158e-03 -2.28850413910668820661e-04 -2.10591797226510318158e-03 -2.28850413910668820661e-04 -2.10591797226510318158e-03 9.99771149586089369343e-01 -2.10591797226510318158e-03
9.99531820000000000000e+08 9.99770162799680117693e-01 -2.11039963806087822046e-03 -2.29837200319897268577e-04 -2.11039963806087822046e-03 -2.29837200319897268577e-04 -2.11039963806087822046e-03 9.99770162799680117693e-01 -2.11039963806087822046e-03
9.99532840000000000000e+08 9.99769169643524580060e-01 -2.11490017911381261023e-03 -2.30830356475396141717e-04 -2.11490017911381261023e-03 -2.30830356475396141717e-04 -2.11490017911381261023e-03 9.99769169643524580060e-01 -2.11490017911381261023e-03
9.99533860000000000000e+08 9.99768170062906302853e-01 -2.11941971334608271482e-03 -2.31829937093695873139e-04 -2.11941971334608271482e-03 -2.31829937093695873139e-04 -2.11941971334608271482e-03 9.99768170062906302853e-01 -2.11941971334608271482e-03
9.99534880000000000000e+08 9.99767164002522745747e-01 -2.12395835964825259456e-03 -2.32835997477288134203e-04 -2.12395835964825259456e-03 -2.32835997477288134203e-04 -2.12395835964825259456e-03 9.99767164002522745747e-01 -2.12395835964825259456e-03
9.99535900000000000000e+08 9.99766151406477177055e-01 -2.12851623789230655001e-03 -2.33848593522855823521e-04 -2.12851623789230655001e-03 -2.33848593522855823521e-04 -2.12851623789230655001e-03 9.99766151406477177055e-01 -2.12851623789230655001e-03
9.99536920000000000000e+08 9.99765132218271568298e-01 -2.13309346893963101832e-03 -2.34867781728475286465e-04 -2.13309346893963101832e-03 -2.34867781728475286465e-04 -2.13309346893963101832e-03 9.99765132218271568298e-01 -2.13309346893963101832e-03
9.99537940000000000000e+08 9.99764106380798600604e-01 -2.13769017465132663697e-03 -2.35893619201419101365e-04 -2.13769017465132663697e-03 -2.35893619201419101365e-04 -2.13769017465132663697e-03 9.99764106380798600604e-01 -2.13769017465132663697e-03
9.99538960000000000000e+08 9.99763073836333782118e-01 -2.14230647789940154696e-03 -2.36926163666246721376e-04 -2.14230647789940154696e-03 -2.36926163666246721376e-04 -2.14230647789940154696e-03 9.99763073836333782118e-01 -2.14230647789940154696e-03
9.99539980000000000000e+08 9.99762034526527565426e-01 -2.14694250257558422179e-03 -2.37965473472454794746e-04 -2.14694250257558422179e-03 -2.37965473472454794746e-04 -2.14694250257558422179e-03 9.99762034526527565426e-01 -2.14694250257558422179e-03
9.99541000000000000000e+08 9.99760988392397353941e-01 -2.15159837360225396005e-03 -2.39011607602691215999e-04 -2.15159837360225396005e-03 -2.39011607602691215999e-04 -2.15159837360225396005e-03 9.99760988392397353941e-01 -2.15159837360225396005e-03
9.99542020000000000000e+08 9.99759935374318620127e-01 -2.15627421694478214192e-03 -2.40064625681383369453e-04 -2.15627421694478214192e-03 -2.40064625681383369453e-04 -2.15627421694478214192e-03 9.99759935374318620127e-01 -2.15627421694478214192e-03
9.99543040000000000000e+08 9.99758875412017689044e-01 -2.16097015961867321837e-03 -2.41124587982291332076e-04 -2.16097015961867321837e-03 -2.41124587982291332076e-04 -2.16097015961867321837e-03 9.99758875412017689044e-01 -2.16097015961867321837e-03
9.99544060000000000000e+08 9.99757808444562190431e-01 -2.16568632970419797101e-03 -2.42191555437845347856e-04 -2.16568632970419797101e-03 -2.42191555437845347856e-04 -2.16568632970419797101e-03 9.99757808444562190431e-01 -2.16568632970419797101e-03
9.99545080000000000000e+08 9.99756734410352843057e-01 -2.17042285635480128314e-03 -2.43265589647180091159e-04 -2.17042285635480128314e-03 -2.43265589647180091159e-04 -2.17042285635480128314e-03 9.99756734410352843057e-01 -2.17042285635480128314e-03
9.99546100000000000000e+08 9.99755653247115017024e-01 -2.17517986980869095989e-03 -2.44346752884986120370e-04 -2.17517986980869095989e-03 -2.44346752884986120370e-04 -2.17517986980869095989e-03 9.99755653247115017024e-01 -2.17517986980869095989e-03
9.99547120000000000000e+08 9.99754564891889518918e-01 -2.17995750140057139785e-03 -2.45435108110497724170e-04 -2.17995750140057139785e-03 -2.45435108110497724170e-04 -2.17995750140057139785e-03 9.99754564891889518918e-01 -2.17995750140057139785e-03
9.99548140000000000000e+08 9.99753469281023599002e-01 -2.18475588357274408055e-03 -2.46530718976443064677e-04 -2.18475588357274408055e-03 -2.46530718976443064677e-04 -2.18475588357274408055e-03 9.99753469281023599002e-01 -2.18475588357274408055e-03
9.99549160000000000000e+08 9.99752366350161736364e-01 -2.18957514988712574275e-03 -2.47633649838309281323e-04 -2.18957514988712574275e-03 -2.47633649838309281323e-04 -2.18957514988712574275e-03 9.99752366350161736364e-01 -2.18957514988712574275e-03
9.99550180000000000000e+08 9.99751256034236868153e-01 -2.19441543503452653890e-03 -2.48743965763087394524e-04 -2.19441543503452653890e-03 -2.48743965763087394524e-04 -2.19441543503452653890e-03 9.99751256034236868153e-01 -2.19441543503452653890e-03
9.99551200000000000000e+08 9.99750138267460175534e-01 -2.19927687485114943186e-03 -2.49861732539784079429e-04 -2.19927687485114943186e-03 -2.49861732539784079429e-04 -2.19927687485114943186e-03 9.99750138267460175534e-01 -2.19927687485114943186e-03
9.99552220000000000000e+08 9.99749012983312201897e-01 -2.20415960632526020460e-03 -2.50987016687790080380e-04 -2.20415960632526020460e-03 -2.50987016687790080380e-04 -2.20415960632526020460e-03 9.99749012983312201897e-01 -2.20415960632526020460e-03
9.99553240000000000000e+08 9.99747880114532527784e-01 -2.20906376761294178518e-03 -2.52119885467448851066e-04 -2.20906376761294178518e-03 -2.52119885467448851066e-04 -2.20906376761294178518e-03 9.99747880114532527784e-01 -2.20906376761294178518e-03
9.99554260000000000000e+08 9.99746739593110667066e-01 -2.21398949804792579202e-03 -2.53260406889378524801e-04 -2.21398949804792579202e-03 -2.53260406889378524801e-04 -2.21398949804792579202e-03 9.99746739593110667066e-01 -2.21398949804792579202e-03
9.99555280000000000000e+08 9.99745591350275186748e-01 -2.21893693815555488949e-03 -2.54408649724865076544e-04 -2.21893693815555488949e-03 -2.54408649724865076544e-04 -2.21893693815555488949e-03 9.99745591350275186748e-01 -2.21893693815555488949e-03
9.99556300000000000000e+08 9.99744435316484159060e-01 -2.22390622966450171236e-03 -2.55564683515858233256e-04 -2.22390622966450171236e-03 -2.55564683515858233256e-04 -2.22390622966450171236e-03 9.99744435316484159060e-01 -2.22390622966450171236e-03
9.99557320000000000000e+08 9.99743271421414281264e-01 -2.22889751552106992610e-03 -2.56728578585690167622e-04 -2.22889751552106992610e-03 -2.56728578585690167622e-04 -2.22889751552106992610e-03 9.99743271421414281264e-01 -2.22889751552106992610e-03
9.99558340000000000000e+08 9.99742099593951105696e-01 -2.23391093989932718045e-03 -2.57900406048947700936e-04 -2.23391093989932718045e-03 -2.57900406048947700936e-04 -2.23391093989932718045e-03 9.99742099593951105696e-01 -2.23391093989932718045e-03
9.99559360000000000000e+08 9.99740919762177604468e-01 -2.23894664821515940525e-03 -2.59080237822384147443e-04 -2.23894664821515940525e-03 -2.59080237822384147443e-04 -2.23894664821515940525e-03 9.99740919762177604468e-01 -2.23894664821515940525e-03
9.99560380000000000000e+08 9.99739731853364066438e-01 -2.24400478714024747759e-03 -2.60268146635944783076e-04 -2.24400478714024747759e-03 -2.60268146635944783076e-04 -2.24400478714024747759e-03 9.99739731853364066438e-01 -2.24400478714024747759e-03
9.99561400000000000000e+08 9.99738535793956217823e-01 -2.24908550461539727058e-03 -2.61464206043773178013e-04 -2.24908550461539727058e-03 -2.61464206043773178013e-04 -2.24908550461539727058e-03 9.99738535793956217823e-01 -2.24908550461539727058e-03
9.99562420000000000000e+08 9.99737331509564897125e-01 -2.25418894986264021704e-03 -2.62668490435063897801e-04 -2.25418894986264021704e-03 -2.62668490435063897801e-04 -2.25418894986264021704e-03 9.99737331509564897125e-01 -2.25418894986264021704e-03
9.99563440000000000000e+08 9.99736118924954286769e-01 -2.25931527339998626525e-03 -2.63881075045671598112e-04 -2.25931527339998626525e-03 -2.63881075045671598112e-04 -2.25931527339998626525e-03 9.99736118924954286769e-01 -2.25931527339998626525e-03
9.99564460000000000000e+08 9.99734897964030366779e-01 -2.26446462705525222714e-03 -2.65102035969646610599e-04 -2.26446462705525222714e-03 -2.65102035969646610599e-04 -2.26446462705525222714e-03 9.99734897964030366779e-01 -2.26446462705525222714e-03
9.99565480000000000000e+08 9.99733668549829368466e-01 -2.26963716397893169180e-03 -2.66331450170681841016e-04 -2.26963716397893169180e-03 -2.66331450170681841016e-04 -2.26963716397893169180e-03 9.99733668549829368466e-01 -2.26963716397893169180e-03
9.99566500000000000000e+08 9.99732430604505561966e-01 -2.27483303866033489266e-03 -2.67569395494480805498e-04 -2.27483303866033489266e-03 -2.67569395494480805498e-04 -2.27483303866033489266e-03 9.99732430604505561966e-01 -2.27483303866033489266e-03
9.99567520000000000000e+08 9.99731184049319598905e-01 -2.28005240694025132150e-03 -2.68815950680447769434e-04 -2.28005240694025132150e-03 -2.68815950680447769434e-04 -2.28005240694025132150e-03 9.99731184049319598905e-01 -2.28005240694025132150e-03
9.99568540000000000000e+08 9.99729928804625966876e-01 -2.28529542602575559337e-03 -2.70071195374035238120e-04 -2.28529542602575559337e-03 -2.70071195374035238120e-04 -2.28529542602575559337e-03 9.99729928804625966876e-01 -2.28529542602575559337e-03
9.99569560000000000000e+08 9.99728664789860665962e-01 -2.29056225450548689090e-03 -2.71335210139358269568e-04 -2.29056225450548689090e-03 -2.71335210139358269568e-04 -2.29056225450548689090e-03 9.99728664789860665962e-01 -2.29056225450548689090e-03
