! File generated for n1 = 10, n2 = 4
! b1 = 0.100000
! b2 = 0.010000
! Q0 = 10000.000000
! f0 = 1000000000.000000
! n = 1001
! rel_span = 10.000000
# Hz S RI R 50
9.99445000000000000000e+08 9.98217018257451793595e-01 -1.78347679473564064978e-02 -5.63828333294836008156e-04 -5.63984882542122208104e-03 -5.63828333294836008156e-04 -5.63984882542122208104e-03 9.99821701825745146053e-01 -1.78347679473564056304e-03
9.99446110000000000000e+08 9.98209933976429431013e-01 -1.78698092405212040357e-02 -5.66068579656356742937e-04 -5.65092985527706776622e-03 -5.66068579656356742937e-04 -5.65092985527706776622e-03 9.99820993397642965306e-01 -1.78698092405212049030e-03
9.99447220000000000000e+08 9.98202807539946612714e-01 -1.79049870296632239464e-02 -5.68322156744988852932e-04 -5.66205404895085955691e-03 -5.68322156744988852932e-04 -5.66205404895085955691e-03 9.99820280753994650169e-01 -1.79049870296632226453e-03
9.99448330000000000000e+08 9.98195638614032709768e-01 -1.79403021051088712445e-02 -5.70589170171477639074e-04 -5.67322165636575254100e-03 -5.70589170171477639074e-04 -5.67322165636575254100e-03 9.99819563861403248772e-01 -1.79403021051088699435e-03
9.99449440000000000000e+08 9.98188426861416844282e-01 -1.79757552632164446793e-02 -5.72869726590267166859e-04 -5.68443292935235256619e-03 -5.72869726590267166859e-04 -5.68443292935235256619e-03 9.99818842686141628917e-01 -1.79757552632164429446e-03
9.99450550000000000000e+08 9.98181171941484035592e-01 -1.80113473064543901103e-02 -5.75163933713233746850e-04 -5.69568812167346207043e-03 -5.75163933713233746850e-04 -5.69568812167346207043e-03 9.99818117194148370253e-01 -1.80113473064543892430e-03
9.99451660000000000000e+08 9.98173873510241782547e-01 -1.80470790434306381511e-02 -5.77471900320401321585e-04 -5.70698748903336258720e-03 -5.77471900320401321585e-04 -5.70698748903336258720e-03 9.99817387351024211561e-01 -1.80470790434306377174e-03
9.99452770000000000000e+08 9.98166531220272212899e-01 -1.80829512889865429148e-02 -5.79793736274952136237e-04 -5.71833128910751407881e-03 -5.79793736274952136237e-04 -5.71833128910751407881e-03 9.99816653122027165779e-01 -1.80829512889865424811e-03
9.99453880000000000000e+08 9.98159144720699220699e-01 -1.81189648642166335757e-02 -5.82129552533581086197e-04 -5.72971978154880514505e-03 -5.82129552533581086197e-04 -5.72971978154880514505e-03 9.99815914472069966479e-01 -1.81189648642166348767e-03
9.99454990000000000000e+08 9.98151713657140504665e-01 -1.81551205965640831408e-02 -5.84479461161882931156e-04 -5.74115322801774068118e-03 -5.84479461161882931156e-04 -5.74115322801774068118e-03 9.99815171365714072671e-01 -1.81551205965640809724e-03
9.99456100000000000000e+08 9.98144237671671596956e-01 -1.81914193198486444369e-02 -5.86843575345502338654e-04 -5.75263189219128202867e-03 -5.86843575345502338654e-04 -5.75263189219128202867e-03 9.99814423767167115287e-01 -1.81914193198486431359e-03
9.99457210000000000000e+08 9.98136716402776125179e-01 -1.82278618743638778921e-02 -5.89222009405923445591e-04 -5.76415603979358107112e-03 -5.89222009405923445591e-04 -5.76415603979358107112e-03 9.99813671640277568109e-01 -1.82278618743638787594e-03
9.99458320000000000000e+08 9.98129149485311173429e-01 -1.82644491068989223148e-02 -5.91614878811493483807e-04 -5.77572593860287662737e-03 -5.91614878811493483807e-04 -5.77572593860287662737e-03 9.99812914948531084036e-01 -1.82644491068989218811e-03
9.99459430000000000000e+08 9.98121536550455878967e-01 -1.83011818708373082132e-02 -5.94022300193611544825e-04 -5.78734185848273595398e-03 -5.94022300193611544825e-04 -5.78734185848273595398e-03 9.99812153655045610101e-01 -1.83011818708373082132e-03
9.99460540000000000000e+08 9.98113877225673240545e-01 -1.83380610261908473524e-02 -5.96444391358826649790e-04 -5.79900407139277360158e-03 -5.96444391358826649790e-04 -5.79900407139277360158e-03 9.99811387722567279646e-01 -1.83380610261908477861e-03
9.99461650000000000000e+08 9.98106171134659825306e-01 -1.83750874396891895890e-02 -5.98881271304727057572e-04 -5.81071285141696990822e-03 -5.98881271304727057572e-04 -5.81071285141696990822e-03 9.99810617113465971428e-01 -1.83750874396891887216e-03
9.99462760000000000000e+08 9.98098417897306355862e-01 -1.84122619848148191823e-02 -6.01333060232403710833e-04 -5.82246847477474026994e-03 -6.01333060232403710833e-04 -5.82246847477474026994e-03 9.99809841789730646688e-01 -1.84122619848148196160e-03
9.99463870000000000000e+08 9.98090617129644752659e-01 -1.84495855419017050492e-02 -6.03799879563251358158e-04 -5.83427121985212807087e-03 -6.03799879563251358158e-04 -5.83427121985212807087e-03 9.99809061712964464164e-01 -1.84495855419017037481e-03
9.99464980000000000000e+08 9.98082768443806500613e-01 -1.84870589981753694064e-02 -6.06281851952072546770e-04 -5.84612136721447857302e-03 -6.06281851952072546770e-04 -5.84612136721447857302e-03 9.99808276844380672266e-01 -1.84870589981753707075e-03
9.99466090000000000000e+08 9.98074871447973466232e-01 -1.85246832478270472000e-02 -6.08779101302583882001e-04 -5.85801919962988890817e-03 -6.08779101302583882001e-04 -5.85801919962988890817e-03 9.99807487144797391032e-01 -1.85246832478270476337e-03
9.99467200000000000000e+08 9.98066925746327826552e-01 -1.85624591920925535726e-02 -6.11291752783403780948e-04 -5.86996500209414646260e-03 -6.11291752783403780948e-04 -5.86996500209414646260e-03 9.99806692574632838166e-01 -1.85624591920925544400e-03
9.99468310000000000000e+08 9.98058930939006105909e-01 -1.86003877393056300804e-02 -6.13819932842511392646e-04 -5.88195906184760166496e-03 -6.13819932842511392646e-04 -5.88195906184760166496e-03 9.99805893093900555080e-01 -1.86003877393056313815e-03
9.99469420000000000000e+08 9.98050886622048771812e-01 -1.86384698049688324328e-02 -6.16363769223034424841e-04 -5.89400166839758234832e-03 -6.16363769223034424841e-04 -5.89400166839758234832e-03 9.99805088662204854977e-01 -1.86384698049688306981e-03
9.99470530000000000000e+08 9.98042792387348942640e-01 -1.86767063118329634808e-02 -6.18923390979779649256e-04 -5.90609311354351341344e-03 -6.18923390979779649256e-04 -5.90609311354351341344e-03 9.99804279238734938673e-01 -1.86767063118329626134e-03
9.99471640000000000000e+08 9.98034647822602094536e-01 -1.87150981899602136815e-02 -6.21498928494851592824e-04 -5.91823369139688523072e-03 -6.21498928494851592824e-04 -5.91823369139688523072e-03 9.99803464782260231658e-01 -1.87150981899602132479e-03
9.99472750000000000000e+08 9.98026452511254102973e-01 -1.87536463767995278951e-02 -6.24090513494261972874e-04 -5.93042369840508093448e-03 -6.24090513494261972874e-04 -5.93042369840508093448e-03 9.99802645251125388093e-01 -1.87536463767995248593e-03
9.99473860000000000000e+08 9.98018206032449062270e-01 -1.87923518172551026750e-02 -6.26698279064261901811e-04 -5.94266343337304572131e-03 -6.26698279064261901811e-04 -5.94266343337304572131e-03 9.99801820603244961738e-01 -1.87923518172551022413e-03
9.99474970000000000000e+08 9.98009907960977771246e-01 -1.88312154637557301051e-02 -6.29322359667902966884e-04 -5.95495319748520681585e-03 -6.29322359667902966884e-04 -5.95495319748520681585e-03 9.99800990796097743818e-01 -1.88312154637557301051e-03
9.99476080000000000000e+08 9.98001557867218558329e-01 -1.88702382763481779637e-02 -6.31962891163415215953e-04 -5.96729329433501060748e-03 -6.31962891163415215953e-04 -5.96729329433501060748e-03 9.99800155786721878037e-01 -1.88702382763481770964e-03
9.99477190000000000000e+08 9.97993155317088209699e-01 -1.89094212227489087697e-02 -6.34620010819956711923e-04 -5.97968402994127155164e-03 -6.34620010819956711923e-04 -5.97968402994127155164e-03 9.99799315531708865379e-01 -1.89094212227489079023e-03
9.99478300000000000000e+08 9.97984699871984792807e-01 -1.89487652784275269202e-02 -6.37293857335694013434e-04 -5.99212571277456251817e-03 -6.37293857335694013434e-04 -5.99212571277456251817e-03 9.99798469987198457076e-01 -1.89487652784275256192e-03
9.99479410000000000000e+08 9.97976191088728259437e-01 -1.89882714266952634663e-02 -6.39984570856428551348e-04 -6.00461865378519935033e-03 -6.39984570856428551348e-04 -6.00461865378519935033e-03 9.99797619108872881455e-01 -1.89882714266952643337e-03
9.99480520000000000000e+08 9.97967628519507932161e-01 -1.90279406587628915903e-02 -6.42692292992338987112e-04 -6.01716316642154826905e-03 -6.42692292992338987112e-04 -6.01716316642154826905e-03 9.99796762851950848727e-01 -1.90279406587628920240e-03
9.99481630000000000000e+08 9.97959011711820886958e-01 -1.90677739738349533161e-02 -6.45417166837396671583e-04 -6.02975956665983102434e-03 -6.45417166837396671583e-04 -6.02975956665983102434e-03 9.99795901171182110900e-01 -1.90677739738349515813e-03
9.99482740000000000000e+08 9.97950340208415109799e-01 -1.91077723791812578713e-02 -6.48159336987438427884e-04 -6.04240817302672920952e-03 -6.48159336987438427884e-04 -6.04240817302672920952e-03 9.99795034020841466571e-01 -1.91077723791812574376e-03
9.99483850000000000000e+08 9.97941613547229211534e-01 -1.91479368902171716293e-02 -6.50918949559043378585e-04 -6.05510930662477454139e-03 -6.50918949559043378585e-04 -6.05510930662477454139e-03 9.99794161354722876744e-01 -1.91479368902171698946e-03
9.99484960000000000000e+08 9.97932831261330699490e-01 -1.91882685305929182040e-02 -6.53696152209244608564e-04 -6.06786329116059102579e-03 -6.53696152209244608564e-04 -6.06786329116059102579e-03 9.99793283126133025540e-01 -1.91882685305929160356e-03
9.99486070000000000000e+08 9.97923992878856025435e-01 -1.92287683322678176756e-02 -6.56491094154420195238e-04 -6.08067045296836923562e-03 -6.56491094154420195238e-04 -6.08067045296836923562e-03 9.99792399287885547032e-01 -1.92287683322678163746e-03
9.99487180000000000000e+08 9.97915097922949745346e-01 -1.92694373355853029728e-02 -6.59303926189450627271e-04 -6.09353112103359038920e-03 -6.59303926189450627271e-04 -6.09353112103359038920e-03 9.99791509792295030046e-01 -1.92694373355853029728e-03
9.99488290000000000000e+08 9.97906145911697461948e-01 -1.93102765893773190009e-02 -6.62134800709129086975e-04 -6.10644562702603380111e-03 -6.62134800709129086975e-04 -6.10644562702603380111e-03 9.99790614591169801706e-01 -1.93102765893773194346e-03
9.99489400000000000000e+08 9.97897136358061653816e-01 -1.93512871510456395396e-02 -6.64983871728211709505e-04 -6.11941430532550196403e-03 -6.64983871728211709505e-04 -6.11941430532550196403e-03 9.99789713635806154279e-01 -1.93512871510456382386e-03
9.99490510000000000000e+08 9.97888068769821279247e-01 -1.93924700866275126487e-02 -6.67851294900601456100e-04 -6.13243749304257304567e-03 -6.67851294900601456100e-04 -6.13243749304257304567e-03 9.99788806876982127925e-01 -1.93924700866275113477e-03
9.99491620000000000000e+08 9.97878942649501610163e-01 -1.94338264709033106681e-02 -6.70737227541681486215e-04 -6.14551553005264310225e-03 -6.70737227541681486215e-04 -6.14551553005264310225e-03 9.99787894264950183221e-01 -1.94338264709033098007e-03
9.99492730000000000000e+08 9.97869757494307951795e-01 -1.94753573874786659048e-02 -6.73641828649117310919e-04 -6.15864875902189922580e-03 -6.73641828649117310919e-04 -6.15864875902189922580e-03 9.99786975749430761873e-01 -1.94753573874786650375e-03
9.99493840000000000000e+08 9.97860512796056919882e-01 -1.95170639288758419883e-02 -6.76565258924547124723e-04 -6.17183752543621743508e-03 -6.76565258924547124723e-04 -6.17183752543621743508e-03 9.99786051279605736397e-01 -1.95170639288758432893e-03
9.99494950000000000000e+08 9.97851208041108606039e-01 -1.95589471966199773822e-02 -6.79507680795154718305e-04 -6.18508217762842992665e-03 -6.79507680795154718305e-04 -6.18508217762842992665e-03 9.99785120804110860604e-01 -1.95589471966199765149e-03
9.99496060000000000000e+08 9.97841842710295634511e-01 -1.96010083013346374237e-02 -6.82469258436150410553e-04 -6.19838306680854742720e-03 -6.82469258436150410553e-04 -6.19838306680854742720e-03 9.99784184271029552349e-01 -1.96010083013346348216e-03
9.99497170000000000000e+08 9.97832416278853218117e-01 -1.96432483628260316777e-02 -6.85450157792703591159e-04 -6.21174054709038459682e-03 -6.85450157792703591159e-04 -6.21174054709038459682e-03 9.99783241627885344016e-01 -1.96432483628260299430e-03
9.99498280000000000000e+08 9.97822928216345439445e-01 -1.96856685101849358810e-02 -6.88450546603386532608e-04 -6.22515497552379552804e-03 -6.88450546603386532608e-04 -6.22515497552379552804e-03 9.99782292821634555047e-01 -1.96856685101849324115e-03
9.99499390000000000000e+08 9.97813377986589644664e-01 -1.97282698818901022775e-02 -6.91470594423991276149e-04 -6.23862671212737415066e-03 -6.91470594423991276149e-04 -6.23862671212737415066e-03 9.99781337798658964466e-01 -1.97282698818901022775e-03
9.99500500000000000000e+08 9.97803765047588164805e-01 -1.97710536258786789832e-02 -6.94510472649276884224e-04 -6.25215611991071767289e-03 -6.94510472649276884224e-04 -6.25215611991071767289e-03 9.99780376504758816480e-01 -1.97710536258786755137e-03
9.99501610000000000000e+08 9.97794088851446603350e-01 -1.98140208996687855469e-02 -6.97570354538685848643e-04 -6.26574356491319678364e-03 -6.97570354538685848643e-04 -6.26574356491319678364e-03 9.99779408885144604824e-01 -1.98140208996687872817e-03
9.99502720000000000000e+08 9.97784348844300783554e-01 -1.98571728704406841315e-02 -7.00650415239402035023e-04 -6.27938941622961828426e-03 -7.00650415239402035023e-04 -6.27938941622961828426e-03 9.99778434884430078355e-01 -1.98571728704406832641e-03
9.99503830000000000000e+08 9.97774544466237256479e-01 -1.99005107151447833969e-02 -7.03750831811597739839e-04 -6.29309404604438092645e-03 -7.03750831811597739839e-04 -6.29309404604438092645e-03 9.99777454446623692341e-01 -1.99005107151447842642e-03
9.99504940000000000000e+08 9.97764675151214253113e-01 -1.99440356206023218510e-02 -7.06871783253449270309e-04 -6.30685782966331192484e-03 -7.06871783253449270309e-04 -6.30685782966331192484e-03 9.99776467515121392005e-01 -1.99440356206023218510e-03
9.99506050000000000000e+08 9.97754740326981859333e-01 -1.99877487836028697177e-02 -7.10013450526220395338e-04 -6.32068114554450513620e-03 -7.10013450526220395338e-04 -6.32068114554450513620e-03 9.99775474032698174831e-01 -1.99877487836028688503e-03
9.99507160000000000000e+08 9.97744739415002079852e-01 -2.00316514110030173546e-02 -7.13176016579720605144e-04 -6.33456437532952353064e-03 -7.13176016579720605144e-04 -6.33456437532952353064e-03 9.99774473941500207985e-01 -2.00316514110030190893e-03
9.99508270000000000000e+08 9.97734671830359687306e-01 -2.00757447198570623814e-02 -7.16359666380378466537e-04 -6.34850790388472897841e-03 -7.16359666380378466537e-04 -6.34850790388472897841e-03 9.99773467183035946526e-01 -2.00757447198570641161e-03
9.99509380000000000000e+08 9.97724536981688281401e-01 -2.01200299374787380802e-02 -7.19564586934651499381e-04 -6.36251211932079962369e-03 -7.19564586934651499381e-04 -6.36251211932079962369e-03 9.99772453698168805936e-01 -2.01200299374787363454e-03
9.99510490000000000000e+08 9.97714334271076030980e-01 -2.01645083015876795673e-02 -7.22790967318860709881e-04 -6.37657741303905394037e-03 -7.22790967318860709881e-04 -6.37657741303905394037e-03 9.99771433427107614200e-01 -2.01645083015876760979e-03
9.99511600000000000000e+08 9.97704063093984183652e-01 -2.02091810603956222037e-02 -7.26038998704998830673e-04 -6.39070417975869890098e-03 -7.26038998704998830673e-04 -6.39070417975869890098e-03 9.99770406309398396161e-01 -2.02091810603956213363e-03
9.99512710000000000000e+08 9.97693722839155472393e-01 -2.02540494727292859356e-02 -7.29308874389515996925e-04 -6.40489281755569645621e-03 -7.29308874389515996925e-04 -6.40489281755569645621e-03 9.99769372283915602750e-01 -2.02540494727292868030e-03
9.99513820000000000000e+08 9.97683312888529627571e-01 -2.02991148081234189238e-02 -7.32600789820269217636e-04 -6.41914372789218184295e-03 -7.32600789820269217636e-04 -6.41914372789218184295e-03 9.99768331288853007166e-01 -2.02991148081234189238e-03
9.99514930000000000000e+08 9.97672832617146010392e-01 -2.03443783469599258351e-02 -7.35914942627170927912e-04 -6.43345731566046744737e-03 -7.35914942627170927912e-04 -6.43345731566046744737e-03 9.99767283261714601039e-01 -2.03443783469599249678e-03
9.99516040000000000000e+08 9.97662281393058236745e-01 -2.03898413805523523457e-02 -7.39251532649188767242e-04 -6.44783398920974887281e-03 -7.39251532649188767242e-04 -6.44783398920974887281e-03 9.99766228139305823674e-01 -2.03898413805523540804e-03
9.99517150000000000000e+08 9.97651658577237254732e-01 -2.04355052112766208405e-02 -7.42610761965075338517e-04 -6.46227416038745467591e-03 -7.42610761965075338517e-04 -6.46227416038745467591e-03 9.99765165857723681064e-01 -2.04355052112766217079e-03
9.99518260000000000000e+08 9.97640963523473867092e-01 -2.04813711526967076604e-02 -7.45992834924095148119e-04 -6.47677824457898801414e-03 -7.45992834924095148119e-04 -6.47677824457898801414e-03 9.99764096352347420016e-01 -2.04813711526967076604e-03
9.99519370000000000000e+08 9.97630195578290024372e-01 -2.05274405296505708940e-02 -7.49397958174181227919e-04 -6.49134666073489588478e-03 -7.49397958174181227919e-04 -6.49134666073489588478e-03 9.99763019557828980233e-01 -2.05274405296505726287e-03
9.99520480000000000000e+08 9.97619354080830800235e-01 -2.05737146784107510777e-02 -7.52826340695967265691e-04 -6.50597983142165922632e-03 -7.52826340695967265691e-04 -6.50597983142165922632e-03 9.99761935408083113330e-01 -2.05737146784107502104e-03
9.99521590000000000000e+08 9.97608438362775129526e-01 -2.06201949467637937752e-02 -7.56278193831201508285e-04 -6.52067818284680477542e-03 -7.56278193831201508285e-04 -6.52067818284680477542e-03 9.99760843836277501850e-01 -2.06201949467637929078e-03
9.99522700000000000000e+08 9.97597447748221899388e-01 -2.06668826941836317190e-02 -7.59753731318503857696e-04 -6.53544214491373880865e-03 -7.59753731318503857696e-04 -6.53544214491373880865e-03 9.99759744774822212143e-01 -2.06668826941836317190e-03
9.99523810000000000000e+08 9.97586381553603462891e-01 -2.07137792918903398953e-02 -7.63253169321001425501e-04 -6.55027215124032082677e-03 -7.63253169321001425501e-04 -6.55027215124032082677e-03 9.99758638155360368494e-01 -2.07137792918903398953e-03
9.99524920000000000000e+08 9.97575239087566401075e-01 -2.07608861230361846362e-02 -7.66776726463823713430e-04 -6.56516863921770364027e-03 -7.66776726463823713430e-04 -6.56516863921770364027e-03 9.99757523908756606801e-01 -2.07608861230361820341e-03
9.99526030000000000000e+08 9.97564019650875710710e-01 -2.08082045827905313951e-02 -7.70324623864476754065e-04 -6.58013205003717908254e-03 -7.70324623864476754065e-04 -6.58013205003717908254e-03 9.99756401965087526662e-01 -2.08082045827905331298e-03
9.99527140000000000000e+08 9.97552722536299563139e-01 -2.08557360785014030136e-02 -7.73897085169346354849e-04 -6.59516282874126648361e-03 -7.73897085169346354849e-04 -6.59516282874126648361e-03 9.99755272253629923007e-01 -2.08557360785014030136e-03
9.99528250000000000000e+08 9.97541347028507274786e-01 -2.09034820297925999499e-02 -7.77494336585800673890e-04 -6.61026142425443028611e-03 -7.77494336585800673890e-04 -6.61026142425443028611e-03 9.99754134702850683070e-01 -2.09034820297925982152e-03
9.99529360000000000000e+08 9.97529892403953177826e-01 -2.09514438687192217081e-02 -7.81116606919095052448e-04 -6.62542828943225511895e-03 -7.81116606919095052448e-04 -6.62542828943225511895e-03 9.99752989240395351089e-01 -2.09514438687192225755e-03
9.99530470000000000000e+08 9.97518357930763488461e-01 -2.09996230399012960566e-02 -7.84764127608079996648e-04 -6.64066388110370539599e-03 -7.84764127608079996648e-04 -6.64066388110370539599e-03 9.99751835793076359948e-01 -2.09996230399012943219e-03
9.99531580000000000000e+08 9.97506742868626949949e-01 -2.10480210006349678642e-02 -7.88437132759645955236e-04 -6.65596866010628469140e-03 -7.88437132759645955236e-04 -6.65596866010628469140e-03 9.99750674286862706097e-01 -2.10480210006349635274e-03
