! File generated for n1 = 2, n2 = 6
! b1 = 46.415888
! b2 = 1.000000
! Q0 = 10000.000000
! f0 = 1000000000.000000
! n = 1001
! rel_span = 10.000000
# Hz S RI R 50
9.75792055831936120987e+08 9.81473891770633710685e-01 -1.87559107733548890984e-01 -2.71926080909511060785e-03 -2.75299120967151846051e-02 -2.71926080909511060785e-03 -2.75299120967151846051e-02 9.99600867097593659416e-01 -4.04083848132584869117e-03
9.75840471720272302628e+08 9.81399360352133487417e-01 -1.87932320322030027571e-01 -2.73020052524404780933e-03 -2.75846922131191829575e-02 -2.73020052524404780933e-03 -2.75846922131191829575e-02 9.99599261366858504729e-01 -4.04887910279965335808e-03
9.75888887608608365059e+08 9.81324383565013835806e-01 -1.88306986983223012544e-01 -2.74120561256633405930e-03 -2.76396857582093258277e-02 -2.74120561256633405930e-03 -2.76396857582093258277e-02 9.99597646040947362955e-01 -4.05695105132037898282e-03
9.75937303496944546700e+08 9.81248957873178673239e-01 -1.88683116139525458577e-01 -2.75227659008988635725e-03 -2.76948939682245300065e-02 -2.75227659008988635725e-03 -2.76948939682245300065e-02 9.99596021043677285256e-01 -4.06505450834308314223e-03
9.75985719385280609131e+08 9.81173079705518813576e-01 -1.89060716277735907376e-01 -2.76341398198185492566e-03 -2.77503180888564598972e-02 -2.76341398198185492566e-03 -2.77503180888564598972e-02 9.99594386298111037270e-01 -4.07318965671029688258e-03
9.76034135273616790771e+08 9.81096745455496521693e-01 -1.89439795949662620478e-01 -2.77461831760957358672e-03 -2.78059593753389039383e-02 -2.77461831760957358672e-03 -2.78059593753389039383e-02 9.99592741726548217329e-01 -4.08135668066514530061e-03
9.76082551161952853203e+08 9.81019951480724961002e-01 -1.89820363772738226471e-01 -2.78589013160232285699e-03 -2.78618190925379941025e-02 -2.78589013160232285699e-03 -2.78618190925379941025e-02 9.99591087250515819562e-01 -4.08955576586458521837e-03
9.76130967050289034843e+08 9.80942694102540979628e-01 -1.90202428430643416535e-01 -2.79722996391400290442e-03 -2.79178985150437437845e-02 -2.79722996391400290442e-03 -2.79178985150437437845e-02 9.99589422790759685178e-01 -4.09778709939284668806e-03
9.76179382938625097275e+08 9.80864969605573122635e-01 -1.90585998673934248204e-01 -2.80863835988658626375e-03 -2.79741989272621373319e-02 -2.80863835988658626375e-03 -2.79741989272621373319e-02 9.99587748267234288413e-01 -4.10605086977494388584e-03
9.76227798826961278915e+08 9.80786774237301539614e-01 -1.90971083320682549767e-01 -2.82011587031462005945e-03 -2.80307216235091034851e-02 -2.82011587031462005945e-03 -2.80307216235091034851e-02 9.99586063599094298837e-01 -4.11434726699047570442e-03
9.76276214715297341347e+08 9.80708104207615449788e-01 -1.91357691257113521344e-01 -2.83166305151033538198e-03 -2.80874679081041279949e-02 -2.83166305151033538198e-03 -2.80874679081041279949e-02 9.99584368704684034235e-01 -4.12267648248736129357e-03
9.76324630603633522987e+08 9.80628955688359726928e-01 -1.91745831438262681612e-01 -2.84328046537002518054e-03 -2.81444390954666730231e-02 -2.84328046537002518054e-03 -2.81444390954666730231e-02 9.99582663501528578820e-01 -4.13103870919599106687e-03
9.76373046491969704628e+08 9.80549324812879374846e-01 -1.92135512888630372030e-01 -2.85496867944104882470e-03 -2.82016365102122287811e-02 -2.85496867944104882470e-03 -2.82016365102122287811e-02 9.99580947906323236118e-01 -4.13943414154333173827e-03
9.76421462380305767059e+08 9.80469207675555232129e-01 -1.92526744702846586144e-01 -2.86672826698987533167e-03 -2.82590614872499333587e-02 -2.86672826698987533167e-03 -2.82590614872499333587e-02 9.99579221834924092072e-01 -4.14786297546724733176e-03
9.76469878268641948700e+08 9.80388600331333459614e-01 -1.92919536046349426872e-01 -2.87855980707124071982e-03 -2.83167153718821076880e-02 -2.87855980707124071982e-03 -2.83167153718821076880e-02 9.99577485202337467918e-01 -4.15632540843111509404e-03
9.76518294156978011131e+08 9.80307498795249365742e-01 -1.93313896156060038845e-01 -2.89046388459796499068e-03 -2.83745995199033707035e-02 -2.89046388459796499068e-03 -2.83745995199033707035e-02 9.99575737922709928185e-01 -4.16482163943836854875e-03
9.76566710045314192772e+08 9.80225899041943238288e-01 -1.93709834341075692876e-01 -2.90244109041205020430e-03 -2.84327152977023253633e-02 -2.90244109041205020430e-03 -2.84327152977023253633e-02 9.99573979909317733572e-01 -4.17335186904742826142e-03
9.76615125933650255203e+08 9.80143797005170847036e-01 -1.94107359983362759426e-01 -2.91449202135654486870e-03 -2.84910640823633209973e-02 -2.91449202135654486870e-03 -2.84910640823633209973e-02 9.99572211074556293831e-01 -4.18191629938663260446e-03
9.76663541821986436844e+08 9.80061188577305064662e-01 -1.94506482538463754128e-01 -2.92661728034861005898e-03 -2.85496472617701932406e-02 -2.92661728034861005898e-03 -2.85496472617701932406e-02 9.99570431329929398601e-01 -4.19051513416947036400e-03
9.76711957710322499275e+08 9.79978069608833379789e-01 -1.94907211536206298463e-01 -2.93881747645343338257e-03 -2.86084662347103335645e-02 -2.93881747645343338257e-03 -2.86084662347103335645e-02 9.99568640586038670293e-01 -4.19914857870985237798e-03
9.76760373598658680916e+08 9.79894435907843863731e-01 -1.95309556581431648103e-01 -2.95109322495953939683e-03 -2.86675224109816488560e-02 -2.95109322495953939683e-03 -2.86675224109816488560e-02 9.99566838752572017768e-01 -4.20781683993781251835e-03
9.76808789486994862556e+08 9.79810283239508694741e-01 -1.95713527354713673345e-01 -2.96344514745462304581e-03 -2.87268172114980568921e-02 -2.96344514745462304581e-03 -2.87268172114980568921e-02 9.99565025738292756152e-01 -4.21652012641499009810e-03
9.76857205375330924988e+08 9.79725607325557579230e-01 -1.96119133613099738689e-01 -2.97587387190288406649e-03 -2.87863520683982569703e-02 -2.97587387190288406649e-03 -2.87863520683982569703e-02 9.99563201451028504607e-01 -4.22525864835059973557e-03
9.76905621263667106628e+08 9.79640403843743068357e-01 -1.96526385190861685448e-01 -2.98838003272350891462e-03 -2.88461284251559473002e-02 -2.98838003272350891462e-03 -2.88461284251559473002e-02 9.99561365797659195920e-01 -4.23403261761760504878e-03
9.76954037152003169060e+08 9.79554668427300212485e-01 -1.96935292000243539201e-01 -3.00096427086990989730e-03 -2.89061477366895844265e-02 -3.00096427086990989730e-03 -2.89061477366895844265e-02 9.99559518684105752229e-01 -4.24284224776883076707e-03
9.77002453040339350700e+08 9.79468396664397333851e-01 -1.97345864032228757168e-01 -3.01362723391043665216e-03 -2.89664114694749841306e-02 -3.01362723391043665216e-03 -2.89664114694749841306e-02 9.99557660015317983593e-01 -4.25168775405348857432e-03
9.77050868928675413132e+08 9.79381584097580137893e-01 -1.97758111357305393918e-01 -3.02636957610990641604e-03 -2.90269211016576447748e-02 -3.02636957610990641604e-03 -2.90269211016576447748e-02 9.99555789695263263717e-01 -4.26056935343366825764e-03
9.77099284817011594772e+08 9.79294226223204278270e-01 -1.98172044126259133678e-01 -3.03919195851289807367e-03 -2.90876781231691576568e-02 -3.03919195851289807367e-03 -2.90876781231691576568e-02 9.99553907626913207274e-01 -4.26948726460141692735e-03
9.77147700705347657204e+08 9.79206318490865146309e-01 -1.98587672570951029316e-01 -3.05209504902747771893e-03 -2.91486840358413205887e-02 -3.05209504902747771893e-03 -2.91486840358413205887e-02 9.99552013712232456655e-01 -4.27844170799549904788e-03
9.77196116593683838844e+08 9.79117856302814448810e-01 -1.99005007005124440189e-01 -3.06507952251077603334e-03 -2.92099403535246403274e-02 -3.06507952251077603334e-03 -2.92099403535246403274e-02 9.99550107852165581335e-01 -4.28743290581877923434e-03
9.77244532482019901276e+08 9.79028835013372455975e-01 -1.99424057825207140526e-01 -3.07814606085534368807e-03 -2.92714486022060266235e-02 -3.07814606085534368807e-03 -2.92714486022060266235e-02 9.99548189946624310309e-01 -4.29646108205550443515e-03
9.77292948370356082916e+08 9.78939249928327481776e-01 -1.99844835511137658424e-01 -3.09129535307723409682e-03 -2.93332103201300736783e-02 -3.09129535307723409682e-03 -2.93332103201300736783e-02 9.99546259894474986574e-01 -4.30552646248910479698e-03
9.77341364258692264557e+08 9.78849096304330812401e-01 -2.00267350627183537970e-01 -3.10452809540480998210e-03 -2.93952270579192140310e-02 -3.10452809540480998210e-03 -2.93952270579192140310e-02 9.99544317593525244448e-01 -4.31462927471982539418e-03
9.77389780147028326988e+08 9.78758369348279866351e-01 -2.00691613822784831189e-01 -3.11784499136932890043e-03 -2.94575003786974737308e-02 -3.11784499136932890043e-03 -2.94575003786974737308e-02 9.99542362940510908942e-01 -4.32376974818289832453e-03
9.77438196035364508629e+08 9.78667064216693693979e-01 -2.01117635833398533673e-01 -3.13124675189656916791e-03 -2.95200318582144426161e-02 -3.13124675189656916791e-03 -2.95200318582144426161e-02 9.99540395831082228995e-01 -4.33294811416673041754e-03
9.77486611923700571060e+08 9.78575176015079040148e-01 -2.01545427481354871846e-01 -3.14473409539986698338e-03 -2.95828230849709584993e-02 -3.14473409539986698338e-03 -2.95828230849709584993e-02 9.99538416159790554794e-01 -4.34216460583136155960e-03
9.77535027812036752701e+08 9.78482699797287081012e-01 -2.01974999676727329234e-01 -3.15830774787461462244e-03 -2.96458756603468036317e-02 -3.15830774787461462244e-03 -2.96458756603468036317e-02 9.99536423820074459989e-01 -4.35141945822719710540e-03
9.77583443700372815132e+08 9.78389630564861390027e-01 -2.02406363418203866233e-01 -3.17196844299387232385e-03 -2.97091911987286023955e-02 -3.17196844299387232385e-03 -2.97091911987286023955e-02 9.99534418704245308795e-01 -4.36071290831378625963e-03
9.77631859588708996773e+08 9.78295963266374135614e-01 -2.02839529793983258665e-01 -3.18571692220585194269e-03 -2.97727713276413549770e-02 -3.18571692220585194269e-03 -2.97727713276413549770e-02 9.99532400703473489223e-01 -4.37004519497913215126e-03
9.77680275477045059204e+08 9.78201692796756283599e-01 -2.03274509982662304752e-01 -3.19955393483220855086e-03 -2.98366176878786769355e-02 -3.19955393483220855086e-03 -2.98366176878786769355e-02 9.99530369707773647114e-01 -4.37941655905879981270e-03
9.77728691365381240845e+08 9.78106813996613255746e-01 -2.03711315254155311827e-01 -3.21348023816847875797e-03 -2.99007319336377676289e-02 -3.21348023816847875797e-03 -2.99007319336377676289e-02 9.99528325605989809155e-01 -4.38882724335573279340e-03
9.77777107253717303276e+08 9.78011321651535148192e-01 -2.04149956970605117590e-01 -3.22749659758538899601e-03 -2.99651157326531157599e-02 -3.22749659758538899601e-03 -2.99651157326531157599e-02 9.99526268285781172018e-01 -4.39827749265987895388e-03
9.77825523142053484917e+08 9.77915210491392739023e-01 -2.04590446587319840788e-01 -3.24160378663213748565e-03 -3.00297707663340178452e-02 -3.24160378663213748565e-03 -3.00297707663340178452e-02 9.99524197633606004132e-01 -4.40776755376836963662e-03
9.77873939030389666557e+08 9.77818475189626057364e-01 -2.05032795653707022865e-01 -3.25580258714076951204e-03 -3.00946987299016560646e-02 -3.25580258714076951204e-03 -3.00946987299016560646e-02 9.99522113534707323801e-01 -4.41729767550564679512e-03
9.77922354918725728989e+08 9.77721110362520406944e-01 -2.05477015814232472080e-01 -3.27009378933255240307e-03 -3.01599013325298780097e-02 -3.27009378933255240307e-03 -3.01599013325298780097e-02 9.99520015873096245862e-01 -4.42686810874412268318e-03
9.77970770807061910629e+08 9.77623110568471398452e-01 -2.05923118809385685690e-01 -3.28447819192576343991e-03 -3.02253802974868646114e-02 -3.28447819192576343991e-03 -3.02253802974868646114e-02 9.99517904531537104695e-01 -4.43647910642497398520e-03
9.78019186695397973061e+08 9.77524470307242432376e-01 -2.06371116476645910520e-01 -3.29895660224475539141e-03 -3.02911373622769646008e-02 -3.29895660224475539141e-03 -3.02911373622769646008e-02 9.99515779391530800879e-01 -4.44613092357896283469e-03
9.78067602583734154701e+08 9.77425184019205639530e-01 -2.06821020751479928146e-01 -3.31352983633128976571e-03 -3.03571742787871051705e-02 -3.31352983633128976571e-03 -3.03571742787871051705e-02 9.99513640333298925000e-01 -4.45582381734792309924e-03
9.78116018472070217133e+08 9.77325246084576160222e-01 -2.07272843668333789369e-01 -3.32819871905696857556e-03 -3.04234928134324011939e-02 -3.32819871905696857556e-03 -3.04234928134324011939e-02 9.99511487235766771242e-01 -4.46555804700613651059e-03
9.78164434360406398773e+08 9.77224650822631546454e-01 -2.07726597361651110774e-01 -3.34296408423783277322e-03 -3.04900947473055947134e-02 -3.34296408423783277322e-03 -3.04900947473055947134e-02 9.99509319976546906084e-01 -4.47533387398226564086e-03
9.78212850248742461205e+08 9.77123392490922726417e-01 -2.08182294066886180994e-01 -3.35782677475011254176e-03 -3.05569818763257831928e-02 -3.35782677475011254176e-03 -3.05569818763257831928e-02 9.99507138431921959842e-01 -4.48515156188118279540e-03
9.78261266137078642845e+08 9.77021465284468981771e-01 -2.08639946121552066760e-01 -3.37278764264846864923e-03 -3.06241560113922131614e-02 -3.37278764264846864923e-03 -3.06241560113922131614e-02 9.99504942476827529241e-01 -4.49501137650654743888e-03
9.78309682025414824486e+08 9.76918863334945042354e-01 -2.09099565966257533445e-01 -3.38784754928525902451e-03 -3.06916189785365403631e-02 -3.38784754928525902451e-03 -3.06916189785365403631e-02 9.99502731984834413836e-01 -4.50491358588315290307e-03
9.78358097913750886917e+08 9.76815580709852748775e-01 -2.09561166145772581615e-01 -3.40300736543211468366e-03 -3.07593726190791803832e-02 -3.40300736543211468366e-03 -3.07593726190791803832e-02 9.99500506828130630410e-01 -4.51485846027987504370e-03
9.78406513802087068558e+08 9.76711611411680058481e-01 -2.10024759310108027899e-01 -3.41826797140342341849e-03 -3.08274187897877929854e-02 -3.41826797140342341849e-03 -3.08274187897877929854e-02 9.99498266877503760419e-01 -4.52484627223293401493e-03
9.78454929690423130989e+08 9.76606949377050947980e-01 -2.10490358215589229429e-01 -3.43363025718106118500e-03 -3.08957593630348921476e-02 -3.43363025718106118500e-03 -3.08957593630348921476e-02 9.99496012002322520296e-01 -4.53487729656903027636e-03
9.78503345578759312630e+08 9.76501588475857662530e-01 -2.10957975725966723202e-01 -3.44909512254180927737e-03 -3.09643962269608233329e-02 -3.44909512254180927737e-03 -3.09643962269608233329e-02 9.99493742070517443565e-01 -4.54495181042926556236e-03
9.78551761467095375061e+08 9.76395522510382196657e-01 -2.11427624813526254810e-01 -3.46466347718625859373e-03 -3.10333312856367476984e-02 -3.46466347718625859373e-03 -3.10333312856367476984e-02 9.99491456948562895235e-01 -4.55507009329306645357e-03
9.78600177355431556702e+08 9.76288745214403785866e-01 -2.11899318560216959328e-01 -3.48033624086984284124e-03 -3.11025664592302006350e-02 -3.48033624086984284124e-03 -3.11025664592302006350e-02 9.99489156501457309822e-01 -4.56523242700248264858e-03
9.78648593243767619133e+08 9.76181250252294185898e-01 -2.12373070158784676975e-01 -3.49611434353558781646e-03 -3.11721036841714517485e-02 -3.49611434353558781646e-03 -3.11721036841714517485e-02 9.99486840592703540409e-01 -4.57543909578660579901e-03
9.78697009132103800774e+08 9.76073031218094522288e-01 -2.12848892913942489002e-01 -3.51199872544969088697e-03 -3.12419449133253049333e-02 -3.51199872544969088697e-03 -3.12419449133253049333e-02 9.99484509084289540759e-01 -4.58569038628679152142e-03
9.78745425020439863205e+08 9.75964081634584812441e-01 -2.13326800243520631195e-01 -3.52799033733802291229e-03 -3.13120921161599077842e-02 -3.52799033733802291229e-03 -3.13120921161599077842e-02 9.99482161836667715171e-01 -4.59598658758142777914e-03
9.78793840908776044846e+08 9.75854394952331616331e-01 -2.13806805679666644959e-01 -3.54409014052593568031e-03 -3.13825472789228746007e-02 -3.54409014052593568031e-03 -3.13825472789228746007e-02 9.99479798708734934465e-01 -4.60632799121179613983e-03
9.78842256797112226486e+08 9.75743964548727915620e-01 -2.14288922870028847312e-01 -3.56029910707920385290e-03 -3.14533124048150466989e-02 -3.56029910707920385290e-03 -3.14533124048150466989e-02 9.99477419557811330719e-01 -4.61671489120756700641e-03
9.78890672685448288918e+08 9.75632783727012009578e-01 -2.14773165578981434232e-01 -3.57661821994803043323e-03 -3.15243895141702409890e-02 -3.57661821994803043323e-03 -3.15243895141702409890e-02 9.99475024239619647126e-01 -4.62714758411319170006e-03
9.78939088573784470558e+08 9.75520845715275863874e-01 -2.15259547688842506341e-01 -3.59304847311257748860e-03 -3.15957806446340930262e-02 -3.59304847311257748860e-03 -3.15957806446340930262e-02 9.99472612608263477618e-01 -4.63762636901414709162e-03
9.78987504462120532990e+08 9.75408143665454585580e-01 -2.15748083201123264097e-01 -3.60959087173128674239e-03 -3.16674878513474034047e-02 -3.60959087173128674239e-03 -3.16674878513474034047e-02 9.99470184516205728542e-01 -4.64815154756384896900e-03
9.79035920350456714630e+08 9.75294670652302908564e-01 -2.16238786237782448785e-01 -3.62624643229117818444e-03 -3.17395132071302266130e-02 -3.62624643229117818444e-03 -3.17395132071302266130e-02 9.99467739814246636243e-01 -4.65872342401067382478e-03
9.79084336238792777061e+08 9.75180419672353582250e-01 -2.16731671042500545488e-01 -3.64301618276064755053e-03 -3.18118588026689505521e-02 -3.64301618276064755053e-03 -3.18118588026689505521e-02 9.99465278351500896470e-01 -4.66934230522541605934e-03
9.79132752127128958702e+08 9.75065383642859995206e-01 -2.17226751981972387995e-01 -3.65990116274473925237e-03 -3.18845267467059920174e-02 -3.65990116274473925237e-03 -3.18845267467059920174e-02 9.99462799975375459915e-01 -4.68000850072913376215e-03
9.79181168015465021133e+08 9.74949555400723144594e-01 -2.17724043547207590787e-01 -3.67690242364258337501e-03 -3.19575191662306856699e-02 -3.67690242364258337501e-03 -3.19575191662306856699e-02 9.99460304531545995488e-01 -4.69072232272116362850e-03
9.79229583903801202774e+08 9.74832927701399953868e-01 -2.18223560354857820665e-01 -3.69402102880767762086e-03 -3.20308382066740726657e-02 -3.69402102880767762086e-03 -3.20308382066740726657e-02 9.99457791863933575627e-01 -4.70148408610771961075e-03
9.79277999792137265205e+08 9.74715493217796380421e-01 -2.18725317148551035018e-01 -3.71125805371037018401e-03 -3.21044860321048064478e-02 -3.71125805371037018401e-03 -3.21044860321048064478e-02 9.99455261814680695487e-01 -4.71229410853063815368e-03
9.79326415680473446846e+08 9.74597244539140206143e-01 -2.19229328800252282194e-01 -3.72861458610324611809e-03 -3.21784648254288124791e-02 -3.72861458610324611809e-03 -3.21784648254288124791e-02 9.99452714224127292120e-01 -4.72315271039669328651e-03
9.79374831568809628487e+08 9.74478174169839617136e-01 -2.19735610311629886438e-01 -3.74609172618874195632e-03 -3.22527767885898777878e-02 -3.74609172618874195632e-03 -3.22527767885898777878e-02 9.99450148930785542412e-01 -4.73406021490702967613e-03
9.79423247457145690918e+08 9.74358274528321355312e-01 -2.20244176815444142603e-01 -3.76369058678960614547e-03 -3.23274241427734462806e-02 -3.76369058678960614547e-03 -3.23274241427734462806e-02 9.99447565771315438177e-01 -4.74501694808708573969e-03
9.79471663345481872559e+08 9.74237537945848330878e-01 -2.20755043576966292207e-01 -3.78141229352252101342e-03 -3.24024091286149104607e-02 -3.78141229352252101342e-03 -3.24024091286149104607e-02 9.99444964580499028983e-01 -4.75602323881716207432e-03
9.79520079233817934990e+08 9.74115956665324467245e-01 -2.21268225995385869886e-01 -3.79925798497346292951e-03 -3.24777340064061892377e-02 -3.79925798497346292951e-03 -3.24777340064061892377e-02 9.99442345191214887024e-01 -4.76707941886273748461e-03
9.79568495122154116631e+08 9.73993522840073122637e-01 -2.21783739605270147077e-01 -3.81722881287707097725e-03 -3.25534010563099246438e-02 -3.81722881287707097725e-03 -3.25534010563099246438e-02 9.99439707434411350739e-01 -4.77818582290592038658e-03
