! File generated for n1 = 12, n2 = 3
! b1 = 0.021544
! b2 = 0.004642
! Q0 = 10000.000000
! f0 = 1000000000.000000
! n = 1001
! rel_span = 10.000000
# Hz S RI R 50
9.99486907032132983208e+08 9.99584476888504824821e-01 -4.15629767212719394842e-03 -1.92868743442380720420e-04 -1.92918248641163708572e-03 -1.92868743442380720420e-04 -1.92918248641163708572e-03 9.99910478259408486146e-01 -8.95447188692958997297e-04
9.99487933218068718910e+08 9.99582825935287133667e-01 -4.16446368065580448115e-03 -1.93635048044400975668e-04 -1.93297281181179577032e-03 -1.93635048044400975668e-04 -1.93297281181179577032e-03 9.99910122572320148038e-01 -8.97206501898272618632e-04
9.99488959404004454613e+08 9.99581165158040518826e-01 -4.17266149813143218811e-03 -1.94405912556730437303e-04 -1.93677790161728255632e-03 -1.94405912556730437303e-04 -1.93677790161728255632e-03 9.99909764768708853033e-01 -8.98972668133476656739e-04
9.99489985589940190315e+08 9.99579494478936347868e-01 -4.18089130872814108975e-03 -1.95181373104169006991e-04 -1.94059784131412585602e-03 -1.95181373104169006991e-04 -1.94059784131412585602e-03 9.99909404831807013814e-01 -9.00745727077670961178e-04
9.99491011775875926018e+08 9.99577813819375382565e-01 -4.18915329803349733434e-03 -1.95961466169260179176e-04 -1.94443271704444276340e-03 -1.95961466169260179176e-04 -1.94443271704444276340e-03 9.99909042744681064718e-01 -9.02525718714484027731e-04
9.99492037961811661720e+08 9.99576123099981339593e-01 -4.19744765304894910246e-03 -1.96746228595305502592e-04 -1.94828261560661708009e-03 -1.96746228595305502592e-04 -1.94828261560661708009e-03 9.99908678490229685387e-01 -9.04312683332157024076e-04
9.99493064147747397423e+08 9.99574422240588345012e-01 -4.20577456221667405484e-03 -1.97535697591918541416e-04 -1.95214762446775896669e-03 -1.97535697591918541416e-04 -1.95214762446775896669e-03 9.99908312051181691338e-01 -9.06106661529326165225e-04
9.99494090333683133125e+08 9.99572711160234161909e-01 -4.21413421542332806979e-03 -1.98329910738444096553e-04 -1.95602783176544725574e-03 -1.98329910738444096553e-04 -1.95602783176544725574e-03 9.99907943410094479653e-01 -9.07907694215831419932e-04
9.99495116519618868828e+08 9.99570989777149643274e-01 -4.22252680401827545226e-03 -1.99128905988791091034e-04 -1.95992332631618818017e-03 -1.99128905988791091034e-04 -1.95992332631618818017e-03 9.99907572549351253421e-01 -9.09715822616643382537e-04
9.99496142705554604530e+08 9.99569258008749184086e-01 -4.23095252082614746436e-03 -1.99932721675775043656e-04 -1.96383419762124859786e-03 -1.99932721675775043656e-04 -1.96383419762124859786e-03 9.99907199451159578452e-01 -9.11531088274569766851e-04
9.99497168891490340233e+08 9.99567515771620729303e-01 -4.23941156016317648170e-03 -2.00741396515868798962e-04 -1.96776053587423326377e-03 -2.00741396515868798962e-04 -1.96776053587423326377e-03 9.99906824097548829755e-01 -9.13353533053773750626e-04
9.99498195077426075935e+08 9.99565762981516781061e-01 -4.24790411784640390552e-03 -2.01554969613318727892e-04 -1.97170243196536114014e-03 -2.01554969613318727892e-04 -1.97170243196536114014e-03 9.99906446470368415191e-01 -9.15183199141757957110e-04
9.99499221263361811638e+08 9.99563999553342963367e-01 -4.25643039121399030522e-03 -2.02373480465372073030e-04 -1.97565997749089275123e-03 -2.02373480465372073030e-04 -1.97565997749089275123e-03 9.99906066551285221955e-01 -9.17020129053740186593e-04
9.99500247449297547340e+08 9.99562225401148696236e-01 -4.26499057913704276296e-03 -2.03196968966743238142e-04 -1.97963326475861971579e-03 -2.03196968966743238142e-04 -1.97963326475861971579e-03 9.99905684321781951240e-01 -9.18864365635201942040e-04
9.99501273635233283043e+08 9.99560440438117203676e-01 -4.27358488203291760066e-03 -2.04025475414269542038e-04 -1.98362238679403776048e-03 -2.04025475414269542038e-04 -1.98362238679403776048e-03 9.99905299763154453707e-01 -9.20715952064753324902e-04
9.99502299821169018745e+08 9.99558644576554744532e-01 -4.28221350188054232511e-03 -2.04859040511812002128e-04 -1.98762743734745995355e-03 -2.04859040511812002128e-04 -1.98762743734745995355e-03 9.99904912856509620056e-01 -9.22574931857435298101e-04
9.99503326007104754448e+08 9.99556837727878844113e-01 -4.29087664223966325228e-03 -2.05697705375588606224e-04 -1.99164851090295183175e-03 -2.05697705375588606224e-04 -1.99164851090295183175e-03 9.99904523582762938538e-01 -9.24441348868865891975e-04
9.99504352193040490150e+08 9.99555019802609634461e-01 -4.29957450826000224520e-03 -2.06541511538585985386e-04 -1.99568570268257843708e-03 -2.06541511538585985386e-04 -1.99568570268257843708e-03 9.99904131922636496554e-01 -9.26315247297212693289e-04
9.99505378378976225853e+08 9.99553190710357308824e-01 -4.30830730670037770347e-03 -2.07390500955986387902e-04 -1.99973910865528219788e-03 -2.07390500955986387902e-04 -1.99973910865528219788e-03 9.99903737856656538163e-01 -9.28196671687312813495e-04
9.99506404564911961555e+08 9.99551350359811574542e-01 -4.31707524594428151271e-03 -2.08244716010309047303e-04 -2.00380882554411195520e-03 -2.08244716010309047303e-04 -2.00380882554411195520e-03 9.99903341365150799547e-01 -9.30085666934028711290e-04
9.99507430750847697258e+08 9.99549498658730661838e-01 -4.32587853601279579557e-03 -2.09104199516346121171e-04 -2.00789495083221903454e-03 -2.09104199516346121171e-04 -2.00789495083221903454e-03 9.99902942428246288564e-01 -9.31982278285030580657e-04
9.99508456936783432961e+08 9.99547635513929555451e-01 -4.33471738858381191312e-03 -2.09968994726769588467e-04 -2.01199758277177632657e-03 -2.09968994726769588467e-04 -2.01199758277177632657e-03 9.99902541025867175328e-01 -9.33886551344938003159e-04
9.99509483122719168663e+08 9.99545760831268781388e-01 -4.34359201700577814836e-03 -2.10839145337261477369e-04 -2.01611682039036250319e-03 -2.10839145337261477369e-04 -2.01611682039036250319e-03 9.99902137137731461536e-01 -9.35798532078280687237e-04
9.99510509308654904366e+08 9.99543874515642083445e-01 -4.35250263631638441286e-03 -2.11714695492185950255e-04 -2.02025276349963129816e-03 -2.11714695492185950255e-04 -2.02025276349963129816e-03 9.99901730743349204111e-01 -9.37718266813524652971e-04
9.99511535494590640068e+08 9.99541976470965654045e-01 -4.36144946325567588880e-03 -2.12595689789773687438e-04 -2.02440551270139908538e-03 -2.12595689789773687438e-04 -2.02440551270139908538e-03 9.99901321822019739649e-01 -9.39645802245896687166e-04
9.99512561680526375771e+08 9.99540066600164922583e-01 -4.37043271628560422992e-03 -2.13482173287999103199e-04 -2.02857516939672268691e-03 -2.13482173287999103199e-04 -2.02857516939672268691e-03 9.99900910352829130900e-01 -9.41581185441597878251e-04
9.99513587866462111473e+08 9.99538144805162676043e-01 -4.37945261560740515400e-03 -2.14374191510305637989e-04 -2.03276183579396106660e-03 -2.14374191510305637989e-04 -2.03276183579396106660e-03 9.99900496314647058149e-01 -9.43524463841546173759e-04
9.99514614052397847176e+08 9.99536210986867290629e-01 -4.38850938317426626095e-03 -2.15271790450928134000e-04 -2.03696561491465777741e-03 -2.15271790450928134000e-04 -2.03696561491465777741e-03 9.99900079686125153877e-01 -9.45475685264106401398e-04
9.99515640238333582878e+08 9.99534265045159076024e-01 -4.39760324271395129647e-03 -2.16175016581261926615e-04 -2.04118661060404254365e-03 -2.16175016581261926615e-04 -2.04118661060404254365e-03 9.99899660445693005961e-01 -9.47434897909963866236e-04
9.99516666424269318581e+08 9.99532306878878840095e-01 -4.40673441974184700726e-03 -2.17083916855349097139e-04 -2.04542492753708457856e-03 -2.17083916855349097139e-04 -2.04542492753708457856e-03 9.99899238571556714383e-01 -9.49402150364935795354e-04
9.99517692610205054283e+08 9.99530336385813344968e-01 -4.41590314158256131566e-03 -2.17998538716278220063e-04 -2.04968067122852058703e-03 -2.17998538716278220063e-04 -2.04968067122852058703e-03 9.99898814041695116472e-01 -9.51377491604624625152e-04
9.99518718796140789986e+08 9.99528353462683649688e-01 -4.42510963738483847213e-03 -2.18918930101986742047e-04 -2.05395394803977587861e-03 -2.18918930101986742047e-04 -2.05395394803977587861e-03 9.99898386833857233391e-01 -9.53360970997630600803e-04
9.99519744982076525688e+08 9.99526358005130899365e-01 -4.43435413813961926133e-03 -2.19845139451442614809e-04 -2.05824486518734741866e-03 -2.19845139451442614809e-04 -2.05824486518734741866e-03 9.99897956925559827646e-01 -9.55352638309443086273e-04
9.99520771168012261391e+08 9.99524349907703002494e-01 -4.44363687670181872064e-03 -2.20777215711268526462e-04 -2.06255353075291292947e-03 -2.20777215711268526462e-04 -2.06255353075291292947e-03 9.99897524294083850371e-01 -9.57352543707133099744e-04
9.99521797353947877884e+08 9.99522329063841419305e-01 -4.45295808780282569017e-03 -2.21715208341505466043e-04 -2.06688005368913093815e-03 -2.21715208341505466043e-04 -2.06688005368913093815e-03 9.99897088916471998843e-01 -9.59360737762045062346e-04
9.99522823539883613586e+08 9.99520295365866062731e-01 -4.46231800807675091369e-03 -2.22659167322827845036e-04 -2.07122454383182634172e-03 -2.22659167322827845036e-04 -2.07122454383182634172e-03 9.99896650769525274782e-01 -9.61377271455452755630e-04
9.99523849725819349289e+08 9.99518248704962752882e-01 -4.47171687607181636559e-03 -2.23609143162337338246e-04 -2.07558711190527654319e-03 -2.23609143162337338246e-04 -2.07558711190527654319e-03 9.99896209829800430846e-01 -9.63402196181012762666e-04
9.99524875911755084991e+08 9.99516188971167118815e-01 -4.48115493227660161707e-03 -2.24565186900926188653e-04 -2.07996786953439051146e-03 -2.24565186900926188653e-04 -2.07996786953439051146e-03 9.99895766073606195867e-01 -9.65435563750418690790e-04
9.99525902097690820694e+08 9.99514116053351941993e-01 -4.49063241913282267664e-03 -2.25527350119357331872e-04 -2.08436692925064500498e-03 -2.25527350119357331872e-04 -2.08436692925064500498e-03 9.99895319477001165431e-01 -9.67477426396155045125e-04
9.99526928283626556396e+08 9.99512029839211058047e-01 -4.50014958105799181554e-03 -2.26495684945416606839e-04 -2.08878440450260003183e-03 -2.26495684945416606839e-04 -2.08878440450260003183e-03 9.99894870015789583029e-01 -9.69527836776378632022e-04
9.99527954469562292099e+08 9.99509930215244479790e-01 -4.50970666446887883533e-03 -2.27470244061228979177e-04 -2.09322040966678770899e-03 -2.27470244061228979177e-04 -2.09322040966678770899e-03 9.99894417665518675520e-01 -9.71586847979972892744e-04
9.99528980655498027802e+08 9.99507817066744630452e-01 -4.51930391779180318235e-03 -2.28451080709310991399e-04 -2.09767506005249185913e-03 -2.28451080709310991399e-04 -2.09767506005249185913e-03 9.99893962401475322466e-01 -9.73654513528766072696e-04
9.99530006841433763504e+08 9.99505690277778358066e-01 -4.52894159149587124946e-03 -2.29438248701042420532e-04 -2.10214847191717230449e-03 -2.29438248701042420532e-04 -2.10214847191717230449e-03 9.99893504198682503414e-01 -9.75730887384691292566e-04
9.99531033027369499207e+08 9.99503549731173723814e-01 -4.53861993810267781713e-03 -2.30431802422818203871e-04 -2.10664076247097124470e-03 -2.30431802422818203871e-04 -2.10664076247097124470e-03 9.99893043031896522344e-01 -9.77816023951876998541e-04
9.99532059213305234909e+08 9.99501395308503015613e-01 -4.54833921221228960896e-03 -2.31431796843945225507e-04 -2.11115204988877045236e-03 -2.31431796843945225507e-04 -2.11115204988877045236e-03 9.99892578875602566768e-01 -9.79909978082244481276e-04
9.99533085399240970612e+08 9.99499226890066538864e-01 -4.55809967052380349967e-03 -2.32438287524070863032e-04 -2.11568245331973745632e-03 -2.32438287524070863032e-04 -2.11568245331973745632e-03 9.99892111704012376272e-01 -9.82012805079938034397e-04
9.99534111585176706314e+08 9.99497044354877073324e-01 -4.56790157185400520073e-03 -2.33451330620499238012e-04 -2.12023209289598137811e-03 -2.33451330620499238012e-04 -2.12023209289598137811e-03 9.99891641491060023661e-01 -9.84124560705343766689e-04
9.99535137771112442017e+08 9.99494847580641887497e-01 -4.57774517716476141149e-03 -2.34470982896496828044e-04 -2.12480108974527105714e-03 -2.34470982896496828044e-04 -2.12480108974527105714e-03 9.99891168210398140204e-01 -9.86245301180991348206e-04
9.99536163957048177719e+08 9.99492636443747417552e-01 -4.58763074957796099240e-03 -2.35497301728401065403e-04 -2.12938956599796874042e-03 -2.35497301728401065403e-04 -2.12938956599796874042e-03 9.99890691835395140075e-01 -9.88375083194773223355e-04
9.99537190142983913422e+08 9.99490410819241170692e-01 -4.59755855440182725075e-03 -2.36530345113993982790e-04 -2.13399764479924340319e-03 -2.36530345113993982790e-04 -2.13399764479924340319e-03 9.99890212339130779462e-01 -9.90513963905613687225e-04
9.99538216328919649124e+08 9.99488170580814738742e-01 -4.60752885915276851753e-03 -2.37570171680507203228e-04 -2.13862545031921194236e-03 -2.37570171680507203228e-04 -2.13862545031921194236e-03 9.99889729694392825898e-01 -9.92662000948175407208e-04
9.99539242514855384827e+08 9.99485915600786034574e-01 -4.61754193357637003625e-03 -2.38616840692630399409e-04 -2.14327310776268398565e-03 -2.38616840692630399409e-04 -2.14327310776268398565e-03 9.99889243873672950436e-01 -9.94819252437383148152e-04
9.99540268700791120529e+08 9.99483645750081639569e-01 -4.62759804967191080982e-03 -2.39670412060981758698e-04 -2.14794074338054167758e-03 -2.39670412060981758698e-04 -2.14794074338054167758e-03 9.99888754849163063909e-01 -9.96985776973705354817e-04
9.99541294886726856232e+08 9.99481360898218040845e-01 -4.63769748171608420934e-03 -2.40730946350594087737e-04 -2.15262848448074823465e-03 -2.40730946350594087737e-04 -2.15262848448074823465e-03 9.99888262592751431157e-01 -9.99161633648263779878e-04
9.99542321072662591934e+08 9.99479060913284422796e-01 -4.64784050628318581855e-03 -2.41798504789127833648e-04 -2.15733645943772022260e-03 -2.41798504789127833648e-04 -2.15733645943772022260e-03 9.99887767076018674217e-01 -1.00134688204718503776e-03
9.99543347258598327637e+08 9.99476745661922683084e-01 -4.65802740227211440477e-03 -2.42873149275898286836e-04 -2.16206479770485876513e-03 -2.42873149275898286836e-04 -2.16206479770485876513e-03 9.99887268270233664502e-01 -1.00354158225741431354e-03
9.99544373444534063339e+08 9.99474415009308780888e-01 -4.66825845093041692097e-03 -2.43954942390697788286e-04 -2.16681362982571118839e-03 -2.43954942390697788286e-04 -2.16681362982571118839e-03 9.99886766146349414974e-01 -1.00574579487189936719e-03
9.99545399630469799042e+08 9.99472068819133752093e-01 -4.67853393587585372065e-03 -2.45043947402457881497e-04 -2.17158308744398080917e-03 -2.45043947402457881497e-04 -2.17158308744398080917e-03 9.99886260674999194364e-01 -1.00795958099423438835e-03
9.99546425816405534744e+08 9.99469706953584613451e-01 -4.68885414312152949690e-03 -2.46140228278391955726e-04 -2.17637330331519078183e-03 -2.46140228278391955726e-04 -2.17637330331519078183e-03 9.99885751826491975258e-01 -1.01018300224407471880e-03
9.99547452002341270447e+08 9.99467329273322491190e-01 -4.69921936110697345546e-03 -2.47243849693880811662e-04 -2.18118441132111092612e-03 -2.47243849693880811662e-04 -2.18118441132111092612e-03 9.99885239570808104226e-01 -1.01241612076383288507e-03
9.99548478188277006149e+08 9.99464935637464857443e-01 -4.70962988071274742119e-03 -2.48354877040716257117e-04 -2.18601654647653746016e-03 -2.48354877040716257117e-04 -2.18601654647653746016e-03 9.99884723877595416042e-01 -1.01465899922182647107e-03
9.99549504374212741852e+08 9.99462525903563547836e-01 -4.72008599529491566088e-03 -2.49473376437568076115e-04 -2.19086984494529408984e-03 -2.49473376437568076115e-04 -2.19086984494529408984e-03 9.99884204716164348703e-01 -1.01691170081970381871e-03
9.99550530560148477554e+08 9.99460099927584333379e-01 -4.73058800070585028924e-03 -2.50599414739109704366e-04 -2.19574444404988747964e-03 -2.50599414739109704366e-04 -2.19574444404988747964e-03 9.99883682055483724582e-01 -1.01917428929692568604e-03
9.99551556746084213257e+08 9.99457657563886270324e-01 -4.74113619532206403973e-03 -2.51733059546008989659e-04 -2.20064048228442703942e-03 -2.51733059546008989659e-04 -2.20064048228442703942e-03 9.99883155864175976468e-01 -1.02144682893676348734e-03
9.99552582932019948959e+08 9.99455198665198718544e-01 -4.75173088007241947034e-03 -2.52874379215078438389e-04 -2.20555809932771688248e-03 -2.52874379215078438389e-04 -2.20555809932771688248e-03 9.99882626110512817696e-01 -1.02372938457237537893e-03
9.99553609117955684662e+08 9.99452723082601801607e-01 -4.76237235846094317943e-03 -2.54023442868965380892e-04 -2.21049743605384717976e-03 -2.54023442868965380892e-04 -2.21049743605384717976e-03 9.99882092762410357167e-01 -1.02602202159172138131e-03
9.99554635303891420364e+08 9.99450230665501648808e-01 -4.77306093659970922388e-03 -2.55180320407047932230e-04 -2.21545863454745625698e-03 -2.55180320407047932230e-04 -2.21545863454745625698e-03 9.99881555787424103343e-01 -1.02832480594464864034e-03
9.99555661489827156067e+08 9.99447721261610633192e-01 -4.78379692322824894013e-03 -2.56345082515001341638e-04 -2.22044183811274074836e-03 -2.56345082515001341638e-04 -2.22044183811274074836e-03 9.99881015152744634378e-01 -1.03063780414707319502e-03
9.99556687675762891769e+08 9.99445194716922280520e-01 -4.79458062974945364854e-03 -2.57517800676272212539e-04 -2.22544719129011891665e-03 -2.57517800676272212539e-04 -2.22544719129011891665e-03 9.99880470825192491091e-01 -1.03296108328871380846e-03
9.99557713861698627472e+08 9.99442650875689619916e-01 -4.80541237025253545334e-03 -2.58698547182282688126e-04 -2.23047483986688836050e-03 -2.58698547182282688126e-04 -2.23047483986688836050e-03 9.99879922771212736876e-01 -1.03529471103804004972e-03
9.99558740047634363174e+08 9.99440089580400758962e-01 -4.81629246154326694229e-03 -2.59887395143552901982e-04 -2.23552493089126339681e-03 -2.59887395143552901982e-04 -2.23552493089126339681e-03 9.99879370956870516807e-01 -1.03763875564878661414e-03
9.99559766233570098877e+08 9.99437510671754347769e-01 -4.82722122317582290341e-03 -2.61084418501135028402e-04 -2.24059761268715186902e-03 -2.61084418501135028402e-04 -2.24059761268715186902e-03 9.99878815347845506523e-01 -1.03999328596681328736e-03
9.99560792419505834579e+08 9.99434913988637596560e-01 -4.83819897747433946833e-03 -2.62289692037057835597e-04 -2.24569303486416623622e-03 -2.62289692037057835597e-04 -2.24569303486416623622e-03 9.99878255909426916226e-01 -1.04235837143475053475e-03
9.99561818605441570282e+08 9.99432299368098631120e-01 -4.84922604957197748293e-03 -2.63503291386825151503e-04 -2.25081134833574969881e-03 -2.63503291386825151503e-04 -2.25081134833574969881e-03 9.99877692606507828543e-01 -1.04473408210041377765e-03
9.99562844791377305984e+08 9.99429666645324066288e-01 -4.86030276743198291767e-03 -2.64725293050082570011e-04 -2.25595270532895787047e-03 -2.64725293050082570011e-04 -2.25595270532895787047e-03 9.99877125403580424567e-01 -1.04712048862134294788e-03
9.99563870977313041687e+08 9.99427015653611472423e-01 -4.87142946188457923173e-03 -2.65955774403165356393e-04 -2.26111725940157702944e-03 -2.65955774403165356393e-04 -2.26111725940157702944e-03 9.99876554264729544563e-01 -1.04951766227274882227e-03
9.99564897163248777390e+08 9.99424346224344839484e-01 -4.88260646665471687716e-03 -2.67194813710787989862e-04 -2.26630516545500790976e-03 -2.67194813710787989862e-04 -2.26630516545500790976e-03 9.99875979153628025031e-01 -1.05192567495349261451e-03
9.99565923349184513092e+08 9.99421658186967709625e-01 -4.89383411839257147224e-03 -2.68442490138184246349e-04 -2.27151657974842017748e-03 -2.68442490138184246349e-04 -2.27151657974842017748e-03 9.99875400033530703503e-01 -1.05434459919265558978e-03
9.99566949535120248795e+08 9.99418951368955865711e-01 -4.90511275670990880976e-03 -2.69698883764050783510e-04 -2.27675165991563085641e-03 -2.69698883764050783510e-04 -2.27675165991563085641e-03 9.99874816867268312315e-01 -1.05677450815737502751e-03
