! File generated for n1 = 1, n2 = 11
! b1 = 100.000000
! b2 = 0.046416
! Q0 = 10000.000000
! f0 = 1000000000.000000
! n = 1001
! rel_span = 10.000000
# Hz S RI R 50
9.49476792055831909180e+08 9.81396257777670144584e-01 -1.90987099480830202491e-01 -4.00805476081983632058e-04 -4.11469232470070781643e-03 -4.00805476081983632058e-04 -4.11469232470070781643e-03 9.99991364907783730764e-01 -8.86483588314313880564e-05
9.49577838471720218658e+08 9.81320303341897681726e-01 -1.91372871797623134160e-01 -4.02441864794882099218e-04 -4.12300353731823512882e-03 -4.02441864794882099218e-04 -4.12300353731823512882e-03 9.99991329652857641186e-01 -8.88274184792256868036e-05
9.49678884887608528137e+08 9.81243892867528555435e-01 -1.91760146899677796917e-01 -4.04088078561508411233e-04 -4.13134712646275655684e-03 -4.04088078561508411233e-04 -4.13134712646275655684e-03 9.99991294186257206889e-01 -8.90071756581490067641e-05
9.49779931303496956825e+08 9.81167022724800941269e-01 -1.92148933495349616418e-01 -4.05744195582709516260e-04 -4.13972327975010469248e-03 -4.05744195582709516260e-04 -4.13972327975010469248e-03 9.99991258506297553410e-01 -8.91876344102618710341e-05
9.49880977719385266304e+08 9.81089689247956475704e-01 -1.92539240359609703512e-01 -4.07410294834855671222e-04 -4.14813218623129916635e-03 -4.07410294834855671222e-04 -4.14813218623129916635e-03 9.99991222611277263965e-01 -8.93687988085450695994e-05
9.49982024135273575783e+08 9.81011888734812265156e-01 -1.92931076334676848694e-01 -4.09086456079056648167e-04 -4.15657403640617116591e-03 -4.09086456079056648167e-04 -4.15657403640617116591e-03 9.99991186499478046379e-01 -8.95506729571930173376e-05
9.50083070551161885262e+08 9.80933617446328232070e-01 -1.93324450330653624386e-01 -4.10772759870491348169e-04 -4.16504902223705907732e-03 -4.10772759870491348169e-04 -4.16504902223705907732e-03 9.99991150169164177974e-01 -8.97332609919089551655e-05
9.50184116967050313950e+08 9.80854871606167466602e-01 -1.93719371326170758385e-01 -4.12469287567873048924e-04 -4.17355733716269928363e-03 -4.12469287567873048924e-04 -4.17355733716269928363e-03 9.99991113618582949663e-01 -8.99165670802041220753e-05
9.50285163382938623428e+08 9.80775647400251027186e-01 -1.94115848369037002907e-01 -4.14176121343037221406e-04 -4.18209917611222191380e-03 -4.14176121343037221406e-04 -4.18209917611222191380e-03 9.99991076845963999808e-01 -9.01005954216992988644e-05
9.50386209798826932907e+08 9.80695940976306856918e-01 -1.94513890576899328710e-01 -4.15893344190676039068e-04 -4.19067473551937644261e-03 -4.15893344190676039068e-04 -4.19067473551937644261e-03 9.99991039849519203209e-01 -9.02853502484313256418e-05
9.50487256214715242386e+08 9.80615748443410928381e-01 -1.94913507137908781353e-01 -4.17621039938200877117e-04 -4.19928421333687698636e-03 -4.17621039938200877117e-04 -4.19928421333687698636e-03 9.99991002627442671091e-01 -9.04708358251621536572e-05
9.50588302630603551865e+08 9.80535065871523725534e-01 -1.95314707311394969436e-01 -4.19359293255746950688e-04 -4.20792780905093147942e-03 -4.19359293255746950688e-04 -4.20792780905093147942e-03 9.99990965177910196005e-01 -9.06570564496918544686e-05
9.50689349046491980553e+08 9.80453889291019953234e-01 -1.95717500428544854962e-01 -4.21108189666303286795e-04 -4.21660572369586972991e-03 -4.21108189666303286795e-04 -4.21660572369586972991e-03 9.99990927499079251817e-01 -9.08440164531737568560e-05
9.50790395462380290031e+08 9.80372214692210364184e-01 -1.96121895893092673679e-01 -4.22867815556000393486e-04 -4.22531815986900306098e-03 -4.22867815556000393486e-04 -4.22531815986900306098e-03 9.99990889589088660649e-01 -9.10317202004346252755e-05
9.50891441878268599510e+08 9.80290038024858478849e-01 -1.96527903182017710249e-01 -4.24638258184541748409e-04 -4.23406532174566262866e-03 -4.24638258184541748409e-04 -4.23406532174566262866e-03 9.99990851446058481855e-01 -9.12201720902986194685e-05
9.50992488294156908989e+08 9.80207355197688978699e-01 -1.96935531846249956001e-01 -4.26419605695780895745e-04 -4.24284741509439473212e-03 -4.26419605695780895745e-04 -4.24284741509439473212e-03 9.99990813068089789972e-01 -9.14093765559146964128e-05
9.51093534710045337677e+08 9.80124162077891103451e-01 -1.97344791511378542248e-01 -4.28211947128426966870e-04 -4.25166464729223418650e-03 -4.28211947128426966870e-04 -4.25166464729223418650e-03 9.99990774453264230637e-01 -9.15993380650855979191e-05
9.51194581125933647156e+08 9.80040454490612944483e-01 -1.97755691878376937964e-01 -4.30015372426936738019e-04 -4.26051722734031596690e-03 -4.30015372426936738019e-04 -4.26051722734031596690e-03 9.99990735599643909559e-01 -9.17900611206043192227e-05
9.51295627541821956635e+08 9.79956228218450187128e-01 -1.98168242724329451976e-01 -4.31829972452531750653e-04 -4.26940536587953715919e-03 -4.31829972452531750653e-04 -4.26940536587953715919e-03 9.99990696505271503547e-01 -9.19815502605913907271e-05
9.51396673957710266113e+08 9.79871479000926526304e-01 -1.98582453903170808029e-01 -4.33655838994392048378e-04 -4.27832927520648519104e-03 -4.33655838994392048378e-04 -4.27832927520648519104e-03 9.99990657168169372326e-01 -9.21738100588381499643e-05
9.51497720373598575592e+08 9.79786202533967642836e-01 -1.98998335346429383597e-01 -4.35493064780987770152e-04 -4.28728916928945279902e-03 -4.35493064780987770152e-04 -4.28728916928945279902e-03 9.99990617586339669565e-01 -9.23668451251517211732e-05
9.51598766789487004280e+08 9.79700394469366742101e-01 -1.99415897063984243198e-01 -4.37341743491594678404e-04 -4.29628526378474789871e-03 -4.37341743491594678404e-04 -4.29628526378474789871e-03 9.99990577757764231848e-01 -9.25606601057064052240e-05
9.51699813205375313759e+08 9.79614050414243431320e-01 -1.99835149144825113821e-01 -4.39201969767949278178e-04 -4.30531777605306417017e-03 -4.39201969767949278178e-04 -4.30531777605306417017e-03 9.99990537680404023568e-01 -9.27552596833963976901e-05
9.51800859621263623238e+08 9.79527165930494048141e-01 -2.00256101757828430809e-01 -4.41073839226101532124e-04 -4.31438692517620292488e-03 -4.41073839226101532124e-04 -4.31438692517620292488e-03 9.99990497352199025904e-01 -9.29506485781960285720e-05
9.51901906037151932716e+08 9.79439736534234550724e-01 -2.00678765152534022143e-01 -4.42957448468401853922e-04 -4.32349293197380711573e-03 -4.42957448468401853922e-04 -4.32349293197380711573e-03 9.99990456771068125796e-01 -9.31468315475202595201e-05
9.52002952453040361404e+08 9.79351757695235192180e-01 -2.01103149659938473803e-01 -4.44852895095692961718e-04 -4.33263601902044923064e-03 -4.44852895095692961718e-04 -4.33263601902044923064e-03 9.99990415934908449813e-01 -9.33438133865929466548e-05
9.52103998868928670883e+08 9.79263224836347534463e-01 -2.01529265693290299266e-01 -4.46760277719644900447e-04 -4.34181641066276862578e-03 -4.46760277719644900447e-04 -4.34181641066276862578e-03 9.99990374841595475175e-01 -9.35415989288158623285e-05
9.52205045284816980362e+08 9.79174133332922580486e-01 -2.01957123748902261928e-01 -4.48679695975302242524e-04 -4.35103433303696881390e-03 -4.48679695975302242524e-04 -4.35103433303696881390e-03 9.99990333488982807708e-01 -9.37401930461458348515e-05
9.52306091700705289841e+08 9.79084478512221134672e-01 -2.02386734406966029010e-01 -4.50611250533781450538e-04 -4.36029001408636852910e-03 -4.50611250533781450538e-04 -4.36029001408636852910e-03 9.99990291874901293667e-01 -9.39396006494728233417e-05
9.52407138116593599319e+08 9.78994255652814837632e-01 -2.02818108332380314662e-01 -4.52555043115168763139e-04 -4.36958368357924682723e-03 -4.52555043115168763139e-04 -4.36958368357924682723e-03 9.99990249997159685869e-01 -9.41398266890042809477e-05
9.52508184532482028008e+08 9.78903459983979318260e-01 -2.03251256275588765288e-01 -4.54511176501606461043e-04 -4.37891557312688854686e-03 -4.54511176501606461043e-04 -4.37891557312688854686e-03 9.99990207853543422445e-01 -9.43408761546541394828e-05
9.52609230948370337486e+08 9.78812086685078908133e-01 -2.03686189073422646567e-01 -4.56479754550545395453e-04 -4.38828591620174773141e-03 -4.56479754550545395453e-04 -4.38828591620174773141e-03 9.99990165441814959912e-01 -9.45427540764339218067e-05
9.52710277364258646965e+08 9.78720130884940031635e-01 -2.04122917649962543063e-01 -4.58460882208232192031e-04 -4.39769494815600570092e-03 -4.58460882208232192031e-04 -4.39769494815600570092e-03 9.99990122759713440104e-01 -9.47454655248526362438e-05
9.52811323780146956444e+08 9.78627587661218822923e-01 -2.04561453017401889687e-01 -4.60454665523355886805e-04 -4.40714290624017856340e-03 -4.60454665523355886805e-04 -4.40714290624017856340e-03 9.99990079804954135057e-01 -9.49490156113177145468e-05
9.52912370196035385132e+08 9.78534452039757085551e-01 -2.05001806276923409511e-01 -4.62461211660905602023e-04 -4.41663002962199621043e-03 -4.62461211660905602023e-04 -4.41663002962199621043e-03 9.99990036575228002924e-01 -9.51534094885417096842e-05
9.53013416611923694611e+08 9.78440718993929592351e-01 -2.05443988619586542788e-01 -4.64480628916234925159e-04 -4.42615655940552590875e-03 -4.64480628916234925159e-04 -4.42615655940552590875e-03 9.99989993068202132065e-01 -9.53586523509543062182e-05
9.53114463027812004089e+08 9.78346383443982503536e-01 -2.05888011327224507152e-01 -4.66513026729328057936e-04 -4.43572273865049711977e-03 -4.66513026729328057936e-04 -4.43572273865049711977e-03 9.99989949281518630819e-01 -9.55647494351185997291e-05
9.53215509443700313568e+08 9.78251440256360016434e-01 -2.06333885773354652748e-01 -4.68558515699288335218e-04 -4.44532881239191254852e-03 -4.68558515699288335218e-04 -4.44532881239191254852e-03 9.99989905212794627509e-01 -9.57717060201537052693e-05
9.53316555859588623047e+08 9.78155884243024020819e-01 -2.06781623424093397023e-01 -4.70617207599011275112e-04 -4.45497502765976154115e-03 -4.70617207599011275112e-04 -4.45497502765976154115e-03 9.99989860859622270439e-01 -9.59795274281593851443e-05
9.53417602275477051735e+08 9.78059710160761097697e-01 -2.07231235839088173689e-01 -4.72689215390103688753e-04 -4.46466163349909950925e-03 -4.72689215390103688753e-04 -4.46466163349909950925e-03 9.99989816219567617672e-01 -9.61882190246487404472e-05
9.53518648691365361214e+08 9.77962912710480969380e-01 -2.07682734672457014469e-01 -4.74774653238005373262e-04 -4.47438888099028694856e-03 -4.74774653238005373262e-04 -4.47438888099028694856e-03 9.99989771290171192142e-01 -9.63977862189841416471e-05
9.53619695107253670692e+08 9.77865486536503625281e-01 -2.08136131673740926162e-01 -4.76873636527344341857e-04 -4.48415702326951208512e-03 -4.76873636527344341857e-04 -4.48415702326951208512e-03 9.99989726068947093474e-01 -9.66082344648194339979e-05
9.53720741523141980171e+08 9.77767426225836122633e-01 -2.08591438688866981366e-01 -4.78986281877516212758e-04 -4.49396631554953643328e-03 -4.78986281877516212758e-04 -4.49396631554953643328e-03 9.99989680553382775940e-01 -9.68195692605468998838e-05
9.53821787939030408859e+08 9.77668726307439173162e-01 -2.09048667661122566930e-01 -4.81112707158493828428e-04 -4.50381701514068668452e-03 -4.81112707158493828428e-04 -4.50381701514068668452e-03 9.99989634740938826418e-01 -9.70317961497494659929e-05
9.53922834354918718338e+08 9.77569381251481961392e-01 -2.09507830632140457094e-01 -4.83253031506868731444e-04 -4.51370938147207818175e-03 -4.83253031506868731444e-04 -4.51370938147207818175e-03 9.99989588629048631319e-01 -9.72449207216579926882e-05
9.54023880770807027817e+08 9.77469385468586082766e-01 -2.09968939742898569323e-01 -4.85407375342145476320e-04 -4.52364367611314804191e-03 -4.85407375342145476320e-04 -4.52364367611314804191e-03 9.99989542215117710455e-01 -9.74589486116151770129e-05
9.54124927186695337296e+08 9.77368733309058601577e-01 -2.10432007234729767653e-01 -4.87575860383271484245e-04 -4.53362016279541986397e-03 -4.87575860383271484245e-04 -4.53362016279541986397e-03 9.99989495496523717044e-01 -9.76738855015444565767e-05
9.54225973602583765984e+08 9.77267419062113118500e-01 -2.10897045450343073592e-01 -4.89758609665410789107e-04 -4.54363910743449828794e-03 -4.89758609665410789107e-04 -4.54363910743449828794e-03 9.99989448470615993614e-01 -9.78897371204238465631e-05
9.54327020018472075462e+08 9.77165436955079846904e-01 -2.11364066834855202082e-01 -4.91955747556960102697e-04 -4.55370077815229427204e-03 -4.91955747556960102697e-04 -4.55370077815229427204e-03 9.99989401134715016894e-01 -9.81065092447648318293e-05
9.54428066434360384941e+08 9.77062781152602144452e-01 -2.11833083936844857043e-01 -4.94167399776871763342e-04 -4.56380544529974216394e-03 -4.94167399776871763342e-04 -4.56380544529974216394e-03 9.99989353486112397817e-01 -9.83242076991017080034e-05
9.54529112850248694420e+08 9.76959445755823274737e-01 -2.12304109409402891329e-01 -4.96393693412155632104e-04 -4.57395338147941876022e-03 -4.96393693412155632104e-04 -4.57395338147941876022e-03 9.99989305522069993337e-01 -9.85428383564789574667e-05
9.54630159266137003899e+08 9.76855424801558958059e-01 -2.12777156011212276177e-01 -4.98634756935729343136e-04 -4.58414486156881722384e-03 -4.98634756935729343136e-04 -4.58414486156881722384e-03 9.99989257239820017453e-01 -9.87624071389526386484e-05
9.54731205682025432587e+08 9.76750712261458042818e-01 -2.13252236607628153919e-01 -5.00890720224475907707e-04 -4.59438016274361146069e-03 -5.00890720224475907707e-04 -4.59438016274361146069e-03 9.99989208636564375077e-01 -9.89829200180916533467e-05
9.54832252097913742065e+08 9.76645302041151297523e-01 -2.13729364171777097559e-01 -5.03161714577604027472e-04 -4.60465956450134029920e-03 -5.03161714577604027472e-04 -4.60465956450134029920e-03 9.99989159709474217941e-01 -9.92043830154879180622e-05
9.54933298513802051544e+08 9.76539187979385547855e-01 -2.14208551785669526479e-01 -5.05447872735288348742e-04 -4.61498334868537442993e-03 -5.05447872735288348742e-04 -4.61498334868537442993e-03 9.99989110455689722556e-01 -9.94268022032727694917e-05
9.55034344929690361023e+08 9.76432363847145268210e-01 -2.14689812641326305265e-01 -5.07749328897596813488e-04 -4.62535179950918865638e-03 -5.07749328897596813488e-04 -4.62535179950918865638e-03 9.99989060872319868167e-01 -9.96501837046399158940e-05
9.55135391345578789711e+08 9.76324823346762626919e-01 -2.15173160041913086316e-01 -5.10066218743676050469e-04 -4.63576520358079720990e-03 -5.10066218743676050469e-04 -4.63576520358079720990e-03 9.99989010956441215505e-01 -9.98745336943718443499e-05
9.55236437761467099190e+08 9.76216560111010211997e-01 -2.15658607402896995708e-01 -5.12398679451275362688e-04 -4.64622384992767912398e-03 -5.12398679451275362688e-04 -4.64622384992767912398e-03 9.99988960705098683945e-01 -1.00099858399376812545e-04
9.55337484177355408669e+08 9.76107567702183542835e-01 -2.16146168253211784505e-01 -5.14746849716539163315e-04 -4.65672803002187534610e-03 -5.14746849716539163315e-04 -4.65672803002187534610e-03 9.99988910115303886172e-01 -1.00326164099229621710e-04
9.55438530593243718147e+08 9.75997839611166928542e-01 -2.16635856236438162359e-01 -5.17110869774110143947e-04 -4.66727803780542151862e-03 -5.17110869774110143947e-04 -4.66727803780542151862e-03 9.99988859184035683292e-01 -1.00553457126719396212e-04
9.55539577009132027626e+08 9.75887369256486114644e-01 -2.17127685112001339585e-01 -5.19490881417555535118e-04 -4.67787416971614938843e-03 -5.19490881417555535118e-04 -4.67787416971614938843e-03 9.99988807908239185629e-01 -1.00781743868405643748e-04
9.55640623425020456314e+08 9.75776149983346052785e-01 -2.17621668756379033072e-01 -5.21887028020086101397e-04 -4.68851672471370592432e-03 -5.21887028020086101397e-04 -4.68851672471370592432e-03 9.99988756284825530685e-01 -1.01011030765178720105e-04
9.55741669840908765793e+08 9.75664175062653904469e-01 -2.18117821164327430061e-01 -5.24299454555613841239e-04 -4.69920600430597402292e-03 -5.24299454555613841239e-04 -4.69920600430597402292e-03 9.99988704310671439046e-01 -1.01241324312829062402e-04
9.55842716256797075272e+08 9.75551437690026834737e-01 -2.18616156450120169286e-01 -5.26728307620122696009e-04 -4.70994231257576296407e-03 -5.26728307620122696009e-04 -4.70994231257576296407e-03 9.99988651982618437231e-01 -1.01472631062622141505e-04
9.55943762672685384750e+08 9.75437930984783485577e-01 -2.19116688848807694701e-01 -5.29173735453398021503e-04 -4.72072595620793601656e-03 -5.29173735453398021503e-04 -4.72072595620793601656e-03 9.99988599297472857685e-01 -1.01704957621883090944e-04
9.56044809088573813438e+08 9.75323647988921793583e-01 -2.19619432717483104023e-01 -5.31635887961049769836e-04 -4.73155724451668723007e-03 -5.31635887961049769836e-04 -4.73155724451668723007e-03 9.99988546252005061632e-01 -1.01938310654584195409e-04
9.56145855504462122917e+08 9.75208581666079266093e-01 -2.20124402536570590305e-01 -5.34114916736912865268e-04 -4.74243648947329874549e-03 -5.34114916736912865268e-04 -4.74243648947329874549e-03 9.99988492842949217021e-01 -1.02172696881942990884e-04
9.56246901920350432396e+08 9.75092724900476715000e-01 -2.20631612911130980947e-01 -5.36610975085802873082e-04 -4.75336400573426846872e-03 -5.36610975085802873082e-04 -4.75336400573426846872e-03 9.99988439067002188310e-01 -1.02408123083028198132e-04
9.56347948336238741875e+08 9.74976070495847224606e-01 -2.21141078572175520112e-01 -5.39124218046589990215e-04 -4.76434011066961208419e-03 -5.39124218046589990215e-04 -4.76434011066961208419e-03 9.99988384920824091573e-01 -1.02644596095369545759e-04
9.56448994752127051353e+08 9.74858611174346245676e-01 -2.21652814378006102203e-01 -5.41654802415683948522e-04 -4.77536512439174099659e-03 -5.41654802415683948522e-04 -4.77536512439174099659e-03 9.99988330401036518147e-01 -1.02882122815579858319e-04
9.56550041168015480042e+08 9.74740339575446146370e-01 -2.22166835315562749553e-01 -5.44202886770843094477e-04 -4.78643936978448859138e-03 -5.44202886770843094477e-04 -4.78643936978448859138e-03 9.99988275504223200763e-01 -1.03120710199980464782e-04
9.56651087583903789520e+08 9.74621248254812222456e-01 -2.22683156501795848081e-01 -5.46768631495396549916e-04 -4.79756317253267859646e-03 -5.46768631495396549916e-04 -4.79756317253267859646e-03 9.99988220226928903323e-01 -1.03360365265238180865e-04
9.56752133999792098999e+08 9.74501329683162054174e-01 -2.23201793185049263135e-01 -5.49352198802819605833e-04 -4.80873686115192069263e-03 -5.49352198802819605833e-04 -4.80873686115192069263e-03 9.99988164565658532723e-01 -1.03601095089007292239e-04
9.56853180415680408478e+08 9.74380576245104990107e-01 -2.23722760746466908799e-01 -5.51953752761727509807e-04 -4.81996076701891526528e-03 -5.51953752761727509807e-04 -4.81996076701891526528e-03 9.99988108516877582943e-01 -1.03842906810582352663e-04
9.56954226831568837166e+08 9.74258980237965643845e-01 -2.24246074701409531249e-01 -5.54573459321230075904e-04 -4.83123522440197673139e-03 -5.54573459321230075904e-04 -4.83123522440197673139e-03 9.99988052077010691754e-01 -1.04085807631555888123e-04
9.57055273247457146645e+08 9.74136533870586962536e-01 -2.24771750700895583952e-01 -5.57211486336719650191e-04 -4.84256057049207641607e-03 -5.57211486336719650191e-04 -4.84256057049207641607e-03 9.99987995242441529697e-01 -1.04329804816487159837e-04
9.57156319663345456123e+08 9.74013229262114199614e-01 -2.25299804533059366829e-01 -5.59868003596066519424e-04 -4.85393714543425579266e-03 -5.59868003596066519424e-04 -4.85393714543425579266e-03 9.99987938009512133952e-01 -1.04574905693578936805e-04
9.57257366079233765602e+08 9.73889058440760124746e-01 -2.25830252124624153431e-01 -5.62543182846216558747e-04 -4.86536529235936585081e-03 -5.62543182846216558747e-04 -4.86536529235936585081e-03 9.99987880374522353222e-01 -1.04821117655361329226e-04
9.57358412495122075081e+08 9.73764013342550693864e-01 -2.26363109542396245821e-01 -5.65237197820224186555e-04 -4.87684535741625575789e-03 -5.65237197820224186555e-04 -4.87684535741625575789e-03 9.99987822333729181601e-01 -1.05068448159385203545e-04
