! File generated for n1 = 2, n2 = 4
! b1 = 46.415888
! b2 = 4.641589
! Q0 = 10000.000000
! f0 = 1000000000.000000
! n = 1001
! rel_span = 10.000000
# Hz S RI R 50
9.73971261415129661560e+08 9.82802098337314911092e-01 -1.74277029434415170472e-01 -5.43845402296816438081e-03 -5.51112356860958066407e-02 -5.43845402296816438081e-03 -5.51112356860958066407e-02 9.98280209833731446700e-01 -1.74277029434415121900e-02
9.74023318892299413681e+08 9.82732841916699517704e-01 -1.74624161979541336898e-01 -5.46035482614168517224e-03 -5.52210086353528001313e-02 -5.46035482614168517224e-03 -5.52210086353528001313e-02 9.98273284191669940668e-01 -1.74624161979541302203e-02
9.74075376369469165802e+08 9.82663171513602717866e-01 -1.74972646991185976084e-01 -5.48238654207048453637e-03 -5.53312092720755280273e-02 -5.48238654207048453637e-03 -5.53312092720755280273e-02 9.98266317151360271787e-01 -1.74972646991185948329e-02
9.74127433846638917923e+08 9.82593083840567094178e-01 -1.75322492303447402540e-01 -5.50455021033985532342e-03 -5.54418400736234190385e-02 -5.50455021033985532342e-03 -5.54418400736234190385e-02 9.98259308384056742725e-01 -1.75322492303447360906e-02
9.74179491323808670044e+08 9.82522575577580825623e-01 -1.75673705810327263066e-01 -5.52684688082974873852e-03 -5.55529035362989781488e-02 -5.52684688082974873852e-03 -5.55529035362989781488e-02 9.98252257557758038153e-01 -1.75673705810327207555e-02
9.74231548800978422165e+08 9.82451643371691218931e-01 -1.76026295466296500702e-01 -5.54927761383684509805e-03 -5.56644021755267823237e-02 -5.54927761383684509805e-03 -5.56644021755267823237e-02 9.98245164337169144098e-01 -1.76026295466296459069e-02
9.74283606278148055077e+08 9.82380283836613354964e-01 -1.76380269286871282919e-01 -5.57184348019854405742e-03 -5.57763385260355848416e-02 -5.57184348019854405742e-03 -5.57763385260355848416e-02 9.98238028383661379905e-01 -1.76380269286871248224e-02
9.74335663755317807198e+08 9.82308493552332850918e-01 -1.76735635349188707766e-01 -5.59454556141825761623e-03 -5.58887151420404265645e-02 -5.59454556141825761623e-03 -5.58887151420404265645e-02 9.98230849355233318398e-01 -1.76735635349188659193e-02
9.74387721232487559319e+08 9.82236269064704292653e-01 -1.77092401792594222876e-01 -5.61738494979274836233e-03 -5.60015345974283276775e-02 -5.61738494979274836233e-03 -5.60015345974283276775e-02 9.98223626906470484776e-01 -1.77092401792594174303e-02
9.74439778709657311440e+08 9.82163606885043005690e-01 -1.77450576819230709802e-01 -5.64036274854094830250e-03 -5.61147994859446039295e-02 -5.64036274854094830250e-03 -5.61147994859446039295e-02 9.98216360688504278365e-01 -1.77450576819230682046e-02
9.74491836186827063560e+08 9.82090503489711164065e-01 -1.77810168694640974296e-01 -5.66348007193497558764e-03 -5.62285124213833947815e-02 -5.66348007193497558764e-03 -5.62285124213833947815e-02 9.98209050348971116406e-01 -1.77810168694640946541e-02
9.74543893663996815681e+08 9.82016955319699125226e-01 -1.78171185748369403923e-01 -5.68673804543251386334e-03 -5.63426760377779139999e-02 -5.68673804543251386334e-03 -5.63426760377779139999e-02 9.98201695531969912523e-01 -1.78171185748369348412e-02
9.74595951141166567802e+08 9.81942958780199326441e-01 -1.78533636374577919792e-01 -5.71013780581151007831e-03 -5.64572929895952452251e-02 -5.71013780581151007831e-03 -5.64572929895952452251e-02 9.98194295878019888235e-01 -1.78533636374577885098e-02
9.74648008618336319923e+08 9.81868510240175629278e-01 -1.78897529032663815673e-01 -5.73368050130642400303e-03 -5.65723659519316718347e-02 -5.73368050130642400303e-03 -5.65723659519316718347e-02 9.98186851024017607337e-01 -1.78897529032663767101e-02
9.74700066095506072044e+08 9.81793606031926446853e-01 -1.79262872247883314758e-01 -5.75736729174632349409e-03 -5.66878976207099427587e-02 -5.75736729174632349409e-03 -5.66878976207099427587e-02 9.98179360603192677992e-01 -1.79262872247883293941e-02
9.74752123572675824165e+08 9.81718242450640654617e-01 -1.79629674611989503807e-01 -5.78119934869537194233e-03 -5.68038907128809444913e-02 -5.78119934869537194233e-03 -5.68038907128809444913e-02 9.98171824245064009951e-01 -1.79629674611989469113e-02
9.74804181049845457077e+08 9.81642415753948505142e-01 -1.79997944783869406882e-01 -5.80517785559477635798e-03 -5.69203479666251579983e-02 -5.80517785559477635798e-03 -5.69203479666251579983e-02 9.98164241575394850514e-01 -1.79997944783869372187e-02
9.74856238527015209198e+08 9.81566122161465326457e-01 -1.80367691490194215209e-01 -5.82930400790712937437e-03 -5.70372721415583414095e-02 -5.82930400790712937437e-03 -5.70372721415583414095e-02 9.98156612216146488237e-01 -1.80367691490194194393e-02
9.74908296004184961319e+08 9.81489357854329447228e-01 -1.80738923526072986503e-01 -5.85357901326251199581e-03 -5.71546660189381633410e-02 -5.85357901326251199581e-03 -5.71546660189381633410e-02 9.98148935785432955825e-01 -1.80738923526072951808e-02
9.74960353481354713440e+08 9.81412118974733682641e-01 -1.81111649755714726462e-01 -5.87800409160674306591e-03 -5.72725324018736464682e-02 -5.87800409160674306591e-03 -5.72725324018736464682e-02 9.98141211897473401571e-01 -1.81111649755714664012e-02
9.75012410958524465561e+08 9.81334401625448382589e-01 -1.81485879113101988835e-01 -5.90258047535199056183e-03 -5.73908741155381429966e-02 -5.90258047535199056183e-03 -5.73908741155381429966e-02 9.98133440162544793850e-01 -1.81485879113101947202e-02
9.75064468435694217682e+08 9.81256201869340594079e-01 -1.81861620602664614266e-01 -5.92730940952899965080e-03 -5.75096940073823656436e-02 -5.92730940952899965080e-03 -5.75096940073823656436e-02 9.98125620186934070510e-01 -1.81861620602664572632e-02
9.75116525912863969803e+08 9.81177515728883897772e-01 -1.82238883299970233498e-01 -5.95219215194212752928e-03 -5.76289949473528101409e-02 -5.95219215194212752928e-03 -5.76289949473528101409e-02 9.98117751572888400879e-01 -1.82238883299970198804e-02
9.75168583390033721924e+08 9.81098339185662693396e-01 -1.82617676352412883212e-01 -5.97722997332589094099e-03 -5.77487798281094491526e-02 -5.97722997332589094099e-03 -5.77487798281094491526e-02 9.98109833918566224931e-01 -1.82617676352412848517e-02
9.75220640867203474045e+08 9.81018668179868491563e-01 -1.82998008979920079309e-01 -6.00242415750449221507e-03 -5.78690515652493658871e-02 -6.00242415750449221507e-03 -5.78690515652493658871e-02 9.98101866817986849156e-01 -1.82998008979920051553e-02
9.75272698344373226166e+08 9.80938498609790210381e-01 -1.83379890475657114646e-01 -6.02777600155287619776e-03 -5.79898130975294509581e-02 -6.02777600155287619776e-03 -5.79898130975294509581e-02 9.98093849860979043243e-01 -1.83379890475657073012e-02
9.75324755821542859077e+08 9.80857826331295257205e-01 -1.83763330206750646889e-01 -6.05328681596085677735e-03 -5.81110673870952540443e-02 -6.05328681596085677735e-03 -5.81110673870952540443e-02 9.98085782633129525721e-01 -1.83763330206750605256e-02
9.75376813298712611198e+08 9.80776647157304726221e-01 -1.84148337615011231660e-01 -6.07895792479896251992e-03 -5.82328174197094330933e-02 -6.07895792479896251992e-03 -5.82328174197094330933e-02 9.98077664715730450418e-01 -1.84148337615011176149e-02
9.75428870775882363319e+08 9.80694956857260935479e-01 -1.84534922217669622446e-01 -6.10479066588705092389e-03 -5.83550662049846027846e-02 -6.10479066588705092389e-03 -5.83550662049846027846e-02 9.98069495685726115752e-01 -1.84534922217669573874e-02
9.75480928253052115440e+08 9.80612751156586526236e-01 -1.84923093608119315512e-01 -6.13078639096517521295e-03 -5.84778167766181675158e-02 -6.13078639096517521295e-03 -5.84778167766181675158e-02 9.98061275115658674828e-01 -1.84923093608119273878e-02
9.75532985730221867561e+08 9.80530025736136012782e-01 -1.85312861456669114579e-01 -6.15694646586703933644e-03 -5.86010721926302560747e-02 -6.15694646586703933644e-03 -5.86010721926302560747e-02 9.98053002573613623483e-01 -1.85312861456669066007e-02
9.75585043207391619682e+08 9.80446776231639338661e-01 -1.85704235511305243422e-01 -6.18327227069601949305e-03 -5.87248355356047926912e-02 -6.18327227069601949305e-03 -5.87248355356047926912e-02 9.98044677623163956071e-01 -1.85704235511305222606e-02
9.75637100684561371803e+08 9.80362998233138327464e-01 -1.86097225598457233220e-01 -6.20976520000337400829e-03 -5.88491099129316297400e-02 -6.20976520000337400829e-03 -5.88491099129316297400e-02 9.98036299823313877155e-01 -1.86097225598457205464e-02
9.75689158161731123924e+08 9.80278687284412586500e-01 -1.86491841623781434700e-01 -6.23642666296965898082e-03 -5.89738984570543425812e-02 -6.23642666296965898082e-03 -5.89738984570543425812e-02 9.98027868728441291957e-01 -1.86491841623781413884e-02
9.75741215638900876045e+08 9.80193838882399859358e-01 -1.86888093572945973575e-01 -6.26325808358825682209e-03 -5.90992043257184615501e-02 -6.26325808358825682209e-03 -5.90992043257184615501e-02 9.98019383888239963731e-01 -1.86888093572945938881e-02
9.75793273116070628166e+08 9.80108448476606164412e-01 -1.87285991512426058803e-01 -6.29026090085165780208e-03 -5.92250307022229513509e-02 -6.29026090085165780208e-03 -5.92250307022229513509e-02 9.98010844847660671952e-01 -1.87285991512426003291e-02
9.75845330593240380287e+08 9.80022511468507495636e-01 -1.87685545590314722952e-01 -6.31743656894089185283e-03 -5.93513807956766031859e-02 -6.31743656894089185283e-03 -5.93513807956766031859e-02 9.98002251146850705155e-01 -1.87685545590314702136e-02
9.75897388070410013199e+08 9.79936023210942641626e-01 -1.88086766037136671192e-01 -6.34478655741729270778e-03 -5.94782578412553844527e-02 -6.34478655741729270778e-03 -5.94782578412553844527e-02 9.97993602321094241958e-01 -1.88086766037136657315e-02
9.75949445547579765320e+08 9.79848979007498122051e-01 -1.88489663166674176198e-01 -6.37231235141726831683e-03 -5.96056651004636256497e-02 -6.37231235141726831683e-03 -5.96056651004636256497e-02 9.97984897900749845512e-01 -1.88489663166674127626e-02
9.76001503024749517441e+08 9.79761374111882799021e-01 -1.88894247376801771576e-01 -6.40001545184984768633e-03 -5.97336058613979620224e-02 -6.40001545184984768633e-03 -5.97336058613979620224e-02 9.97976137411188291004e-01 -1.88894247376801723004e-02
9.76053560501919269562e+08 9.79673203727294050758e-01 -1.89300529150331353634e-01 -6.42789737559720190246e-03 -5.98620834390145781234e-02 -6.42789737559720190246e-03 -5.98620834390145781234e-02 9.97967320372729393974e-01 -1.89300529150331318939e-02
9.76105617979089021683e+08 9.79584463005774064293e-01 -1.89708519055867913528e-01 -6.45595965571816535894e-03 -5.99911011753998316132e-02 -6.45595965571816535894e-03 -5.99911011753998316132e-02 9.97958446300577395327e-01 -1.89708519055867864955e-02
9.76157675456258773804e+08 9.79495147047556802278e-01 -1.90118227748676732469e-01 -6.48420384165485867017e-03 -6.01206624400444436529e-02 -6.48420384165485867017e-03 -6.01206624400444436529e-02 9.97949514704755680228e-01 -1.90118227748676711653e-02
9.76209732933428525925e+08 9.79405250900405754955e-01 -1.90529665971554823534e-01 -6.51263149944197351771e-03 -6.02507706301191117704e-02 -6.51263149944197351771e-03 -6.02507706301191117704e-02 9.97940525090040608802e-01 -1.90529665971554754145e-02
9.76261790410598278046e+08 9.79314769558940034777e-01 -1.90942844555722912592e-01 -6.54124421191987562296e-03 -6.03814291707565897749e-02 -6.54124421191987562296e-03 -6.03814291707565897749e-02 9.97931476955894014580e-01 -1.90942844555722877897e-02
9.76313847887768030167e+08 9.79223697963953698675e-01 -1.91357774421715781665e-01 -6.57004357895001143280e-03 -6.05126415153331848051e-02 -6.57004357895001143280e-03 -6.05126415153331848051e-02 9.97922369796395369868e-01 -1.91357774421715733093e-02
9.76365905364937782288e+08 9.79132031001720637420e-01 -1.91774466580296620855e-01 -6.59903121763449722337e-03 -6.06444111457579287938e-02 -6.59903121763449722337e-03 -6.06444111457579287938e-02 9.97913203100172063742e-01 -1.91774466580296558404e-02
9.76417962842107415199e+08 9.79039763503294024893e-01 -1.92192932133367494485e-01 -6.62820876253793905830e-03 -6.07767415727605356257e-02 -6.62820876253793905830e-03 -6.07767415727605356257e-02 9.97903976350329346978e-01 -1.92192932133367425096e-02
9.76470020319277167320e+08 9.78946890243789447084e-01 -1.92613182274907229763e-01 -6.65757786591374047663e-03 -6.09096363361879070131e-02 -6.65757786591374047663e-03 -6.09096363361879070131e-02 9.97894689024378944708e-01 -1.92613182274907167313e-02
9.76522077796446919441e+08 9.78853405941663368139e-01 -1.93035228291905225362e-01 -6.68714019793274511844e-03 -6.10430990052994865147e-02 -6.68714019793274511844e-03 -6.10430990052994865147e-02 9.97885340594166336814e-01 -1.93035228291905183728e-02
9.76574135273616671562e+08 9.78759305257975276149e-01 -1.93459081565317020379e-01 -6.71689744691605743199e-03 -6.11771331790694206099e-02 -6.71689744691605743199e-03 -6.11771331790694206099e-02 9.97875930525797483206e-01 -1.93459081565316957929e-02
9.76626192750786423683e+08 9.78664582795643167579e-01 -1.93884753571025719721e-01 -6.74685131957097720956e-03 -6.13117424864905932735e-02 -6.74685131957097720956e-03 -6.13117424864905932735e-02 9.97866458279564327860e-01 -1.93884753571025685026e-02
9.76678250227956175804e+08 9.78569233098683932681e-01 -1.94312255880818657294e-01 -6.77700354123076959684e-03 -6.14469305868834483886e-02 -6.77700354123076959684e-03 -6.14469305868834483886e-02 9.97856923309868415473e-01 -1.94312255880818608722e-02
9.76730307705125927925e+08 9.78473250651445081161e-01 -1.94741600163374328769e-01 -6.80735585609795919304e-03 -6.15827011702081358879e-02 -6.80735585609795919304e-03 -6.15827011702081358879e-02 9.97847325065144508116e-01 -1.94741600163374287136e-02
9.76782365182295680046e+08 9.78376629877823700276e-01 -1.95172798185257512227e-01 -6.83791002749104936259e-03 -6.17190579573791281431e-02 -6.83791002749104936259e-03 -6.17190579573791281431e-02 9.97837662987782425539e-01 -1.95172798185257456716e-02
9.76834422659465432167e+08 9.78279365140472867424e-01 -1.95605861811936565520e-01 -6.86866783809572233749e-03 -6.18560047005869972914e-02 -6.86866783809572233749e-03 -6.18560047005869972914e-02 9.97827936514047331151e-01 -1.95605861811936516947e-02
9.76886480136635184288e+08 9.78181450739997626620e-01 -1.96040803008799363605e-01 -6.89963109021888426620e-03 -6.19935451836196096953e-02 -6.89963109021888426620e-03 -6.19935451836196096953e-02 9.97818145073999795969e-01 -1.96040803008799315033e-02
9.76938537613804817200e+08 9.78082880914136421069e-01 -1.96477633842195881231e-01 -6.93080160604762993831e-03 -6.21316832221918621815e-02 -6.93080160604762993831e-03 -6.21316832221918621815e-02 9.97808288091413642107e-01 -1.96477633842195818781e-02
9.76990595090974569321e+08 9.77983649836931867583e-01 -1.96916366480483800983e-01 -6.96218122791147399353e-03 -6.22704226642763342126e-02 -6.96218122791147399353e-03 -6.22704226642763342126e-02 9.97798364983693231167e-01 -1.96916366480483773227e-02
9.77042652568144321442e+08 9.77883751617888874463e-01 -1.97357013195085612134e-01 -6.99377181854850434040e-03 -6.24097673904375205289e-02 -6.99377181854850434040e-03 -6.24097673904375205289e-02 9.97788375161788865242e-01 -1.97357013195085563562e-02
9.77094710045314073563e+08 9.77783180301117549327e-01 -1.97799586361569829096e-01 -7.02557526137646652653e-03 -6.25497213141738145348e-02 -7.02557526137646652653e-03 -6.25497213141738145348e-02 9.97778318030111743830e-01 -1.97799586361569780524e-02
9.77146767522483825684e+08 9.77681929864465559810e-01 -1.98244098460733708666e-01 -7.05759346076715015500e-03 -6.26902883822598594454e-02 -7.05759346076715015500e-03 -6.26902883822598594454e-02 9.97768192986446589288e-01 -1.98244098460733653155e-02
9.77198824999653577805e+08 9.77579994218635506265e-01 -1.98690562079705479448e-01 -7.08982834232547553394e-03 -6.28314725750950958671e-02 -7.08982834232547553394e-03 -6.28314725750950958671e-02 9.97757999421863606138e-01 -1.98690562079705430876e-02
9.77250882476823329926e+08 9.77477367206289304846e-01 -1.99138989913057395942e-01 -7.12228185317271677429e-03 -6.29732779070557580070e-02 -7.12228185317271677429e-03 -6.29732779070557580070e-02 9.97747736720628886076e-01 -1.99138989913057347370e-02
9.77302939953993082047e+08 9.77374042601137693609e-01 -1.99589394763936445187e-01 -7.15495596223438435485e-03 -6.31157084268523793646e-02 -7.15495596223438435485e-03 -6.31157084268523793646e-02 9.97737404260113813770e-01 -1.99589394763936382737e-02
9.77354997431162834167e+08 9.77270014107017415128e-01 -2.00041789545202436384e-01 -7.18785266053212270471e-03 -6.32587682178897964258e-02 -7.18785266053212270471e-03 -6.32587682178897964258e-02 9.97727001410701697104e-01 -2.00041789545202380873e-02
9.77407054908332586288e+08 9.77165275356951634755e-01 -2.00496187280589183155e-01 -7.22097396148081108885e-03 -6.34024613986342577832e-02 -7.22097396148081108885e-03 -6.34024613986342577832e-02 9.97716527535695174578e-01 -2.00496187280589134583e-02
9.77459112385502338409e+08 9.77059819912198146419e-01 -2.00952601105869599341e-01 -7.25432190118954246805e-03 -6.35467921229818794027e-02 -7.25432190118954246805e-03 -6.35467921229818794027e-02 9.97705981991219847949e-01 -2.00952601105869529952e-02
9.77511169862671971321e+08 9.76953641261280925079e-01 -2.01411044270041500459e-01 -7.28789853876776402841e-03 -6.36917645806336640835e-02 -7.28789853876776402841e-03 -6.36917645806336640835e-02 9.97695364126128136917e-01 -2.01411044270041472704e-02
9.77563227339841723442e+08 9.76846732819006358106e-01 -2.01871530136532917332e-01 -7.32170595663657330920e-03 -6.38373829974765577555e-02 -7.32170595663657330920e-03 -6.38373829974765577555e-02 9.97684673281900691322e-01 -2.01871530136532861821e-02
9.77615284817011475563e+08 9.76739087925466153983e-01 -2.02334072184408880757e-01 -7.35574626084392613201e-03 -6.39836516359652413000e-02 -7.35574626084392613201e-03 -6.39836516359652413000e-02 9.97673908792546582092e-01 -2.02334072184408853001e-02
9.77667342294181227684e+08 9.76630699845021377214e-01 -2.02798684009607266265e-01 -7.39002158138581718289e-03 -6.41305747955127347648e-02 -7.39002158138581718289e-03 -6.41305747955127347648e-02 9.97663069984502159926e-01 -2.02798684009607224632e-02
9.77719399771350979805e+08 9.76521561765273937716e-01 -2.03265379326178746711e-01 -7.42453407253172107533e-03 -6.42781568128826391595e-02 -7.42453407253172107533e-03 -6.42781568128826391595e-02 9.97652156176527360465e-01 -2.03265379326178705077e-02
9.77771457248520731926e+08 9.76411666796018318237e-01 -2.03734171967552529781e-01 -7.45928591315593147310e-03 -6.44264020625894134886e-02 -7.45928591315593147310e-03 -6.44264020625894134886e-02 9.97641166679601787415e-01 -2.03734171967552453453e-02
9.77823514725690484047e+08 9.76301007968179090923e-01 -2.04205075887810005852e-01 -7.49427930707356054763e-03 -6.45753149573010110096e-02 -7.49427930707356054763e-03 -6.45753149573010110096e-02 9.97630100796817909092e-01 -2.04205075887809971158e-02
9.77875572202860236168e+08 9.76189578232731447471e-01 -2.04678105162976381459e-01 -7.52951648338202883526e-03 -6.47248999482474274281e-02 -7.52951648338202883526e-03 -6.47248999482474274281e-02 9.97618957823273144747e-01 -2.04678105162976325948e-02
9.77927629680029988289e+08 9.76077370459602522423e-01 -2.05153273992332602083e-01 -7.56499969680831090696e-03 -6.48751615256355912420e-02 -7.56499969680831090696e-03 -6.48751615256355912420e-02 9.97607737045960285549e-01 -2.05153273992332539633e-02
9.77979687157199740410e+08 9.75964377436557617429e-01 -2.05630596699738321664e-01 -7.60073122806128632922e-03 -6.50261042190675986330e-02 -7.60073122806128632922e-03 -6.50261042190675986330e-02 9.97596437743655806152e-01 -2.05630596699738280031e-02
9.78031744634369373322e+08 9.75850591868067107626e-01 -2.06110087734974828377e-01 -7.63671338418999735842e-03 -6.51777325979655403065e-02 -7.63671338418999735842e-03 -6.51777325979655403065e-02 9.97585059186806732967e-01 -2.06110087734974779805e-02
