! File generated for n1 = 1, n2 = 16
! b1 = 100.000000
! b2 = 0.001000
! Q0 = 10000.000000
! f0 = 1000000000.000000
! n = 1001
! rel_span = 10.000000
# Hz S RI R 50
9.49499500000000000000e+08 9.81387440086246787274e-01 -1.91075278320746250182e-01 -5.88580824138071608356e-05 -6.04233084044151114340e-04 -5.88580824138071608356e-05 -6.04233084044151114340e-04 9.99999813874400844682e-01 -1.91075278320746115010e-06
9.49600501000000000000e+08 9.81311450647765703970e-01 -1.91461223595747215276e-01 -5.90983821175245955539e-05 -6.05453550165334234215e-04 -5.90983821175245955539e-05 -6.05453550165334234215e-04 9.99999813114506475031e-01 -1.91461223595747066225e-06
9.49701502000000000000e+08 9.81235004962423107422e-01 -1.91848672330240360706e-01 -5.93401246004997696536e-05 -6.06678770642882334192e-04 -5.93401246004997696536e-05 -6.06678770642882334192e-04 9.99999812350049643861e-01 -1.91848672330240192560e-06
9.49802503000000000000e+08 9.81158099398807159730e-01 -1.92237633236485627730e-01 -5.95833213462651376186e-05 -6.07908773027380599889e-04 -5.95833213462651376186e-05 -6.07908773027380599889e-04 9.99999811580993935856e-01 -1.92237633236485448688e-06
9.49903504000000000000e+08 9.81080730289493385676e-01 -1.92628115093387480838e-01 -5.98279839522353310043e-05 -6.09143585080162410991e-04 -5.98279839522353310043e-05 -6.09143585080162410991e-04 9.99999810807302935700e-01 -1.92628115093387299221e-06
9.50004505000000000000e+08 9.81002893930616237661e-01 -1.93020126747128595301e-01 -6.00741241310614624768e-05 -6.10383234775313597391e-04 -6.00741241310614624768e-05 -6.10383234775313597391e-04 9.99999810028939339901e-01 -1.93020126747128426410e-06
9.50105506000000000000e+08 9.80924586581436108723e-01 -1.93413677111805709652e-01 -6.03217537120008390748e-05 -6.11627750301683200534e-04 -6.03217537120008390748e-05 -6.11627750301683200534e-04 9.99999809245865844964e-01 -1.93413677111805555424e-06
9.50206507000000000000e+08 9.80845804463900017289e-01 -1.93808775170073027683e-01 -6.05708846423059810464e-05 -6.12877160064917761960e-04 -6.05708846423059810464e-05 -6.12877160064917761960e-04 9.99999808458044592285e-01 -1.93808775170072860580e-06
9.50307508000000000000e+08 9.80766543762195630585e-01 -1.94205429973795945520e-01 -6.08215289886349791404e-05 -6.14131492689529330520e-04 -6.08215289886349791404e-05 -6.14131492689529330520e-04 9.99999807665437612236e-01 -1.94205429973795790072e-06
9.50408509000000000000e+08 9.80686800622299736929e-01 -1.94603650644709053052e-01 -6.10736989384792262371e-05 -6.15390777020975070569e-04 -6.10736989384792262371e-05 -6.15390777020975070569e-04 9.99999806868006269056e-01 -1.94603650644708871760e-06
9.50509510000000000000e+08 9.80606571151520722829e-01 -1.95003446375081185282e-01 -6.13274068016110644177e-05 -6.16655042127761589960e-04 -6.13274068016110644177e-05 -6.16655042127761589960e-04 9.99999806065711482894e-01 -1.95003446375081015198e-06
9.50610511000000000000e+08 9.80525851418032834417e-01 -1.95404826428392436322e-01 -6.15826650115543900148e-05 -6.17924317303584938292e-04 -6.15826650115543900148e-05 -6.17924317303584938292e-04 9.99999805258514173900e-01 -1.95404826428392248606e-06
9.50711512000000000000e+08 9.80444637450406997203e-01 -1.95807800140011784018e-01 -6.18394861270712709739e-05 -6.19198632069473857767e-04 -6.18394861270712709739e-05 -6.19198632069473857767e-04 9.99999804446374485067e-01 -1.95807800140011599338e-06
9.50812513000000000000e+08 9.80362925237131976886e-01 -1.96212376917889175232e-01 -6.20978828336737312572e-05 -6.20478016175978462111e-04 -6.20978828336737312572e-05 -6.20478016175978462111e-04 9.99999803629252337345e-01 -1.96212376917888992747e-06
9.50913514000000000000e+08 9.80280710726130766197e-01 -1.96618566243252329562e-01 -6.23578679451547256271e-05 -6.21762499605373335394e-04 -6.23578679451547256271e-05 -6.21762499605373335394e-04 9.99999802807107207592e-01 -1.96618566243252190892e-06
9.51014515000000000000e+08 9.80197989824269089176e-01 -1.97026377671311286877e-01 -6.26194544051406900512e-05 -6.23052112573885459069e-04 -6.26194544051406900512e-05 -6.23052112573885459069e-04 9.99999801979898239601e-01 -1.97026377671311142786e-06
9.51115516000000000000e+08 9.80114758396858576361e-01 -1.97435820831969893741e-01 -6.28826552886650714212e-05 -6.24346885533944907266e-04 -6.28826552886650714212e-05 -6.24346885533944907266e-04 9.99999801147584022054e-01 -1.97435820831969703829e-06
9.51216517000000000000e+08 9.80031012267150170025e-01 -1.97846905430550307203e-01 -6.31474838037673360212e-05 -6.25646849176475115459e-04 -6.31474838037673360212e-05 -6.25646849176475115459e-04 9.99999800310122699543e-01 -1.97846905430550145440e-06
9.51317518000000000000e+08 9.79946747215823643629e-01 -1.98259641248519025147e-01 -6.34139532931101519361e-05 -6.26952034433188786985e-04 -6.34139532931101519361e-05 -6.26952034433188786985e-04 9.99999799467472194614e-01 -1.98259641248518850537e-06
9.51418519000000000000e+08 9.79861958980467129265e-01 -1.98674038144226683400e-01 -6.36820772356231615176e-05 -6.28262472478928251859e-04 -6.36820772356231615176e-05 -6.28262472478928251859e-04 9.99999798619589763682e-01 -1.98674038144226535623e-06
9.51519520000000000000e+08 9.79776643255050760928e-01 -1.99090106053653903562e-01 -6.39518692481683430264e-05 -6.29578194734022955972e-04 -6.39518692481683430264e-05 -6.29578194734022955972e-04 9.99999797766432552137e-01 -1.99090106053653766844e-06
9.51620521000000000000e+08 9.79690795689392546208e-01 -1.99507854991165828329e-01 -6.42233430872293195894e-05 -6.30899232866675898496e-04 -6.42233430872293195894e-05 -6.30899232866675898496e-04 9.99999796907956928216e-01 -1.99507854991165666336e-06
9.51721522000000000000e+08 9.79604411888616244397e-01 -1.99927295050274955734e-01 -6.44965126506244663951e-05 -6.32225618795376523816e-04 -6.44965126506244663951e-05 -6.32225618795376523816e-04 9.99999796044118927085e-01 -1.99927295050274792454e-06
9.51822523000000000000e+08 9.79517487412602250174e-01 -2.00348436404414576018e-01 -6.47713919792454288771e-05 -6.33557384691345272174e-04 -6.47713919792454288771e-05 -6.33557384691345272174e-04 9.99999795174874139825e-01 -2.00348436404414396148e-06
9.51923524000000000000e+08 9.79430017775429706539e-01 -2.00771289307718814321e-01 -6.50479952588194391353e-05 -6.34894562981001657487e-04 -6.50479952588194391353e-05 -6.34894562981001657487e-04 9.99999794300177713424e-01 -2.00771289307718665365e-06
9.52024525000000000000e+08 9.79341998444810957203e-01 -2.01195864095813858885e-01 -6.53263368216979784702e-05 -6.36237186348465304925e-04 -6.53263368216979784702e-05 -6.36237186348465304925e-04 9.99999793419984461806e-01 -2.01195864095813684410e-06
9.52125526000000000000e+08 9.79253424841518449462e-01 -2.01622171186617016314e-01 -6.56064311486704307766e-05 -6.37585287738083551431e-04 -6.56064311486704307766e-05 -6.37585287738083551431e-04 9.99999792534248421738e-01 -2.01622171186616863645e-06
9.52226527000000000000e+08 9.79164292338802755289e-01 -2.02050221081144371071e-01 -6.58882928708032417943e-05 -6.38938900356984741842e-04 -6.58882928708032417943e-05 -6.38938900356984741842e-04 9.99999791642923407942e-01 -2.02050221081144204240e-06
9.52327528000000000000e+08 9.79074596261802154729e-01 -2.02480024364329019848e-01 -6.61719367713067797235e-05 -6.40298057677666653149e-04 -6.61719367713067797235e-05 -6.40298057677666653149e-04 9.99999790745962569005e-01 -2.02480024364328870811e-06
9.52428529000000000000e+08 9.78984331886944003642e-01 -2.02911591705850713474e-01 -6.64573777874298158913e-05 -6.41662793440618854299e-04 -6.64573777874298158913e-05 -6.41662793440618854299e-04 9.99999789843318831473e-01 -2.02911591705850521381e-06
9.52529530000000000000e+08 9.78893494441337330692e-01 -2.03344933860969967476e-01 -6.67446310123786845691e-05 -6.43033141656961762696e-04 -6.67446310123786845691e-05 -6.43033141656961762696e-04 9.99999788934944455754e-01 -2.03344933860969804236e-06
9.52630531000000000000e+08 9.78802079102156552537e-01 -2.03780061671376522270e-01 -6.70337116972667733470e-05 -6.44409136611128418280e-04 -6.70337116972667733470e-05 -6.44409136611128418280e-04 9.99999788020791036125e-01 -2.03780061671376364966e-06
9.52731532000000000000e+08 9.78710080996016418275e-01 -2.04216986066045880222e-01 -6.73246352530915657952e-05 -6.45790812863573904755e-04 -6.73246352530915657952e-05 -6.45790812863573904755e-04 9.99999787100809944818e-01 -2.04216986066045704987e-06
9.52832533000000000000e+08 9.78617495198337405959e-01 -2.04655718062106611876e-01 -6.76174172527406729810e-05 -6.47178205253517838981e-04 -6.76174172527406729810e-05 -6.47178205253517838981e-04 9.99999786174951998952e-01 -2.04655718062106458584e-06
9.52933534000000000000e+08 9.78524316732702459376e-01 -2.05096268765716988058e-01 -6.79120734330267454212e-05 -6.48571348901716459093e-04 -6.79120734330267454212e-05 -6.48571348901716459093e-04 9.99999785243167349513e-01 -2.05096268765716817893e-06
9.53034535000000000000e+08 9.78430540570204065887e-01 -2.05538649372951326422e-01 -6.82086196967517398087e-05 -6.49970279213265178693e-04 -6.82086196967517398087e-05 -6.49970279213265178693e-04 9.99999784305405703400e-01 -2.05538649372951164645e-06
9.53135536000000000000e+08 9.78336161628781120214e-01 -2.05982871170700659880e-01 -6.85070721148041183795e-05 -6.51375031880447761742e-04 -6.85070721148041183795e-05 -6.51375031880447761742e-04 9.99999783361616323418e-01 -2.05982871170700508539e-06
9.53236537000000000000e+08 9.78241174772547017469e-01 -2.06428945537578206748e-01 -6.88074469282826654435e-05 -6.52785642885598399454e-04 -6.88074469282826654435e-05 -6.52785642885598399454e-04 9.99999782411747695221e-01 -2.06428945537578050162e-06
9.53337538000000000000e+08 9.78145574811108087232e-01 -2.06876883944838552143e-01 -6.91097605506539683926e-05 -6.54202148504009215260e-04 -6.91097605506539683926e-05 -6.54202148504009215260e-04 9.99999781455748082415e-01 -2.06876883944838381151e-06
9.53438539000000000000e+08 9.78049356498870037235e-01 -2.07326697957310540632e-01 -6.94140295699434276607e-05 -6.55624585306880053662e-04 -6.94140295699434276607e-05 -6.55624585306880053662e-04 9.99999780493564971451e-01 -2.07326697957310363921e-06
9.53539540000000000000e+08 9.77952514534336625474e-01 -2.07778399234334720802e-01 -6.97202707509541984429e-05 -6.57052990164283231070e-04 -6.97202707509541984429e-05 -6.57052990164283231070e-04 9.99999779525145293668e-01 -2.07778399234334543034e-06
9.53640541000000000000e+08 9.77855043559396230890e-01 -2.08231999530718026037e-01 -7.00285010375232527856e-05 -6.58487400248181846234e-04 -7.00285010375232527856e-05 -6.58487400248181846234e-04 9.99999778550435647340e-01 -2.08231999530717836030e-06
9.53741542000000000000e+08 9.77756938158598432054e-01 -2.08687510697695283168e-01 -7.03387375548078671011e-05 -6.59927853035471292595e-04 -7.03387375548078671011e-05 -6.59927853035471292595e-04 9.99999777569381631537e-01 -2.08687510697695085234e-06
9.53842543000000000000e+08 9.77658192858419927695e-01 -2.09144944683906458538e-01 -7.06509976116088234772e-05 -6.61374386311068583957e-04 -7.06509976116088234772e-05 -6.61374386311068583957e-04 9.99999776581928623287e-01 -2.09144944683906279658e-06
9.53943544000000000000e+08 9.77558802126519577058e-01 -2.09604313536381009486e-01 -7.09652987027253645590e-05 -6.62827038171026074707e-04 -7.09652987027253645590e-05 -6.62827038171026074707e-04 9.99999775588021222461e-01 -2.09604313536380849648e-06
9.54044545000000000000e+08 9.77458760370981338816e-01 -2.10065629401538084275e-01 -7.12816585113479057705e-05 -6.64285847025693535449e-04 -7.12816585113479057705e-05 -6.64285847025693535449e-04 9.99999774587603695863e-01 -2.10065629401537885731e-06
9.54145546000000000000e+08 9.77358061939547773100e-01 -2.10528904526195131952e-01 -7.16000949114842493836e-05 -6.65750851602908201056e-04 -7.16000949114842493836e-05 -6.65750851602908201056e-04 9.99999773580619422120e-01 -2.10528904526194954861e-06
9.54246547000000000000e+08 9.77256701118840220843e-01 -2.10994151258591472464e-01 -7.19206259704240302667e-05 -6.67222090951231547838e-04 -7.19206259704240302667e-05 -6.67222090951231547838e-04 9.99999772567011224744e-01 -2.10994151258591316217e-06
9.54347548000000000000e+08 9.77154672133567991921e-01 -2.11461382049423746166e-01 -7.22432699512399160860e-05 -6.68699604443223258841e-04 -7.22432699512399160860e-05 -6.68699604443223258841e-04 9.99999771546721372140e-01 -2.11461382049423546035e-06
9.54448549000000000000e+08 9.77051969145726117993e-01 -2.11930609452891272060e-01 -7.25680453153248572300e-05 -6.70183431778747389952e-04 -7.25680453153248572300e-05 -6.70183431778747389952e-04 9.99999770519691466575e-01 -2.11930609452891115081e-06
9.54549550000000000000e+08 9.76948586253780226762e-01 -2.12401846127756588345e-01 -7.28949707249690320851e-05 -6.71673612988326024058e-04 -7.28949707249690320851e-05 -6.71673612988326024058e-04 9.99999769485862555207e-01 -2.12401846127756408029e-06
9.54650551000000000000e+08 9.76844517491839425816e-01 -2.12875104838418482966e-01 -7.32240650459759726681e-05 -6.73170188436532281745e-04 -7.32240650459759726681e-05 -6.73170188436532281745e-04 9.99999768445174908038e-01 -2.12875104838418295372e-06
9.54751552000000000000e+08 9.76739756828816640954e-01 -2.13350398455997070091e-01 -7.35553473503173285133e-05 -6.74673198825421604335e-04 -7.35553473503173285133e-05 -6.74673198825421604335e-04 9.99999767397568239957e-01 -2.13350398455996886169e-06
9.54852553000000000000e+08 9.76634298167576075933e-01 -2.13827739959433965611e-01 -7.38888369188295214204e-05 -6.76182685198011283918e-04 -7.38888369188295214204e-05 -6.76182685198011283918e-04 9.99999766342981710743e-01 -2.13827739959433781486e-06
9.54953554000000000000e+08 9.76528135344068459744e-01 -2.14307142436601399949e-01 -7.42245532439481033342e-05 -6.77698688941787206856e-04 -7.42245532439481033342e-05 -6.77698688941787206856e-04 9.99999765281353480972e-01 -2.14307142436601221692e-06
9.55054555000000000000e+08 9.76421262126451749985e-01 -2.14788619085429871580e-01 -7.45625160324875693989e-05 -6.79221251792270228412e-04 -7.45625160324875693989e-05 -6.79221251792270228412e-04 9.99999764212621267134e-01 -2.14788619085429699070e-06
9.55155556000000000000e+08 9.76313672214199623767e-01 -2.15272183215047263616e-01 -7.49027452084618963583e-05 -6.80750415836618109205e-04 -7.49027452084618963583e-05 -6.80750415836618109205e-04 9.99999763136722119583e-01 -2.15272183215047090076e-06
9.55256557000000000000e+08 9.76205359237195535727e-01 -2.15757848246931893677e-01 -7.52452609159483270683e-05 -6.82286223517271795541e-04 -7.52452609159483270683e-05 -6.82286223517271795541e-04 9.99999762053592422539e-01 -2.15757848246931721288e-06
9.55357558000000000000e+08 9.76096316754813342342e-01 -2.16245627716079608094e-01 -7.55900835219950245408e-05 -6.83828717635646368862e-04 -7.55900835219950245408e-05 -6.83828717635646368862e-04 9.99999760963167561023e-01 -2.16245627716079411406e-06
9.55458559000000000000e+08 9.75986538254983604368e-01 -2.16735535272184864919e-01 -7.59372336195733409073e-05 -6.85377941355865796975e-04 -7.59372336195733409073e-05 -6.85377941355865796975e-04 9.99999759865382586987e-01 -2.16735535272184701042e-06
9.55559560000000000000e+08 9.75876017153245678415e-01 -2.17227584680837887410e-01 -7.62867320305763682619e-05 -6.86933938208548317515e-04 -7.62867320305763682619e-05 -6.86933938208548317515e-04 9.99999758760171553185e-01 -2.17227584680837710278e-06
9.55660561000000000000e+08 9.75764746791785042568e-01 -2.17721789824733530372e-01 -7.66385998088621315290e-05 -6.88496752094629768486e-04 -7.66385998088621315290e-05 -6.88496752094629768486e-04 9.99999757647467957256e-01 -2.17721789824733362903e-06
9.55761562000000000000e+08 9.75652720438455633989e-01 -2.18218164704898687223e-01 -7.69928582433460176630e-05 -6.90066427289244815196e-04 -7.69928582433460176630e-05 -6.90066427289244815196e-04 9.99999756527204408663e-01 -2.18218164704898525392e-06
9.55862563000000000000e+08 9.75539931285786532378e-01 -2.18716723441933574845e-01 -7.73495288611405573762e-05 -6.91643008445651978969e-04 -7.73495288611405573762e-05 -6.91643008445651978969e-04 9.99999755399312850734e-01 -2.18716723441933376043e-06
9.55963564000000000000e+08 9.75426372449975653822e-01 -2.19217480277263038202e-01 -7.77086334307400792860e-05 -6.93226540599190975064e-04 -7.77086334307400792860e-05 -6.93226540599190975064e-04 9.99999754263724449643e-01 -2.19217480277262853806e-06
9.56064565000000000000e+08 9.75312036969863571656e-01 -2.19720449574415083172e-01 -7.80701939652632740090e-05 -6.94817069171325485746e-04 -7.80701939652632740090e-05 -6.94817069171325485746e-04 9.99999753120369705428e-01 -2.19720449574414873351e-06
9.56165566000000000000e+08 9.75196917805895235887e-01 -2.20225645820302518008e-01 -7.84342327257374593826e-05 -6.96414639973696233261e-04 -7.84342327257374593826e-05 -6.96414639973696233261e-04 9.99999751969178007904e-01 -2.20225645820302351786e-06
9.56266567000000000000e+08 9.75081007839063818032e-01 -2.20733083626528325816e-01 -7.88007722244395765639e-05 -6.98019299212248971187e-04 -7.88007722244395765639e-05 -6.98019299212248971187e-04 9.99999750810078413821e-01 -2.20733083626528147614e-06
9.56367568000000000000e+08 9.74964299869837236479e-01 -2.21242777730705414418e-01 -7.91698352282883740247e-05 -6.99631093491407687023e-04 -7.91698352282883740247e-05 -6.99631093491407687023e-04 9.99999749642998647658e-01 -2.21242777730705203934e-06
9.56468569000000000000e+08 9.74846786617069582803e-01 -2.21754742997791992609e-01 -7.95414447622892431143e-05 -7.01250069818297678062e-04 -7.95414447622892431143e-05 -7.01250069818297678062e-04 9.99999748467866211854e-01 -2.21754742997791811181e-06
9.56569570000000000000e+08 9.74728460716894340443e-01 -2.22268994421442961373e-01 -7.99156241130326809715e-05 -7.02876275607018934262e-04 -7.99156241130326809715e-05 -7.02876275607018934262e-04 9.99999747284607165554e-01 -2.22268994421442751729e-06
9.56670571000000000000e+08 9.74609314721599839793e-01 -2.22785547125382010769e-01 -8.02923968322508802269e-05 -7.04509758682985006914e-04 -8.02923968322508802269e-05 -7.04509758682985006914e-04 9.99999746093147234838e-01 -2.22785547125381832079e-06
9.56771572000000000000e+08 9.74489341098488393023e-01 -2.23304416364784236171e-01 -8.06717867404255743616e-05 -7.06150567287295270746e-04 -8.06717867404255743616e-05 -7.06150567287295270746e-04 9.99999744893411035562e-01 -2.23304416364784071223e-06
9.56872573000000000000e+08 9.74368532228715222843e-01 -2.23825617527684928021e-01 -8.10538179304595934969e-05 -7.07798750081189910650e-04 -8.10538179304595934969e-05 -7.07798750081189910650e-04 9.99999743685322295406e-01 -2.23825617527684739952e-06
9.56973574000000000000e+08 9.74246880406111182005e-01 -2.24349166136396022120e-01 -8.14385147713991743978e-05 -7.09454356150529194536e-04 -8.14385147713991743978e-05 -7.09454356150529194536e-04 9.99999742468804075912e-01 -2.24349166136395854055e-06
9.57074575000000000000e+08 9.74124377835985155727e-01 -2.24875077848948917714e-01 -8.18259019122220002335e-05 -7.11117435010356121333e-04 -8.18259019122220002335e-05 -7.11117435010356121333e-04 9.99999741243778328403e-01 -2.24875077848948756127e-06
9.57175576000000000000e+08 9.74001016633908256459e-01 -2.25403368460549702323e-01 -8.22160042856811580647e-05 -7.12788036609497991855e-04 -8.22160042856811580647e-05 -7.12788036609497991855e-04 9.99999740010166338067e-01 -2.25403368460549529935e-06
9.57276577000000000000e+08 9.73876788824477923612e-01 -2.25934053905057691258e-01 -8.26088471122143653018e-05 -7.14466211335242030664e-04 -8.26088471122143653018e-05 -7.14466211335242030664e-04 9.99999738767888279867e-01 -2.25934053905057496427e-06
9.57377578000000000000e+08 9.73751686340062816427e-01 -2.26467150256477456338e-01 -8.30044559039117972902e-05 -7.16152010018054050768e-04 -8.30044559039117972902e-05 -7.16152010018054050768e-04 9.99999737516863440590e-01 -2.26467150256477262266e-06
