! File generated for n1 = 11, n2 = 2
! b1 = 0.046416
! b2 = 0.021544
! Q0 = 10000.000000
! f0 = 1000000000.000000
! n = 1001
! rel_span = 10.000000
# Hz S RI R 50
9.99466019882381796837e+08 9.99139817693545317923e-01 -8.60412089278632212508e-03 -5.86035383331563915210e-04 -5.86191932547122564884e-03 -5.86035383331563915210e-04 -5.86191932547122564884e-03 9.99600738741148853173e-01 -3.99367914590114010676e-03
9.99467087842617034912e+08 9.99136399987364365316e-01 -8.62102586309470252102e-03 -5.88363839447023887104e-04 -5.87343654766998672645e-03 -5.88363839447023887104e-04 -5.87343654766998672645e-03 9.99599152382464217759e-01 -4.00152573804273426622e-03
9.99468155802852272987e+08 9.99132961943982600417e-01 -8.63799668313312320189e-03 -5.90706151136054821542e-04 -5.88499863276757163855e-03 -5.90706151136054821542e-04 -5.88499863276757163855e-03 9.99597556584087221232e-01 -4.00940289492149239819e-03
9.99469223763087511063e+08 9.99129503402281682334e-01 -8.65503373418033059017e-03 -5.93062428167464043491e-04 -5.89660584052616957434e-03 -5.93062428167464043491e-04 -5.89660584052616957434e-03 9.99595951271233240654e-01 -4.01731079351133266164e-03
9.99470291723322749138e+08 9.99126024199551432403e-01 -8.67213740042043455813e-03 -5.95432781394211285524e-04 -5.90825843268736727171e-03 -5.95432781394211285524e-04 -5.90825843268736727171e-03 9.99594336368379021707e-01 -4.02524961213472382698e-03
9.99471359683557987213e+08 9.99122524171468073817e-01 -8.68930806898903472513e-03 -5.97817322768838511036e-04 -5.91995667300357700236e-03 -5.97817322768838511036e-04 -5.91995667300357700236e-03 9.99592711799252131577e-01 -4.03321953048409176379e-03
9.99472427643793225288e+08 9.99119003152078022367e-01 -8.70654612998510157862e-03 -6.00216165354296106622e-04 -5.93170082724613512842e-03 -6.00216165354296106622e-04 -5.93170082724613512842e-03 9.99591077486823742504e-01 -4.04122072962734019824e-03
9.99473495604028463364e+08 9.99115460973776792208e-01 -8.72385197650620523857e-03 -6.02629423338138557956e-04 -5.94349116322929766493e-03 -6.02629423338138557956e-04 -5.94349116322929766493e-03 9.99589433353298750795e-01 -4.04925339202419701246e-03
9.99474563564263701439e+08 9.99111897467288789798e-01 -8.74122600468062345425e-03 -6.05057212046432595261e-04 -5.95532795083211774489e-03 -6.05057212046432595261e-04 -5.95532795083211774489e-03 9.99587779320106450953e-01 -4.05731770154112245802e-03
9.99475631524498939514e+08 9.99108312461649994418e-01 -8.75866861368440434432e-03 -6.07499647955706727556e-04 -5.96721146201007347082e-03 -6.07499647955706727556e-04 -5.96721146201007347082e-03 9.99586115307892320025e-01 -4.06541384345922469923e-03
9.99476699484734177589e+08 9.99104705784184976558e-01 -8.77618020578128411879e-03 -6.09956848708229928090e-04 -5.97914197082225536833e-03 -6.09956848708229928090e-04 -5.97914197082225536833e-03 9.99584441236507470485e-01 -4.07354200449279099661e-03
9.99477767444969415665e+08 9.99101077260487135945e-01 -8.79376118635218605168e-03 -6.12428933125993071873e-04 -5.99111975345147183131e-03 -6.12428933125993071873e-04 -5.99111975345147183131e-03 9.99582757024999657425e-01 -4.08170237280297640986e-03
9.99478835405204653740e+08 9.99097426714399272640e-01 -8.81141196391404570021e-03 -6.14916021223328723710e-04 -6.00314508821707393249e-03 -6.14916021223328723710e-04 -6.00314508821707393249e-03 9.99581062591603841661e-01 -4.08989513800654853892e-03
9.99479903365439891815e+08 9.99093753967990494402e-01 -8.82913295016453381070e-03 -6.17418234223325091727e-04 -6.01521825560541716776e-03 -6.17418234223325091727e-04 -6.01521825560541716776e-03 9.99579357853731864658e-01 -4.09812049119663481672e-03
9.99480971325675129890e+08 9.99090058841536898804e-01 -8.84692455999783189391e-03 -6.19935694570317987959e-04 -6.02733953828061587432e-03 -6.19935694570317987959e-04 -6.02733953828061587432e-03 9.99577642727963344704e-01 -4.10637862495005778740e-03
9.99482039285910367966e+08 9.99086341153498036505e-01 -8.86478721154829348017e-03 -6.22468525946470014297e-04 -6.03950922111429113620e-03 -6.22468525946470014297e-04 -6.03950922111429113620e-03 9.99575917130034463653e-01 -4.11466973334759147235e-03
9.99483107246145606041e+08 9.99082600720495817015e-01 -8.88272132621424279075e-03 -6.25016853285704837226e-04 -6.05172759120177830572e-03 -6.25016853285704837226e-04 -6.05172759120177830572e-03 9.99574180974828863100e-01 -4.12299401198501155874e-03
9.99484175206380844116e+08 9.99078837357292415255e-01 -8.90072732869130398003e-03 -6.27580802789147636223e-04 -6.06399493788483800322e-03 -6.27580802789147636223e-04 -6.06399493788483800322e-03 9.99572434176366764191e-01 -4.13135165798856479613e-03
9.99485243166616082191e+08 9.99075050876767289942e-01 -8.91880564700426800573e-03 -6.30160501940523810373e-04 -6.07631155277336704873e-03 -6.30160501940523810373e-04 -6.07631155277336704873e-03 9.99570676647794309488e-01 -4.13974287002976011618e-03
9.99486311126851320267e+08 9.99071241089894757081e-01 -8.93695671253836622372e-03 -6.32756079521636723324e-04 -6.08867772976669913154e-03 -6.32756079521636723324e-04 -6.08867772976669913154e-03 9.99568908301373681979e-01 -4.14816784833988479869e-03
9.99487379087086558342e+08 9.99067407805719343017e-01 -8.95518096007564406991e-03 -6.35367665628744902363e-04 -6.10109376507839487602e-03 -6.35367665628744902363e-04 -6.10109376507839487602e-03 9.99567129048471225694e-01 -4.15662679472688680049e-03
9.99488447047321796417e+08 9.99063550831334024060e-01 -8.97347882782416512992e-03 -6.37995391688087813524e-04 -6.11355995725613391573e-03 -6.37995391688087813524e-04 -6.11355995725613391573e-03 9.99565338799547342674e-01 -4.16511991258893248674e-03
9.99489515007557034492e+08 9.99059669971855912607e-01 -8.99185075744753439797e-03 -6.40639390471621646660e-04 -6.12607660720182554265e-03 -6.40639390471621646660e-04 -6.12607660720182554265e-03 9.99563537464145612788e-01 -4.17364740692810747696e-03
9.99490582967792272568e+08 9.99055765030400499960e-01 -9.01029719411098814486e-03 -6.43299796115319997593e-04 -6.13864401820301761048e-03 -6.43299796115319997593e-04 -6.13864401820301761048e-03 9.99561724950880026164e-01 -4.18220948437181185703e-03
9.99491650928027510643e+08 9.99051835808059229826e-01 -9.02881858650218978302e-03 -6.45976744134014535872e-04 -6.15126249594705361290e-03 -6.45976744134014535872e-04 -6.15126249594705361290e-03 9.99559901167425657320e-01 -4.19080635318240697640e-03
9.99492718888262748718e+08 9.99047882103872963988e-01 -9.04741538687335415669e-03 -6.48670371439490122192e-04 -6.16393234854978235709e-03 -6.48670371439490122192e-04 -6.16393234854978235709e-03 9.99558066020505342486e-01 -4.19943822327677965950e-03
9.99493786848497986794e+08 9.99043903714807446370e-01 -9.06608805107426626857e-03 -6.51380816357452897651e-04 -6.17665388657804605155e-03 -6.51380816357452897651e-04 -6.17665388657804605155e-03 9.99556219415879132484e-01 -4.20810530624165547720e-03
9.99494854808733224869e+08 9.99039900435726879735e-01 -9.08483703858954314003e-03 -6.54108218645304152067e-04 -6.18942742307507058619e-03 -6.54108218645304152067e-04 -6.18942742307507058619e-03 9.99554361258331303119e-01 -4.21680781535090087875e-03
9.99495922768968462944e+08 9.99035872059369056686e-01 -9.10366281256851615777e-03 -6.56852719509032410665e-04 -6.20225327358082337975e-03 -6.56852719509032410665e-04 -6.20225327358082337975e-03 9.99552491451659363975e-01 -4.22554596557939317336e-03
9.99496990729203701019e+08 9.99031818376317826136e-01 -9.12256583986917335416e-03 -6.59614461622344940353e-04 -6.21513175616194690071e-03 -6.59614461622344940353e-04 -6.21513175616194690071e-03 9.99550609898660735730e-01 -4.23431997362341307201e-03
9.99498058689438939095e+08 9.99027739174977225112e-01 -9.14154659108688469327e-03 -6.62393589143785242040e-04 -6.22806319143133675642e-03 -6.62393589143785242040e-04 -6.22806319143133675642e-03 9.99548716501121536915e-01 -4.24313005791398471095e-03
9.99499126649674177170e+08 9.99023634241543612156e-01 -9.16060554059727749632e-03 -6.65190247736112188690e-04 -6.24104790257734229342e-03 -6.65190247736112188690e-04 -6.24104790257734229342e-03 9.99546811159802706115e-01 -4.25197643863676685849e-03
9.99500194609909415245e+08 9.99019503359977800727e-01 -9.17974316659367177429e-03 -6.68004584585098247843e-04 -6.25408621538928351236e-03 -6.68004584585098247843e-04 -6.25408621538928351236e-03 9.99544893774427789523e-01 -4.26085933774943918101e-03
9.99501262570144653320e+08 9.99015346311978746918e-01 -9.19895995111800514332e-03 -6.70836748417573424698e-04 -6.26717845827850714158e-03 -6.70836748417573424698e-04 -6.26717845827850714158e-03 9.99542964243670506441e-01 -4.26977897899604753873e-03
9.99502330530379891396e+08 9.99011162876952241163e-01 -9.21825638011106347769e-03 -6.73686889522525137429e-04 -6.28032496231261793546e-03 -6.73686889522525137429e-04 -6.28032496231261793546e-03 9.99541022465139983311e-01 -4.27873558793032647551e-03
9.99503398490615129471e+08 9.99006952831985151064e-01 -9.23763294343928585695e-03 -6.76555159768962941641e-04 -6.29352606123373577163e-03 -6.76555159768962941641e-04 -6.29352606123373577163e-03 9.99539068335369207396e-01 -4.28772939192813284937e-03
9.99504466450850367546e+08 9.99002715951815112305e-01 -9.25709013493790887350e-03 -6.79441712626409084069e-04 -6.30678209148788967292e-03 -6.79441712626409084069e-04 -6.30678209148788967292e-03 9.99537101749800482864e-01 -4.29676062020748102122e-03
9.99505534411085486412e+08 9.98998452008800108537e-01 -9.27662845245265724192e-03 -6.82346703185401199342e-04 -6.32009339225342390428e-03 -6.82346703185401199342e-04 -6.32009339225342390428e-03 9.99535122602771886058e-01 -4.30582950384788415432e-03
9.99506602371320724487e+08 9.98994160772887829225e-01 -9.29624839788602101709e-03 -6.85270288178912024939e-04 -6.33346030547252483722e-03 -6.85270288178912024939e-04 -6.33346030547252483722e-03 9.99533130787502610559e-01 -4.31493627581184396869e-03
9.99507670331555962563e+08 9.98989842011588358162e-01 -9.31595047721955719922e-03 -6.88212626000426412436e-04 -6.34688317586641365803e-03 -6.88212626000426412436e-04 -6.34688317586641365803e-03 9.99531126196080310642e-01 -4.32408117095519316242e-03
9.99508738291791200638e+08 9.98985495489939423486e-01 -9.33573520057328319621e-03 -6.91173876727776428062e-04 -6.36036235097581312964e-03 -6.91173876727776428062e-04 -6.36036235097581312964e-03 9.99529108719445336106e-01 -4.33326442605467057612e-03
9.99509806252026438713e+08 9.98981120970477864951e-01 -9.35560308223603795397e-03 -6.94154202142888902653e-04 -6.37389818118162983229e-03 -6.94154202142888902653e-04 -6.37389818118162983229e-03 9.99527078247376743469e-01 -4.34248627982200888220e-03
9.99510874212261676788e+08 9.98976718213204772923e-01 -9.37555464071783764557e-03 -6.97153765755068348040e-04 -6.38749101974062528236e-03 -6.97153765755068348040e-04 -6.38749101974062528236e-03 9.99525034668477196931e-01 -4.35174697292823806083e-03
9.99511942172496914864e+08 9.98972286975556511557e-01 -9.39559039877799206941e-03 -7.00172732820887404846e-04 -6.40114122280457248371e-03 -7.00172732820887404846e-04 -6.40114122280457248371e-03 9.99522977870158535474e-01 -4.36104674801673572460e-03
9.99513010132732152939e+08 9.98967827012368747575e-01 -9.41571088348475485064e-03 -7.03211270369069282350e-04 -6.41484914946089355980e-03 -7.03211270369069282350e-04 -6.41484914946089355980e-03 9.99520907738625341565e-01 -4.37038584973091503993e-03
9.99514078092967391014e+08 9.98963338075845697084e-01 -9.43591662624228624812e-03 -7.06269547220704876390e-04 -6.42861516175102440385e-03 -7.06269547220704876390e-04 -6.42861516175102440385e-03 9.99518824158861396434e-01 -4.37976452472673642019e-03
9.99515146053202629089e+08 9.98958819915524376398e-01 -9.45620816284829628084e-03 -7.09347734014358338034e-04 -6.44243962470969749184e-03 -7.09347734014358338034e-04 -6.44243962470969749184e-03 9.99516727014611805480e-01 -4.38918302169946563523e-03
9.99516214013437867165e+08 9.98954272278240407168e-01 -9.47658603353457654195e-03 -7.12446003228858087443e-04 -6.45632290639254913939e-03 -7.12446003228858087443e-04 -6.45632290639254913939e-03 9.99514616188368121286e-01 -4.39864159140248948965e-03
9.99517281973673105240e+08 9.98949694908094487644e-01 -9.49705078300793446855e-03 -7.15564529206411245252e-04 -6.47026537790400604888e-03 -7.15564529206411245252e-04 -6.47026537790400604888e-03 9.99512491561352467428e-01 -4.40814048666631191215e-03
9.99518349933908343315e+08 9.98945087546415866342e-01 -9.51760296050012909175e-03 -7.18703488177359329191e-04 -6.48426741343131017581e-03 -7.18703488177359329191e-04 -6.48426741343131017581e-03 9.99510353013500441044e-01 -4.41767996242173246330e-03
9.99519417894143581390e+08 9.98940449931726592858e-01 -9.53824311981309354291e-03 -7.21863058284499185639e-04 -6.49832939027532568294e-03 -7.21863058284499185639e-04 -6.49832939027532568294e-03 9.99508200423444792548e-01 -4.42726027572083648959e-03
9.99520485854378819466e+08 9.98935781799704769490e-01 -9.55897181936792364465e-03 -7.25043419608265211386e-04 -6.51245168888391675471e-03 -7.25043419608265211386e-04 -6.51245168888391675471e-03 9.99506033668498217182e-01 -4.43688168575973821556e-03
9.99521553814614057541e+08 9.98931082883149357166e-01 -9.57978962224364724576e-03 -7.28244754190630048420e-04 -6.52663469287835876220e-03 -7.28244754190630048420e-04 -6.52663469287835876220e-03 9.99503852624636812685e-01 -4.44654445389656895887e-03
9.99522621774849295616e+08 9.98926352911939097190e-01 -9.60069709624029876682e-03 -7.31467246063031571908e-04 -6.54087878909631343510e-03 -7.31467246063031571908e-04 -6.54087878909631343510e-03 9.99501657166481538574e-01 -4.45624884368075926261e-03
9.99523689735084533691e+08 9.98921591612997983312e-01 -9.62169481391234905632e-03 -7.34711081270047203576e-04 -6.55518436761459970946e-03 -7.34711081270047203576e-04 -6.55518436761459970946e-03 9.99499447167281673821e-01 -4.46599512086855426202e-03
9.99524757695319771767e+08 9.98916798710254294491e-01 -9.64278335262649770321e-03 -7.37976447897115009691e-04 -6.56955182178857021585e-03 -7.37976447897115009691e-04 -6.56955182178857021585e-03 9.99497222498896165099e-01 -4.47578355344983424419e-03
9.99525825655555009842e+08 9.98911973924601848118e-01 -9.66396329460923741994e-03 -7.41263536096995389810e-04 -6.58398154828451938336e-03 -7.41263536096995389810e-04 -6.58398154828451938336e-03 9.99494983031775308113e-01 -4.48561441167019941262e-03
9.99526893615790247917e+08 9.98907116973859920961e-01 -9.68523522699942830683e-03 -7.44572538117323256060e-04 -6.59847394711549333629e-03 -7.44572538117323256060e-04 -6.59847394711549333629e-03 9.99492728634942317889e-01 -4.49548796805536703819e-03
9.99527961576025485992e+08 9.98902227572733503180e-01 -9.70659974189262350630e-03 -7.47903648327196356703e-04 -6.61302942167149836877e-03 -7.47903648327196356703e-04 -6.61302942167149836877e-03 9.99490459175975121120e-01 -4.50540449743174788166e-03
9.99529029536260724068e+08 9.98897305432770776790e-01 -9.72805743640149309104e-03 -7.51257063246597921007e-04 -6.62764837876065899397e-03 -7.51257063246597921007e-04 -6.62764837876065899397e-03 9.99488174520986372151e-01 -4.51536427695449233549e-03
9.99530097496495962143e+08 9.98892350262323480692e-01 -9.74960891269690752003e-03 -7.54632981573135036384e-04 -6.64233122863721638096e-03 -7.54632981573135036384e-04 -6.64233122863721638096e-03 9.99485874534604690211e-01 -4.52536758612655937162e-03
9.99531165456731200218e+08 9.98887361766500947446e-01 -9.77125477807756423476e-03 -7.58031604213576463286e-04 -6.65707838504895395987e-03 -7.58031604213576463286e-04 -6.65707838504895395987e-03 9.99483559079954009263e-01 -4.53541470683103357248e-03
9.99532233416966438293e+08 9.98882339647131134441e-01 -9.79299564500331863603e-03 -7.61453134310057801713e-04 -6.67189026525991536049e-03 -7.61453134310057801713e-04 -6.67189026525991536049e-03 9.99481228018635259325e-01 -4.54550592334659799704e-03
9.99533301377201676369e+08 9.98877283602712884303e-01 -9.81483213116959504752e-03 -7.64897777273075823307e-04 -6.68676729010109216489e-03 -7.64897777273075823307e-04 -6.68676729010109216489e-03 9.99478881210703828941e-01 -4.55564152238206992312e-03
9.99534369337436914444e+08 9.98872193328375845844e-01 -9.83676485953960226538e-03 -7.68365740808206031803e-04 -6.70170988399238030248e-03 -7.68365740808206031803e-04 -6.70170988399238030248e-03 9.99476518514651468550e-01 -4.56582179309135850059e-03
9.99535437297672152519e+08 9.98867068515830180964e-01 -9.85879445842593321592e-03 -7.71857234950971255426e-04 -6.71671847499816666166e-03 -7.71857234950971255426e-04 -6.71671847499816666166e-03 9.99474139787382864775e-01 -4.57604702711133549953e-03
9.99536505257907390594e+08 9.98861908853325930480e-01 -9.88092156152173099748e-03 -7.75372472094113017807e-04 -6.73179349484856123786e-03 -7.75372472094113017807e-04 -6.73179349484856123786e-03 9.99471744884196433567e-01 -4.58631751857630030195e-03
9.99537573218142628670e+08 9.98856714025603054097e-01 -9.90314680797350563313e-03 -7.78911667021827281571e-04 -6.74693537898901369437e-03 -7.78911667021827281571e-04 -6.74693537898901369437e-03 9.99469333658761338590e-01 -4.59663356415178532555e-03
9.99538641178377866745e+08 9.98851483713844023882e-01 -9.92547084243883444288e-03 -7.82475036942002332568e-04 -6.76214456661961872685e-03 -7.82475036942002332568e-04 -6.76214456661961872685e-03 9.99466905963095619825e-01 -4.60699546306133148055e-03
9.99539709138613104820e+08 9.98846217595628860231e-01 -9.94789431513076402580e-03 -7.86062801516716194369e-04 -6.77742150072536877342e-03 -7.86062801516716194369e-04 -6.77742150072536877342e-03 9.99464461647545210354e-01 -4.61740351710709928668e-03
9.99540777098848342896e+08 9.98840915344883506499e-01 -9.97041788189071895299e-03 -7.89675182897677137295e-04 -6.79276662812582348455e-03 -7.89675182897677137295e-04 -6.79276662812582348455e-03 9.99462000560759955547e-01 -4.62785803070371332818e-03
9.99541845059083580971e+08 9.98835576631829979988e-01 -9.99304220424836533998e-03 -7.93312405760004165506e-04 -6.80818039951589914355e-03 -7.93312405760004165506e-04 -6.80818039951589914355e-03 9.99459522549670409397e-01 -4.63835931090604385030e-03
9.99542913019318819046e+08 9.98830201122939520531e-01 -1.00157679494680285776e-02 -7.96974697334245892402e-04 -6.82366326949748747133e-03 -7.96974697334245892402e-04 -6.82366326949748747133e-03 9.99457027459466296193e-01 -4.64890766743075549428e-03
9.99543980979554057121e+08 9.98824788480877301389e-01 -1.00385957906264228212e-02 -8.00662287443853603469e-04 -6.83921569663241499942e-03 -8.00662287443853603469e-04 -6.83921569663241499942e-03 9.99454515133570642327e-01 -4.65950341269238434150e-03
9.99545048939789295197e+08 9.98819338364453135348e-01 -1.00615264066652703584e-02 -8.04375408539048371119e-04 -6.85483814347829546743e-03 -8.04375408539048371119e-04 -6.85483814347829546743e-03 9.99451985413617127740e-01 -4.67014686182776195267e-03
9.99546116900024533272e+08 9.98813850428568295037e-01 -1.00845604824552868839e-02 -8.08114295732949164744e-04 -6.87053107663211475031e-03 -8.08114295732949164744e-04 -6.87053107663211475031e-03 9.99449438139424772842e-01 -4.68083833272571556844e-03
9.99547184860259771347e+08 9.98808324324160334839e-01 -1.01076987088645868507e-02 -8.11879186838864634959e-04 -6.88629496677683767408e-03 -8.11879186838864634959e-04 -6.88629496677683767408e-03 9.99446873148973402579e-01 -4.69157814605881701847e-03
9.99548252820495009422e+08 9.98802759698151132461e-01 -1.01309417828159050584e-02 -8.15670322406225850424e-04 -6.90213028872039852796e-03 -8.15670322406225850424e-04 -6.90213028872039852796e-03 9.99444290278378666414e-01 -4.70236662530994393994e-03
9.99549320780730247498e+08 9.98797156193389712442e-01 -1.01542904073566083584e-02 -8.19487945759052056199e-04 -6.91803752144339208219e-03 -8.19487945759052056199e-04 -6.91803752144339208219e-03 9.99441689361865726049e-01 -4.71320409680477895448e-03
