! File generated for n1 = 4, n2 = 8
! b1 = 10.000000
! b2 = 0.046416
! Q0 = 10000.000000
! f0 = 1000000000.000000
! n = 1001
! rel_span = 10.000000
# Hz S RI R 50
9.94476792055831909180e+08 9.82172011847496917447e-01 -1.78774954344120662331e-01 -1.21460669355596723347e-03 -1.21797958540848499237e-02 -1.21460669355596723347e-03 -1.21797958540848499237e-02 9.99917249809265551441e-01 -8.29799831813304421962e-04
9.94487838471720218658e+08 9.82100995094498996352e-01 -1.79127122179339404173e-01 -1.21944500861474128955e-03 -1.22037887693960331315e-02 -1.21944500861474128955e-03 -1.22037887693960331315e-02 9.99916920178697821164e-01 -8.31434450104813265944e-04
9.94498884887608528137e+08 9.82029555381997765195e-01 -1.79480661904255350825e-01 -1.22431213956902796257e-03 -1.22278751504642513304e-02 -1.22431213956902796257e-03 -1.22278751504642513304e-02 9.99916588584926047112e-01 -8.33075436144221719535e-04
9.94509931303496956825e+08 9.81957689357630392202e-01 -1.79835581462856608503e-01 -1.22920831481264955336e-03 -1.22520555385071099747e-02 -1.22920831481264955336e-03 -1.22520555385071099747e-02 9.99916255012389787460e-01 -8.34722826804256009224e-04
9.94520977719385266304e+08 9.81885393635877901097e-01 -1.80191888859847909599e-01 -1.23413376499832282314e-03 -1.22763304788787962207e-02 -1.23413376499832282314e-03 -1.22763304788787962207e-02 9.99915919445374945518e-01 -8.36376659239464561625e-04
9.94532024135273575783e+08 9.81812664797670597849e-01 -1.80549592161234673249e-01 -1.23908872306456672302e-03 -1.23007005211098613406e-02 -1.23908872306456672302e-03 -1.23007005211098613406e-02 9.99915581868011660305e-01 -8.38036970888927858388e-04
9.94543070551161885262e+08 9.81739499389988390377e-01 -1.80908699494907065919e-01 -1.24407342426289418448e-03 -1.23251662189470170133e-02 -1.24407342426289418448e-03 -1.23251662189470170133e-02 9.99915242264272419170e-01 -8.39703799478970025830e-04
9.94554116967050313950e+08 9.81665893925460331104e-01 -1.81269219051212127081e-01 -1.24908810618512490682e-03 -1.23497281303921093570e-02 -1.24908810618512490682e-03 -1.23497281303921093570e-02 9.99914900617970170416e-01 -8.41377183025814696579e-04
9.94565163382938623428e+08 9.81591844881955055691e-01 -1.81631159083546822597e-01 -1.25413300879127190442e-03 -1.23743868177425310473e-02 -1.25413300879127190442e-03 -1.23743868177425310473e-02 9.99914556912756657958e-01 -8.43057159838336823109e-04
9.94576209798826932907e+08 9.81517348702162117924e-01 -1.81994527908976189146e-01 -1.25920837443807640682e-03 -1.23991428476333230557e-02 -1.25920837443807640682e-03 -1.23991428476333230557e-02 9.99914211132120422931e-01 -8.44743768520932669305e-04
9.94587256214715242386e+08 9.81442401793172547464e-01 -1.82359333908832549342e-01 -1.26431444790758005549e-03 -1.24239967910780152449e-02 -1.26431444790758005549e-03 -1.24239967910780152449e-02 9.99913863259384472215e-01 -8.46437047976301005885e-04
9.94598302630603551865e+08 9.81367000526055299758e-01 -1.82725585529312950506e-01 -1.26945147643597053624e-03 -1.24489492235093056338e-02 -1.26945147643597053624e-03 -1.24489492235093056338e-02 9.99913513277705057192e-01 -8.48137037408215415345e-04
9.94609349046491980553e+08 9.81291141235419273059e-01 -1.83093291282126591213e-01 -1.27461970974343920607e-03 -1.24740007248231969672e-02 -1.27461970974343920607e-03 -1.24740007248231969672e-02 9.99913161170068676142e-01 -8.49843776324530350910e-04
9.94620395462380290031e+08 9.81214820218981875755e-01 -1.83462459745085793017e-01 -1.27981940006355993621e-03 -1.24991518794192405656e-02 -1.27981940006355993621e-03 -1.24991518794192405656e-02 9.99912806919290964025e-01 -8.51557304539923842768e-04
9.94631441878268599510e+08 9.81138033737115278221e-01 -1.83833099562784568759e-01 -1.28505080217421684650e-03 -1.25244032762467667058e-02 -1.28505080217421684650e-03 -1.25244032762467667058e-02 9.99912450508014249984e-01 -8.53277662179046671696e-04
9.94642488294156908989e+08 9.81060778012401102366e-01 -1.84205219447210938322e-01 -1.29031417342792640440e-03 -1.25497555088466116596e-02 -1.29031417342792640440e-03 -1.25497555088466116596e-02 9.99912091918705003835e-01 -8.55004889679365364004e-04
9.94653534710045337677e+08 9.80983049229171566452e-01 -1.84578828178403459015e-01 -1.29560977378310885136e-03 -1.25752091753958405995e-02 -1.29560977378310885136e-03 -1.25752091753958405995e-02 9.99911731133652725845e-01 -8.56739027794208908052e-04
9.94664581125933647156e+08 9.80904843533047410276e-01 -1.84953934605098180288e-01 -1.30093786583556150771e-03 -1.26007648787518165140e-02 -1.30093786583556150771e-03 -1.26007648787518165140e-02 9.99911368134966949128e-01 -8.58480117595771452174e-04
9.94675627541821956635e+08 9.80826157030462608688e-01 -1.85330547645417009761e-01 -1.30629871485085863672e-03 -1.26264232264991210081e-02 -1.30629871485085863672e-03 -1.26264232264991210081e-02 9.99911002904575130223e-01 -8.60228200478308315836e-04
9.94686673957710266113e+08 9.80746985788192193745e-01 -1.85708676287512947090e-01 -1.31169258879648351068e-03 -1.26521848309934827059e-02 -1.31169258879648351068e-03 -1.26521848309934827059e-02 9.99910635424221094780e-01 -8.61983318161130013940e-04
9.94697720373598575592e+08 9.80667325832864866797e-01 -1.86088329590269940805e-01 -1.31711975837509129988e-03 -1.26780503094094821465e-02 -1.31711975837509129988e-03 -1.26780503094094821465e-02 9.99910265675461928936e-01 -8.63745512691851068630e-04
9.94708766789487004280e+08 9.80587173150473057071e-01 -1.86469516683980818250e-01 -1.32258049705781532968e-03 -1.27040202837867283875e-02 -1.32258049705781532968e-03 -1.27040202837867283875e-02 9.99909893639666425003e-01 -8.65514826449536689261e-04
9.94719813205375313759e+08 9.80506523685880315711e-01 -1.86852246771022578731e-01 -1.32807508111789903185e-03 -1.27300953810758708112e-02 -1.32807508111789903185e-03 -1.27300953810758708112e-02 9.99909519298012083866e-01 -8.67291302147837417716e-04
9.94730859621263623238e+08 9.80425373342306727409e-01 -1.87236529126601658479e-01 -1.33360378966569767707e-03 -1.27562762331893658069e-02 -1.33360378966569767707e-03 -1.27562762331893658069e-02 9.99909142631483560670e-01 -8.69074982838447733340e-04
9.94741906037151932716e+08 9.80343717980824758129e-01 -1.87622373099430528320e-01 -1.33916690468307165301e-03 -1.27825634770475770469e-02 -1.33916690468307165301e-03 -1.27825634770475770469e-02 9.99908763620869445177e-01 -8.70865911914246986630e-04
9.94752952453040361404e+08 9.80261553419835229839e-01 -1.88009788112465853205e-01 -1.34476471105904912644e-03 -1.28089577546290720594e-02 -1.34476471105904912644e-03 -1.28089577546290720594e-02 9.99908382246760596423e-01 -8.72664133112725694946e-04
9.94763998868928670883e+08 9.80178875434544960576e-01 -1.88398783663616870010e-01 -1.35039749662544100034e-03 -1.28354597130188752968e-02 -1.35039749662544100034e-03 -1.28354597130188752968e-02 9.99907998489547367171e-01 -8.74469690519273277172e-04
9.94775045284816980362e+08 9.80095679756428084239e-01 -1.88789369326500811042e-01 -1.35606555219353378493e-03 -1.28620700044599321765e-02 -1.35606555219353378493e-03 -1.28620700044599321765e-02 9.99907612329416828345e-01 -8.76282628570684688808e-04
9.94786091700705289841e+08 9.80011962072684705838e-01 -1.89181554751183339524e-01 -1.36176917159096613243e-03 -1.28887892864035652485e-02 -1.36176917159096613243e-03 -1.28887892864035652485e-02 9.99907223746350770632e-01 -8.78102992058596800752e-04
9.94797138116593599319e+08 9.79927718025693561543e-01 -1.89575349664918124670e-01 -1.36750865169900284041e-03 -1.29156182215598540342e-02 -1.36750865169900284041e-03 -1.29156182215598540342e-02 9.99906832720122928926e-01 -8.79930826132921633902e-04
9.94808184532482028008e+08 9.79842943212451134016e-01 -1.89970763872926468041e-01 -1.37328429249079699698e-03 -1.29425574779507453205e-02 -1.37328429249079699698e-03 -1.29425574779507453205e-02 9.99906439230296428811e-01 -8.81766176305464992324e-04
9.94819230948370337486e+08 9.79757633184008214222e-01 -1.90367807259152144184e-01 -1.37909639706972303279e-03 -1.29696077289614911804e-02 -1.37909639706972303279e-03 -1.29696077289614911804e-02 9.99906043256221011006e-01 -8.83609088453429845737e-04
9.94830277364258646965e+08 9.79671783444892696480e-01 -1.90766489787057375027e-01 -1.38494527170873239254e-03 -1.29967696533948729593e-02 -1.38494527170873239254e-03 -1.29967696533948729593e-02 9.99905644777030588877e-01 -8.85459608823111290511e-04
9.94841323780146956444e+08 9.79585389452529597953e-01 -1.91166821500399458644e-01 -1.39083122588986186213e-03 -1.30240439355241068714e-02 -1.39083122588986186213e-03 -1.30240439355241068714e-02 9.99905243771640361850e-01 -8.87317784033500979793e-04
9.94852370196035385132e+08 9.79498446616647755469e-01 -1.91568812524037263012e-01 -1.39675457234462768903e-03 -1.30514312651478000399e-02 -1.39675457234462768903e-03 -1.30514312651478000399e-02 9.99904840218744150881e-01 -8.89183661080030765186e-04
9.94863416611923694611e+08 9.79410950298684523929e-01 -1.91972473064722565228e-01 -1.40271562709464044615e-03 -1.30789323376438552937e-02 -1.40271562709464044615e-03 -1.30789323376438552937e-02 9.99904434096811622901e-01 -8.91057287338245756873e-04
9.94874463027812004089e+08 9.79322895811169491509e-01 -1.92377813411949372124e-01 -1.40871470949353936979e-03 -1.31065478540273380736e-02 -1.40871470949353936979e-03 -1.31065478540273380736e-02 9.99904025384085626271e-01 -8.92938710567746591132e-04
9.94885509443700313568e+08 9.79234278417116077442e-01 -1.92784843938740235725e-01 -1.41475214226845550335e-03 -1.31342785210040464278e-02 -1.41475214226845550335e-03 -1.31342785210040464278e-02 9.99903614058578971147e-01 -8.94827978915838421169e-04
9.94896555859588623047e+08 9.79145093329388704895e-01 -1.93193575102512921093e-01 -1.42082825156314494601e-03 -1.31621250510295627334e-02 -1.42082825156314494601e-03 -1.31621250510295627334e-02 9.99903200098071653912e-01 -8.96725140921555258743e-04
9.94907602275477051735e+08 9.79055335710067198285e-01 -1.93604017445924841967e-01 -1.42694336698126868559e-03 -1.31900881623667736581e-02 -1.42694336698126868559e-03 -1.31900881623667736581e-02 9.99902783480108081626e-01 -8.98630245519577955556e-04
9.94918648691365361214e+08 9.78965000669809182199e-01 -1.94016181597696762973e-01 -1.43309782162985566156e-03 -1.32181685791419954029e-02 -1.43309782162985566156e-03 -1.32181685791419954029e-02 9.99902364181993963399e-01 -9.00543342044058075894e-04
9.94929695107253670692e+08 9.78874083267184058599e-01 -1.94430078273528317290e-01 -1.43929195216463369153e-03 -1.32463670314073456852e-02 -1.43929195216463369153e-03 -1.32463670314073456852e-02 9.99901942180793090742e-01 -9.02464480232867210206e-04
9.94940741523141980171e+08 9.78782578508017864216e-01 -1.94845718276937945879e-01 -1.44552609883473849942e-03 -1.32746842551979653269e-02 -1.44552609883473849942e-03 -1.32746842551979653269e-02 9.99901517453324784057e-01 -9.04393710231496091370e-04
9.94951787939030408859e+08 9.78690481344713258949e-01 -1.95263112500170532559e-01 -1.45180060552895320337e-03 -1.33031209925938628813e-02 -1.45180060552895320337e-03 -1.33031209925938628813e-02 9.99901089976160006856e-01 -9.06331082597266936979e-04
9.94962834354918718338e+08 9.78597786675570957549e-01 -1.95682271925074868779e-01 -1.45811581982201524110e-03 -1.33316779917796827959e-02 -1.45811581982201524110e-03 -1.33316779917796827959e-02 9.99900659725618701223e-01 -9.08276648303406471639e-04
9.94973880770807027817e+08 9.78504489344090067071e-01 -1.96103207624032327416e-01 -1.46447209302223192717e-03 -1.33603560071079915939e-02 -1.46447209302223192717e-03 -1.33603560071079915939e-02 9.99900226677766679195e-01 -9.10230458743356389550e-04
9.94984927186695337296e+08 9.78410584138266536947e-01 -1.96525930760864331326e-01 -1.47086978021931718760e-03 -1.33891557991610860717e-02 -1.47086978021931718760e-03 -1.33891557991610860717e-02 9.99899790808411959020e-01 -9.12192565734985588363e-04
9.94995973602583765984e+08 9.78316065789873512415e-01 -1.96950452591779234801e-01 -1.47730924033337689821e-03 -1.34180781348155163391e-02 -1.47730924033337689821e-03 -1.34180781348155163391e-02 9.99899352093101434491e-01 -9.14163021524985091107e-04
9.95007020018472075462e+08 9.78220928973743353296e-01 -1.97376784466280263963e-01 -1.48379083616386733477e-03 -1.34471237873039321797e-02 -1.48379083616386733477e-03 -1.34471237873039321797e-02 9.99898910507118099389e-01 -9.16141878793082231613e-04
9.95018066434360384941e+08 9.78125168307020786962e-01 -1.97804937828160581903e-01 -1.49031493444044533907e-03 -1.34762935362828881886e-02 -1.49031493444044533907e-03 -1.34762935362828881886e-02 9.99898466025476717611e-01 -9.18129190656659681033e-04
9.95029112850248694420e+08 9.78028778348424610023e-01 -1.98234924216425079102e-01 -1.49688190587328874386e-03 -1.35055881678956355568e-02 -1.49688190587328874386e-03 -1.35055881678956355568e-02 9.99898018622921269660e-01 -9.20125010675033601186e-04
9.95040159266137003899e+08 9.77931753597478858886e-01 -1.98666755266307115679e-01 -1.50349212520545271257e-03 -1.35350084748413982544e-02 -1.50349212520545271257e-03 -1.35350084748413982544e-02 9.99897568273920622772e-01 -9.22129392854173501881e-04
9.95051205682025432587e+08 9.77834088493747755066e-01 -1.99100442710232666821e-01 -1.51014597126502918799e-03 -1.35645552564410461910e-02 -1.51014597126502918799e-03 -1.35645552564410461910e-02 9.99897114952665755361e-01 -9.24142391651176309600e-04
9.95062252097913742065e+08 9.77735777416054441247e-01 -1.99535998378811280096e-01 -1.51684382701832809297e-03 -1.35942293187046332054e-02 -1.51684382701832809297e-03 -1.35942293187046332054e-02 9.99896658633065316124e-01 -9.26164061978867613097e-04
9.95073298513802051544e+08 9.77636814681680732519e-01 -1.99973434201876049121e-01 -1.52358607962443134802e-03 -1.36240314744022188859e-02 -1.52358607962443134802e-03 -1.36240314744022188859e-02 9.99896199288742515421e-01 -9.28194459210627230428e-04
9.95084344929690361023e+08 9.77537194545567089676e-01 -2.00412762209479455855e-01 -1.53037312048970894178e-03 -1.36539625431317413612e-02 -1.53037312048970894178e-03 -1.36539625431317413612e-02 9.99895736893031128467e-01 -9.30233639185012572276e-04
9.95095391345578789711e+08 9.77436911199484836921e-01 -2.00853994532964985620e-01 -1.53720534532414496859e-03 -1.36840233513920127295e-02 -1.53720534532414496859e-03 -1.36840233513920127295e-02 9.99895271418971720578e-01 -9.32281658210731985735e-04
9.95106437761467099190e+08 9.77335958771217261365e-01 -2.01297143405968187446e-01 -1.54408315419723388834e-03 -1.37142147326509179772e-02 -1.54408315419723388834e-03 -1.37142147326509179772e-02 9.99894802839307983433e-01 -9.34338573071291644823e-04
9.95117484177355408669e+08 9.77234331323706184591e-01 -2.01742221165513324621e-01 -1.55100695159602198873e-03 -1.37445375274201364579e-02 -1.55100695159602198873e-03 -1.37445375274201364579e-02 9.99894331126482405203e-01 -9.36404441030085879678e-04
9.95128530593243718147e+08 9.77132022854195869677e-01 -2.02189240253089097532e-01 -1.55797714648350988688e-03 -1.37749925833284270205e-02 -1.55797714648350988688e-03 -1.37749925833284270205e-02 9.99893856252632717840e-01 -9.38479319835389277048e-04
9.95139577009132027626e+08 9.77029027293364604745e-01 -2.02638213215725088157e-01 -1.56499415235776019595e-03 -1.38055807551949634437e-02 -1.56499415235776019595e-03 -1.38055807551949634437e-02 9.99893378189587678229e-01 -9.40563267725354635457e-04
9.95150623425020456314e+08 9.76925338504443185883e-01 -2.03089152707087106098e-01 -1.57205838731199940526e-03 -1.38363029051039605061e-02 -1.57205838731199940526e-03 -1.38363029051039605061e-02 9.99892896908862849337e-01 -9.42656343433095596576e-04
9.95161669840908765793e+08 9.76820950282314193203e-01 -2.03542071488605119667e-01 -1.57917027409595466664e-03 -1.38671599024815222351e-02 -1.57917027409595466664e-03 -1.38671599024815222351e-02 9.99892412381656603415e-01 -9.44758606191923016454e-04
9.95172716256797075272e+08 9.76715856352601941026e-01 -2.03996982430597550984e-01 -1.58633024017785996714e-03 -1.38981526241722351533e-02 -1.58633024017785996714e-03 -1.38981526241722351533e-02 9.99891924578846014171e-01 -9.46870115740563447412e-04
9.95183762672685384750e+08 9.76610050370746218817e-01 -2.04453898513418913518e-01 -1.59353871780757664484e-03 -1.39292819545173574697e-02 -1.59353871780757664484e-03 -1.39292819545173574697e-02 9.99891433470982082810e-01 -9.48990932328485064379e-04
9.95194809088573813438e+08 9.76503525921064596815e-01 -2.04912832828606922275e-01 -1.60079614408046200409e-03 -1.39605487854329718411e-02 -1.60079614408046200409e-03 -1.39605487854329718411e-02 9.99890939028285963275e-01 -9.51121116721223482798e-04
9.95205855504462122917e+08 9.76396276515798078321e-01 -2.05373798580053862350e-01 -1.60810296100239238926e-03 -1.39919540164897843876e-02 -1.60810296100239238926e-03 -1.39919540164897843876e-02 9.99890441220644077269e-01 -9.53260730205817514646e-04
9.95216901920350432396e+08 9.76288295594138544331e-01 -2.05836809085205796332e-01 -1.61545961555601162371e-03 -1.40234985549948405759e-02 -1.61545961555601162371e-03 -1.40234985549948405759e-02 9.99889940017603784383e-01 -9.55409834596376221320e-04
9.95227948336238741875e+08 9.76179576521247982512e-01 -2.06301877776249087404e-01 -1.62286655976758031374e-03 -1.40551833160723338434e-02 -1.62286655976758031374e-03 -1.40551833160723338434e-02 9.99889435388369052227e-01 -9.57568492239585576480e-04
9.95238994752127051353e+08 9.76070112587256510928e-01 -2.06769018201332449580e-01 -1.63032425077520447439e-03 -1.40870092227469018153e-02 -1.63032425077520447439e-03 -1.40870092227469018153e-02 9.99888927301795349400e-01 -9.59736766020381662327e-04
9.95250041168015480042e+08 9.75959897006247856233e-01 -2.07238244025795159686e-01 -1.63783315089798767877e-03 -1.41189772060272642623e-02 -1.63783315089798767877e-03 -1.41189772060272642623e-02 9.99888415726385315629e-01 -9.61914719367650645696e-04
9.95261087583903789520e+08 9.75848922915229621822e-01 -2.07709569033403124161e-01 -1.64539372770615530302e-03 -1.41510882049904630070e-02 -1.64539372770615530302e-03 -1.41510882049904630070e-02 9.99887900630283654735e-01 -9.64102416259966159100e-04
9.95272133999792098999e+08 9.75737183373080019244e-01 -2.08183007127633656896e-01 -1.65300645409282112065e-03 -1.41833431668693804584e-02 -1.65300645409282112065e-03 -1.41833431668693804584e-02 9.99887381981272471698e-01 -9.66299921231553496891e-04
9.95283180415680408478e+08 9.75624671359489381572e-01 -2.08658572332928837767e-01 -1.66067180834612426049e-03 -1.42157430471381348441e-02 -1.66067180834612426049e-03 -1.42157430471381348441e-02 9.99886859746766609724e-01 -9.68507299378106468329e-04
9.95294226831568837166e+08 9.75511379773874032217e-01 -2.09136278796007935021e-01 -1.66839027422320280297e-03 -1.42482888096014861240e-02 -1.66839027422320280297e-03 -1.42482888096014861240e-02 9.99886333893807877082e-01 -9.70724616362878987494e-04
9.95305273247457146645e+08 9.75397301434285712851e-01 -2.09616140787142635205e-01 -1.67616234102448483090e-03 -1.42809814264817300233e-02 -1.67616234102448483090e-03 -1.42809814264817300233e-02 9.99885804389060606212e-01 -9.72951938422605033981e-04
9.95316319663345456123e+08 9.75282429076281265345e-01 -2.10098172701545377050e-01 -1.68398850367072446324e-03 -1.43138218785132699529e-02 -1.68398850367072446324e-03 -1.43138218785132699529e-02 9.99885271198806435677e-01 -9.75189332373941741156e-04
9.95327366079233765602e+08 9.75166755351806968655e-01 -2.10582389060634783684e-01 -1.69186926277899900642e-03 -1.43468111550288431738e-02 -1.69186926277899900642e-03 -1.43468111550288431738e-02 9.99884734288938537006e-01 -9.77436865619343711944e-04
9.95338412495122075081e+08 9.75050272828029918060e-01 -2.11068804513465158035e-01 -1.69980512474231693250e-03 -1.43799502540569012349e-02 -1.69980512474231693250e-03 -1.43799502540569012349e-02 9.99884193624956951751e-01 -9.79694606153697902448e-04
