! File generated for n1 = 4, n2 = 13
! b1 = 10.000000
! b2 = 0.001000
! Q0 = 10000.000000
! f0 = 1000000000.000000
! n = 1001
! rel_span = 10.000000
# Hz S RI R 50
9.94499500000000000000e+08 9.82098005959101127971e-01 -1.79515013147697077844e-01 -1.79019940408988245412e-04 -1.79515013147697006721e-03 -1.79019940408988245412e-04 -1.79515013147697006721e-03 9.99998209800595949659e-01 -1.79515013147696966063e-05
9.94510501000000000000e+08 9.82026695245781122701e-01 -1.79868634588821629805e-01 -1.79733047542189161138e-04 -1.79868634588821571692e-03 -1.79733047542189161138e-04 -1.79868634588821571692e-03 9.99998202669524549613e-01 -1.79868634588821499863e-05
9.94521502000000000000e+08 9.81954959823898465565e-01 -1.80223633581857889396e-01 -1.80450401761015022340e-04 -1.80223633581857826946e-03 -1.80450401761015022340e-04 -1.80223633581857826946e-03 9.99998195495982344916e-01 -1.80223633581857753763e-05
9.94532503000000000000e+08 9.81882796327236073708e-01 -1.80580018103571104948e-01 -1.81172036727639138238e-04 -1.80580018103571027753e-03 -1.81172036727639138238e-04 -1.80580018103571027753e-03 9.99998188279632715947e-01 -1.80580018103570965411e-05
9.94543504000000000000e+08 9.81810201356279943496e-01 -1.80937796191711491867e-01 -1.81897986437200867528e-04 -1.80937796191711435488e-03 -1.81897986437200867528e-04 -1.80937796191711435488e-03 9.99998181020135601393e-01 -1.80937796191711355528e-05
9.94554505000000000000e+08 9.81737171477829684285e-01 -1.81296975945566957167e-01 -1.82628285221703514935e-04 -1.81296975945566892115e-03 -1.82628285221703514935e-04 -1.81296975945566892115e-03 9.99998173717147831319e-01 -1.81296975945566833839e-05
9.94565506000000000000e+08 9.81663703224593842123e-01 -1.81657565526568892667e-01 -1.83362967754061115819e-04 -1.81657565526568845829e-03 -1.83362967754061115819e-04 -1.81657565526568845829e-03 9.99998166370322461027e-01 -1.81657565526568797040e-05
9.94576507000000000000e+08 9.81589793094788332084e-01 -1.82019573158863412488e-01 -1.84102069052116977315e-04 -1.82019573158863335292e-03 -1.84102069052116977315e-04 -1.82019573158863335292e-03 9.99998158979309437200e-01 -1.82019573158863266174e-05
9.94587508000000000000e+08 9.81515437551721992016e-01 -1.82383007129919422207e-01 -1.84845624482780180676e-04 -1.82383007129919357155e-03 -1.84845624482780180676e-04 -1.82383007129919357155e-03 9.99998151543755153803e-01 -1.82383007129919293458e-05
9.94598509000000000000e+08 9.81440633023382469347e-01 -1.82747875791122116329e-01 -1.85593669766175175346e-04 -1.82747875791122054746e-03 -1.85593669766175175346e-04 -1.82747875791122054746e-03 9.99998144063302341067e-01 -1.82747875791121986984e-05
9.94609510000000000000e+08 9.81365375902012115894e-01 -1.83114187558387403465e-01 -1.86346240979878895270e-04 -1.83114187558387352291e-03 -1.86346240979878895270e-04 -1.83114187558387352291e-03 9.99998136537590176509e-01 -1.83114187558387287239e-05
9.94620511000000000000e+08 9.81289662543680551998e-01 -1.83481950912772556750e-01 -1.87103374563194494113e-04 -1.83481950912772490830e-03 -1.87103374563194494113e-04 -1.83481950912772490830e-03 9.99998128966254395955e-01 -1.83481950912772406805e-05
9.94631512000000000000e+08 9.81213489267848903985e-01 -1.83851174401106348677e-01 -1.87865107321510867991e-04 -1.83851174401106296635e-03 -1.87865107321510867991e-04 -1.83851174401106296635e-03 9.99998121348926738428e-01 -1.83851174401106226162e-05
9.94642513000000000000e+08 9.81136852356930266872e-01 -1.84221866636613773593e-01 -1.88631476430697008189e-04 -1.84221866636613703337e-03 -1.88631476430697008189e-04 -1.84221866636613703337e-03 9.99998113685235723302e-01 -1.84221866636613624733e-05
9.94653514000000000000e+08 9.81059748055841174263e-01 -1.84594036299562391790e-01 -1.89402519441588511068e-04 -1.84594036299562348422e-03 -1.89402519441588511068e-04 -1.84594036299562348422e-03 9.99998105974805540086e-01 -1.84594036299562275238e-05
9.94664515000000000000e+08 9.80982172571553290297e-01 -1.84967692137882500081e-01 -1.90178274284467013549e-04 -1.84967692137882454978e-03 -1.90178274284467013549e-04 -1.84967692137882454978e-03 9.99998098217257158637e-01 -1.84967692137882400768e-05
9.94675516000000000000e+08 9.80904122072626449835e-01 -1.85342842967858051351e-01 -1.90958779273735381301e-04 -1.85342842967857988901e-03 -1.90958779273735381301e-04 -1.85342842967857988901e-03 9.99998090412207218947e-01 -1.85342842967857919783e-05
9.94686517000000000000e+08 9.80825592688752467829e-01 -1.85719497674737221704e-01 -1.91744073112474962836e-04 -1.85719497674737151448e-03 -1.91744073112474962836e-04 -1.85719497674737151448e-03 9.99998082559268919312e-01 -1.85719497674737089106e-05
9.94697518000000000000e+08 9.80746580510272414344e-01 -1.86097665213449697807e-01 -1.92534194897275357829e-04 -1.86097665213449622347e-03 -1.92534194897275357829e-04 -1.86097665213449622347e-03 9.99998074658051017138e-01 -1.86097665213449568137e-05
9.94708519000000000000e+08 9.80667081587704880796e-01 -1.86477354609245304928e-01 -1.93329184122950859187e-04 -1.86477354609245241611e-03 -1.93329184122950859187e-04 -1.86477354609245241611e-03 9.99998066708158717120e-01 -1.86477354609245183335e-05
9.94719520000000000000e+08 9.80587091931258036936e-01 -1.86858574958385370568e-01 -1.94129080687419227312e-04 -1.86858574958385318526e-03 -1.94129080687419227312e-04 -1.86858574958385318526e-03 9.99998058709193116123e-01 -1.86858574958385242632e-05
9.94730521000000000000e+08 9.80506607510335803646e-01 -1.87241335428838306942e-01 -1.94933924896641504925e-04 -1.87241335428838255768e-03 -1.94933924896641504925e-04 -1.87241335428838255768e-03 9.99998050660750981145e-01 -1.87241335428838186650e-05
9.94741522000000000000e+08 9.80425624253038807687e-01 -1.87625645260973611395e-01 -1.95743757469612301514e-04 -1.87625645260973547210e-03 -1.95743757469612301514e-04 -1.87625645260973547210e-03 9.99998042562425304425e-01 -1.87625645260973478092e-05
9.94752523000000000000e+08 9.80344138045657897962e-01 -1.88011513768263721635e-01 -1.96558619543421174338e-04 -1.88011513768263668726e-03 -1.96558619543421174338e-04 -1.88011513768263668726e-03 9.99998034413804526288e-01 -1.88011513768263588766e-05
9.94763524000000000000e+08 9.80262144732158891003e-01 -1.88398950338005688465e-01 -1.97378552678410584733e-04 -1.88398950338005614739e-03 -1.97378552678410584733e-04 -1.88398950338005614739e-03 9.99998026214473201279e-01 -1.88398950338005570016e-05
9.94774525000000000000e+08 9.80179640113661987399e-01 -1.88787964432037685958e-01 -1.98203598863379661967e-04 -1.88787964432037620906e-03 -1.98203598863379661967e-04 -1.88787964432037620906e-03 9.99998017964011332026e-01 -1.88787964432037540946e-05
9.94785526000000000000e+08 9.80096619947910530080e-01 -1.89178565587479141641e-01 -1.99033800520894842319e-04 -1.89178565587479067048e-03 -1.99033800520894842319e-04 -1.89178565587479067048e-03 9.99998009661994813335e-01 -1.89178565587478995219e-05
9.94796527000000000000e+08 9.80013079948738874414e-01 -1.89570763417448329147e-01 -1.99869200512610997820e-04 -1.89570763417448262360e-03 -1.99869200512610997820e-04 -1.89570763417448262360e-03 9.99998001307994877074e-01 -1.89570763417448204084e-05
9.94807528000000000000e+08 9.79929015785523938042e-01 -1.89964567611831419702e-01 -2.00709842144760562113e-04 -1.89964567611831361589e-03 -2.00709842144760562113e-04 -1.89964567611831361589e-03 9.99997992901578536262e-01 -1.89964567611831288405e-05
9.94818529000000000000e+08 9.79844423082634863320e-01 -1.90359987938026858911e-01 -2.01555769173650814940e-04 -1.90359987938026821615e-03 -2.01555769173650814940e-04 -1.90359987938026821615e-03 9.99997984442308252007e-01 -1.90359987938026760628e-05
9.94829530000000000000e+08 9.79759297418870356289e-01 -1.90757034241724660051e-01 -2.02407025811296231114e-04 -1.90757034241724595866e-03 -2.02407025811296231114e-04 -1.90757034241724595866e-03 9.99997975929741933498e-01 -1.90757034241724524038e-05
9.94840531000000000000e+08 9.79673634326893694180e-01 -1.91155716447661994106e-01 -2.03263656731062809921e-04 -1.91155716447661931656e-03 -2.03263656731062809921e-04 -1.91155716447661931656e-03 9.99997967363432715970e-01 -1.91155716447661866604e-05
9.94851532000000000000e+08 9.79587429292656075575e-01 -1.91556044560408700317e-01 -2.04125707073438958025e-04 -1.91556044560408636132e-03 -2.04125707073438958025e-04 -1.91556044560408636132e-03 9.99997958742929293763e-01 -1.91556044560408558883e-05
9.94862533000000000000e+08 9.79500677754807647091e-01 -1.91958028665176971828e-01 -2.04993222451922978318e-04 -1.91958028665176910245e-03 -2.04993222451922978318e-04 -1.91958028665176910245e-03 9.99997950067775476235e-01 -1.91958028665176854680e-05
9.94873534000000000000e+08 9.79413375104107530866e-01 -1.92361678928607338079e-01 -2.05866248958924734705e-04 -1.92361678928607286905e-03 -2.05866248958924734705e-04 -1.92361678928607286905e-03 9.99997941337510409809e-01 -1.92361678928607198814e-05
9.94884535000000000000e+08 9.79325516682821750614e-01 -1.92767005599577129216e-01 -2.06744833171782296539e-04 -1.92767005599577055490e-03 -2.06744833171782296539e-04 -1.92767005599577055490e-03 9.99997932551668244905e-01 -1.92767005599576974175e-05
9.94895536000000000000e+08 9.79237097784109722376e-01 -1.93174019010035113997e-01 -2.07629022158902561569e-04 -1.93174019010035054149e-03 -2.07629022158902561569e-04 -1.93174019010035054149e-03 9.99997923709778357981e-01 -1.93174019010034998583e-05
9.94906537000000000000e+08 9.79148113651406082347e-01 -1.93582729575821677059e-01 -2.08518863485939202548e-04 -1.93582729575821630222e-03 -2.08518863485939202548e-04 -1.93582729575821630222e-03 9.99997914811365129495e-01 -1.93582729575821554328e-05
9.94917538000000000000e+08 9.79058559477791301440e-01 -1.93993147797510451236e-01 -2.09414405222087382421e-04 -1.93993147797510393122e-03 -2.09414405222087382421e-04 -1.93993147797510393122e-03 9.99997905855947832876e-01 -1.93993147797510305031e-05
9.94928539000000000000e+08 9.78968430405355083401e-01 -1.94405284261250116407e-01 -2.10315695946449295007e-04 -1.94405284261250053957e-03 -2.10315695946449295007e-04 -1.94405284261250053957e-03 9.99997896843040523507e-01 -1.94405284261249975352e-05
9.94939540000000000000e+08 9.78877721524543886744e-01 -1.94819149639646693739e-01 -2.11222784754560763930e-04 -1.94819149639646619146e-03 -2.11222784754560763930e-04 -1.94819149639646619146e-03 9.99997887772152482810e-01 -1.94819149639646552739e-05
9.94950541000000000000e+08 9.78786427873508446673e-01 -1.95234754692611256477e-01 -2.12135721264915781551e-04 -1.95234754692611193160e-03 -2.12135721264915781551e-04 -1.95234754692611193160e-03 9.99997878642787330072e-01 -1.95234754692611133528e-05
9.94961542000000000000e+08 9.78694544437435975937e-01 -1.95652110268241946622e-01 -2.13054555625640288340e-04 -1.95652110268241868560e-03 -2.13054555625640288340e-04 -1.95652110268241868560e-03 9.99997869454443688575e-01 -1.95652110268241819771e-05
9.94972543000000000000e+08 9.78602066147868598911e-01 -1.96071227303738077063e-01 -2.13979338521313430842e-04 -1.96071227303738033695e-03 -2.13979338521313430842e-04 -1.96071227303738033695e-03 9.99997860206614741507e-01 -1.96071227303737938828e-05
9.94983544000000000000e+08 9.78508987882022673865e-01 -1.96492116826272378294e-01 -2.14910121179773180031e-04 -1.96492116826272331456e-03 -2.14910121179773180031e-04 -1.96492116826272331456e-03 9.99997850898788231966e-01 -1.96492116826272250141e-05
9.94994545000000000000e+08 9.78415304462088797344e-01 -1.96914789953913593745e-01 -2.15846955379112254245e-04 -1.96914789953913553847e-03 -2.15846955379112254245e-04 -1.96914789953913553847e-03 9.99997841530446240910e-01 -1.96914789953913465755e-05
9.95005546000000000000e+08 9.78321010654522149608e-01 -1.97339257896560038574e-01 -2.16789893454778044221e-04 -1.97339257896559988267e-03 -2.16789893454778044221e-04 -1.97339257896559988267e-03 9.99997832101065409205e-01 -1.97339257896559883913e-05
9.95016547000000000000e+08 9.78226101169326733853e-01 -1.97765531956863610530e-01 -2.17738988306733145025e-04 -1.97765531956863548080e-03 -2.17738988306733145025e-04 -1.97765531956863548080e-03 9.99997822610116937625e-01 -1.97765531956863468120e-05
9.95027548000000000000e+08 9.78130570659324960481e-01 -1.98193623531177282038e-01 -2.18694293406750437476e-04 -1.98193623531177235200e-03 -2.18694293406750437476e-04 -1.98193623531177235200e-03 9.99997813057065920717e-01 -1.98193623531177168793e-05
9.95038549000000000000e+08 9.78034413719419681854e-01 -1.98623544110507421756e-01 -2.19655862805803389626e-04 -1.98623544110507329816e-03 -2.19655862805803389626e-04 -1.98623544110507329816e-03 9.99997803441371901911e-01 -1.98623544110507293224e-05
9.95049550000000000000e+08 9.77937624885840683930e-01 -1.99055305281488542635e-01 -2.20623751141592723763e-04 -1.99055305281488478450e-03 -2.20623751141592723763e-04 -1.99055305281488478450e-03 9.99997793762488540459e-01 -1.99055305281488406622e-05
9.95060551000000000000e+08 9.77840198635382407133e-01 -1.99488918727365738270e-01 -2.21598013646176299467e-04 -1.99488918727365677555e-03 -2.21598013646176299467e-04 -1.99488918727365677555e-03 9.99997784019863500404e-01 -1.99488918727365585398e-05
9.95071552000000000000e+08 9.77742129384631453171e-01 -1.99924396228975398415e-01 -2.22578706153685488894e-04 -1.99924396228975346373e-03 -2.22578706153685488894e-04 -1.99924396228975346373e-03 9.99997774212938450589e-01 -1.99924396228975281321e-05
9.95082553000000000000e+08 9.77643411489178215668e-01 -2.00361749665764560246e-01 -2.23565885108217301223e-04 -2.00361749665764476980e-03 -2.23565885108217301223e-04 -2.00361749665764476980e-03 9.99997764341148953626e-01 -2.00361749665764403796e-05
9.95093554000000000000e+08 9.77544039242823736835e-01 -2.00800991016784780019e-01 -2.24559607571762285790e-04 -2.00800991016784717569e-03 -2.24559607571762285790e-04 -2.00800991016784717569e-03 9.99997754403924243860e-01 -2.00800991016784634898e-05
9.95104555000000000000e+08 9.77444006876765247860e-01 -2.01242132361740183599e-01 -2.25559931232347161446e-04 -2.01242132361740102067e-03 -2.25559931232347161446e-04 -2.01242132361740102067e-03 9.99997744400687671451e-01 -2.01242132361740039726e-05
9.95115556000000000000e+08 9.77343308558773715689e-01 -2.01685185882030854065e-01 -2.26566914412263125007e-04 -2.01685185882030789881e-03 -2.26566914412263125007e-04 -2.01685185882030789881e-03 9.99997734330855925222e-01 -2.01685185882030712631e-05
9.95126557000000000000e+08 9.77241938392363174160e-01 -2.02130163861786227297e-01 -2.27580616076367885439e-04 -2.02130163861786180460e-03 -2.27580616076367885439e-04 -2.02130163861786180460e-03 9.99997724193839254703e-01 -2.02130163861786089658e-05
9.95137558000000000000e+08 9.77139890415941292368e-01 -2.02577078688942563423e-01 -2.28601095840586703359e-04 -2.02577078688942523524e-03 -2.28601095840586703359e-04 -2.02577078688942523524e-03 9.99997713989041581151e-01 -2.02577078688942442209e-05
9.95148559000000000000e+08 9.77037158601947175462e-01 -2.03025942856326718777e-01 -2.29628413980527922283e-04 -2.03025942856326644184e-03 -2.29628413980527922283e-04 -2.03025942856326644184e-03 9.99997703715860164486e-01 -2.03025942856326571001e-05
9.95159560000000000000e+08 9.76933736855978840374e-01 -2.03476768962744608560e-01 -2.30662631440211961633e-04 -2.03476768962744525293e-03 -2.30662631440211961633e-04 -2.03476768962744525293e-03 9.99997693373685603291e-01 -2.03476768962744480570e-05
9.95170561000000000000e+08 9.76829619015905703527e-01 -2.03929569714086988963e-01 -2.31703809840943343113e-04 -2.03929569714086933452e-03 -2.31703809840943343113e-04 -2.03929569714086933452e-03 9.99997682961901612764e-01 -2.03929569714086858913e-05
9.95181562000000000000e+08 9.76724798850969411212e-01 -2.04384357924442289223e-01 -2.32752011490305313248e-04 -2.04384357924442244120e-03 -2.32752011490305313248e-04 -2.04384357924442244120e-03 9.99997672479885135743e-01 -2.04384357924442146542e-05
9.95192563000000000000e+08 9.76619270060865463101e-01 -2.04841146517245970005e-01 -2.33807299391345583661e-04 -2.04841146517245912759e-03 -2.33807299391345583661e-04 -2.04841146517245912759e-03 9.99997661927006120663e-01 -2.04841146517245824667e-05
9.95203564000000000000e+08 9.76513026274816842154e-01 -2.05299948526411868421e-01 -2.34869737251831216338e-04 -2.05299948526411774746e-03 -2.34869737251831216338e-04 -2.05299948526411774746e-03 9.99997651302627521552e-01 -2.05299948526411712405e-05
9.95214565000000000000e+08 9.76406061050627882558e-01 -2.05760777097509839351e-01 -2.35939389493721460647e-04 -2.05760777097509792513e-03 -2.35939389493721460647e-04 -2.05760777097509792513e-03 9.99997640606105075989e-01 -2.05760777097509715264e-05
9.95225566000000000000e+08 9.76298367873729255884e-01 -2.06223645488923246205e-01 -2.37016321262707892192e-04 -2.06223645488923159469e-03 -2.37016321262707892192e-04 -2.06223645488923159469e-03 9.99997629836787416124e-01 -2.06223645488923109325e-05
9.95236567000000000000e+08 9.76189940156203750377e-01 -2.06688567073046086664e-01 -2.38100598437962420340e-04 -2.06688567073046039826e-03 -2.38100598437962420340e-04 -2.06688567073046039826e-03 9.99997618994015624594e-01 -2.06688567073045974774e-05
9.95247568000000000000e+08 9.76080771235793953622e-01 -2.07155555337504820868e-01 -2.39192287642060340182e-04 -2.07155555337504770561e-03 -2.39192287642060340182e-04 -2.07155555337504770561e-03 9.99997608077123567583e-01 -2.07155555337504685180e-05
9.95258569000000000000e+08 9.75970854374903939998e-01 -2.07624623886352915880e-01 -2.40291456250960278008e-04 -2.07624623886352825675e-03 -2.40291456250960278008e-04 -2.07624623886352825675e-03 9.99997597085437450737e-01 -2.07624623886352766043e-05
9.95269570000000000000e+08 9.75860182759577199363e-01 -2.08095786441317376347e-01 -2.41398172404228055160e-04 -2.08095786441317301754e-03 -2.41398172404228055160e-04 -2.08095786441317301754e-03 9.99997586018275930186e-01 -2.08095786441317219084e-05
9.95280571000000000000e+08 9.75748749498458134433e-01 -2.08569056843059930095e-01 -2.42512505015418059363e-04 -2.08569056843059845094e-03 -2.42512505015418059363e-04 -2.08569056843059845094e-03 9.99997574874949890500e-01 -2.08569056843059788173e-05
9.95291572000000000000e+08 9.75636547621746674785e-01 -2.09044449052416647650e-01 -2.43634523782532678602e-04 -2.09044449052416588669e-03 -2.43634523782532678602e-04 -2.09044449052416588669e-03 9.99997563654762222640e-01 -2.09044449052416507354e-05
9.95302573000000000000e+08 9.75523570080119473147e-01 -2.09521977151720856236e-01 -2.44764299198805396467e-04 -2.09521977151720792051e-03 -2.44764299198805396467e-04 -2.09521977151720792051e-03 9.99997552357008046009e-01 -2.09521977151720732420e-05
9.95313574000000000000e+08 9.75409809743654765413e-01 -2.10001655346056526064e-01 -2.45901902563451740889e-04 -2.10001655346056439327e-03 -2.45901902563451740889e-04 -2.10001655346056439327e-03 9.99997540980974375380e-01 -2.10001655346056376986e-05
9.95324575000000000000e+08 9.75295259400723923982e-01 -2.10483497964598614827e-01 -2.47047405992760536839e-04 -2.10483497964598529825e-03 -2.47047405992760536839e-04 -2.10483497964598529825e-03 9.99997529525940120898e-01 -2.10483497964598460707e-05
9.95335576000000000000e+08 9.75179911756868911255e-01 -2.10967519461949498671e-01 -2.48200882431310763856e-04 -2.10967519461949422344e-03 -2.48200882431310763856e-04 -2.10967519461949422344e-03 9.99997517991175643992e-01 -2.10967519461949354581e-05
9.95346577000000000000e+08 9.75063759433668408860e-01 -2.11453734419470129602e-01 -2.49362405663316403625e-04 -2.11453734419470061948e-03 -2.49362405663316403625e-04 -2.11453734419470061948e-03 9.99997506375943312484e-01 -2.11453734419469977922e-05
9.95357578000000000000e+08 9.74946794967580299129e-01 -2.11942157546646886557e-01 -2.50532050324196720308e-04 -2.11942157546646811964e-03 -2.50532050324196720308e-04 -2.11942157546646811964e-03 9.99997494679496723435e-01 -2.11942157546646740135e-05
