! File generated for n1 = 8, n2 = 1
! b1 = 0.464159
! b2 = 0.464159
! Q0 = 10000.000000
! f0 = 1000000000.000000
! n = 1001
! rel_span = 10.000000
# Hz S RI R 50
9.99035841116638779640e+08 9.95238083225707281798e-01 -4.76421461195298961977e-02 -4.76191677429270519145e-03 -4.76421461195298961977e-02 -4.76191677429270519145e-03 -4.76421461195298961977e-02 9.95238083225707281798e-01 -4.76421461195298961977e-02
9.99037769434405446053e+08 9.95219158850308427411e-01 -4.77357721382436414603e-02 -4.78084114969153269048e-03 -4.77357721382436414603e-02 -4.78084114969153269048e-03 -4.77357721382436414603e-02 9.95219158850308427411e-01 -4.77357721382436414603e-02
9.99039697752172231674e+08 9.95200121856120500929e-01 -4.78297628596425911107e-02 -4.79987814387955197964e-03 -4.78297628596425911107e-02 -4.79987814387955197964e-03 -4.78297628596425911107e-02 9.95200121856120500929e-01 -4.78297628596425911107e-02
9.99041626069938898087e+08 9.95180971350910659190e-01 -4.79241203953738592602e-02 -4.81902864908931825860e-03 -4.79241203953738592602e-02 -4.81902864908931825860e-03 -4.79241203953738592602e-02 9.95180971350910659190e-01 -4.79241203953738592602e-02
9.99043554387705683708e+08 9.95161706433612569533e-01 -4.80188468732817771989e-02 -4.83829356638748164093e-03 -4.80188468732817771989e-02 -4.83829356638748164093e-03 -4.80188468732817771989e-02 9.95161706433612569533e-01 -4.80188468732817771989e-02
9.99045482705472350121e+08 9.95142326194243809212e-01 -4.81139444374464111953e-02 -4.85767380575618818589e-03 -4.81139444374464111953e-02 -4.85767380575618818589e-03 -4.81139444374464111953e-02 9.95142326194243809212e-01 -4.81139444374464111953e-02
9.99047411023239135742e+08 9.95122829713781076322e-01 -4.82094152484356941457e-02 -4.87717028621892541296e-03 -4.82094152484356941457e-02 -4.87717028621892541296e-03 -4.82094152484356941457e-02 9.95122829713781076322e-01 -4.82094152484356941457e-02
9.99049339341005802155e+08 9.95103216064065931867e-01 -4.83052614833930915594e-02 -4.89678393593406639794e-03 -4.83052614833930915594e-02 -4.89678393593406639794e-03 -4.83052614833930915594e-02 9.95103216064065931867e-01 -4.83052614833930915594e-02
9.99051267658772587776e+08 9.95083484307686116921e-01 -4.84014853362445679474e-02 -4.91651569231385098674e-03 -4.84014853362445679474e-02 -4.91651569231385098674e-03 -4.84014853362445679474e-02 9.95083484307686116921e-01 -4.84014853362445679474e-02
9.99053195976539254189e+08 9.95063633497873079037e-01 -4.84980890178196080709e-02 -4.93636650212694264722e-03 -4.84980890178196080709e-02 -4.93636650212694264722e-03 -4.84980890178196080709e-02 9.95063633497873079037e-01 -4.84980890178196080709e-02
9.99055124294306039810e+08 9.95043662678383400433e-01 -4.85950747560427165350e-02 -4.95633732161660563870e-03 -4.85950747560427165350e-02 -4.95633732161660563870e-03 -4.85950747560427165350e-02 9.95043662678383400433e-01 -4.85950747560427165350e-02
9.99057052612072706223e+08 9.95023570883391439423e-01 -4.86924447960687747927e-02 -4.97642911660853368844e-03 -4.86924447960687747927e-02 -4.97642911660853368844e-03 -4.86924447960687747927e-02 9.95023570883391439423e-01 -4.86924447960687747927e-02
9.99058980929839491844e+08 9.95003357137369537355e-01 -4.87902014004701692351e-02 -4.99664286263051815595e-03 -4.87902014004701692351e-02 -4.99664286263051815595e-03 -4.87902014004701692351e-02 9.95003357137369537355e-01 -4.87902014004701692351e-02
9.99060909247606158257e+08 9.94983020454973110525e-01 -4.88883468493924028264e-02 -5.01697954502688166917e-03 -4.88883468493924028264e-02 -5.01697954502688166917e-03 -4.88883468493924028264e-02 9.94983020454973110525e-01 -4.88883468493924028264e-02
9.99062837565372943878e+08 9.94962559840920302001e-01 -4.89868834407368586303e-02 -5.03744015907974743845e-03 -4.89868834407368586303e-02 -5.03744015907974743845e-03 -4.89868834407368586303e-02 9.94962559840920302001e-01 -4.89868834407368586303e-02
9.99064765883139610291e+08 9.94941974289879182969e-01 -4.90858134902917367381e-02 -5.05802571012082570479e-03 -4.90858134902917367381e-02 -5.05802571012082570479e-03 -4.90858134902917367381e-02 9.94941974289879182969e-01 -4.90858134902917367381e-02
9.99066694200906395912e+08 9.94921262786332749606e-01 -4.91851393319725979647e-02 -5.07873721366725733306e-03 -4.91851393319725979647e-02 -5.07873721366725733306e-03 -4.91851393319725979647e-02 9.94921262786332749606e-01 -4.91851393319725979647e-02
9.99068622518673062325e+08 9.94900424304473340875e-01 -4.92848633179086281775e-02 -5.09957569552665912482e-03 -4.92848633179086281775e-02 -5.09957569552665912482e-03 -4.92848633179086281775e-02 9.94900424304473340875e-01 -4.92848633179086281775e-02
9.99070550836439728737e+08 9.94879457808058087487e-01 -4.93849878187132620977e-02 -5.12054219194191685000e-03 -4.93849878187132620977e-02 -5.12054219194191685000e-03 -4.93849878187132620977e-02 9.94879457808058087487e-01 -4.93849878187132620977e-02
9.99072479154206514359e+08 9.94858362250294336881e-01 -4.94855152236028245083e-02 -5.14163774970565097544e-03 -4.94855152236028245083e-02 -5.14163774970565097544e-03 -4.94855152236028245083e-02 9.94858362250294336881e-01 -4.94855152236028245083e-02
9.99074407471973180771e+08 9.94837136573712976784e-01 -4.95864479405679417501e-02 -5.16286342628698591978e-03 -4.95864479405679417501e-02 -5.16286342628698591978e-03 -4.95864479405679417501e-02 9.94837136573712976784e-01 -4.95864479405679417501e-02
9.99076335789739966393e+08 9.94815779710025660521e-01 -4.96877883966141686845e-02 -5.18422028997430998920e-03 -4.96877883966141686845e-02 -5.18422028997430998920e-03 -4.96877883966141686845e-02 9.94815779710025660521e-01 -4.96877883966141686845e-02
9.99078264107506632805e+08 9.94794290580005791114e-01 -4.97895390378827809585e-02 -5.20570941999425312180e-03 -4.97895390378827809585e-02 -5.20570941999425312180e-03 -4.97895390378827809585e-02 9.94794290580005791114e-01 -4.97895390378827809585e-02
9.99080192425273418427e+08 9.94772668093341749795e-01 -4.98917023298959608213e-02 -5.22733190665829530741e-03 -4.98917023298959608213e-02 -5.22733190665829530741e-03 -4.98917023298959608213e-02 9.94772668093341749795e-01 -4.98917023298959608213e-02
9.99082120743040084839e+08 9.94750911148515326587e-01 -4.99942807576783179724e-02 -5.24908885148472805632e-03 -4.99942807576783179724e-02 -5.24908885148472805632e-03 -4.99942807576783179724e-02 9.94750911148515326587e-01 -4.99942807576783179724e-02
9.99084049060806870461e+08 9.94729018632646955211e-01 -5.00972768260244116778e-02 -5.27098136735301009415e-03 -5.00972768260244116778e-02 -5.27098136735301009415e-03 -5.00972768260244116778e-02 9.94729018632646955211e-01 -5.00972768260244116778e-02
9.99085977378573536873e+08 9.94706989421369813797e-01 -5.02006930596273839851e-02 -5.29301057863018620253e-03 -5.02006930596273839851e-02 -5.29301057863018620253e-03 -5.02006930596273839851e-02 9.94706989421369813797e-01 -5.02006930596273839851e-02
9.99087905696340322495e+08 9.94684822378675614907e-01 -5.03045320033278300920e-02 -5.31517762132439463424e-03 -5.03045320033278300920e-02 -5.31517762132439463424e-03 -5.03045320033278300920e-02 9.94684822378675614907e-01 -5.03045320033278300920e-02
9.99089834014106988907e+08 9.94662516356784265348e-01 -5.04087962222491553499e-02 -5.33748364321575199942e-03 -5.04087962222491553499e-02 -5.33748364321575199942e-03 -5.04087962222491553499e-02 9.94662516356784265348e-01 -5.04087962222491553499e-02
9.99091762331873774529e+08 9.94640070195983327928e-01 -5.05134883020633071449e-02 -5.35992980401664518425e-03 -5.05134883020633071449e-02 -5.35992980401664518425e-03 -5.05134883020633071449e-02 9.94640070195983327928e-01 -5.05134883020633071449e-02
9.99093690649640440941e+08 9.94617482724491352997e-01 -5.06186108491394615161e-02 -5.38251727550864353389e-03 -5.06186108491394615161e-02 -5.38251727550864353389e-03 -5.06186108491394615161e-02 9.94617482724491352997e-01 -5.06186108491394615161e-02
9.99095618967407226562e+08 9.94594752758294675665e-01 -5.07241664908060913008e-02 -5.40524724170533040629e-03 -5.07241664908060913008e-02 -5.40524724170533040629e-03 -5.07241664908060913008e-02 9.94594752758294675665e-01 -5.07241664908060913008e-02
9.99097547285173892975e+08 9.94571879101009193036e-01 -5.08301578754917701697e-02 -5.42812089899078354521e-03 -5.08301578754917701697e-02 -5.42812089899078354521e-03 -5.08301578754917701697e-02 9.94571879101009193036e-01 -5.08301578754917701697e-02
9.99099475602940678596e+08 9.94548860543715051996e-01 -5.09365876729831537628e-02 -5.45113945628493065665e-03 -5.09365876729831537628e-02 -5.45113945628493065665e-03 -5.09365876729831537628e-02 9.94548860543715051996e-01 -5.09365876729831537628e-02
9.99101403920707345009e+08 9.94525695864803105373e-01 -5.10434585746190327971e-02 -5.47430413519688942314e-03 -5.10434585746190327971e-02 -5.47430413519688942314e-03 -5.10434585746190327971e-02 9.94525695864803105373e-01 -5.10434585746190327971e-02
9.99103332238474011421e+08 9.94502383829812819371e-01 -5.11507732935172418354e-02 -5.49761617018715807725e-03 -5.11507732935172418354e-02 -5.49761617018715807725e-03 -5.11507732935172418354e-02 9.94502383829812819371e-01 -5.11507732935172418354e-02
9.99105260556240797043e+08 9.94478923191275177018e-01 -5.12585345647702181338e-02 -5.52107680872480389989e-03 -5.12585345647702181338e-02 -5.52107680872480389989e-03 -5.12585345647702181338e-02 9.94478923191275177018e-01 -5.12585345647702181338e-02
9.99107188874007463455e+08 9.94455312688546366751e-01 -5.13667451456738324844e-02 -5.54468731145365580082e-03 -5.13667451456738324844e-02 -5.54468731145365580082e-03 -5.13667451456738324844e-02 9.94455312688546366751e-01 -5.13667451456738324844e-02
9.99109117191774249077e+08 9.94431551047636919094e-01 -5.14754078159684255733e-02 -5.56844895236306008934e-03 -5.14754078159684255733e-02 -5.56844895236306008934e-03 -5.14754078159684255733e-02 9.94431551047636919094e-01 -5.14754078159684255733e-02
9.99111045509540915489e+08 9.94407636981048392855e-01 -5.15845253780388701692e-02 -5.59236301895155163422e-03 -5.15845253780388701692e-02 -5.59236301895155163422e-03 -5.15845253780388701692e-02 9.94407636981048392855e-01 -5.15845253780388701692e-02
9.99112973827307701111e+08 9.94383569187598848060e-01 -5.16941006571546429749e-02 -5.61643081240119617509e-03 -5.16941006571546429749e-02 -5.61643081240119617509e-03 -5.16941006571546429749e-02 9.94383569187598848060e-01 -5.16941006571546429749e-02
9.99114902145074367523e+08 9.94359346352251094459e-01 -5.18041365016873867066e-02 -5.64065364774891334770e-03 -5.18041365016873867066e-02 -5.64065364774891334770e-03 -5.18041365016873867066e-02 9.94359346352251094459e-01 -5.18041365016873867066e-02
9.99116830462841153145e+08 9.94334967145930503918e-01 -5.19146357833725202724e-02 -5.66503285406949781688e-03 -5.19146357833725202724e-02 -5.66503285406949781688e-03 -5.19146357833725202724e-02 9.94334967145930503918e-01 -5.19146357833725202724e-02
9.99118758780607819557e+08 9.94310430225354813238e-01 -5.20256013975005718319e-02 -5.68956977464515553655e-03 -5.20256013975005718319e-02 -5.68956977464515553655e-03 -5.20256013975005718319e-02 9.94310430225354813238e-01 -5.20256013975005718319e-02
9.99120687098374605179e+08 9.94285734232841278413e-01 -5.21370362632066902675e-02 -5.71426576715874847551e-03 -5.21370362632066902675e-02 -5.71426576715874847551e-03 -5.21370362632066902675e-02 9.94285734232841278413e-01 -5.21370362632066902675e-02
9.99122615416141271591e+08 9.94260877796132036543e-01 -5.22489433236641848124e-02 -5.73912220386792355786e-03 -5.22489433236641848124e-02 -5.73912220386792355786e-03 -5.22489433236641848124e-02 9.94260877796132036543e-01 -5.22489433236641848124e-02
9.99124543733908057213e+08 9.94235859528197485346e-01 -5.23613255463738075379e-02 -5.76414047180255455227e-03 -5.23613255463738075379e-02 -5.76414047180255455227e-03 -5.23613255463738075379e-02 9.94235859528197485346e-01 -5.23613255463738075379e-02
9.99126472051674723625e+08 9.94210678027053540440e-01 -5.24741859233723781375e-02 -5.78932197294645262131e-03 -5.24741859233723781375e-02 -5.78932197294645262131e-03 -5.24741859233723781375e-02 9.94210678027053540440e-01 -5.24741859233723781375e-02
9.99128400369441509247e+08 9.94185331875563682580e-01 -5.25875274715089380262e-02 -5.81466812443627491941e-03 -5.25875274715089380262e-02 -5.81466812443627491941e-03 -5.25875274715089380262e-02 9.94185331875563682580e-01 -5.25875274715089380262e-02
9.99130328687208175659e+08 9.94159819641248998501e-01 -5.27013532326685019136e-02 -5.84018035875096853948e-03 -5.27013532326685019136e-02 -5.84018035875096853948e-03 -5.27013532326685019136e-02 9.94159819641248998501e-01 -5.27013532326685019136e-02
9.99132257004974961281e+08 9.94134139876079014897e-01 -5.28156662740742119388e-02 -5.86586012392103714475e-03 -5.28156662740742119388e-02 -5.86586012392103714475e-03 -5.28156662740742119388e-02 9.94134139876079014897e-01 -5.28156662740742119388e-02
9.99134185322741627693e+08 9.94108291116279740862e-01 -5.29304696885008335583e-02 -5.89170888372026694407e-03 -5.29304696885008335583e-02 -5.89170888372026694407e-03 -5.29304696885008335583e-02 9.94108291116279740862e-01 -5.29304696885008335583e-02
9.99136113640508294106e+08 9.94082271882121837336e-01 -5.30457665945701234422e-02 -5.91772811787815138790e-03 -5.30457665945701234422e-02 -5.91772811787815138790e-03 -5.30457665945701234422e-02 9.94082271882121837336e-01 -5.30457665945701234422e-02
9.99138041958275079727e+08 9.94056080677714115623e-01 -5.31615601370067983322e-02 -5.94391932228588611153e-03 -5.31615601370067983322e-02 -5.94391932228588611153e-03 -5.31615601370067983322e-02 9.94056080677714115623e-01 -5.31615601370067983322e-02
9.99139970276041746140e+08 9.94029715990799145331e-01 -5.32778534868773231969e-02 -5.97028400920086681214e-03 -5.32778534868773231969e-02 -5.97028400920086681214e-03 -5.32778534868773231969e-02 9.94029715990799145331e-01 -5.32778534868773231969e-02
9.99141898593808531761e+08 9.94003176292525991720e-01 -5.33946498419187315365e-02 -5.99682370747404991373e-03 -5.33946498419187315365e-02 -5.99682370747404991373e-03 -5.33946498419187315365e-02 9.94003176292525991720e-01 -5.33946498419187315365e-02
9.99143826911575198174e+08 9.93976460037243603196e-01 -5.35119524267640631066e-02 -6.02353996275642802893e-03 -5.35119524267640631066e-02 -6.02353996275642802893e-03 -5.35119524267640631066e-02 9.93976460037243603196e-01 -5.35119524267640631066e-02
9.99145755229341983795e+08 9.93949565662270662081e-01 -5.36297644932614905877e-02 -6.05043433772933011289e-03 -5.36297644932614905877e-02 -6.05043433772933011289e-03 -5.36297644932614905877e-02 9.93949565662270662081e-01 -5.36297644932614905877e-02
9.99147683547108650208e+08 9.93922491587681866676e-01 -5.37480893207093052277e-02 -6.07750841231816975319e-03 -5.37480893207093052277e-02 -6.07750841231816975319e-03 -5.37480893207093052277e-02 9.93922491587681866676e-01 -5.37480893207093052277e-02
9.99149611864875435829e+08 9.93895236216066457757e-01 -5.38669302161990867783e-02 -6.10476378393356045732e-03 -5.38669302161990867783e-02 -6.10476378393356045732e-03 -5.38669302161990867783e-02 9.93895236216066457757e-01 -5.38669302161990867783e-02
9.99151540182642102242e+08 9.93867797932311169973e-01 -5.39862905148438543268e-02 -6.13220206768881181264e-03 -5.39862905148438543268e-02 -6.13220206768881181264e-03 -5.39862905148438543268e-02 9.93867797932311169973e-01 -5.39862905148438543268e-02
9.99153468500408887863e+08 9.93840175103352541086e-01 -5.41061735801252191580e-02 -6.15982489664746411806e-03 -5.41061735801252191580e-02 -6.15982489664746411806e-03 -5.41061735801252191580e-02 9.93840175103352541086e-01 -5.41061735801252191580e-02
9.99155396818175554276e+08 9.93812366077947428877e-01 -5.42265828041487360500e-02 -6.18763392205254249973e-03 -5.42265828041487360500e-02 -6.18763392205254249973e-03 -5.42265828041487360500e-02 9.93812366077947428877e-01 -5.42265828041487360500e-02
9.99157325135942339897e+08 9.93784369186420768472e-01 -5.43475216079886552789e-02 -6.21563081357927489645e-03 -5.43475216079886552789e-02 -6.21563081357927489645e-03 -5.43475216079886552789e-02 9.93784369186420768472e-01 -5.43475216079886552789e-02
9.99159253453709006310e+08 9.93756182740436422307e-01 -5.44689934419153518053e-02 -6.24381725956357595819e-03 -5.44689934419153518053e-02 -6.24381725956357595819e-03 -5.44689934419153518053e-02 9.93756182740436422307e-01 -5.44689934419153518053e-02
9.99161181771475791931e+08 9.93727805032723843226e-01 -5.45910017858069959718e-02 -6.27219496727614723303e-03 -5.45910017858069959718e-02 -6.27219496727614723303e-03 -5.45910017858069959718e-02 9.93727805032723843226e-01 -5.45910017858069959718e-02
9.99163110089242458344e+08 9.93699234336847148086e-01 -5.47135501493597256606e-02 -6.30076566315290395592e-03 -5.47135501493597256606e-02 -6.30076566315290395592e-03 -5.47135501493597256606e-02 9.93699234336847148086e-01 -5.47135501493597256606e-02
9.99165038407009243965e+08 9.93670468906929338360e-01 -5.48366420724796313491e-02 -6.32953109307064689520e-03 -5.48366420724796313491e-02 -6.32953109307064689520e-03 -5.48366420724796313491e-02 9.93670468906929338360e-01 -5.48366420724796313491e-02
9.99166966724775910378e+08 9.93641506977402499956e-01 -5.49602811255526443879e-02 -6.35849302259749223770e-03 -5.49602811255526443879e-02 -6.35849302259749223770e-03 -5.49602811255526443879e-02 9.93641506977402499956e-01 -5.49602811255526443879e-02
9.99168895042542576790e+08 9.93612346762737130845e-01 -5.50844709097849730139e-02 -6.38765323726287262418e-03 -5.50844709097849730139e-02 -6.38765323726287262418e-03 -5.50844709097849730139e-02 9.93612346762737130845e-01 -5.50844709097849730139e-02
9.99170823360309362411e+08 9.93582986457168915173e-01 -5.52092150575443987859e-02 -6.41701354283105880605e-03 -5.52092150575443987859e-02 -6.41701354283105880605e-03 -5.52092150575443987859e-02 9.93582986457168915173e-01 -5.52092150575443987859e-02
9.99172751678076028824e+08 9.93553424234430271333e-01 -5.53345172326664205831e-02 -6.44657576556968790055e-03 -5.53345172326664205831e-02 -6.44657576556968790055e-03 -5.53345172326664205831e-02 9.93553424234430271333e-01 -5.53345172326664205831e-02
9.99174679995842814445e+08 9.93523658247469021454e-01 -5.54603811308000266278e-02 -6.47634175253095946412e-03 -5.54603811308000266278e-02 -6.47634175253095946412e-03 -5.54603811308000266278e-02 9.93523658247469021454e-01 -5.54603811308000266278e-02
9.99176608313609480858e+08 9.93493686628169503372e-01 -5.55868104797289097618e-02 -6.50631337183044718836e-03 -5.55868104797289097618e-02 -6.50631337183044718836e-03 -5.55868104797289097618e-02 9.93493686628169503372e-01 -5.55868104797289097618e-02
9.99178536631376266479e+08 9.93463507487046260103e-01 -5.57138090397951493693e-02 -6.53649251295369652925e-03 -5.57138090397951493693e-02 -6.53649251295369652925e-03 -5.57138090397951493693e-02 9.93463507487046260103e-01 -5.57138090397951493693e-02
9.99180464949142932892e+08 9.93433118912986135030e-01 -5.58413806041014940118e-02 -6.56688108701383808224e-03 -5.58413806041014940118e-02 -6.56688108701383808224e-03 -5.58413806041014940118e-02 9.93433118912986135030e-01 -5.58413806041014940118e-02
9.99182393266909718513e+08 9.93402518972915204998e-01 -5.59695289990169569938e-02 -6.59748102708482015571e-03 -5.59695289990169569938e-02 -6.59748102708482015571e-03 -5.59695289990169569938e-02 9.93402518972915204998e-01 -5.59695289990169569938e-02
9.99184321584676384926e+08 9.93371705711524000115e-01 -5.60982580844200454107e-02 -6.62829428847595911872e-03 -5.60982580844200454107e-02 -6.62829428847595911872e-03 -5.60982580844200454107e-02 9.93371705711524000115e-01 -5.60982580844200454107e-02
9.99186249902443170547e+08 9.93340677150944095786e-01 -5.62275717541335998129e-02 -6.65932284905587559137e-03 -5.62275717541335998129e-02 -6.65932284905587559137e-03 -5.62275717541335998129e-02 9.93340677150944095786e-01 -5.62275717541335998129e-02
