! File generated for n1 = 4, n2 = 1
! b1 = 10.000000
! b2 = 10.000000
! Q0 = 10000.000000
! f0 = 1000000000.000000
! n = 1001
! rel_span = 10.000000
# Hz S RI R 50
9.89500000000000000000e+08 9.90668782791313651259e-01 -9.38072594071834159335e-02 -9.33121720868640251723e-03 -9.38072594071834159335e-02 -9.33121720868640251723e-03 -9.38072594071834159335e-02 9.90668782791313651259e-01 -9.38072594071834159335e-02
9.89521000000000000000e+08 9.90631516002670520216e-01 -9.39925381045436797445e-02 -9.36848399732942947737e-03 -9.39925381045436797445e-02 -9.36848399732942947737e-03 -9.39925381045436797445e-02 9.90631516002670520216e-01 -9.39925381045436797445e-02
9.89542000000000000000e+08 9.90594027066228788314e-01 -9.41785386056909340491e-02 -9.40597293377117525670e-03 -9.41785386056909340491e-02 -9.40597293377117525670e-03 -9.41785386056909340491e-02 9.90594027066228788314e-01 -9.41785386056909340491e-02
9.89563000000000000000e+08 9.90556314220443434593e-01 -9.43652650905913298329e-02 -9.44368577955660357115e-03 -9.43652650905913298329e-02 -9.44368577955660357115e-03 -9.43652650905913298329e-02 9.90556314220443434593e-01 -9.43652650905913298329e-02
9.89584000000000000000e+08 9.90518375686340601938e-01 -9.45527217711682466117e-02 -9.48162431365939806227e-03 -9.45527217711682466117e-02 -9.48162431365939806227e-03 -9.45527217711682466117e-02 9.90518375686340601938e-01 -9.45527217711682466117e-02
9.89605000000000000000e+08 9.90480209667312427868e-01 -9.47409128915992354569e-02 -9.51979033268752182495e-03 -9.47409128915992354569e-02 -9.51979033268752182495e-03 -9.47409128915992354569e-02 9.90480209667312427868e-01 -9.47409128915992354569e-02
9.89626000000000000000e+08 9.90441814348906324206e-01 -9.49298427286263263314e-02 -9.55818565109362548726e-03 -9.49298427286263263314e-02 -9.55818565109362548726e-03 -9.49298427286263263314e-02 9.90441814348906324206e-01 -9.49298427286263263314e-02
9.89647000000000000000e+08 9.90403187898613923679e-01 -9.51195155918582863075e-02 -9.59681210138603468796e-03 -9.51195155918582863075e-02 -9.59681210138603468796e-03 -9.51195155918582863075e-02 9.90403187898613923679e-01 -9.51195155918582863075e-02
9.89668000000000000000e+08 9.90364328465655141542e-01 -9.53099358240872968073e-02 -9.63567153434489488684e-03 -9.53099358240872968073e-02 -9.63567153434489488684e-03 -9.53099358240872968073e-02 9.90364328465655141542e-01 -9.53099358240872968073e-02
9.89689000000000000000e+08 9.90325234180759461644e-01 -9.55011078016051312423e-02 -9.67476581924049672256e-03 -9.55011078016051312423e-02 -9.67476581924049672256e-03 -9.55011078016051312423e-02 9.90325234180759461644e-01 -9.55011078016051312423e-02
9.89710000000000000000e+08 9.90285903155946334309e-01 -9.56930359345179171182e-02 -9.71409684405361711912e-03 -9.56930359345179171182e-02 -9.71409684405361711912e-03 -9.56930359345179171182e-02 9.90285903155946334309e-01 -9.56930359345179171182e-02
9.89731000000000000000e+08 9.90246333484298690841e-01 -9.58857246670759832963e-02 -9.75366651570130742399e-03 -9.58857246670759832963e-02 -9.75366651570130742399e-03 -9.58857246670759832963e-02 9.90246333484298690841e-01 -9.58857246670759832963e-02
9.89752000000000000000e+08 9.90206523239737124165e-01 -9.60791784779933960570e-02 -9.79347676026291573403e-03 -9.60791784779933960570e-02 -9.79347676026291573403e-03 -9.60791784779933960570e-02 9.90206523239737124165e-01 -9.60791784779933960570e-02
9.89773000000000000000e+08 9.90166470476788407318e-01 -9.62734018807821917418e-02 -9.83352952321159441695e-03 -9.62734018807821917418e-02 -9.83352952321159441695e-03 -9.62734018807821917418e-02 9.90166470476788407318e-01 -9.62734018807821917418e-02
9.89794000000000000000e+08 9.90126173230352457644e-01 -9.64683994240832232148e-02 -9.87382676964754235627e-03 -9.64683994240832232148e-02 -9.87382676964754235627e-03 -9.64683994240832232148e-02 9.90126173230352457644e-01 -9.64683994240832232148e-02
9.89815000000000000000e+08 9.90085629515463305772e-01 -9.66641756920110228890e-02 -9.91437048453665779879e-03 -9.66641756920110228890e-02 -9.91437048453665779879e-03 -9.66641756920110228890e-02 9.90085629515463305772e-01 -9.66641756920110228890e-02
9.89836000000000000000e+08 9.90044837327051396869e-01 -9.68607353044837193767e-02 -9.95516267294863609061e-03 -9.68607353044837193767e-02 -9.95516267294863609061e-03 -9.68607353044837193767e-02 9.90044837327051396869e-01 -9.68607353044837193767e-02
9.89857000000000000000e+08 9.90003794639696677038e-01 -9.70580829175802517472e-02 -9.99620536030330388011e-03 -9.70580829175802517472e-02 -9.99620536030330388011e-03 -9.70580829175802517472e-02 9.90003794639696677038e-01 -9.70580829175802517472e-02
9.89878000000000000000e+08 9.89962499407383456074e-01 -9.72562232238830953746e-02 -1.00375005926165838249e-02 -9.72562232238830953746e-02 -1.00375005926165838249e-02 -9.72562232238830953746e-02 9.89962499407383456074e-01 -9.72562232238830953746e-02
9.89899000000000000000e+08 9.89920949563248719905e-01 -9.74551609528312157149e-02 -1.00790504367512540745e-02 -9.74551609528312157149e-02 -1.00790504367512540745e-02 -9.74551609528312157149e-02 9.89920949563248719905e-01 -9.74551609528312157149e-02
9.89920000000000000000e+08 9.89879143019327556452e-01 -9.76549008710825561241e-02 -1.01208569806723967105e-02 -9.76549008710825561241e-02 -1.01208569806723967105e-02 -9.76549008710825561241e-02 9.89879143019327556452e-01 -9.76549008710825561241e-02
9.89941000000000000000e+08 9.89837077666295583889e-01 -9.78554477828706276155e-02 -1.01629223337043796821e-02 -9.78554477828706276155e-02 -1.01629223337043796821e-02 -9.78554477828706276155e-02 9.89837077666295583889e-01 -9.78554477828706276155e-02
9.89962000000000000000e+08 9.89794751373206826983e-01 -9.80568065303731722926e-02 -1.02052486267931851599e-02 -9.80568065303731722926e-02 -1.02052486267931851599e-02 -9.80568065303731722926e-02 9.89794751373206826983e-01 -9.80568065303731722926e-02
9.89983000000000000000e+08 9.89752161987228595841e-01 -9.82589819940800773823e-02 -1.02478380127714024245e-02 -9.82589819940800773823e-02 -1.02478380127714024245e-02 -9.82589819940800773823e-02 9.89752161987228595841e-01 -9.82589819940800773823e-02
9.90004000000000000000e+08 9.89709307333372145798e-01 -9.84619790931696436953e-02 -1.02906926666279045085e-02 -9.84619790931696436953e-02 -1.02906926666279045085e-02 -9.84619790931696436953e-02 9.89709307333372145798e-01 -9.84619790931696436953e-02
9.90025000000000000000e+08 9.89666185214219451538e-01 -9.86658027858855063430e-02 -1.03338147857805744828e-02 -9.86658027858855063430e-02 -1.03338147857805744828e-02 -9.86658027858855063430e-02 9.89666185214219451538e-01 -9.86658027858855063430e-02
9.90046000000000000000e+08 9.89622793409646761553e-01 -9.88704580699190510584e-02 -1.03772065903532141606e-02 -9.88704580699190510584e-02 -1.03772065903532141606e-02 -9.88704580699190510584e-02 9.89622793409646761553e-01 -9.88704580699190510584e-02
9.90067000000000000000e+08 9.89579129676542712524e-01 -9.90759499828003653565e-02 -1.04208703234573065582e-02 -9.90759499828003653565e-02 -1.04208703234573065582e-02 -9.90759499828003653565e-02 9.89579129676542712524e-01 -9.90759499828003653565e-02
9.90088000000000000000e+08 9.89535191748524001198e-01 -9.92822836022853455473e-02 -1.04648082514760178835e-02 -9.92822836022853455473e-02 -1.04648082514760178835e-02 -9.92822836022853455473e-02 9.89535191748524001198e-01 -9.92822836022853455473e-02
9.90109000000000000000e+08 9.89490977335646171298e-01 -9.94894640467541280238e-02 -1.05090226643537992118e-02 -9.94894640467541280238e-02 -1.05090226643537992118e-02 -9.94894640467541280238e-02 9.89490977335646171298e-01 -9.94894640467541280238e-02
9.90130000000000000000e+08 9.89446484124110070546e-01 -9.96974964756132814303e-02 -1.05535158758899641485e-02 -9.96974964756132814303e-02 -1.05535158758899641485e-02 -9.96974964756132814303e-02 9.89446484124110070546e-01 -9.96974964756132814303e-02
9.90151000000000000000e+08 9.89401709775964199878e-01 -9.99063860896992061988e-02 -1.05982902240357810403e-02 -9.99063860896992061988e-02 -1.05982902240357810403e-02 -9.99063860896992061988e-02 9.89401709775964199878e-01 -9.99063860896992061988e-02
9.90172000000000000000e+08 9.89356651928803287888e-01 -1.00116138131690124435e-01 -1.06433480711967207860e-02 -1.00116138131690124435e-01 -1.06433480711967207860e-02 -1.00116138131690124435e-01 9.89356651928803287888e-01 -1.00116138131690124435e-01
9.90193000000000000000e+08 9.89311308195461536208e-01 -1.00326757886519804530e-01 -1.06886918045384100157e-02 -1.00326757886519804530e-01 -1.06886918045384100157e-02 -1.00326757886519804530e-01 9.89311308195461536208e-01 -1.00326757886519804530e-01
9.90214000000000000000e+08 9.89265676163701979107e-01 -1.00538250681800264696e-01 -1.07343238362979792599e-02 -1.00538250681800264696e-01 -1.07343238362979792599e-02 -1.00538250681800264696e-01 9.89265676163701979107e-01 -1.00538250681800264696e-01
9.90235000000000000000e+08 9.89219753395900958104e-01 -1.00750621888245212032e-01 -1.07802466040990106710e-02 -1.00750621888245212032e-01 -1.07802466040990106710e-02 -1.00750621888245212032e-01 9.89219753395900958104e-01 -1.00750621888245212032e-01
9.90256000000000000000e+08 9.89173537428729043874e-01 -1.00963876920097755940e-01 -1.08264625712709700034e-02 -1.00963876920097755940e-01 -1.08264625712709700034e-02 -1.00963876920097755940e-01 9.89173537428729043874e-01 -1.00963876920097755940e-01
9.90277000000000000000e+08 9.89127025772825185790e-01 -1.01178021235569945424e-01 -1.08729742271747621685e-02 -1.01178021235569945424e-01 -1.08729742271747621685e-02 -1.01178021235569945424e-01 9.89127025772825185790e-01 -1.01178021235569945424e-01
9.90298000000000000000e+08 9.89080215912468307948e-01 -1.01393060337280793703e-01 -1.09197840875316608267e-02 -1.01393060337280793703e-01 -1.09197840875316608267e-02 -1.01393060337280793703e-01 9.89080215912468307948e-01 -1.01393060337280793703e-01
9.90319000000000000000e+08 9.89033105305243243066e-01 -1.01608999772698327391e-01 -1.09668946947568003020e-02 -1.01608999772698327391e-01 -1.09668946947568003020e-02 -1.01608999772698327391e-01 9.89033105305243243066e-01 -1.01608999772698327391e-01
9.90340000000000000000e+08 9.88985691381700005032e-01 -1.01825845134598025332e-01 -1.10143086183000157852e-02 -1.01825845134598025332e-01 -1.10143086183000157852e-02 -1.01825845134598025332e-01 9.88985691381700005032e-01 -1.01825845134598025332e-01
9.90361000000000000000e+08 9.88937971545011285102e-01 -1.02043602061512847512e-01 -1.10620284549887357151e-02 -1.02043602061512847512e-01 -1.10620284549887357151e-02 -1.02043602061512847512e-01 9.88937971545011285102e-01 -1.02043602061512847512e-01
9.90382000000000000000e+08 9.88889943170622953694e-01 -1.02262276238193838829e-01 -1.11100568293770862044e-02 -1.02262276238193838829e-01 -1.11100568293770862044e-02 -1.02262276238193838829e-01 9.88889943170622953694e-01 -1.02262276238193838829e-01
9.90403000000000000000e+08 9.88841603605898455953e-01 -1.02481873396082515115e-01 -1.11583963941015128218e-02 -1.02481873396082515115e-01 -1.11583963941015128218e-02 -1.02481873396082515115e-01 9.88841603605898455953e-01 -1.02481873396082515115e-01
9.90424000000000000000e+08 9.88792950169760320733e-01 -1.02702399313779127454e-01 -1.12070498302396341639e-02 -1.02702399313779127454e-01 -1.12070498302396341639e-02 -1.02702399313779127454e-01 9.88792950169760320733e-01 -1.02702399313779127454e-01
9.90445000000000000000e+08 9.88743980152324453137e-01 -1.02923859817521973214e-01 -1.12560198476755902314e-02 -1.02923859817521973214e-01 -1.12560198476755902314e-02 -1.02923859817521973214e-01 9.88743980152324453137e-01 -1.02923859817521973214e-01
9.90466000000000000000e+08 9.88694690814529320022e-01 -1.03146260781671425533e-01 -1.13053091854706366098e-02 -1.03146260781671425533e-01 -1.13053091854706366098e-02 -1.03146260781671425533e-01 9.88694690814529320022e-01 -1.03146260781671425533e-01
9.90487000000000000000e+08 9.88645079387760472578e-01 -1.03369608129200554747e-01 -1.13549206122394823193e-02 -1.03369608129200554747e-01 -1.13549206122394823193e-02 -1.03369608129200554747e-01 9.88645079387760472578e-01 -1.03369608129200554747e-01
9.90508000000000000000e+08 9.88595143073468518580e-01 -1.03593907832187928642e-01 -1.14048569265314259091e-02 -1.03593907832187928642e-01 -1.14048569265314259091e-02 -1.03593907832187928642e-01 9.88595143073468518580e-01 -1.03593907832187928642e-01
9.90529000000000000000e+08 9.88544879042782098644e-01 -1.03819165912319613665e-01 -1.14551209572179516633e-02 -1.03819165912319613665e-01 -1.14551209572179516633e-02 -1.03819165912319613665e-01 9.88544879042782098644e-01 -1.03819165912319613665e-01
9.90550000000000000000e+08 9.88494284436112757852e-01 -1.04045388441401862045e-01 -1.15057155638872404130e-02 -1.04045388441401862045e-01 -1.15057155638872404130e-02 -1.04045388441401862045e-01 9.88494284436112757852e-01 -1.04045388441401862045e-01
9.90571000000000000000e+08 9.88443356362758485112e-01 -1.04272581541866207755e-01 -1.15566436372414975409e-02 -1.04272581541866207755e-01 -1.15566436372414975409e-02 -1.04272581541866207755e-01 9.88443356362758485112e-01 -1.04272581541866207755e-01
9.90592000000000000000e+08 9.88392091900495373125e-01 -1.04500751387299778417e-01 -1.16079080995046199365e-02 -1.04500751387299778417e-01 -1.16079080995046199365e-02 -1.04500751387299778417e-01 9.88392091900495373125e-01 -1.04500751387299778417e-01
9.90613000000000000000e+08 9.88340488095169611427e-01 -1.04729904202957163628e-01 -1.16595119048304371456e-02 -1.04729904202957163628e-01 -1.16595119048304371456e-02 -1.04729904202957163628e-01 9.88340488095169611427e-01 -1.04729904202957163628e-01
9.90634000000000000000e+08 9.88288541960275823683e-01 -1.04960046266309794949e-01 -1.17114580397242196846e-02 -1.04960046266309794949e-01 -1.17114580397242196846e-02 -1.04960046266309794949e-01 9.88288541960275823683e-01 -1.04960046266309794949e-01
9.90655000000000000000e+08 9.88236250476536515208e-01 -1.05191183907570470768e-01 -1.17637495234634553015e-02 -1.05191183907570470768e-01 -1.17637495234634553015e-02 -1.05191183907570470768e-01 9.88236250476536515208e-01 -1.05191183907570470768e-01
9.90676000000000000000e+08 9.88183610591469419049e-01 -1.05423323510248523327e-01 -1.18163894085305809512e-02 -1.05423323510248523327e-01 -1.18163894085305809512e-02 -1.05423323510248523327e-01 9.88183610591469419049e-01 -1.05423323510248523327e-01
9.90697000000000000000e+08 9.88130619218951178340e-01 -1.05656471511696659071e-01 -1.18693807810488737020e-02 -1.05656471511696659071e-01 -1.18693807810488737020e-02 -1.05656471511696659071e-01 9.88130619218951178340e-01 -1.05656471511696659071e-01
9.90718000000000000000e+08 9.88077273238773590158e-01 -1.05890634403670344521e-01 -1.19227267612263682084e-02 -1.05890634403670344521e-01 -1.19227267612263682084e-02 -1.05890634403670344521e-01 9.88077273238773590158e-01 -1.05890634403670344521e-01
9.90739000000000000000e+08 9.88023569496192188844e-01 -1.06125818732899251939e-01 -1.19764305038077625842e-02 -1.06125818732899251939e-01 -1.19764305038077625842e-02 -1.06125818732899251939e-01 9.88023569496192188844e-01 -1.06125818732899251939e-01
9.90760000000000000000e+08 9.87969504801470166377e-01 -1.06362031101650614251e-01 -1.20304951985298613781e-02 -1.06362031101650614251e-01 -1.20304951985298613781e-02 -1.06362031101650614251e-01 9.87969504801470166377e-01 -1.06362031101650614251e-01
9.90781000000000000000e+08 9.87915075929411856670e-01 -1.06599278168317712634e-01 -1.20849240705881710856e-02 -1.06599278168317712634e-01 -1.20849240705881710856e-02 -1.06599278168317712634e-01 9.87915075929411856670e-01 -1.06599278168317712634e-01
9.90802000000000000000e+08 9.87860279618893000197e-01 -1.06837566647999093750e-01 -1.21397203811069668428e-02 -1.06837566647999093750e-01 -1.21397203811069668428e-02 -1.06837566647999093750e-01 9.87860279618893000197e-01 -1.06837566647999093750e-01
9.90823000000000000000e+08 9.87805112572379573344e-01 -1.07076903313101531867e-01 -1.21948874276204093092e-02 -1.07076903313101531867e-01 -1.21948874276204093092e-02 -1.07076903313101531867e-01 9.87805112572379573344e-01 -1.07076903313101531867e-01
9.90844000000000000000e+08 9.87749571455443509116e-01 -1.07317294993930056890e-01 -1.22504285445564631285e-02 -1.07317294993930056890e-01 -1.22504285445564631285e-02 -1.07317294993930056890e-01 9.87749571455443509116e-01 -1.07317294993930056890e-01
9.90865000000000000000e+08 9.87693652896266094388e-01 -1.07558748579309401694e-01 -1.23063471037339056124e-02 -1.07558748579309401694e-01 -1.23063471037339056124e-02 -1.07558748579309401694e-01 9.87693652896266094388e-01 -1.07558748579309401694e-01
9.90886000000000000000e+08 9.87637353485138369535e-01 -1.07801271017189517765e-01 -1.23626465148616113826e-02 -1.07801271017189517765e-01 -1.23626465148616113826e-02 -1.07801271017189517765e-01 9.87637353485138369535e-01 -1.07801271017189517765e-01
9.90907000000000000000e+08 9.87580669773950425849e-01 -1.08044869315275363086e-01 -1.24193302260495290479e-02 -1.08044869315275363086e-01 -1.24193302260495290479e-02 -1.08044869315275363086e-01 9.87580669773950425849e-01 -1.08044869315275363086e-01
9.90928000000000000000e+08 9.87523598275673597513e-01 -1.08289550541659243543e-01 -1.24764017243264128953e-02 -1.08289550541659243543e-01 -1.24764017243264128953e-02 -1.08289550541659243543e-01 9.87523598275673597513e-01 -1.08289550541659243543e-01
9.90949000000000000000e+08 9.87466135463836103270e-01 -1.08535321825453293099e-01 -1.25338645361639071385e-02 -1.08535321825453293099e-01 -1.25338645361639071385e-02 -1.08535321825453293099e-01 9.87466135463836103270e-01 -1.08535321825453293099e-01
9.90970000000000000000e+08 9.87408277771987141769e-01 -1.08782190357447322571e-01 -1.25917222280129068035e-02 -1.08782190357447322571e-01 -1.25917222280129068035e-02 -1.08782190357447322571e-01 9.87408277771987141769e-01 -1.08782190357447322571e-01
9.90991000000000000000e+08 9.87350021593155768862e-01 -1.09030163390756759667e-01 -1.26499784068441773616e-02 -1.09030163390756759667e-01 -1.26499784068441773616e-02 -1.09030163390756759667e-01 9.87350021593155768862e-01 -1.09030163390756759667e-01
9.91012000000000000000e+08 9.87291363279299560851e-01 -1.09279248241491516724e-01 -1.27086367207004773128e-02 -1.09279248241491516724e-01 -1.27086367207004773128e-02 -1.09279248241491516724e-01 9.87291363279299560851e-01 -1.09279248241491516724e-01
9.91033000000000000000e+08 9.87232299140745062083e-01 -1.09529452289422402078e-01 -1.27677008592548893451e-02 -1.09529452289422402078e-01 -1.27677008592548893451e-02 -1.09529452289422402078e-01 9.87232299140745062083e-01 -1.09529452289422402078e-01
9.91054000000000000000e+08 9.87172825445619905871e-01 -1.09780782978664809280e-01 -1.28271745543800993333e-02 -1.09780782978664809280e-01 -1.28271745543800993333e-02 -1.09780782978664809280e-01 9.87172825445619905871e-01 -1.09780782978664809280e-01
9.91075000000000000000e+08 9.87112938419273611146e-01 -1.10033247818369817050e-01 -1.28870615807264304875e-02 -1.10033247818369817050e-01 -1.28870615807264304875e-02 -1.10033247818369817050e-01 9.87112938419273611146e-01 -1.10033247818369817050e-01
9.91096000000000000000e+08 9.87052634243691828786e-01 -1.10286854383419952175e-01 -1.29473657563081660099e-02 -1.10286854383419952175e-01 -1.29473657563081660099e-02 -1.10286854383419952175e-01 9.87052634243691828786e-01 -1.10286854383419952175e-01
9.91117000000000000000e+08 9.86991909056900595942e-01 -1.10541610315134514186e-01 -1.30080909430993485465e-02 -1.10541610315134514186e-01 -1.30080909430993485465e-02 -1.10541610315134514186e-01 9.86991909056900595942e-01 -1.10541610315134514186e-01
9.91138000000000000000e+08 9.86930758952360265290e-01 -1.10797523321986168821e-01 -1.30692410476397468527e-02 -1.10797523321986168821e-01 -1.30692410476397468527e-02 -1.10797523321986168821e-01 9.86930758952360265290e-01 -1.10797523321986168821e-01
