! File generated for n1 = 1, n2 = 4
! b1 = 100.000000
! b2 = 10.000000
! Q0 = 10000.000000
! f0 = 1000000000.000000
! n = 1001
! rel_span = 10.000000
# Hz S RI R 50
9.44500000000000000000e+08 9.83154818802401742062e-01 -1.73401031438484842795e-01 -5.32691401826533138947e-03 -5.48342207968075395774e-02 -5.32691401826533138947e-03 -5.48342207968075395774e-02 9.98315481880240218615e-01 -1.73401031438484808100e-02
9.44611000000000000000e+08 9.83085844708728062713e-01 -1.73752314604876528792e-01 -5.34872554182080212071e-03 -5.49453062877548956133e-02 -5.34872554182080212071e-03 -5.49453062877548956133e-02 9.98308584470872784067e-01 -1.73752314604876494097e-02
9.44722000000000000000e+08 9.83016456109240377437e-01 -1.74104966098791225093e-01 -5.37066814362381714926e-03 -5.50568244818580437849e-02 -5.37066814362381714926e-03 -5.50568244818580437849e-02 9.98301645610924048846e-01 -1.74104966098791169582e-02
9.44833000000000000000e+08 9.82946649703197006254e-01 -1.74458993850106325318e-01 -5.39274286746058671704e-03 -5.51687778867643793812e-02 -5.39274286746058671704e-03 -5.51687778867643793812e-02 9.98294664970319711728e-01 -1.74458993850106283685e-02
9.44944000000000000000e+08 9.82876422157112461520e-01 -1.74814405849365667178e-01 -5.41495076747174758358e-03 -5.52811690293057433898e-02 -5.41495076747174758358e-03 -5.52811690293057433898e-02 9.98287642215711201743e-01 -1.74814405849365653300e-02
9.45055000000000000000e+08 9.82805770104368758844e-01 -1.75171210148354683511e-01 -5.43729290827540956421e-03 -5.53940004556802423341e-02 -5.43729290827540956421e-03 -5.53940004556802423341e-02 9.98280577010436820373e-01 -1.75171210148354662695e-02
9.45166000000000000000e+08 9.82734690144821176894e-01 -1.75529414860678523169e-01 -5.45977036509167831801e-03 -5.55072747316351089442e-02 -5.45977036509167831801e-03 -5.55072747316351089442e-02 9.98273469014482106587e-01 -1.75529414860678481536e-02
9.45277000000000000000e+08 9.82663178844399132217e-01 -1.75889028162350191664e-01 -5.48238422386912969964e-03 -5.56209944426526853301e-02 -5.48238422386912969964e-03 -5.56209944426526853301e-02 9.98266317884439868813e-01 -1.75889028162350170847e-02
9.45388000000000000000e+08 9.82591232734700281704e-01 -1.76250058292381522884e-01 -5.50513558141278551428e-03 -5.57351621941372665781e-02 -5.50513558141278551428e-03 -5.57351621941372665781e-02 9.98259123273469994864e-01 -1.76250058292381495129e-02
9.45499000000000000000e+08 9.82518848312580073134e-01 -1.76612513553386862863e-01 -5.52802554551428109580e-03 -5.58497806116060313553e-02 -5.52802554551428109580e-03 -5.58497806116060313553e-02 9.98251884831258040620e-01 -1.76612513553386814291e-02
9.45610000000000000000e+08 9.82446022039735300524e-01 -1.76976402312185615573e-01 -5.55105523508331311078e-03 -5.59648523408796047529e-02 -5.55105523508331311078e-03 -5.59648523408796047529e-02 9.98244602203973485643e-01 -1.76976402312185587817e-02
9.45721000000000000000e+08 9.82372750342281553237e-01 -1.77341733000418666499e-01 -5.57422578028137979955e-03 -5.60803800482769301827e-02 -5.57422578028137979955e-03 -5.60803800482769301827e-02 9.98237275034228099813e-01 -1.77341733000418652622e-02
9.45832000000000000000e+08 9.82299029610324891948e-01 -1.77708514115167748315e-01 -5.59753832265715099009e-03 -5.61963664208111959852e-02 -5.59753832265715099009e-03 -5.61963664208111959852e-02 9.98229902961032533604e-01 -1.77708514115167692804e-02
9.45943000000000000000e+08 9.82224856197528084500e-01 -1.78076754219582106264e-01 -5.62099401528373156245e-03 -5.63128141663879616674e-02 -5.62099401528373156245e-03 -5.63128141663879616674e-02 9.98222485619752797348e-01 -1.78076754219582064631e-02
9.46054000000000000000e+08 9.82150226420669625327e-01 -1.78446461943515072290e-01 -5.64459402289803173491e-03 -5.64297260140064482759e-02 -5.64459402289803173491e-03 -5.64297260140064482759e-02 9.98215022642066962533e-01 -1.78446461943515023718e-02
9.46165000000000000000e+08 9.82075136559197536812e-01 -1.78817645984163720030e-01 -5.66833952204185385904e-03 -5.65471047139618765431e-02 -5.66833952204185385904e-03 -5.65471047139618765431e-02 9.98207513655919753681e-01 -1.78817645984163699213e-02
9.46276000000000000000e+08 9.81999582854776620344e-01 -1.79190315106719733063e-01 -5.69223170120518144610e-03 -5.66649530380512189698e-02 -5.69223170120518144610e-03 -5.66649530380512189698e-02 9.98199958285477695341e-01 -1.79190315106719684490e-02
9.46387000000000000000e+08 9.81923561510828935006e-01 -1.79564478145025019362e-01 -5.71627176097136511373e-03 -5.67832737797805686686e-02 -5.71627176097136511373e-03 -5.67832737797805686686e-02 9.98192356151082926807e-01 -1.79564478145024970790e-02
9.46498000000000000000e+08 9.81847068692068281059e-01 -1.79940144002235569154e-01 -5.74046091416437111871e-03 -5.69020697545750617219e-02 -5.74046091416437111871e-03 -5.69020697545750617219e-02 9.98184706869206794799e-01 -1.79940144002235513643e-02
9.46609000000000000000e+08 9.81770100524027800049e-01 -1.80317321651493944756e-01 -5.76480038599820349826e-03 -5.70213437999915265242e-02 -5.76480038599820349826e-03 -5.70213437999915265242e-02 9.98177010052402780005e-01 -1.80317321651493923940e-02
9.46720000000000000000e+08 9.81692653092581357654e-01 -1.80696020136606960715e-01 -5.78929141422827864272e-03 -5.71410987759327776425e-02 -5.78929141422827864272e-03 -5.71410987759327776425e-02 9.98169265309258091357e-01 -1.80696020136606946838e-02
9.46831000000000000000e+08 9.81614722443456599876e-01 -1.81076248572735271081e-01 -5.81393524930523281774e-03 -5.72613375648657121908e-02 -5.81393524930523281774e-03 -5.72613375648657121908e-02 9.98161472244345704397e-01 -1.81076248572735257203e-02
9.46942000000000000000e+08 9.81536304581743346276e-01 -1.81458016147086481640e-01 -5.83873315453061533103e-03 -5.73820630720404539771e-02 -5.83873315453061533103e-03 -5.73820630720404539771e-02 9.98153630458174290219e-01 -1.81458016147086446945e-02
9.47053000000000000000e+08 9.81457395471393434505e-01 -1.81841332119618281915e-01 -5.86368640621496694382e-03 -5.75032782257127589309e-02 -5.86368640621496694382e-03 -5.75032782257127589309e-02 9.98145739547139365655e-01 -1.81841332119618247221e-02
9.47164000000000000000e+08 9.81377991034713126339e-01 -1.82226205823750764257e-01 -5.88879629383819592353e-03 -5.76249859773691960885e-02 -5.88879629383819592353e-03 -5.76249859773691960885e-02 9.98137799103471334838e-01 -1.82226205823750736501e-02
9.47275000000000000000e+08 9.81298087151849851573e-01 -1.82612646667084238539e-01 -5.91406412021211122521e-03 -5.77471893019542090175e-02 -5.91406412021211122521e-03 -5.77471893019542090175e-02 9.98129808715184974055e-01 -1.82612646667084203844e-02
9.47386000000000000000e+08 9.81217679660269959108e-01 -1.83000664132128371131e-01 -5.93949120164546061351e-03 -5.78698911981006328120e-02 -5.93949120164546061351e-03 -5.78698911981006328120e-02 9.98121767966027029217e-01 -1.83000664132128357253e-02
9.47497000000000000000e+08 9.81136764354229473639e-01 -1.83390267777037374586e-01 -5.96507886811120310866e-03 -5.79930946883622164267e-02 -5.96507886811120310866e-03 -5.79930946883622164267e-02 9.98113676435422925159e-01 -1.83390267777037326014e-02
9.47608000000000000000e+08 9.81055336984237857934e-01 -1.83781467236355050554e-01 -5.99082846341628116882e-03 -5.81168028194492466976e-02 -5.99082846341628116882e-03 -5.81168028194492466976e-02 9.98105533698423807998e-01 -1.83781467236355001982e-02
9.47719000000000000000e+08 9.80973393256513004346e-01 -1.84174272221768187130e-01 -6.01674134537381281179e-03 -5.82410186624667189359e-02 -6.01674134537381281179e-03 -5.82410186624667189359e-02 9.98097339325651256026e-01 -1.84174272221768152435e-02
9.47830000000000000000e+08 9.80890928832429009887e-01 -1.84568692522867922046e-01 -6.04281888597774010513e-03 -5.83657453131551789971e-02 -6.04281888597774010513e-03 -5.83657453131551789971e-02 9.98089092883242878784e-01 -1.84568692522867894290e-02
9.47941000000000000000e+08 9.80807939327955846665e-01 -1.84964738007922013807e-01 -6.06906247158013611998e-03 -5.84909858921348890792e-02 -6.06906247158013611998e-03 -5.84909858921348890792e-02 9.98080793932795584666e-01 -1.84964738007921992990e-02
9.48052000000000000000e+08 9.80724420313090372581e-01 -1.85362418624654468058e-01 -6.09547350307098560057e-03 -5.86167435451523874401e-02 -6.09547350307098560057e-03 -5.86167435451523874401e-02 9.98072442031309070565e-01 -1.85362418624654447241e-02
9.48163000000000000000e+08 9.80640367311279681495e-01 -1.85761744401034156748e-01 -6.12205339606057205581e-03 -5.87430214433298722443e-02 -6.12205339606057205581e-03 -5.87430214433298722443e-02 9.98064036731127979252e-01 -1.85761744401034128993e-02
9.48274000000000000000e+08 9.80555775798836237733e-01 -1.86162725446073151758e-01 -6.14880358106456321315e-03 -5.88698227834176524009e-02 -6.14880358106456321315e-03 -5.88698227834176524009e-02 9.98055577579883612671e-01 -1.86162725446073137880e-02
9.48385000000000000000e+08 9.80470641204343018593e-01 -1.86565371950635855436e-01 -6.17572550369189024466e-03 -5.89971507880500123377e-02 -6.17572550369189024466e-03 -5.89971507880500123377e-02 9.98047064120434312962e-01 -1.86565371950635841558e-02
9.48496000000000000000e+08 9.80384958908051995508e-01 -1.86969694188254542677e-01 -6.20282062483518310814e-03 -5.91250087060030959929e-02 -6.20282062483518310814e-03 -5.91250087060030959929e-02 9.98038495890805177346e-01 -1.86969694188254507983e-02
9.48607000000000000000e+08 9.80298724241271957069e-01 -1.87375702515958447725e-01 -6.23009042086426073626e-03 -5.92533998124571276156e-02 -6.23009042086426073626e-03 -5.92533998124571276156e-02 9.98029872424127217911e-01 -1.87375702515958399152e-02
9.48718000000000000000e+08 9.80211932485748227428e-01 -1.87783407375108429838e-01 -6.25753638382219468800e-03 -5.93823274092603325958e-02 -6.25753638382219468800e-03 -5.93823274092603325958e-02 9.98021193248574856050e-01 -1.87783407375108381265e-02
9.48829000000000000000e+08 9.80124578873033502902e-01 -1.88192819292244989393e-01 -6.28516002162447795509e-03 -5.95117948251970979578e-02 -6.28516002162447795509e-03 -5.95117948251970979578e-02 9.98012457887303305881e-01 -1.88192819292244926943e-02
9.48940000000000000000e+08 9.80036658583848474535e-01 -1.88603948879943805750e-01 -6.31296285826100228578e-03 -5.96418054162585267730e-02 -6.31296285826100228578e-03 -5.96418054162585267730e-02 9.98003665858384847454e-01 -1.88603948879943784933e-02
9.49051000000000000000e+08 9.79948166747433790924e-01 -1.89016806837684236964e-01 -6.34094643400116928650e-03 -5.97723625659170518243e-02 -6.34094643400116928650e-03 -5.97723625659170518243e-02 9.97994816674743323581e-01 -1.89016806837684209208e-02
9.49162000000000000000e+08 9.79859098440891806980e-01 -1.89431403952724342066e-01 -6.36911230560184126598e-03 -5.99034696854032142066e-02 -6.36911230560184126598e-03 -5.99034696854032142066e-02 9.97985909844089191800e-01 -1.89431403952724300432e-02
9.49273000000000000000e+08 9.79769448688519006829e-01 -1.89847751100990974615e-01 -6.39746204651864963653e-03 -6.00351302139870562913e-02 -6.39746204651864963653e-03 -6.00351302139870562913e-02 9.97976944868851911785e-01 -1.89847751100990953799e-02
9.49384000000000000000e+08 9.79679212461128656741e-01 -1.90265859247974677970e-01 -6.42599724712009535282e-03 -6.01673476192611522695e-02 -6.42599724712009535282e-03 -6.01673476192611522695e-02 9.97967921246112887879e-01 -1.90265859247974664092e-02
9.49495000000000000000e+08 9.79588384675362022769e-01 -1.90685739449642732701e-01 -6.45471951490533216861e-03 -6.03001253974293424664e-02 -6.45471951490533216861e-03 -6.03001253974293424664e-02 9.97958838467536191175e-01 -1.90685739449642718824e-02
9.49606000000000000000e+08 9.79496960192991261707e-01 -1.91107402853355423655e-01 -6.48363047472468208288e-03 -6.04334670735964599175e-02 -6.48363047472468208288e-03 -6.04334670735964599175e-02 9.97949696019299170580e-01 -1.91107402853355409778e-02
9.49717000000000000000e+08 9.79404933820210210627e-01 -1.91530860698798793829e-01 -6.51273176900385702276e-03 -6.05673762020633235648e-02 -6.51273176900385702276e-03 -6.05673762020633235648e-02 9.97940493382021065472e-01 -1.91530860698798759134e-02
9.49828000000000000000e+08 9.79312300306915628489e-01 -1.91956124318925475114e-01 -6.54202505797129522241e-03 -6.07018563666242086385e-02 -6.54202505797129522241e-03 -6.07018563666242086385e-02 9.97931230030691507338e-01 -1.91956124318925433481e-02
9.49939000000000000000e+08 9.79219054345976558373e-01 -1.92383205140909618880e-01 -6.57151201988915439900e-03 -6.08369111808688967091e-02 -6.57151201988915439900e-03 -6.08369111808688967091e-02 9.97921905434597689144e-01 -1.92383205140909605002e-02
9.50050000000000000000e+08 9.79125190572493697694e-01 -1.92812114687110430777e-01 -6.60119435128755146364e-03 -6.09725442884872723126e-02 -6.60119435128755146364e-03 -6.09725442884872723126e-02 9.97912519057249314258e-01 -1.92812114687110416900e-02
9.50161000000000000000e+08 9.79030703563047000060e-01 -1.93242864576048944958e-01 -6.63107376720248244822e-03 -6.11087593635782980184e-02 -6.63107376720248244822e-03 -6.11087593635782980184e-02 9.97903070356304655597e-01 -1.93242864576048910263e-02
9.50272000000000000000e+08 9.78935587834932063878e-01 -1.93675466523396677676e-01 -6.66115200141733851402e-03 -6.12455601109626046608e-02 -6.66115200141733851402e-03 -6.12455601109626046608e-02 9.97893558783493173081e-01 -1.93675466523396642982e-02
9.50383000000000000000e+08 9.78839837845384863613e-01 -1.94109932342974828012e-01 -6.69143080670798681697e-03 -6.13829502664984746896e-02 -6.69143080670798681697e-03 -6.13829502664984746896e-02 9.97883983784538464157e-01 -1.94109932342974786379e-02
9.50494000000000000000e+08 9.78743447990794268598e-01 -1.94546273947769382540e-01 -6.72191195509185598217e-03 -6.15209335974028631577e-02 -6.72191195509185598217e-03 -6.15209335974028631577e-02 9.97874344799079437962e-01 -1.94546273947769354784e-02
9.50605000000000000000e+08 9.78646412605903681659e-01 -1.94984503350952714795e-01 -6.75259723808039301340e-03 -6.16595139025744240491e-02 -6.75259723808039301340e-03 -6.16595139025744240491e-02 9.97864641260590379268e-01 -1.94984503350952680101e-02
9.50716000000000000000e+08 9.78548725962999466077e-01 -1.95424632666921727076e-01 -6.78348846693567660016e-03 -6.17986950129218171046e-02 -6.78348846693567660016e-03 -6.17986950129218171046e-02 9.97854872596299902199e-01 -1.95424632666921678503e-02
9.50827000000000000000e+08 9.78450382271086938069e-01 -1.95866674112349259396e-01 -6.81458747293100467607e-03 -6.19384807916962196184e-02 -6.81458747293100467607e-03 -6.19384807916962196184e-02 9.97845038227108682705e-01 -1.95866674112349231640e-02
9.50938000000000000000e+08 9.78351375675054701908e-01 -1.96310640007244879834e-01 -6.84589610761521770443e-03 -6.20788751348267248131e-02 -6.84589610761521770443e-03 -6.20788751348267248131e-02 9.97835137567505525702e-01 -1.96310640007244831262e-02
9.51049000000000000000e+08 9.78251700254824885228e-01 -1.96756542776031273512e-01 -6.87741624308129545495e-03 -6.22198819712607778531e-02 -6.87741624308129545495e-03 -6.22198819712607778531e-02 9.97825170025482433012e-01 -1.96756542776031252695e-02
9.51160000000000000000e+08 9.78151350024490939816e-01 -1.97204394948633759954e-01 -6.90914977223905553416e-03 -6.23615052633086433542e-02 -6.90914977223905553416e-03 -6.23615052633086433542e-02 9.97815135002449116186e-01 -1.97204394948633718321e-02
9.51271000000000000000e+08 9.78050318931442674852e-01 -1.97654209161581356780e-01 -6.94109860909197014939e-03 -6.25037490069916823465e-02 -6.94109860909197014939e-03 -6.25037490069916823465e-02 9.97805031893144289690e-01 -1.97654209161581308207e-02
9.51382000000000000000e+08 9.77948600855476302129e-01 -1.98105998159122748126e-01 -6.97326468901832748765e-03 -6.26466172323951880907e-02 -6.97326468901832748765e-03 -6.26466172323951880907e-02 9.97794860085547630213e-01 -1.98105998159122699553e-02
9.51493000000000000000e+08 9.77846189607892157802e-01 -1.98559774794357629668e-01 -7.00564996905688602835e-03 -6.27901140040261485087e-02 -7.00564996905688602835e-03 -6.27901140040261485087e-02 9.97784618960789182474e-01 -1.98559774794357588035e-02
9.51604000000000000000e+08 9.77743078930577436125e-01 -1.99015552030376907666e-01 -7.03825642819660632354e-03 -6.29342434211738466221e-02 -7.03825642819660632354e-03 -6.29342434211738466221e-02 9.97774307893057765817e-01 -1.99015552030376852155e-02
9.51715000000000000000e+08 9.77639262495075045400e-01 -1.99473342941423298358e-01 -7.07108606767132500531e-03 -6.30790096182768655897e-02 -7.07108606767132500531e-03 -6.30790096182768655897e-02 9.97763926249507493438e-01 -1.99473342941423256724e-02
9.51826000000000000000e+08 9.77534733901638142051e-01 -1.99933160714062335694e-01 -7.10414091125876560190e-03 -6.32244167652933480861e-02 -7.10414091125876560190e-03 -6.32244167652933480861e-02 9.97753473390163847512e-01 -1.99933160714062287122e-02
9.51937000000000000000e+08 9.77429486678269121569e-01 -2.00395018648368117287e-01 -7.13742300558423050511e-03 -6.33704690680760157617e-02 -7.13742300558423050511e-03 -6.33704690680760157617e-02 9.97742948667826867748e-01 -2.00395018648368075653e-02
9.52048000000000000000e+08 9.77323514279744398614e-01 -2.00858930159125342874e-01 -7.17093442042915016343e-03 -6.35171707687522679731e-02 -7.17093442042915016343e-03 -6.35171707687522679731e-02 9.97732351427974450964e-01 -2.00858930159125322057e-02
9.52159000000000000000e+08 9.77216810086623421938e-01 -2.01324908777045424868e-01 -7.20467724904444613288e-03 -6.36645261461087491606e-02 -7.20467724904444613288e-03 -6.36645261461087491606e-02 9.97721681008662319989e-01 -2.01324908777045404051e-02
9.52270000000000000000e+08 9.77109367404242035171e-01 -2.01792968149997115068e-01 -7.23865360846874701661e-03 -6.38125395159805097745e-02 -7.23865360846874701661e-03 -6.38125395159805097745e-02 9.97710936740424214619e-01 -2.01792968149997094252e-02
9.52381000000000000000e+08 9.77001179461690294481e-01 -2.02263122044255228005e-01 -7.27286563985183806547e-03 -6.39612152316458709711e-02 -7.27286563985183806547e-03 -6.39612152316458709711e-02 9.97700117946169084959e-01 -2.02263122044255179433e-02
9.52492000000000000000e+08 9.76892239410774076980e-01 -2.02735384345759744873e-01 -7.30731550878283789979e-03 -6.41105576842246061009e-02 -7.30731550878283789979e-03 -6.41105576842246061009e-02 9.97689223941077396596e-01 -2.02735384345759696301e-02
9.52603000000000000000e+08 9.76782540324959702716e-01 -2.03209769061396511303e-01 -7.34200540562400093964e-03 -6.42605713030829500676e-02 -7.34200540562400093964e-03 -6.42605713030829500676e-02 9.97678254032495992476e-01 -2.03209769061396469669e-02
9.52714000000000000000e+08 9.76672075198302458432e-01 -2.03686290320291008005e-01 -7.37693754584959303366e-03 -6.44112605562427026351e-02 -7.37693754584959303366e-03 -6.44112605562427026351e-02 9.97667207519830290252e-01 -2.03686290320290973310e-02
9.52825000000000000000e+08 9.76560836944357801848e-01 -2.04164962375118164140e-01 -7.41211417039014299618e-03 -6.45626299507953832491e-02 -7.41211417039014299618e-03 -6.45626299507953832491e-02 9.97656083694435813491e-01 -2.04164962375118115567e-02
9.52936000000000000000e+08 9.76448818395075024412e-01 -2.04645799603429823232e-01 -7.44753754598227821898e-03 -6.47146840333221035069e-02 -7.44753754598227821898e-03 -6.47146840333221035069e-02 9.97644881839507502441e-01 -2.04645799603429788538e-02
9.53047000000000000000e+08 9.76336012299674149695e-01 -2.05128816508996753010e-01 -7.48320996552397955937e-03 -6.48674273903178943979e-02 -7.48320996552397955937e-03 -6.48674273903178943979e-02 9.97633601229967359458e-01 -2.05128816508996711376e-02
9.53158000000000000000e+08 9.76222411323503069802e-01 -2.05614027723172526629e-01 -7.51913374843587653529e-03 -6.50208646486230279482e-02 -7.51913374843587653529e-03 -6.50208646486230279482e-02 9.97622241132350318082e-01 -2.05614027723172512752e-02
