! File generated for n1 = 1, n2 = 8
! b1 = 100.000000
! b2 = 0.464159
! Q0 = 10000.000000
! f0 = 1000000000.000000
! n = 1001
! rel_span = 10.000000
# Hz S RI R 50
9.49267920558319330215e+08 9.81476994400429236798e-01 -1.90179715471313820485e-01 -1.26195768101037479429e-03 -1.29567931846305724186e-02 -1.26195768101037479429e-03 -1.29567931846305724186e-02 9.99914023824044040367e-01 -8.82736043711305150804e-04
9.49369384717202663422e+08 9.81401360455820603867e-01 -1.90563904156982100169e-01 -1.26711056167171901184e-03 -1.29829676550873331087e-02 -1.26711056167171901184e-03 -1.29829676550873331087e-02 9.99913672762371308345e-01 -8.84519289624703403813e-04
9.49470848876085996628e+08 9.81325272379526936106e-01 -1.90949589454527252075e-01 -1.27229438196459275316e-03 -1.30092440885243108145e-02 -1.27229438196459275316e-03 -1.30092440885243108145e-02 9.99913319592806049130e-01 -8.86309482195077758676e-04
9.49572313034969449043e+08 9.81248726556893102746e-01 -1.91336780036561598939e-01 -1.27750938815259103797e-03 -1.30356230757997029746e-02 -1.27750938815259103797e-03 -1.30356230757997029746e-02 9.99912964298570461352e-01 -8.88106661677128287821e-04
9.49673777193852782249e+08 9.81171719337416203821e-01 -1.91725484642040977512e-01 -1.28275582894156903874e-03 -1.30621052122916452704e-02 -1.28275582894156903874e-03 -1.30621052122916452704e-02 9.99912606862720432233e-01 -8.89910868633495260455e-04
9.49775241352736115456e+08 9.81094247034320576795e-01 -1.92115712076892874993e-01 -1.28803395550864297099e-03 -1.30886910979409881728e-02 -1.28803395550864297099e-03 -1.30886910979409881728e-02 9.99912247268143428158e-01 -8.91722143937673152742e-04
9.49876705511619448662e+08 9.81016305924125808779e-01 -1.92507471214649394931e-01 -1.29334402153156871954e-03 -1.31153813372944377802e-02 -1.29334402153156871954e-03 -1.31153813372944377802e-02 9.99911885497556718327e-01 -8.93540528776949594635e-04
9.49978169670502901077e+08 9.80937892246209641733e-01 -1.92900770997090437175e-01 -1.29868628321856693919e-03 -1.31421765395483679945e-02 -1.29868628321856693919e-03 -1.31421765395483679945e-02 9.99911521533504932258e-01 -8.95366064655390286875e-04
9.50079633829386234283e+08 9.80859002202364438361e-01 -1.93295620434889986461e-01 -1.30406099933850355699e-03 -1.31690773185928512723e-02 -1.30406099933850355699e-03 -1.31690773185928512723e-02 9.99911155358358283429e-01 -8.97198793396838988404e-04
9.50181097988269567490e+08 9.80779631956347430766e-01 -1.93692028608274280366e-01 -1.30946843125155708114e-03 -1.31960842930564994924e-02 -1.30946843125155708114e-03 -1.31960842930564994924e-02 9.99910786954310681907e-01 -8.99038757147972364403e-04
9.50282562147152900696e+08 9.80699777633424973899e-01 -1.94090004667684334905e-01 -1.31490884294026603128e-03 -1.32231980863515997254e-02 -1.31490884294026603128e-03 -1.32231980863515997254e-02 9.99910416303377069802e-01 -9.00885998381375325758e-04
9.50384026306036353111e+08 9.80619435319909693582e-01 -1.94489557834447462925e-01 -1.32038250104103628731e-03 -1.32504193267198710354e-02 -1.32038250104103628731e-03 -1.32504193267198710354e-02 9.99910043387391755942e-01 -9.02740559898657568202e-04
9.50485490464919686317e+08 9.80538601062692971588e-01 -1.94890697401452872572e-01 -1.32588967487603463097e-03 -1.32777486472784849586e-02 -1.32588967487603463097e-03 -1.32777486472784849586e-02 9.99909668188006084399e-01 -9.04602484833590277623e-04
9.50586954623803019524e+08 9.80457270868767993832e-01 -1.95293432733842114990e-01 -1.33143063648563154434e-03 -1.33051866860671042653e-02 -1.33143063648563154434e-03 -1.33051866860671042653e-02 9.99909290686686103022e-01 -9.06471816655309405378e-04
9.50688418782686352730e+08 9.80375440704749356868e-01 -1.95697773269699643039e-01 -1.33700566066119398874e-03 -1.33327340860949425383e-02 -1.33700566066119398874e-03 -1.33327340860949425383e-02 9.99908910864710565036e-01 -9.08348599171522629904e-04
9.50789882941569805145e+08 9.80293106496382904425e-01 -1.96103728520757192300e-01 -1.34261502497841724892e-03 -1.33603914953887379508e-02 -1.34261502497841724892e-03 -1.33603914953887379508e-02 9.99908528703168375529e-01 -9.10232876531777901005e-04
9.50891347100453138351e+08 9.80210264128051345089e-01 -1.96511308073099993932e-01 -1.34825900983104383750e-03 -1.33881595670408710258e-02 -1.34825900983104383750e-03 -1.33881595670408710258e-02 9.99908144182956593049e-01 -9.12124693230741091440e-04
9.50992811259336471558e+08 9.80126909442270655148e-01 -1.96920521587888752713e-01 -1.35393789846516700119e-03 -1.34160389592585631291e-02 -1.35393789846516700119e-03 -1.34160389592585631291e-02 9.99907757284777876094e-01 -9.14024094111548024780e-04
9.51094275418219804764e+08 9.80043038239180597238e-01 -1.97331378802083429180e-01 -1.35965197701392584081e-03 -1.34440303354131703711e-02 -1.35965197701392584081e-03 -1.34440303354131703711e-02 9.99907367989138151643e-01 -9.15931124369163333736e-04
9.51195739577103137970e+08 9.79958646276028355615e-01 -1.97743889529176736231e-01 -1.36540153453271477686e-03 -1.34721343640901713989e-02 -1.36540153453271477686e-03 -1.34721343640901713989e-02 9.99906976276344283683e-01 -9.17845829553785180245e-04
9.51297203735986590385e+08 9.79873729266642956581e-01 -1.98158063659940542056e-01 -1.37118686303495376441e-03 -1.35003517191400069369e-02 -1.37118686303495376441e-03 -1.35003517191400069369e-02 9.99906582126501741747e-01 -9.19768255574309715090e-04
9.51398667894869923592e+08 9.79788282880904803918e-01 -1.98573911163172717176e-01 -1.37700825752825836180e-03 -1.35286830797289713696e-02 -1.37700825752825836180e-03 -1.35286830797289713696e-02 9.99906185519511825355e-01 -9.21698448701798031188e-04
9.51500132053753256798e+08 9.79702302744205666407e-01 -1.98991442086459996430e-01 -1.38286601605122215670e-03 -1.35571291303911781179e-02 -1.38286601605122215670e-03 -1.35571291303911781179e-02 9.99905786435069443563e-01 -9.23636455573016192100e-04
9.51601596212636590004e+08 9.79615784436901559928e-01 -1.99410666556946364336e-01 -1.38876043971068513158e-03 -1.35856905610809170631e-02 -1.38876043971068513158e-03 -1.35856905610809170631e-02 9.99905384852660339412e-01 -9.25582323194003016124e-04
9.51703060371520042419e+08 9.79528723493757746965e-01 -1.99831594782110988362e-01 -1.39469183271954304607e-03 -1.36143680672256468800e-02 -1.39469183271954304607e-03 -1.36143680672256468800e-02 9.99904980751558869478e-01 -9.27536098943679493747e-04
9.51804524530403375626e+08 9.79441115403386630689e-01 -2.00254237050552202914e-01 -1.40066050243505533547e-03 -1.36431623497794141109e-02 -1.40066050243505533547e-03 -1.36431623497794141109e-02 9.99904574110824784228e-01 -9.29497830577489104857e-04
9.51905988689286708832e+08 9.79352955607676212146e-01 -2.00678603732786148273e-01 -1.40666675939778618339e-03 -1.36720741152772558291e-02 -1.40666675939778618339e-03 -1.36720741152772558291e-02 9.99904164909301451658e-01 -9.31467566231103404929e-04
9.52007452848170042038e+08 9.79264239501210664862e-01 -2.01104705282051182680e-01 -1.41271091737105321771e-03 -1.37011040758900134312e-02 -1.41271091737105321771e-03 -1.37011040758900134312e-02 9.99903753125612304586e-01 -9.33445354424157101511e-04
9.52108917007053494453e+08 9.79174962430683470949e-01 -2.01532552235121148465e-01 -1.41879329338094020869e-03 -1.37302529494797310311e-02 -1.41879329338094020869e-03 -1.37302529494797310311e-02 9.99903338738158731225e-01 -9.35431244064021836723e-04
9.52210381165936827660e+08 9.79085119694301342363e-01 -2.01962155213129462838e-01 -1.42491420775690802968e-03 -1.37595214596558049897e-02 -1.42491420775690802968e-03 -1.37595214596558049897e-02 9.99902921725116744511e-01 -9.37425284449632011466e-04
9.52311845324820160866e+08 9.78994706541178927317e-01 -2.02393524922402562316e-01 -1.43107398417298935234e-03 -1.37889103358317666181e-02 -1.43107398417298935234e-03 -1.37889103358317666181e-02 9.99902502064434761664e-01 -9.39427525275352893509e-04
9.52413309483703494072e+08 9.78903718170726078185e-01 -2.02826672155303644463e-01 -1.43727294968958810989e-03 -1.38184203132827570365e-02 -1.43727294968958810989e-03 -1.38184203132827570365e-02 9.99902079733830495556e-01 -9.41438016634896864161e-04
9.52514773642586946487e+08 9.78812149732025460480e-01 -2.03261607791084625285e-01 -1.44351143479586529680e-03 -1.38480521332035848986e-02 -1.44351143479586529680e-03 -1.38480521332035848986e-02 9.99901654710787957114e-01 -9.43456809025278154111e-04
9.52616237801470279694e+08 9.78719996323200946975e-01 -2.03698342796748393946e-01 -1.44978977345274645007e-03 -1.38778065427674554555e-02 -1.44978977345274645007e-03 -1.38778065427674554555e-02 9.99901226972554568739e-01 -9.45483953350814958910e-04
9.52717701960353612900e+08 9.78627252990776685948e-01 -2.04136888227924973016e-01 -1.45610830313660979257e-03 -1.39076842951856745334e-02 -1.45610830313660979257e-03 -1.39076842951856745334e-02 9.99900796496138388747e-01 -9.47519500927195956058e-04
9.52819166119236946106e+08 9.78533914729028064805e-01 -2.04577255229750454291e-01 -1.46246736488350888815e-03 -1.39376861497675277185e-02 -1.46246736488350888815e-03 -1.39376861497675277185e-02 9.99900363258304891723e-01 -9.49563503485560591461e-04
9.52920630278120279312e+08 9.78439976479321016356e-01 -2.05019455037765141459e-01 -1.46886730333416594754e-03 -1.39678128719814640540e-02 -1.46886730333416594754e-03 -1.39678128719814640540e-02 9.99899927235573970918e-01 -9.51616013176667294680e-04
9.53022094437003731728e+08 9.78345433129443775577e-01 -2.05463498978814801399e-01 -1.47530846677952263112e-03 -1.39980652335165017819e-02 -1.47530846677952263112e-03 -1.39980652335165017819e-02 9.99899488404216940651e-01 -9.53677082575076873021e-04
9.53123558595887064934e+08 9.78250279512927423120e-01 -2.05909398471965376931e-01 -1.48179120720700057030e-03 -1.40284440123445465487e-02 -1.48179120720700057030e-03 -1.40284440123445465487e-02 9.99899046740252983589e-01 -9.55746764683398138812e-04
9.53225022754770398140e+08 9.78154510408356769879e-01 -2.06357165029430716929e-01 -1.48831588034747464358e-03 -1.40589499927835995252e-02 -1.48831588034747464358e-03 -1.40589499927835995252e-02 9.99898602219446597239e-01 -9.57825112936594468861e-04
9.53326486913653731346e+08 9.78058120538671249555e-01 -2.06806810257508855155e-01 -1.49488284572290804943e-03 -1.40895839655615379843e-02 -1.49488284572290804943e-03 -1.40895839655615379843e-02 9.99898154817303819186e-01 -9.59912181206329286759e-04
9.53427951072537183762e+08 9.77961104570454931029e-01 -2.07258345857529030498e-01 -1.50149246669468213605e-03 -1.41203467278806470142e-02 -1.50149246669468213605e-03 -1.41203467278806470142e-02 9.99897704509069118473e-01 -9.62008023805361635328e-04
9.53529415231420516968e+08 9.77863457113217315886e-01 -2.07711783626809975978e-01 -1.50814511051264961081e-03 -1.41512390834828919589e-02 -1.50814511051264961081e-03 -1.41512390834828919589e-02 9.99897251269721953904e-01 -9.64112695491994332875e-04
9.53630879390303850174e+08 9.77765172718661368378e-01 -2.08167135459632834937e-01 -1.51484114836495861733e-03 -1.41822618427162126103e-02 -1.51484114836495861733e-03 -1.41822618427162126103e-02 9.99896795073973665424e-01 -9.66226251474590000501e-04
9.53732343549187183380e+08 9.77666245879942552577e-01 -2.08624413348221848796e-01 -1.52158095542856896740e-03 -1.42134158226013378179e-02 -1.52158095542856896740e-03 -1.42134158226013378179e-02 9.99896335896263699361e-01 -9.68348747416122759661e-04
9.53833807708070635796e+08 9.77566671030915657070e-01 -2.09083629383738450747e-01 -1.52836491092053967412e-03 -1.42447018468995090928e-02 -1.52836491092053967412e-03 -1.42447018468995090928e-02 9.99895873710756388775e-01 -9.70480239438792596611e-04
9.53935271866953969002e+08 9.77466442545370850503e-01 -2.09544795757286267390e-01 -1.53519339815007716150e-03 -1.42761207461809432051e-02 -1.53519339815007716150e-03 -1.42761207461809432051e-02 9.99895408491337067680e-01 -9.72620784128689816993e-04
9.54036736025837302208e+08 9.77365554736257968749e-01 -2.10007924760930914099e-01 -1.54206680457139597498e-03 -1.43076733578943252057e-02 -1.54206680457139597498e-03 -1.43076733578943252057e-02 9.99894940211608740377e-01 -9.74770438540528997781e-04
9.54138200184720635414e+08 9.77264001854900143940e-01 -2.10473028788726979066e-01 -1.54898552183730807592e-03 -1.43393605264367628854e-02 -1.54898552183730807592e-03 -1.43393605264367628854e-02 9.99894468844888639758e-01 -9.76929260202415465295e-04
9.54239664343604087830e+08 9.77161778090193111623e-01 -2.10940120337764824843e-01 -1.55594994585372178170e-03 -1.43711831032251116658e-02 -1.55594994585372178170e-03 -1.43711831032251116658e-02 9.99893994364203897440e-01 -9.79097307120704472491e-04
9.54341128502487421036e+08 9.77058877567796302266e-01 -2.11409212009219138473e-01 -1.56296047683480271960e-03 -1.44031419467674087764e-02 -1.56296047683480271960e-03 -1.44031419467674087764e-02 9.99893516742288102073e-01 -9.81274637784867748841e-04
9.54442592661370754242e+08 9.76955294349307723500e-01 -2.11880316509424349025e-01 -1.57001751935918407166e-03 -1.44352379227361393016e-02 -1.57001751935918407166e-03 -1.44352379227361393016e-02 9.99893035951577857645e-01 -9.83461311172484841867e-04
9.54544056820254087448e+08 9.76851022431428850368e-01 -2.12353446650948934904e-01 -1.57712148242681563133e-03 -1.44674719040414380411e-02 -1.57712148242681563133e-03 -1.44674719040414380411e-02 9.99892551964208120552e-01 -9.85657386754231097659e-04
9.54645520979137420654e+08 9.76746055745116303903e-01 -2.12828615353692879308e-01 -1.58427277951682290297e-03 -1.44998447709058370103e-02 -1.58427277951682290297e-03 -1.44998447709058370103e-02 9.99892064752009090967e-01 -9.87862924498969507958e-04
9.54746985138020873070e+08 9.76640388154719985003e-01 -2.13305835645992813987e-01 -1.59147182864617002876e-03 -1.45323574109395853987e-02 -1.59147182864617002876e-03 -1.45323574109395853987e-02 9.99891574286501438884e-01 -9.90077984878882455880e-04
9.54848449296904206276e+08 9.76534013457109106859e-01 -2.13785120665742844892e-01 -1.59871905242924298648e-03 -1.45650107192169826070e-02 -1.59871905242924298648e-03 -1.45650107192169826070e-02 9.99891080538892862428e-01 -9.92302628874671983211e-04
9.54949913455787539482e+08 9.76426925380783683472e-01 -2.14266483661529560933e-01 -1.60601487813835782856e-03 -1.45978055983537295670e-02 -1.60601487813835782856e-03 -1.45978055983537295670e-02 9.99890583480073535938e-01 -9.94536917980830097175e-04
9.55051377614670872688e+08 9.76319117584973583668e-01 -2.14749937993779005385e-01 -1.61335973776515991841e-03 -1.46307429585850572173e-02 -1.61335973776515991841e-03 -1.46307429585850572173e-02 9.99890083080612335209e-01 -9.96780914210960902050e-04
9.55152841773554325104e+08 9.76210583658722930167e-01 -2.15235497135919079392e-01 -1.62075406808299309416e-03 -1.46638237178449183651e-02 -1.62075406808299309416e-03 -1.46638237178449183651e-02 9.99889579310752174557e-01 -9.99034680103176673388e-04
9.55254305932437658310e+08 9.76101317119960842916e-01 -2.15723174675554574264e-01 -1.62819831071019647563e-03 -1.46970488018460538476e-02 -1.62819831071019647563e-03 -1.46970488018460538476e-02 9.99889072140406010014e-01 -1.00129827872555247914e-03
9.55355770091320991516e+08 9.75991311414557638493e-01 -2.16212984315659384471e-01 -1.63569291217442670978e-03 -1.47304191441612070818e-02 -1.63569291217442670978e-03 -1.47304191441612070818e-02 9.99888561539152176394e-01 -1.00357177368165886334e-03
9.55457234250204324722e+08 9.75880559915366707635e-01 -2.16704939875781210645e-01 -1.64323832397793214571e-03 -1.47639356863052042396e-02 -1.64323832397793214571e-03 -1.47639356863052042396e-02 9.99888047476230168442e-01 -1.00585522911615416093e-03
9.55558698409087777138e+08 9.75769055921251182717e-01 -2.17199055293261694688e-01 -1.65083500266385049642e-03 -1.47975993778180769933e-02 -1.65083500266385049642e-03 -1.47975993778180769933e-02 9.99887529920536199946e-01 -1.00814870972044750251e-03
9.55660162567971110344e+08 9.75656792656096394367e-01 -2.17695344624469766526e-01 -1.65848340988350656869e-03 -1.48314111763490890511e-02 -1.65848340988350656869e-03 -1.48314111763490890511e-02 9.99887008840618207728e-01 -1.01045228073842405236e-03
9.55761626726854443550e+08 9.75543763267805341677e-01 -2.18193822046054503039e-01 -1.66618401246482064973e-03 -1.48653720477421053686e-02 -1.66618401246482064973e-03 -1.48653720477421053686e-02 9.99886484204671632803e-01 -1.01276600797225980154e-03
9.55863090885737776756e+08 9.75429960827280617686e-01 -2.18694501856209116974e-01 -1.67393728248171219132e-03 -1.48994829661216830058e-02 -1.67393728248171219132e-03 -1.48994829661216830058e-02 9.99885955980534424370e-01 -1.01508995778828883631e-03
9.55964555044621229172e+08 9.75315378327388571300e-01 -2.19197398475954013941e-01 -1.68174369732464494206e-03 -1.49337449139805098636e-02 -1.68174369732464494206e-03 -1.49337449139805098636e-02 9.99885424135682487901e-01 -1.01742419712295842707e-03
9.56066019203504562378e+08 9.75200008681908592223e-01 -2.19702526450431173677e-01 -1.68960373977219860224e-03 -1.49681588822675685352e-02 -1.68960373977219860224e-03 -1.49681588822675685352e-02 9.99884888637224245045e-01 -1.01976879348883702620e-03
9.56167483362387895584e+08 9.75083844724465187426e-01 -2.20209900450220652512e-01 -1.69751789806385738717e-03 -1.50027258704778475307e-02 -1.69751789806385738717e-03 -1.50027258704778475307e-02 9.99884349451896525807e-01 -1.02212381498072526521e-03
9.56268947521271228790e+08 9.74966879207443293254e-01 -2.20719535272669548087e-01 -1.70548666597388062435e-03 -1.50374468867428678215e-02 -1.70548666597388062435e-03 -1.50374468867428678215e-02 9.99883806546058795384e-01 -1.02448933028182441463e-03
9.56370411680154561996e+08 9.74849104800887489297e-01 -2.21231445843237145565e-01 -1.71351054288632997750e-03 -1.50723229479223300165e-02 -1.71351054288632997750e-03 -1.50723229479223300165e-02 9.99883259885688380209e-01 -1.02686540866997922002e-03
9.56471875839038014412e+08 9.74730514091382227448e-01 -2.21745647216859242956e-01 -1.72159003387131791588e-03 -1.51073550796970747234e-02 -1.72159003387131791588e-03 -1.51073550796970747234e-02 9.99882709436375471945e-01 -1.02925212002401181115e-03
9.56573339997921347618e+08 9.74611099580916295793e-01 -2.22262154579326159931e-01 -1.72972564976240435371e-03 -1.51425443166629501712e-02 -1.72972564976240435371e-03 -1.51425443166629501712e-02 9.99882155163317021263e-01 -1.03164953483011719373e-03
9.56674804156804680824e+08 9.74490853685726854394e-01 -2.22780983248685338083e-01 -1.73791790723533921825e-03 -1.51778917024263815955e-02 -1.73791790723533921825e-03 -1.51778917024263815955e-02 9.99881597031312630008e-01 -1.03405772418837279929e-03
9.56776268315688014030e+08 9.74369768735127816939e-01 -2.23302148676650463743e-01 -1.74616732888787816111e-03 -1.52133982897003656315e-02 -1.74616732888787816111e-03 -1.52133982897003656315e-02 9.99881035004758111917e-01 -1.03647675981928077786e-03
9.56877732474571466446e+08 9.74247836970317471206e-01 -2.23825666450039068023e-01 -1.75447444332103613847e-03 -1.52490651404024197407e-02 -1.75447444332103613847e-03 -1.52490651404024197407e-02 9.99880469047640052516e-01 -1.03890671407043931086e-03
9.56979196633454799652e+08 9.74125050543168558015e-01 -2.24351552292218398010e-01 -1.76283978522148352362e-03 -1.52848933257530832791e-02 -1.76283978522148352362e-03 -1.52848933257530832791e-02 9.99879899123530924143e-01 -1.04134765992325382250e-03
9.57080660792338132858e+08 9.74001401514998033093e-01 -2.24879822064579459884e-01 -1.77126389544541434917e-03 -1.53208839263763475780e-02 -1.77126389544541434917e-03 -1.53208839263763475780e-02 9.99879325195582424612e-01 -1.04379967099978003021e-03
9.57182124951221466064e+08 9.73876881855317289016e-01 -2.25410491768022691605e-01 -1.77974732110364750395e-03 -1.53570380324008701201e-02 -1.77974732110364750395e-03 -1.53570380324008701201e-02 9.99878747226520481206e-01 -1.04626282156961881997e-03
