! File generated for n1 = 1, n2 = 3
! b1 = 100.000000
! b2 = 21.544347
! Q0 = 10000.000000
! f0 = 1000000000.000000
! n = 1001
! rel_span = 10.000000
# Hz S RI R 50
9.38727826549840569496e+08 9.84836878713956753728e-01 -1.56579811225194404090e-01 -7.03809744440144022942e-03 -7.26779103352059169252e-02 -7.03809744440144022942e-03 -7.26779103352059169252e-02 9.96733204549218765322e-01 -3.37340977062202534986e-02
9.38850370896740913391e+08 9.84774580306040148159e-01 -1.56898116636582818373e-01 -7.06701380385520248201e-03 -7.28256546195238108066e-02 -7.06701380385520248201e-03 -7.28256546195238108066e-02 9.96719782764103778838e-01 -3.38026745282522592118e-02
9.38972915243641257286e+08 9.84711907112344575488e-01 -1.57217661784697676497e-01 -7.09610412345764319381e-03 -7.29739743386563222138e-02 -7.09610412345764319381e-03 -7.29739743386563222138e-02 9.96706280233840558047e-01 -3.38715184434652677448e-02
9.39095459590541481972e+08 9.84648856146787543331e-01 -1.57538453854919574537e-01 -7.12536978922542838660e-03 -7.31228728277616701892e-02 -7.12536978922542838660e-03 -7.31228728277616701892e-02 9.96692696315096937631e-01 -3.39406309999025906921e-02
9.39218003937441825867e+08 9.84585424393654262687e-01 -1.57860500087606353548e-01 -7.15481220092945013889e-03 -7.32723534475162724400e-02 -7.15481220092945013889e-03 -7.32723534475162724400e-02 9.96679030358156969882e-01 -3.40100137574520303141e-02
9.39340548284342169762e+08 9.84521608807245374173e-01 -1.58183807778610879824e-01 -7.18443277225801289060e-03 -7.34224195843550392349e-02 -7.18443277225801289060e-03 -7.34224195843550392349e-02 9.96665281706844541354e-01 -3.40796682879574569514e-02
9.39463092631242513657e+08 9.84457406311520677455e-01 -1.58508384279808844930e-01 -7.21423293098261489420e-03 -7.35730746507163996251e-02 -7.21423293098261489420e-03 -7.35730746507163996251e-02 9.96651449698446989522e-01 -3.41495961753324681065e-02
9.39585636978142857552e+08 9.84392813799736643432e-01 -1.58834236999629563325e-01 -7.24421411912579225195e-03 -7.37243220852886321781e-02 -7.24421411912579225195e-03 -7.37243220852886321781e-02 9.96637533663636610015e-01 -3.42197990156747691715e-02
9.39708181325043082237e+08 9.84327828134080262679e-01 -1.59161373403593403575e-01 -7.27437779313133605491e-03 -7.38761653532593043359e-02 -7.27437779313133605491e-03 -7.38761653532593043359e-02 9.96623532926392052822e-01 -3.42902784173819627500e-02
9.39830725671943426132e+08 9.84262446145296898692e-01 -1.59489801014856352745e-01 -7.30472542403698757441e-03 -7.40286079465681257084e-02 -7.30472542403698757441e-03 -7.40286079465681257084e-02 9.96609446803918275215e-01 -3.43610360012688853537e-02
9.39953270018843770027e+08 9.84196664632313034105e-01 -1.59819527414758827399e-01 -7.33525849764935736902e-03 -7.41816533841615916023e-02 -7.33525849764935736902e-03 -7.41816533841615916023e-02 9.96595274606564718312e-01 -3.44320734006858045206e-02
9.40075814365744113922e+08 9.84130480361854576010e-01 -1.60150560243382283909e-01 -7.36597851472142739482e-03 -7.43353052122513874300e-02 -7.36597851472142739482e-03 -7.43353052122513874300e-02 9.96581015637743705682e-01 -3.45033922616383784132e-02
9.40198358712644338608e+08 9.84063890068058721994e-01 -1.60482907200110741508e-01 -7.39688699113243055411e-03 -7.44895670045749719312e-02 -7.39688699113243055411e-03 -7.44895670045749719312e-02 9.96566669193846399466e-01 -3.45749942429086076778e-02
9.40320903059544682503e+08 9.83996890452080719136e-01 -1.60816576044200965079e-01 -7.42798545807043381073e-03 -7.46444423626603376087e-02 -7.42798545807043381073e-03 -7.46444423626603376087e-02 9.96552234564158201380e-01 -3.46468810161776885614e-02
9.40443447406445026398e+08 9.83929478181695515993e-01 -1.61151574595356339437e-01 -7.45927546221725277370e-03 -7.47999349160922699653e-02 -7.45927546221725277370e-03 -7.47999349160922699653e-02 9.96537711030773043497e-01 -3.47190542661496501231e-02
9.40565991753345370293e+08 9.83861649890893863457e-01 -1.61487910734308709459e-01 -7.49075856593607938838e-03 -7.49560483227824508878e-02 -7.49075856593607938838e-03 -7.49560483227824508878e-02 9.96523097868506235741e-01 -3.47915156906766914746e-02
9.40688536100245714188e+08 9.83793402179471532243e-01 -1.61825592403407381159e-01 -7.52243634746182360251e-03 -7.51127862692428649449e-02 -7.52243634746182360251e-03 -7.51127862692428649449e-02 9.96508394344805870091e-01 -3.48642670008860941500e-02
9.40811080447145938873e+08 9.83724731612614644582e-01 -1.62164627607212563642e-01 -7.55431040109391313542e-03 -7.52701524708612318415e-02 -7.55431040109391313542e-03 -7.52701524708612318415e-02 9.96493599719663780689e-01 -3.49373099213080851033e-02
9.40933624794046282768e+08 9.83655634720477012323e-01 -1.62505024413099635749e-01 -7.58638233739221748420e-03 -7.54281506721815181438e-02 -7.58638233739221748420e-03 -7.54281506721815181438e-02 9.96478713245524283515e-01 -3.50106461900059964809e-02
9.41056169140946626663e+08 9.83586107997753589238e-01 -1.62846790951865882935e-01 -7.61865378337531727604e-03 -7.55867846471855175938e-02 -7.61865378337531727604e-03 -7.55867846471855175938e-02 9.96463734167192360935e-01 -3.50842775587070082599e-02
9.41178713487846970558e+08 9.83516147903246040762e-01 -1.63189935418346393492e-01 -7.65112638272179377413e-03 -7.57460581995787196607e-02 -7.65112638272179377413e-03 -7.57460581995787196607e-02 9.96448661721739847863e-01 -3.51582057929348198999e-02
9.41301257834747314453e+08 9.83445750859423428736e-01 -1.63534466072037365514e-01 -7.68380179597444052525e-03 -7.59059751630796475386e-02 -7.68380179597444052525e-03 -7.59059751630796475386e-02 9.96433495138411173819e-01 -3.52324326721439387566e-02
9.41423802181647539139e+08 9.83374913251975790729e-01 -1.63880391237725936415e-01 -7.71668170074729826979e-03 -7.60665394017122215020e-02 -7.71668170074729826979e-03 -7.60665394017122215020e-02 9.96418233638526773532e-01 -3.53069599898553909689e-02
9.41546346528547883034e+08 9.83303631429361946203e-01 -1.64227719306127506460e-01 -7.74976779193568311721e-03 -7.62277548101015223203e-02 -7.74976779193568311721e-03 -7.62277548101015223203e-02 9.96402876435385942422e-01 -3.53817895537940005357e-02
9.41668890875448226929e+08 9.83231901702350419292e-01 -1.64576458734530001182e-01 -7.78306178192918370062e-03 -7.63896253137728714622e-02 -7.78306178192918370062e-03 -7.63896253137728714622e-02 9.96387422734167915728e-01 -3.54569231860272227053e-02
9.41791435222348570824e+08 9.83159720343554033306e-01 -1.64926618047444517590e-01 -7.81656540082760996346e-03 -7.65521548694538117585e-02 -7.81656540082760996346e-03 -7.65521548694538117585e-02 9.96371871731831504349e-01 -3.55323627231052957542e-02
9.41913979569248914719e+08 9.83087083586957510839e-01 -1.65278205837267821998e-01 -7.85028039666045389378e-03 -7.67153474653816669360e-02 -7.85028039666045389378e-03 -7.67153474653816669360e-02 9.96356222617013176368e-01 -3.56081100162039948520e-02
9.42036523916149139404e+08 9.83013987627438634576e-01 -1.65631230764946707490e-01 -7.88420853560895147638e-03 -7.68792071216117950394e-02 -7.88420853560895147638e-03 -7.68792071216117950394e-02 9.96340474569924250403e-01 -3.56841669312677328696e-02
9.42159068263049483299e+08 9.82940428620282080630e-01 -1.65985701560655368736e-01 -7.91835160223188297413e-03 -7.70437378903321146151e-02 -7.91835160223188297413e-03 -7.70437378903321146151e-02 9.96324626762246090550e-01 -3.57605353491555269518e-02
9.42281612609949827194e+08 9.82866402680687034632e-01 -1.66341627024475163799e-01 -7.95271139969406549997e-03 -7.72089438561785607051e-02 -7.95271139969406549997e-03 -7.72089438561785607051e-02 9.96308678357023524974e-01 -3.58372171657874369344e-02
9.42404156956850171089e+08 9.82791905883266481148e-01 -1.66699016027088420255e-01 -7.98728974999879035024e-03 -7.73748291365571189138e-02 -7.98728974999879035024e-03 -7.73748291365571189138e-02 9.96292628508557598366e-01 -3.59142142922940221794e-02
9.42526701303750395775e+08 9.82716934261540164819e-01 -1.67057877510474600546e-01 -8.02208849422305324273e-03 -7.75413978819670252074e-02 -8.02208849422305324273e-03 -7.75413978819670252074e-02 9.96276476362296103950e-01 -3.59915286551663743397e-02
9.42649245650650739670e+08 9.82641483807419668928e-01 -1.67418220488620400621e-01 -8.05710949275676227566e-03 -7.77086542763302523529e-02 -8.05710949275676227566e-03 -7.77086542763302523529e-02 9.96260221054722450162e-01 -3.60691621964090436414e-02
9.42771789997551083565e+08 9.82565550470686388529e-01 -1.67780054048231069830e-01 -8.09235462554477175123e-03 -7.78766025373217735117e-02 -8.09235462554477175123e-03 -7.78766025373217735117e-02 9.96243861713243639144e-01 -3.61471168736933398669e-02
9.42894334344451427460e+08 9.82489130158461398956e-01 -1.68143387349458106605e-01 -8.12782579233321464396e-03 -7.80452469167072920841e-02 -8.12782579233321464396e-03 -7.80452469167072920841e-02 9.96227397456075580706e-01 -3.62253946605140750292e-02
9.43016878691351771355e+08 9.82412218734668551967e-01 -1.68508229626627537012e-01 -8.16352491291864011680e-03 -7.82145917006812352312e-02 -8.16352491291864011680e-03 -7.82145917006812352312e-02 9.96210827392127740154e-01 -3.63039975463464795191e-02
9.43139423038251996040e+08 9.82334812019487912949e-01 -1.68874590188983847439e-01 -8.19945392740155896971e-03 -7.83846412102121581356e-02 -8.19945392740155896971e-03 -7.83846412102121581356e-02 9.96194150620885010561e-01 -3.63829275368064766760e-02
9.43261967385152339935e+08 9.82256905788802980872e-01 -1.69242478421438052871e-01 -8.23561479644317924464e-03 -7.85553998013898552299e-02 -8.23561479644317924464e-03 -7.85553998013898552299e-02 9.96177366232289362991e-01 -3.64621866538118594159e-02
9.43384511732052683830e+08 9.82178495773638693400e-01 -1.69611903785326534333e-01 -8.27200950152618200151e-03 -7.87268718657776617187e-02 -8.27200950152618200151e-03 -7.87268718657776617187e-02 9.96160473306617721967e-01 -3.65417769357457636326e-02
9.43507056078953027725e+08 9.82099577659591882473e-01 -1.69982875819176759702e-01 -8.30864004521910011480e-03 -7.88990618307678498455e-02 -8.30864004521910011480e-03 -7.88990618307678498455e-02 9.96143470914360285029e-01 -3.66217004376216265227e-02
9.43629600425853371620e+08 9.82020147086252404023e-01 -1.70355404139487048853e-01 -8.34550845144509285956e-03 -7.90719741599435199664e-02 -8.34550845144509285956e-03 -7.90719741599435199664e-02 9.96126358116095178552e-01 -3.67019592312511980237e-02
9.43752144772753596306e+08 9.81940199646616607154e-01 -1.70729498441508448225e-01 -8.38261676575402514544e-03 -7.92456133534415879671e-02 -8.38261676575402514544e-03 -7.92456133534415879671e-02 9.96109133962362114367e-01 -3.67825554054130240966e-02
9.43874689119653940201e+08 9.81859730886491255397e-01 -1.71105168500043286484e-01 -8.41996705559928081131e-03 -7.94199839483233777093e-02 -8.41996705559928081131e-03 -7.94199839483233777093e-02 9.96091797493534270025e-01 -3.68634910660243925173e-02
9.43997233466554284096e+08 9.81778736303889454362e-01 -1.71482424170246672279e-01 -8.45756141061807832637e-03 -7.95950905189466983991e-02 -8.45756141061807832637e-03 -7.95950905189466983991e-02 9.96074347739688059633e-01 -3.69447683363141321511e-02
9.44119777813454627991e+08 9.81697211348416809429e-01 -1.71861275388441758771e-01 -8.49540194291633320167e-03 -7.97709376773441808384e-02 -8.49540194291633320167e-03 -7.97709376773441808384e-02 9.96056783720470684251e-01 -3.70263893569981669684e-02
9.44242322160354971886e+08 9.81615151420648812675e-01 -1.72241732172944556067e-01 -8.53349078735781731153e-03 -7.99475300736062349793e-02 -8.53349078735781731153e-03 -7.99475300736062349793e-02 9.96039104444966238994e-01 -3.71083562864572488738e-02
9.44364866507255196571e+08 9.81532551871499125973e-01 -1.72623804624895543780e-01 -8.57183010185726818042e-03 -8.01248723962669079368e-02 -8.57183010185726818042e-03 -8.01248723962669079368e-02 9.96021308911559377641e-01 -3.71906713009161268846e-02
9.44487410854155540466e+08 9.81449408001577650040e-01 -1.73007502929105605460e-01 -8.61042206767840059833e-03 -8.03029693726966670164e-02 -8.61042206767840059833e-03 -8.03029693726966670164e-02 9.96003396107797089876e-01 -3.72733365946257833023e-02
9.44609955201055884361e+08 9.81365715060539378634e-01 -1.73392837354907847214e-01 -8.64926888973590289600e-03 -8.04818257694976946226e-02 -8.64926888973590289600e-03 -8.04818257694976946226e-02 9.95985365010248702156e-01 -3.73563543800469674561e-02
9.44732499547956228256e+08 9.81281468246424148916e-01 -1.73779818257023294104e-01 -8.68837279690240320285e-03 -8.06614463929057334823e-02 -8.68837279690240320285e-03 -8.06614463929057334823e-02 9.95967214584363325081e-01 -3.74397268880366992927e-02
9.44855043894856452942e+08 9.81196662704985067549e-01 -1.74168456076432665025e-01 -8.72773604231957822464e-03 -8.08418360891947490598e-02 -8.72773604231957822464e-03 -8.08418360891947490598e-02 9.95948943784324969286e-01 -3.75234563680360913573e-02
9.44977588241756796837e+08 9.81111293529007610914e-01 -1.74558761341266410749e-01 -8.76736090371477497230e-03 -8.10229997450900157885e-02 -8.76736090371477497230e-03 -8.10229997450900157885e-02 9.95930551552906440094e-01 -3.76075450882620843096e-02
9.45100132588657140732e+08 9.81025355757618289232e-01 -1.74950744667695334833e-01 -8.80724968372139684070e-03 -8.12049422881814947361e-02 -8.80724968372139684070e-03 -8.12049422881814947361e-02 9.95912036821319901492e-01 -3.76919953358993420345e-02
9.45222676935557484627e+08 9.80938844375582985613e-01 -1.75344416760839533209e-01 -8.84740471020491713039e-03 -8.13876686873458154992e-02 -8.84740471020491713039e-03 -8.13876686873458154992e-02 9.95893398509065996826e-01 -3.77768094172960741672e-02
9.45345221282457828522e+08 9.80851754312594303897e-01 -1.75739788415686076783e-01 -8.88782833659361101719e-03 -8.15711839531720744878e-02 -8.88782833659361101719e-03 -8.15711839531720744878e-02 9.95874635523779971891e-01 -3.78619896581617390585e-02
9.45467765629358053207e+08 9.80764080442547925287e-01 -1.76136870518017657483e-01 -8.92852294221432862820e-03 -8.17554931383930594269e-02 -8.92852294221432862820e-03 -8.17554931383930594269e-02 9.95855746761076243700e-01 -3.79475384037671406579e-02
9.45590309976258397102e+08 9.80675817582808195816e-01 -1.76535674045352503070e-01 -8.96949093263337514370e-03 -8.19406013383213449597e-02 -8.96949093263337514370e-03 -8.19406013383213449597e-02 9.95836731104389749625e-01 -3.80334580191468638044e-02
9.45712854323158740997e+08 9.80586960493462944655e-01 -1.76936210067895893783e-01 -9.01073474000262976402e-03 -8.21265136912910503897e-02 -9.01073474000262976402e-03 -8.21265136912910503897e-02 9.95817587424815742203e-01 -3.81197508893043532363e-02
9.45835398670059084892e+08 9.80497503876565534853e-01 -1.77338489749503253057e-01 -9.05225682341099548156e-03 -8.23132353791048571034e-02 -9.05225682341099548156e-03 -8.23132353791048571034e-02 9.95798314580946031249e-01 -3.82064194194193448850e-02
9.45957943016959428787e+08 9.80407442375366700027e-01 -1.77742524348655783761e-01 -9.09405966924128200679e-03 -8.25007716274867991535e-02 -9.09405966924128200679e-03 -8.25007716274867991535e-02 9.95778911418704115732e-01 -3.82934660350580727273e-02
9.46080487363859653473e+08 9.80316770573533946553e-01 -1.78148325219445402556e-01 -9.13614579153235184528e-03 -8.26891277065395502444e-02 -9.13614579153235184528e-03 -8.26891277065395502444e-02 9.95759376771176540899e-01 -3.83808931823855017940e-02
9.46203031710759997368e+08 9.80225482994357855127e-01 -1.78555903812577715373e-01 -9.17851773234746627639e-03 -8.28783089312098014689e-02 -9.17851773234746627639e-03 -8.28783089312098014689e-02 9.95739709458441923928e-01 -3.84687033283813636930e-02
9.46325576057660341263e+08 9.80133574099948612357e-01 -1.78965271676378573362e-01 -9.22117806214740876047e-03 -8.30683206617556096907e-02 -9.22117806214740876047e-03 -8.30683206617556096907e-02 9.95719908287398092206e-01 -3.85568989610570525550e-02
9.46448120404560685158e+08 9.80041038290417443335e-01 -1.79376440457822139418e-01 -9.26412938017035468563e-03 -8.32591683042234742551e-02 -9.26412938017035468563e-03 -8.32591683042234742551e-02 9.95699972051585668886e-01 -3.86454825896770659543e-02
9.46570664751461029053e+08 9.79947869903047052986e-01 -1.79789421903563118033e-01 -9.30737431481674579170e-03 -8.34508573109275231250e-02 -9.30737431481674579170e-03 -8.34508573109275231250e-02 9.95679899531009215963e-01 -3.87344567449814519700e-02
9.46693209098361253738e+08 9.79854063211448411685e-01 -1.80204227860989690813e-01 -9.35091552404100460893e-03 -8.36433931809382608114e-02 -9.35091552404100460893e-03 -8.36433931809382608114e-02 9.95659689491955490759e-01 -3.88238239794126277493e-02
9.46815753445261597633e+08 9.79759612424703996147e-01 -1.80620870279285083981e-01 -9.39475569574887807434e-03 -8.38367814605751882073e-02 -9.39475569574887807434e-03 -8.38367814605751882073e-02 9.95639340686809148906e-01 -3.89135868673440646348e-02
9.46938297792161941528e+08 9.79664511686499261955e-01 -1.81039361210500404642e-01 -9.43889754820081278153e-03 -8.40310277439049041481e-02 -9.43889754820081278153e-03 -8.40310277439049041481e-02 9.95618851853865560741e-01 -3.90037480053114643530e-02
9.47060842139062285423e+08 9.79568755074238572966e-01 -1.81459712810646017767e-01 -9.48334383042219453142e-03 -8.42261376732476169105e-02 -9.48334383042219453142e-03 -8.42261376732476169105e-02 9.95598221717140186016e-01 -3.90943100122478764957e-02
9.47183386485962629318e+08 9.79472336598148030085e-01 -1.81881937340793942148e-01 -9.52809732261975829426e-03 -8.44221169396888321268e-02 -9.52809732261975829426e-03 -8.44221169396888321268e-02 9.95577448986175284062e-01 -3.91852755297211891028e-02
9.47305930832862854004e+08 9.79375250200365199404e-01 -1.82306047168190960006e-01 -9.57316083660423103319e-03 -8.46189712835959673143e-02 -9.57316083660423103319e-03 -8.46189712835959673143e-02 9.95556532355843848414e-01 -3.92766472221739437742e-02
9.47428475179763197899e+08 9.79277489754011964962e-01 -1.82732054767393042871e-01 -9.61853721622045118589e-03 -8.48167064951450277999e-02 -9.61853721622045118589e-03 -8.48167064951450277999e-02 9.95535470506150210745e-01 -3.93684277771677582081e-02
9.47551019526663541794e+08 9.79179049062255613123e-01 -1.83159972721405800433e-01 -9.66422933778336712418e-03 -8.50153284148498222805e-02 -9.66422933778336712418e-03 -8.50153284148498222805e-02 9.95514262102027203127e-01 -3.94606199056290116167e-02
9.47673563873563885689e+08 9.79079921857353041581e-01 -1.83589813722845357491e-01 -9.71024011052166492741e-03 -8.52148429341009067128e-02 -9.71024011052166492741e-03 -8.52148429341009067128e-02 9.95492905793130322678e-01 -3.95532263420989571578e-02
9.47796108220464110374e+08 9.78980101799681090569e-01 -1.84021590575108168197e-01 -9.75657247702776779519e-03 -8.54152559957084556164e-02 -9.75657247702776779519e-03 -8.54152559957084556164e-02 9.95471400213629453724e-01 -3.96462498449857356220e-02
9.47918652567364454269e+08 9.78879582476749332542e-01 -1.84455316193564505811e-01 -9.80322941371601988547e-03 -8.56165735944563327520e-02 -9.80322941371601988547e-03 -8.56165735944563327520e-02 9.95449743981995149866e-01 -3.97396931968215239017e-02
9.48041196914264798164e+08 9.78778357402200205328e-01 -1.84891003606755477406e-01 -9.85021393128689311258e-03 -8.58188017776576189677e-02 -9.85021393128689311258e-03 -8.58188017776576189677e-02 9.95427935700784138895e-01 -3.98335592045204051059e-02
9.48163741261165142059e+08 9.78676420014791048629e-01 -1.85328665957613020199e-01 -9.89752907519948765813e-03 -8.60219466457209369636e-02 -9.89752907519948765813e-03 -8.60219466457209369636e-02 9.95405973956419609650e-01 -3.99278506996412485552e-02
9.48286285608065485954e+08 9.78573763677359820257e-01 -1.85768316504694830371e-01 -9.94517792615153516100e-03 -8.62260143527235900507e-02 -9.94517792615153516100e-03 -8.62260143527235900507e-02 9.95383857318968279237e-01 -4.00225705386537053410e-02
