! File generated for n1 = 3, n2 = 13
! b1 = 21.544347
! b2 = 0.002154
! Q0 = 10000.000000
! f0 = 1000000000.000000
! n = 1001
! rel_span = 10.000000
# Hz S RI R 50
9.88726749332495570183e+08 9.81290002137325867437e-01 -1.88166615571866979728e-01 -1.87099978626740874599e-04 -1.88166615571866923350e-03 -1.87099978626740874599e-04 -1.88166615571866923350e-03 9.99998129000213786810e-01 -1.88166615571866843390e-05
9.88749295833830595016e+08 9.81215248303001108532e-01 -1.88538416884323878353e-01 -1.87847516969989216089e-04 -1.88538416884323815036e-03 -1.87847516969989216089e-04 -1.88538416884323815036e-03 9.99998121524830252405e-01 -1.88538416884323749984e-05
9.88771842335165619850e+08 9.81140048799073349883e-01 -1.88911666661165295045e-01 -1.88599512009266759207e-04 -1.88911666661165230860e-03 -1.88599512009266759207e-04 -1.88911666661165230860e-03 9.99998114004879923300e-01 -1.88911666661165183426e-05
9.88794388836500644684e+08 9.81064400091302690754e-01 -1.89286373290562581762e-01 -1.89355999086972921156e-04 -1.89286373290562513240e-03 -1.89355999086972921156e-04 -1.89286373290562513240e-03 9.99998106440009082441e-01 -1.89286373290562452254e-05
9.88816935337835550308e+08 9.80988298610483311357e-01 -1.89662545224801248889e-01 -1.90117013895166575262e-04 -1.89662545224801191643e-03 -1.90117013895166575262e-04 -1.89662545224801191643e-03 9.99998098829861015169e-01 -1.89662545224801126591e-05
9.88839481839170575142e+08 9.80911740752024474688e-01 -1.90040190980909046159e-01 -1.90882592479754757643e-04 -1.90040190980908995852e-03 -1.90882592479754757643e-04 -1.90040190980908995852e-03 9.99998091174075232068e-01 -1.90040190980908926734e-05
9.88862028340505599976e+08 9.80834722875534414932e-01 -1.90419319141249099303e-01 -1.91652771244655380136e-04 -1.90419319141249022975e-03 -1.91652771244655380136e-04 -1.90419319141249022975e-03 9.99998083472287579987e-01 -1.90419319141248951147e-05
9.88884574841840624809e+08 9.80757241304392124448e-01 -1.90799938354150544484e-01 -1.92427586956078744678e-04 -1.90799938354150482901e-03 -1.92427586956078744678e-04 -1.90799938354150482901e-03 9.99998075724130464081e-01 -1.90799938354150411073e-05
9.88907121343175649643e+08 9.80679292325316032120e-01 -1.91182057334531557702e-01 -1.93207076746839659289e-04 -1.91182057334531507395e-03 -1.93207076746839659289e-04 -1.91182057334531507395e-03 9.99998067929232514750e-01 -1.91182057334531436922e-05
9.88929667844510674477e+08 9.80600872187926131396e-01 -1.91565684864534541143e-01 -1.93991278120739024313e-04 -1.91565684864534470887e-03 -1.93991278120739024313e-04 -1.91565684864534470887e-03 9.99998060087218809677e-01 -1.91565684864534420742e-05
9.88952214345845699310e+08 9.80521977104299558015e-01 -1.91950829794166860642e-01 -1.94780228957004073994e-04 -1.91950829794166797325e-03 -1.94780228957004073994e-04 -1.91950829794166797325e-03 9.99998052197710429745e-01 -1.91950829794166745825e-05
9.88974760847180724144e+08 9.80442603248521393766e-01 -1.92337501041946967728e-01 -1.95573967514785592879e-04 -1.92337501041946906145e-03 -1.95573967514785592879e-04 -1.92337501041946906145e-03 9.99998044260324903121e-01 -1.92337501041946835672e-05
9.88997307348515629768e+08 9.80362746756228475853e-01 -1.92725707595555850737e-01 -1.96372532437714709128e-04 -1.92725707595555774410e-03 -1.96372532437714709128e-04 -1.92725707595555774410e-03 9.99998036274675650148e-01 -1.92725707595555725620e-05
9.89019853849850654602e+08 9.80282403724144213442e-01 -1.93115458512512716549e-01 -1.97175962758557943647e-04 -1.93115458512512654966e-03 -1.97175962758557943647e-04 -1.93115458512512654966e-03 9.99998028240372427433e-01 -1.93115458512512588559e-05
9.89042400351185679436e+08 9.80201570209611849904e-01 -1.93506762920831354435e-01 -1.97984297903881312306e-04 -1.93506762920831300659e-03 -1.97984297903881312306e-04 -1.93506762920831300659e-03 9.99998020157020994780e-01 -1.93506762920831219344e-05
9.89064946852520704269e+08 9.80120242230117511006e-01 -1.93899630019705115913e-01 -1.98797577698824664422e-04 -1.93899630019705028310e-03 -1.98797577698824664422e-04 -1.93899630019705028310e-03 9.99998012024223004168e-01 -1.93899630019704979520e-05
9.89087493353855729103e+08 9.80038415762807813003e-01 -1.94294069080189674148e-01 -1.99615842371921720349e-04 -1.94294069080189614300e-03 -1.99615842371921720349e-04 -1.94294069080189614300e-03 9.99998003841576332817e-01 -1.94294069080189539761e-05
9.89110039855190753937e+08 9.79956086744000143263e-01 -1.94690089445898439902e-01 -2.00439132559998117429e-04 -1.94690089445898376584e-03 -2.00439132559998117429e-04 -1.94690089445898376584e-03 9.99997995608674417056e-01 -1.94690089445898327795e-05
9.89132586356525778770e+08 9.79873251068687500798e-01 -1.95087700533698782390e-01 -2.01267489313124424985e-04 -1.95087700533698709532e-03 -2.01267489313124424985e-04 -1.95087700533698709532e-03 9.99997987325106918455e-01 -1.95087700533698653966e-05
9.89155132857860684395e+08 9.79789904590033233767e-01 -1.95486911834429816226e-01 -2.02100954099667225400e-04 -1.95486911834429760715e-03 -2.02100954099667225400e-04 -1.95486911834429760715e-03 9.99997978990459057691e-01 -1.95486911834429690242e-05
9.89177679359195709229e+08 9.79706043118861780172e-01 -1.95887732913614276420e-01 -2.02939568811382072509e-04 -1.95887732913614187949e-03 -2.02939568811382072509e-04 -1.95887732913614187949e-03 9.99997970604311836595e-01 -1.95887732913614147291e-05
9.89200225860530734062e+08 9.79621662423141081888e-01 -1.96290173412182883395e-01 -2.03783375768588713830e-04 -1.96290173412182840026e-03 -2.03783375768588713830e-04 -1.96290173412182840026e-03 9.99997962166242260196e-01 -1.96290173412182758711e-05
9.89222772361865758896e+08 9.79536758227457005077e-01 -1.96694243047212391495e-01 -2.04632417725429931882e-04 -1.96694243047212339454e-03 -2.04632417725429931882e-04 -1.96694243047212339454e-03 9.99997953675822781605e-01 -1.96694243047212250007e-05
9.89245318863200783730e+08 9.79451326212481210298e-01 -1.97099951612662804834e-01 -2.05486737875187387443e-04 -1.97099951612662730241e-03 -2.05486737875187387443e-04 -1.97099951612662730241e-03 9.99997945132621302022e-01 -1.97099951612662663834e-05
9.89267865364535808563e+08 9.79365362014430029802e-01 -1.97507308980136270238e-01 -2.06346379855699811482e-04 -1.97507308980136202584e-03 -2.06346379855699811482e-04 -1.97507308980136202584e-03 9.99997936536201392776e-01 -1.97507308980136132110e-05
9.89290411865870833397e+08 9.79278861224518015760e-01 -1.97916325099625978190e-01 -2.07211387754819740484e-04 -1.97916325099625886250e-03 -2.07211387754819740484e-04 -1.97916325099625886250e-03 9.99997927886122406349e-01 -1.97916325099625856434e-05
9.89312958367205858231e+08 9.79191819388401163415e-01 -1.98327010000292236480e-01 -2.08081806115988185869e-04 -1.98327010000292182704e-03 -2.08081806115988185869e-04 -1.98327010000292182704e-03 9.99997919181938810240e-01 -1.98327010000292125783e-05
9.89335504868540763855e+08 9.79104232005613139833e-01 -1.98739373791237933231e-01 -2.08957679943868148472e-04 -1.98739373791237882924e-03 -2.08957679943868148472e-04 -1.98739373791237882924e-03 9.99997910423200520036e-01 -1.98739373791237792122e-05
9.89358051369875788689e+08 9.79016094528992297796e-01 -1.99153426662300764294e-01 -2.09839054710076741228e-04 -1.99153426662300719191e-03 -2.09839054710076741228e-04 -1.99153426662300719191e-03 9.99997901609452899407e-01 -1.99153426662300618902e-05
9.89380597871210813522e+08 9.78927402364104359833e-01 -1.99569178884834663723e-01 -2.10725976358956803907e-04 -1.99569178884834597804e-03 -2.10725976358956803907e-04 -1.99569178884834597804e-03 9.99997892740236427045e-01 -1.99569178884834550370e-05
9.89403144372545838356e+08 9.78838150868652001613e-01 -1.99986640812522681321e-01 -2.11618491313479950263e-04 -1.99986640812522620606e-03 -2.11618491313479950263e-04 -1.99986640812522620606e-03 9.99997883815086918702e-01 -1.99986640812522558264e-05
9.89425690873880863190e+08 9.78748335351877440935e-01 -2.00405822882194911694e-01 -2.12516646481225644858e-04 -2.00405822882194833631e-03 -2.12516646481225644858e-04 -2.00405822882194833631e-03 9.99997874833535194128e-01 -2.00405822882194774000e-05
9.89448237375215888023e+08 9.78657951073957366184e-01 -2.00826735614646145756e-01 -2.13420489260426172280e-04 -2.00826735614646062489e-03 -2.13420489260426172280e-04 -2.00826735614646062489e-03 9.99997865795107410136e-01 -2.00826735614646010989e-05
9.89470783876550912857e+08 9.78566993245387872769e-01 -2.01249389615473228687e-01 -2.14330067546121192084e-04 -2.01249389615473176646e-03 -2.14330067546121192084e-04 -2.01249389615473176646e-03 9.99997856699324505492e-01 -2.01249389615473107528e-05
9.89493330377885818481e+08 9.78475457026362516189e-01 -2.01673795575909781119e-01 -2.15245429736375123260e-04 -2.01673795575909708261e-03 -2.15245429736375123260e-04 -2.01673795575909708261e-03 9.99997847545702645000e-01 -2.01673795575909626946e-05
9.89515876879220843315e+08 9.78383337526136487305e-01 -2.02099964273693533112e-01 -2.16166624738635095504e-04 -2.02099964273693474132e-03 -2.16166624738635095504e-04 -2.02099964273693474132e-03 9.99997838333752664397e-01 -2.02099964273693388751e-05
9.89538423380555868149e+08 9.78290629802387678993e-01 -2.02527906573917060307e-01 -2.17093701976123486545e-04 -2.02527906573916980509e-03 -2.17093701976123486545e-04 -2.02527906573916980509e-03 9.99997829062980292392e-01 -2.02527906573916923589e-05
9.89560969881890892982e+08 9.78197328860563986019e-01 -2.02957633429904832356e-01 -2.18026711394359750578e-04 -2.02957633429904759498e-03 -2.18026711394359750578e-04 -2.02957633429904759498e-03 9.99997819732886039645e-01 -2.02957633429904694446e-05
9.89583516383225917816e+08 9.78103429653223499507e-01 -2.03389155884094674498e-01 -2.18965703467765161055e-04 -2.03389155884094608578e-03 -2.18965703467765161055e-04 -2.03389155884094608578e-03 9.99997810342965309793e-01 -2.03389155884094553013e-05
9.89606062884560942650e+08 9.78008927079361711776e-01 -2.03822485068937714336e-01 -2.19910729206382506021e-04 -2.03822485068937651886e-03 -2.19910729206382506021e-04 -2.03822485068937651886e-03 9.99997800892707955356e-01 -2.03822485068937593611e-05
9.89628609385895967484e+08 9.77913815983733392123e-01 -2.04257632207795691848e-01 -2.20861840162666066842e-04 -2.04257632207795625928e-03 -2.20861840162666066842e-04 -2.04257632207795625928e-03 9.99997791381598388760e-01 -2.04257632207795567652e-05
9.89651155887230992317e+08 9.77818091156160362765e-01 -2.04694608615860279555e-01 -2.21819088438396524142e-04 -2.04694608615860196288e-03 -2.21819088438396524142e-04 -2.04694608615860196288e-03 9.99997781809115582341e-01 -2.04694608615860151565e-05
9.89673702388565897942e+08 9.77721747330832280376e-01 -2.05133425701073762726e-01 -2.22782526691677531258e-04 -2.05133425701073705480e-03 -2.22782526691677531258e-04 -2.05133425701073705480e-03 9.99997772174733068340e-01 -2.05133425701073637717e-05
9.89696248889900922775e+08 9.77624779185591874509e-01 -2.05574094965081166642e-01 -2.23752208144081392608e-04 -2.05574094965081102457e-03 -2.23752208144081392608e-04 -2.05574094965081102457e-03 9.99997762477918605839e-01 -2.05574094965081033339e-05
9.89718795391235947609e+08 9.77527181341217299426e-01 -2.06016628004159985110e-01 -2.24728186587826997064e-04 -2.06016628004159927864e-03 -2.24728186587826997064e-04 -2.06016628004159927864e-03 9.99997752718134069738e-01 -2.06016628004159865523e-05
9.89741341892570972443e+08 9.77428948360688942820e-01 -2.06461036510182438519e-01 -2.25710516393110732260e-04 -2.06461036510182348314e-03 -2.25710516393110732260e-04 -2.06461036510182348314e-03 9.99997742894836116889e-01 -2.06461036510182309011e-05
9.89763888393905997276e+08 9.77330074748442023669e-01 -2.06907332271603128238e-01 -2.26699252515579700428e-04 -2.06907332271603038032e-03 -2.26699252515579700428e-04 -2.06907332271603038032e-03 9.99997733007474853828e-01 -2.06907332271602996019e-05
9.89786434895241022110e+08 9.77230554949616414540e-01 -2.07355527174422654690e-01 -2.27694450503835508744e-04 -2.07355527174422600914e-03 -2.27694450503835508744e-04 -2.07355527174422600914e-03 9.99997723055494946998e-01 -2.07355527174422533151e-05
9.89808981396576046944e+08 9.77130383349289144412e-01 -2.07805633203188455660e-01 -2.28696166507108685981e-04 -2.07805633203188375863e-03 -2.28696166507108685981e-04 -2.07805633203188375863e-03 9.99997713038334956615e-01 -2.07805633203188287771e-05
9.89831527897910952568e+08 9.77029554271695355183e-01 -2.08257662442006580283e-01 -2.29704457283045937509e-04 -2.08257662442006517833e-03 -2.29704457283045937509e-04 -2.08257662442006517833e-03 9.99997702955427114624e-01 -2.08257662442006456847e-05
9.89854074399245977402e+08 9.76928061979441042517e-01 -2.08711627075554961852e-01 -2.30719380205589991162e-04 -2.08711627075554902871e-03 -2.30719380205589991162e-04 -2.08711627075554902871e-03 9.99997692806197990834e-01 -2.08711627075554847306e-05
9.89876620900581002235e+08 9.76825900672700364602e-01 -2.09167539390116230535e-01 -2.31740993272996404937e-04 -2.09167539390116155942e-03 -2.31740993272996404937e-04 -2.09167539390116155942e-03 9.99997682590067271668e-01 -2.09167539390116086824e-05
9.89899167401916027069e+08 9.76723064488405401384e-01 -2.09625411774612302462e-01 -2.32769355115946001335e-04 -2.09625411774612240012e-03 -2.32769355115946001335e-04 -2.09625411774612240012e-03 9.99997672306448870394e-01 -2.09625411774612155987e-05
9.89921713903251051903e+08 9.76619547499415929792e-01 -2.10085256721677798852e-01 -2.33804525005840558964e-04 -2.10085256721677729463e-03 -2.33804525005840558964e-04 -2.10085256721677729463e-03 9.99997661954749927915e-01 -2.10085256721677680674e-05
9.89944260404586076736e+08 9.76515343713684536020e-01 -2.10547086828715618312e-01 -2.34846562863154394770e-04 -2.10547086828715562801e-03 -2.34846562863154394770e-04 -2.10547086828715562801e-03 9.99997651534371367887e-01 -2.10547086828715470644e-05
9.89966806905921101570e+08 9.76410447073406184693e-01 -2.11010914798976351170e-01 -2.35895529265938249568e-04 -2.11010914798976300863e-03 -2.35895529265938249568e-04 -2.11010914798976300863e-03 9.99997641044707341607e-01 -2.11010914798976215482e-05
9.89989353407256126404e+08 9.76304851454151245704e-01 -2.11476753442666254301e-01 -2.36951485458487809670e-04 -2.11476753442666181443e-03 -2.36951485458487809670e-04 -2.11476753442666181443e-03 9.99997630485145450052e-01 -2.11476753442666098772e-05
9.90011899908591032028e+08 9.76198550663991970744e-01 -2.11944615678040099160e-01 -2.38014493360079747207e-04 -2.11944615678040038445e-03 -2.38014493360079747207e-04 -2.11944615678040038445e-03 9.99997619855066410821e-01 -2.11944615678039978814e-05
9.90034446409926056862e+08 9.76091538442608319670e-01 -2.12414514532540621428e-01 -2.39084615573917255412e-04 -2.12414514532540538161e-03 -2.39084615573917255412e-04 -2.12414514532540538161e-03 9.99997609153844280172e-01 -2.12414514532540478530e-05
9.90056992911261081696e+08 9.75983808460387125550e-01 -2.12886463143914794749e-01 -2.40161915396128492969e-04 -2.12886463143914734034e-03 -2.40161915396128492969e-04 -2.12886463143914734034e-03 9.99997598380846008936e-01 -2.12886463143914645942e-05
9.90079539412596106529e+08 9.75875354317502163859e-01 -2.13360474761376761599e-01 -2.41246456824978453568e-04 -2.13360474761376678332e-03 -2.41246456824978453568e-04 -2.13360474761376678332e-03 9.99997587535431775585e-01 -2.13360474761376625477e-05
9.90102085913931131363e+08 9.75766169542982675367e-01 -2.13836562746763131360e-01 -2.42338304570173182365e-04 -2.13836562746763051562e-03 -2.42338304570173182365e-04 -2.13836562746763051562e-03 9.99997576616954320095e-01 -2.13836562746762977023e-05
9.90124632415266156197e+08 9.75656247593765790782e-01 -2.14314740575717727067e-01 -2.43437524062342479239e-04 -2.14314740575717675025e-03 -2.43437524062342479239e-04 -2.14314740575717675025e-03 9.99997565624759388037e-01 -2.14314740575717573381e-05
9.90147178916601181030e+08 9.75545581853736076816e-01 -2.14795021838877941978e-01 -2.44544181462639479037e-04 -2.14795021838877888201e-03 -2.44544181462639479037e-04 -2.14795021838877888201e-03 9.99997554558185397511e-01 -2.14795021838877785202e-05
9.90169725417936086655e+08 9.75434165632749428099e-01 -2.15277420243082773244e-01 -2.45658343672505653961e-04 -2.15277420243082696916e-03 -2.45658343672505653961e-04 -2.15277420243082696916e-03 9.99997543416563328122e-01 -2.15277420243082621022e-05
9.90192271919271111488e+08 9.75321992165640194727e-01 -2.15761949612600228976e-01 -2.46780078343598202346e-04 -2.15761949612600176934e-03 -2.46780078343598202346e-04 -2.15761949612600176934e-03 9.99997532199216609961e-01 -2.15761949612600078001e-05
9.90214818420606136322e+08 9.75209054611216208386e-01 -2.16248623890355429200e-01 -2.47909453887837675449e-04 -2.16248623890355354607e-03 -2.47909453887837675449e-04 -2.16248623890355354607e-03 9.99997520905461123597e-01 -2.16248623890355305818e-05
9.90237364921941161156e+08 9.75095346051235600804e-01 -2.16737457139186878718e-01 -2.49046539487643523586e-04 -2.16737457139186797186e-03 -2.49046539487643523586e-04 -2.16737457139186797186e-03 9.99997509534605089065e-01 -2.16737457139186756529e-05
9.90259911423276185989e+08 9.74980859489366524784e-01 -2.17228463543120503543e-01 -2.50191405106334630731e-04 -2.17228463543120420276e-03 -2.50191405106334630731e-04 -2.17228463543120420276e-03 9.99997498085948954838e-01 -2.17228463543120359290e-05
9.90282457924611210823e+08 9.74865587850135217884e-01 -2.17721657408640190123e-01 -2.51344121498647322423e-04 -2.17721657408640129408e-03 -2.51344121498647322423e-04 -2.17721657408640129408e-03 9.99997486558785064759e-01 -2.17721657408640069777e-05
9.90305004425946235657e+08 9.74749523977853415957e-01 -2.18217053165994129271e-01 -2.52504760221466202554e-04 -2.18217053165994023453e-03 -2.52504760221466202554e-04 -2.18217053165994023453e-03 9.99997474952397769066e-01 -2.18217053165993961111e-05
9.90327550927281141281e+08 9.74632660635528669246e-01 -2.18714665370513067222e-01 -2.53673393644713012635e-04 -2.18714665370513001302e-03 -2.53673393644713012635e-04 -2.18714665370513001302e-03 9.99997463266063535414e-01 -2.18714665370512918632e-05
9.90350097428616166115e+08 9.74514990503758671281e-01 -2.19214508703947458246e-01 -2.54850094962413517043e-04 -2.19214508703947366305e-03 -2.54850094962413517043e-04 -2.19214508703947366305e-03 9.99997451499050393764e-01 -2.19214508703947291767e-05
9.90372643929951190948e+08 9.74396506179612376108e-01 -2.19716597975794458719e-01 -2.56034938203876115317e-04 -2.19716597975794410147e-03 -2.56034938203876115317e-04 -2.19716597975794410147e-03 9.99997439650617936380e-01 -2.19716597975794330187e-05
9.90395190431286215782e+08 9.74277200175484359157e-01 -2.20220948124687676550e-01 -2.57227998245156250137e-04 -2.20220948124687579406e-03 -2.57227998245156250137e-04 -2.20220948124687579406e-03 9.99997427720017539876e-01 -2.20220948124687521130e-05
9.90417736932621240616e+08 9.74157064917938297910e-01 -2.20727574219768185593e-01 -2.58429350820617417719e-04 -2.20727574219768121408e-03 -2.58429350820617417719e-04 -2.20727574219768121408e-03 9.99997415706491810106e-01 -2.20727574219768037382e-05
9.90440283433956265450e+08 9.74036092746528914255e-01 -2.21236491462087153659e-01 -2.59639072534710753370e-04 -2.21236491462087087739e-03 -2.59639072534710753370e-04 -2.21236491462087087739e-03 9.99997403609274693181e-01 -2.21236491462087017266e-05
9.90462829935291290283e+08 9.73914275912606930419e-01 -2.21747715186021238098e-01 -2.60857240873930149375e-04 -2.21747715186021172179e-03 -2.60857240873930149375e-04 -2.21747715186021172179e-03 9.99997391427591253432e-01 -2.21747715186021092219e-05
9.90485376436626315117e+08 9.73791606578101931468e-01 -2.22261260860714626730e-01 -2.62083934218980255972e-04 -2.22261260860714569484e-03 -2.62083934218980255972e-04 -2.22261260860714569484e-03 9.99997379160657784425e-01 -2.22261260860714477327e-05
