! File generated for n1 = 1, n2 = 2
! b1 = 100.000000
! b2 = 46.415888
! Q0 = 10000.000000
! f0 = 1000000000.000000
! n = 1001
! rel_span = 10.000000
# Hz S RI R 50
9.26292055831936120987e+08 9.87566344709248533640e-01 -1.29283476311454675889e-01 -8.47095073898956538172e-03 -8.80798070712368735835e-02 -8.47095073898956538172e-03 -8.80798070712368735835e-02 9.94228808444145739642e-01 -6.00080740017890149063e-02
9.26439471720272302628e+08 9.87514875872657404976e-01 -1.29548302879473054006e-01 -8.50601604916269814216e-03 -8.82602313117036435530e-02 -8.50601604916269814216e-03 -8.82602313117036435530e-02 9.94204918726425690423e-01 -6.01309956058848349425e-02
9.26586887608608365059e+08 9.87463096685547880860e-01 -1.29814160573652637165e-01 -8.54129279868270051279e-03 -8.84413580502462215449e-02 -8.54129279868270051279e-03 -8.84413580502462215449e-02 9.94180884956755606119e-01 -6.02543958163482273882e-02
9.26734303496944546700e+08 9.87411004672289482897e-01 -1.30081055371634557449e-01 -8.57678267417690681773e-03 -8.86231913593841236221e-02 -8.57678267417690681773e-03 -8.86231913593841236221e-02 9.94156705986049549217e-01 -6.03782774077544423519e-02
9.26881719385280609131e+08 9.87358597332666398927e-01 -1.30348993296805881759e-01 -8.61248737902251156051e-03 -8.88057353428031992504e-02 -8.61248737902251156051e-03 -8.88057353428031992504e-02 9.94132380653810154847e-01 -6.05026431759121061105e-02
9.27029135273616790771e+08 9.87305872141585605384e-01 -1.30617980418731127745e-01 -8.64840863354545373587e-03 -8.89889941356496044778e-02 -8.64840863354545373587e-03 -8.89889941356496044778e-02 9.94107907787993072546e-01 -6.06274959380634984041e-02
9.27176551161952853203e+08 9.87252826548779993665e-01 -1.30888022853590912931e-01 -8.68454817522235772431e-03 -8.91729719048286600946e-02 -8.68454817522235772431e-03 -8.91729719048286600946e-02 9.94083286204869187586e-01 -6.07528385330881673387e-02
9.27323967050289034843e+08 9.87199457978508942979e-01 -1.31159126764623462646e-01 -8.72090775888501035240e-03 -8.93576728493057498293e-02 -8.72090775888501035240e-03 -8.93576728493057498293e-02 9.94058514708885621047e-01 -6.08786738217079251290e-02
9.27471382938625097275e+08 9.87145763829253120036e-01 -1.31431298362572751559e-01 -8.75748915692785290243e-03 -8.95431012004114235125e-02 -8.75748915692785290243e-03 -8.95431012004114235125e-02 9.94033592092523954342e-01 -6.10050046866947165425e-02
9.27618798826961278915e+08 9.87091741473405948071e-01 -1.31704543906141197107e-01 -8.79429415951835970200e-03 -8.97292612221500390790e-02 -8.79429415951835970200e-03 -8.97292612221500390790e-02 9.94008517136157343508e-01 -6.11318340330808951411e-02
9.27766214715297341347e+08 9.87037388256960968036e-01 -1.31978869702445850143e-01 -8.83132457481006737099e-03 -8.99161572115104029690e-02 -8.83132457481006737099e-03 -8.99161572115104029690e-02 9.93983288607905191014e-01 -6.12591647883708526057e-02
9.27913630603633522987e+08 9.86982701499194092776e-01 -1.32254282107483439601e-01 -8.86858222915914116979e-03 -9.01037934987826971689e-02 -8.86858222915914116979e-03 -9.01037934987826971689e-02 9.93957905263485486103e-01 -6.13869999027569432370e-02
9.28061046491969704628e+08 9.86927678492341864391e-01 -1.32530787526596249837e-01 -8.90606896734330230614e-03 -9.02921744478757948293e-02 -8.90606896734330230614e-03 -9.02921744478757948293e-02 9.93932365846065812853e-01 -6.15153423493356790730e-02
9.28208462380305767059e+08 9.86872316501275159695e-01 -1.32808392414946074833e-01 -8.94378665278427326113e-03 -9.04813044566402518987e-02 -8.94378665278427326113e-03 -9.04813044566402518987e-02 9.93906669086111582700e-01 -6.16441951243277691530e-02
9.28355878268641948700e+08 9.86816612763168232725e-01 -1.33087103277994306394e-01 -8.98173716777339592454e-03 -9.06711879571953233148e-02 -8.98173716777339592454e-03 -9.06711879571953233148e-02 9.93880813701232823654e-01 -6.17735612473009065848e-02
9.28503294156978011131e+08 9.86760564487163427394e-01 -1.33366926671983493380e-01 -9.01992241369990559174e-03 -9.08618294162570339090e-02 -9.01992241369990559174e-03 -9.08618294162570339090e-02 9.93854798396028082941e-01 -6.19034437613932772559e-02
9.28650710045314192772e+08 9.86704168854030005953e-01 -1.33647869204429697865e-01 -9.05834431128316186488e-03 -9.10532333354736878039e-02 -9.05834431128316186488e-03 -9.10532333354736878039e-02 9.93828621861926442271e-01 -6.20338457335422033267e-02
9.28798125933650255203e+08 9.86647423015820423942e-01 -1.33929937534615128847e-01 -9.09700480080738796418e-03 -9.12454042517614333230e-02 -9.09700480080738796418e-03 -9.12454042517614333230e-02 9.93802282777027756744e-01 -6.21647702547126479455e-02
9.28945541821986436844e+08 9.86590324095519166647e-01 -1.34213138374091156546e-01 -9.13590584236042939359e-03 -9.14383467376470165933e-02 -9.13590584236042939359e-03 -9.14383467376470165933e-02 9.93775779805939563083e-01 -6.22962204401308269897e-02
9.29092957710322499275e+08 9.86532869186688143870e-01 -1.34497478487183852458e-01 -9.17504941607542694182e-03 -9.16320654016121172170e-02 -9.17504941607542694182e-03 -9.16320654016121172170e-02 9.93749111599612877654e-01 -6.24281994295187506183e-02
9.29240373598658680916e+08 9.86475055353106977662e-01 -1.34782964691506967903e-01 -9.21443752237614821521e-03 -9.18265648884429019905e-02 -9.21443752237614821521e-03 -9.18265648884429019905e-02 9.93722276795174996877e-01 -6.25607103873324077448e-02
9.29387789486994862556e+08 9.86416879628407405889e-01 -1.35069603858479214686e-01 -9.25407218222562728827e-03 -9.20218498795824790815e-02 -9.25407218222562728827e-03 -9.20218498795824790815e-02 9.93695274015759744124e-01 -6.26937565030018517653e-02
9.29535205375330924988e+08 9.86358339015703577957e-01 -1.35357402913849622639e-01 -9.29395543737859819444e-03 -9.22179250934887367874e-02 -9.29395543737859819444e-03 -9.22179250934887367874e-02 9.93668101870335829240e-01 -6.28273409911750263523e-02
9.29682621263667106628e+08 9.86299430487215356145e-01 -1.35646368838228198461e-01 -9.33408935063744817084e-03 -9.24147952859958599081e-02 -9.33408935063744817084e-03 -9.24147952859958599081e-02 9.93640758953532321485e-01 -6.29614670919640406765e-02
9.29830037152003169060e+08 9.86240150983888730352e-01 -1.35936508667620692403e-01 -9.37447600611159351236e-03 -9.26124652506787882089e-02 -9.37447600611159351236e-03 -9.26124652506787882089e-02 9.93613243845462013049e-01 -6.30961380711934916032e-02
9.29977453040339350700e+08 9.86180497415008128215e-01 -1.36227829493972829589e-01 -9.41511750948098406766e-03 -9.28109398192239198888e-02 -9.41511750948098406766e-03 -9.28109398192239198888e-02 9.93585555111541895990e-01 -6.32313572206529839193e-02
9.30124868928675413132e+08 9.86120466657804950472e-01 -1.36520338465718371612e-01 -9.45601598826306330436e-03 -9.30102238618024379502e-02 -9.45601598826306330436e-03 -9.30102238618024379502e-02 9.93557691302311085657e-01 -6.33671278583515518168e-02
9.30272284817011594772e+08 9.86060055557059667031e-01 -1.36814042788335338274e-01 -9.49717359208385528135e-03 -9.32103222874494097283e-02 -9.49717359208385528135e-03 -9.32103222874494097283e-02 9.93529650953246523670e-01 -6.35034533287758135023e-02
9.30419700705347657204e+08 9.85999260924698806008e-01 -1.37108949724906198364e-01 -9.53859249295258004864e-03 -9.34112400444453289117e-02 -9.53859249295258004864e-03 -9.34112400444453289117e-02 9.93501432584575572271e-01 -6.36403370031500409398e-02
9.30567116593683838844e+08 9.85938079539385170413e-01 -1.37405066596688330005e-01 -9.58027488554078279770e-03 -9.36129821207047491116e-02 -9.58027488554078279770e-03 -9.36129821207047491116e-02 9.93473034701085944143e-01 -6.37777822797008786537e-02
9.30714532482019901276e+08 9.85876508146102836783e-01 -1.37702400783686562669e-01 -9.62222298746488041710e-03 -9.38155535441664439888e-02 -9.62222298746488041710e-03 -9.38155535441664439888e-02 9.93444455791932967692e-01 -6.39157925839231172427e-02
9.30861948370356082916e+08 9.85814543455735936561e-01 -1.38000959725237043463e-01 -9.66443903957342823063e-03 -9.40189593831911307742e-02 -9.66443903957342823063e-03 -9.40189593831911307742e-02 9.93415694330444520865e-01 -6.40543713688507126980e-02
9.31009364258692264557e+08 9.85752182144641664330e-01 -1.38300750920594017757e-01 -9.70692530623806087986e-03 -9.42232047469612338242e-02 -9.70692530623806087986e-03 -9.42232047469612338242e-02 9.93386748773921968159e-01 -6.41935221153291379892e-02
9.31156780147028326988e+08 9.85689420854216069579e-01 -1.38601781929525241788e-01 -9.74968407564887756811e-03 -9.44282947858866017476e-02 -9.74968407564887756811e-03 -9.44282947858866017476e-02 9.93357617563439765362e-01 -6.43332483322917869639e-02
9.31304196035364508629e+08 9.85626256190454186346e-01 -1.38904060372916721144e-01 -9.79271766011450585376e-03 -9.46342346920164001478e-02 -9.79271766011450585376e-03 -9.46342346920164001478e-02 9.93328299123640179324e-01 -6.44735535570405554617e-02
9.31451611923700571060e+08 9.85562684723504611739e-01 -1.39207593933378087625e-01 -9.83602839636563835990e-03 -9.48410296994516566205e-02 -9.83602839636563835990e-03 -9.48410296994516566205e-02 9.93298791862527230556e-01 -6.46144413555269775395e-02
9.31599027812036752701e+08 9.85498702987215313698e-01 -1.39512390355862936353e-01 -9.87961864586410151712e-03 -9.50486850847678255150e-02 -9.87961864586410151712e-03 -9.50486850847678255150e-02 9.93269094171255639836e-01 -6.47559153226400507908e-02
9.31746443700372815132e+08 9.85434307478674886838e-01 -1.39818457448290495160e-01 -9.92349079511566957434e-03 -9.52572061674383380181e-02 -9.92349079511566957434e-03 -9.52572061674383380181e-02 9.93239204423917998454e-01 -6.48979790824948526984e-02
9.31893859588708996773e+08 9.85369494657745925714e-01 -1.40125803082177563530e-01 -9.96764725598785379657e-03 -9.54665983102652021541e-02 -9.96764725598785379657e-03 -9.54665983102652021541e-02 9.93209120977328163704e-01 -6.50406362887258476801e-02
9.32041275477045059204e+08 9.85304260946591958792e-01 -1.40434435193276863085e-01 -1.00120904660322609242e-02 -9.56768669198137661214e-02 -1.00120904660322609242e-02 -9.56768669198137661214e-02 9.93178842170801434719e-01 -6.51838906247831362251e-02
9.32188691365381240845e+08 9.85238602729197054941e-01 -1.40744361782224491897e-01 -1.00568228888119129416e-02 -9.58880174468539625554e-02 -1.00568228888119129416e-02 -9.58880174468539625554e-02 9.93148366325931841736e-01 -6.53277458042330200216e-02
9.32336107253717303276e+08 9.85172516350878657576e-01 -1.41055590915191514378e-01 -1.01018470142329400835e-02 -9.61000553868041756944e-02 -1.01018470142329400835e-02 -9.61000553868041756944e-02 9.93117691746366215710e-01 -6.54722055710604960987e-02
9.32483523142053484917e+08 9.85105998117792980295e-01 -1.41368130724548984878e-01 -1.01471653588819845510e-02 -9.63129862801843095177e-02 -1.01471653588819845510e-02 -9.63129862801843095177e-02 9.93086816717574039082e-01 -6.56172736999778016820e-02
9.32630939030389666557e+08 9.85039044296432964032e-01 -1.41681989409534137003e-01 -1.01927804663676634805e-02 -9.65268157130696607959e-02 -1.01927804663676634805e-02 -9.65268157130696607959e-02 9.93055739506614854051e-01 -6.57629539967337639617e-02
9.32778354918725728989e+08 9.84971651113119128773e-01 -1.41997175236930311959e-01 -1.02386949076679646675e-02 -9.67415493175541457704e-02 -1.02386949076679646675e-02 -9.67415493175541457704e-02 9.93024458361901674053e-01 -6.59092502984292699653e-02
9.32925770807061910629e+08 9.84903814753482098610e-01 -1.42313696541752576774e-01 -1.02849112814824717593e-02 -9.69571927722174264908e-02 -1.02849112814824717593e-02 -9.69571927722174264908e-02 9.92992971512961286606e-01 -6.60561664738356230098e-02
9.33073186695397973061e+08 9.84835531361938354422e-01 -1.42631561727939643047e-01 -1.03314322145895906568e-02 -9.71737518025963115109e-02 -1.03314322145895906568e-02 -9.71737518025963115109e-02 9.92961277170190226293e-01 -6.62037064237156330782e-02
9.33220602583734154701e+08 9.84766797041157215808e-01 -1.42950779269059052856e-01 -1.03782603622098474477e-02 -9.73912321816651632700e-02 -1.03782603622098474477e-02 -9.73912321816651632700e-02 9.92929373524607861157e-01 -6.63518740811509660782e-02
9.33368018472070217133e+08 9.84697607851520606559e-01 -1.43271357709015334514e-01 -1.04253984083738440725e-02 -9.76096397303183316296e-02 -1.04253984083738440725e-02 -9.76096397303183316296e-02 9.92897258747605371276e-01 -6.65006734118707559800e-02
9.33515434360406398773e+08 9.84627959810573605282e-01 -1.43593305662771120179e-01 -1.04728490662964485863e-02 -9.78289803178615940960e-02 -1.04728490662964485863e-02 -9.78289803178615940960e-02 9.92864930990691174628e-01 -6.66501084145865035913e-02
9.33662850248742461205e+08 9.84557848892468223667e-01 -1.43916631817073120692e-01 -1.05206150787559935683e-02 -9.80492598625065658879e-02 -1.05206150787559935683e-02 -9.80492598625065658879e-02 9.92832388385231912054e-01 -6.68001831213288072009e-02
9.33810266137078642845e+08 9.84487271027397192746e-01 -1.44241344931191284306e-01 -1.05686992184799294359e-02 -9.82704843318743803682e-02 -1.05686992184799294359e-02 -9.82704843318743803682e-02 9.92799629042190545647e-01 -6.69509015977906574157e-02
9.33957682025414824486e+08 9.84416222101020310653e-01 -1.44567453837662451832e-01 -1.06171042885356264190e-02 -9.84926597435023393201e-02 -1.06171042885356264190e-02 -9.84926597435023393201e-02 9.92766651051859461141e-01 -6.71022679436724805990e-02
9.34105097913750886917e+08 9.84344697953881464514e-01 -1.44894967443045197264e-01 -1.06658331227274631725e-02 -9.87157921653581960086e-02 -1.06658331227274631725e-02 -9.87157921653581960086e-02 9.92733452483590017579e-01 -6.72542862930325807680e-02
9.34252513802087068558e+08 9.84272694380816992599e-01 -1.45223894728685215538e-01 -1.07148885860001274323e-02 -9.89398877163615020347e-02 -1.07148885860001274323e-02 -9.89398877163615020347e-02 9.92700031385518433247e-01 -6.74069608146422860617e-02
9.34399929690423130989e+08 9.84200207130355053664e-01 -1.45554244751486955289e-01 -1.07642735748476672808e-02 -9.91649525669094367153e-02 -1.07642735748476672808e-02 -9.91649525669094367153e-02 9.92666385784286120497e-01 -6.75602957123443148557e-02
9.34547345578759312630e+08 9.84127231904105892468e-01 -1.45886026644695909749e-01 -1.08139910177289244597e-02 -9.93909929394097418909e-02 -1.08139910177289244597e-02 -9.93909929394097418909e-02 9.92632513684757245009e-01 -6.77142952254156799130e-02
9.34694761467095375061e+08 9.84053764356142224301e-01 -1.46219249618692620496e-01 -1.08640438754896862666e-02 -9.96180151088216087052e-02 -1.08640438754896862666e-02 -9.96180151088216087052e-02 9.92598413069731178027e-01 -6.78689636289363240618e-02
9.34842177355431556702e+08 9.83979800092370959774e-01 -1.46553922961792454371e-01 -1.09144351417907407159e-02 -9.98460254032006444547e-02 -1.09144351417907407159e-02 -9.98460254032006444547e-02 9.92564081899650507701e-01 -6.80243052341603232636e-02
9.34989593243767619133e+08 9.83905334669894715560e-01 -1.46890056041057676106e-01 -1.09651678435428480418e-02 -1.00075030204252068966e-01 -1.09651678435428480418e-02 -1.00075030204252068966e-01 9.92529518112304831590e-01 -6.81803243888928628413e-02
9.35137009132103800774e+08 9.83830363596363333123e-01 -1.47227658303120151340e-01 -1.10162450413485678291e-02 -1.00305035947891252324e-01 -1.10162450413485678291e-02 -1.00305035947891252324e-01 9.92494719622530108261e-01 -6.83370254778720154221e-02
9.35284425020439863205e+08 9.83754882329315849532e-01 -1.47566739275011016286e-01 -1.10676698299504144146e-02 -1.00536049124808971045e-01 -1.10676698299504144146e-02 -1.00536049124808971045e-01 9.92459684321902679827e-01 -6.84944129231539466929e-02
9.35431840908776044846e+08 9.83678886275512254223e-01 -1.47907308565004752543e-01 -1.11194453386865566014e-02 -1.00768076281046406462e-01 -1.11194453386865566014e-02 -1.00768076281046406462e-01 9.92424410078429297677e-01 -6.86524911845045743286e-02
9.35579256797112226486e+08 9.83602370790254143529e-01 -1.48249375863469257109e-01 -1.11715747319529861564e-02 -1.01001124018574348074e-01 -1.11715747319529861564e-02 -1.01001124018574348074e-01 9.92388894736232152205e-01 -6.88112647597942661548e-02
9.35726672685448288918e+08 9.83525331176696160362e-01 -1.48592950943729928959e-01 -1.12240612096733329700e-02 -1.01235198995881889306e-01 -1.12240612096733329700e-02 -1.01235198995881889306e-01 9.92353136115228462444e-01 -6.89707381853988110709e-02
9.35874088573784470558e+08 9.83447762685145221440e-01 -1.48938043662943053747e-01 -1.12769080077758411529e-02 -1.01470307928571437661e-01 -1.12769080077758411529e-02 -1.01470307928571437661e-01 9.92317132010806068898e-01 -6.91309160366048863766e-02
9.36021504462120532990e+08 9.83369660512349530457e-01 -1.49284663962979374796e-01 -1.13301183986776726059e-02 -1.01706457589960691523e-01 -1.13301183986776726059e-02 -1.01706457589960691523e-01 9.92280880193493253216e-01 -6.92918029280201047682e-02
9.36168920350456714630e+08 9.83291019800777155169e-01 -1.49632821871320376150e-01 -1.13836956917770341924e-02 -1.01943654811693221185e-01 -1.13836956917770341924e-02 -1.01943654811693221185e-01 9.92244378408623006749e-01 -6.94534035139890704169e-02
9.36316336238792777061e+08 9.83211835637881725880e-01 -1.49982527501962975558e-01 -1.14376432339526618726e-02 -1.02181906484354920184e-01 -1.14376432339526618726e-02 -1.02181906484354920184e-01 9.92207624375993635368e-01 -6.96157224890132791950e-02
9.36463752127128958702e+08 9.83132103055357919885e-01 -1.50333791056339372005e-01 -1.14919644100716956958e-02 -1.02421219558100684566e-01 -1.14919644100716956958e-02 -1.02421219558100684566e-01 9.92170615789521814776e-01 -6.97787645881781382062e-02
9.36611168015465021133e+08 9.83051817028384511410e-01 -1.50686622824243748875e-01 -1.15466626435048493049e-02 -1.02661601043285630186e-01 -1.15466626435048493049e-02 -1.02661601043285630186e-01 9.92133350316892315135e-01 -6.99425345875830245523e-02
9.36758583903801202774e+08 9.82970972474855764212e-01 -1.51041033184775269627e-01 -1.16017413966504733674e-02 -1.02903058011107731429e-01 -1.16017413966504733674e-02 -1.02903058011107731429e-01 9.92095825599200620282e-01 -7.01070373047790046384e-02
9.36905999792137265205e+08 9.82889564254601055815e-01 -1.51397032607288345440e-01 -1.16572041714661511769e-02 -1.03145597594255095109e-01 -1.16572041714661511769e-02 -1.03145597594255095109e-01 9.92058039250590772973e-01 -7.02722775992099257802e-02
9.37053415680473446846e+08 9.82807587168590734983e-01 -1.51754631652359139871e-01 -1.17130545100094483890e-02 -1.03389226987564544769e-01 -1.17130545100094483890e-02 -1.03389226987564544769e-01 9.92019988857887002887e-01 -7.04382603726610573291e-02
9.37200831568809628487e+08 9.82725035958131321046e-01 -1.52113840972760344661e-01 -1.17692959949865904451e-02 -1.03633953448685561805e-01 -1.17692959949865904451e-02 -1.03633953448685561805e-01 9.91981671980220025553e-01 -7.06049905697114371650e-02
9.37348247457145690918e+08 9.82641905304046270331e-01 -1.52474671314450721527e-01 -1.18259322503103357638e-02 -1.03879784298754704319e-01 -1.18259322503103357638e-02 -1.03879784298754704319e-01 9.91943086148646790967e-01 -7.07724731781933097396e-02
9.37495663345481872559e+08 9.82558189825844530141e-01 -1.52837133517576662101e-01 -1.18829669416665902049e-02 -1.04126726923077686515e-01 -1.18829669416665902049e-02 -1.04126726923077686515e-01 9.91904228865764570067e-01 -7.09407132296569209462e-02
9.37643079233817934990e+08 9.82473884080875436986e-01 -1.53201238517485432977e-01 -1.19404037770900160742e-02 -1.04374788771819881905e-01 -1.19404037770900160742e-02 -1.04374788771819881905e-01 9.91865097605318823959e-01 -7.11097157998408363477e-02
9.37790495122154116631e+08 9.82388982563470514187e-01 -1.53566997345752548343e-01 -1.19982465075490121048e-02 -1.04623977360706194029e-01 -1.19982465075490121048e-02 -1.04623977360706194029e-01 9.91825689811804522833e-01 -7.12794860091488235998e-02
