! File generated for n1 = 5, n2 = 3
! b1 = 4.641589
! b2 = 1.000000
! Q0 = 10000.000000
! f0 = 1000000000.000000
! n = 1001
! rel_span = 10.000000
# Hz S RI R 50
9.96679205583193659782e+08 9.86206585408848646068e-01 -1.38163934462865567454e-01 -6.40233591436799396451e-03 -6.41300175410844525148e-02 -6.40233591436799396451e-03 -6.41300175410844525148e-02 9.97028298911083132872e-01 -2.97665173318089233689e-02
9.96685847172027230263e+08 9.86151702552267250823e-01 -1.38435787969562518196e-01 -6.42781027979447312781e-03 -6.42562007611907626270e-02 -6.42781027979447312781e-03 -6.42562007611907626270e-02 9.97016474758072424045e-01 -2.98250863943523951416e-02
9.96692488760860919952e+08 9.86096492952841741086e-01 -1.38708700466457196532e-01 -6.45343630581463479495e-03 -6.43828755210047315449e-02 -6.45343630581463479495e-03 -6.43828755210047315449e-02 9.97004580210449908861e-01 -2.98838836094177072444e-02
9.96699130349694490433e+08 9.86040954021349169700e-01 -1.38982678085443067673e-01 -6.47921519423928088388e-03 -6.45100446666991983458e-02 -6.47921519423928088388e-03 -6.45100446666991983458e-02 9.96992614710384472687e-01 -2.99429102980812537893e-02
9.96705771938528060913e+08 9.85985083142954743529e-01 -1.39257727005313552970e-01 -6.50514815876729671218e-03 -6.46377110662160053733e-02 -6.50514815876729671218e-03 -6.46377110662160053733e-02 9.96980577694526859389e-01 -3.00021677915237316991e-02
9.96712413527361750603e+08 9.85928877676915504935e-01 -1.39533853452166400899e-01 -6.53123642512286241985e-03 -6.47658776094537369517e-02 -6.53123642512286241985e-03 -6.47658776094537369517e-02 9.96968468593946499645e-01 -3.00616574311172342349e-02
9.96719055116195321083e+08 9.85872334956274132267e-01 -1.39811063699848664443e-01 -6.55748123119794315561e-03 -6.48945472084742486230e-02 -6.55748123119794315561e-03 -6.48945472084742486230e-02 9.96956286834064675517e-01 -3.01213805685211395702e-02
9.96725696705028891563e+08 9.85815452287542082210e-01 -1.40089364070432736975e-01 -6.58388382719921581854e-03 -6.50237227977235876519e-02 -6.58388382719921581854e-03 -6.50237227977235876519e-02 9.96944031834586796847e-01 -3.01813385657846433574e-02
9.96732338293862581253e+08 9.85758226950383731335e-01 -1.40368760934671904517e-01 -6.61044547579461069103e-03 -6.51534073342434766341e-02 -6.61044547579461069103e-03 -6.51534073342434766341e-02 9.96931703009434566631e-01 -3.02415327954449440762e-02
9.96738979882696151733e+08 9.85700656197303182182e-01 -1.40649260712428503250e-01 -6.63716745225875585923e-03 -6.52836037978700572948e-02 -6.63716745225875585923e-03 -6.52836037978700572948e-02 9.96919299766677813324e-01 -3.03019646406194470556e-02
9.96745621471529841423e+08 9.85642737253308642842e-01 -1.40930869873193420627e-01 -6.66405104462871374776e-03 -6.54143151914750170528e-02 -6.66405104462871374776e-03 -6.54143151914750170528e-02 9.96906821508462548387e-01 -3.03626354951177200581e-02
9.96752263060363411903e+08 9.85584467315592793746e-01 -1.41213594936512698563e-01 -6.69109755385243615278e-03 -6.55455445411635279074e-02 -6.69109755385243615278e-03 -6.55455445411635279074e-02 9.96894267630942465530e-01 -3.04235467635333677039e-02
9.96758904649196982384e+08 9.85525843553192060220e-01 -1.41497442472497014787e-01 -6.71830829394679841793e-03 -6.56772948965108765984e-02 -6.71830829394679841793e-03 -6.56772948965108765984e-02 9.96881637524204888834e-01 -3.04846998613538394673e-02
9.96765546238030672073e+08 9.85466863106648549575e-01 -1.41782419102303602898e-01 -6.74568459215459190897e-03 -6.58095693307859386234e-02 -6.74568459215459190897e-03 -6.58095693307859386234e-02 9.96868930572198164164e-01 -3.05460962150642008350e-02
9.96772187826864242554e+08 9.85407523087670322859e-01 -1.42068531498607097951e-01 -6.77322778910219389786e-03 -6.59423709411700031957e-02 -6.77322778910219389786e-03 -6.59423709411700031957e-02 9.96856146152658717519e-01 -3.06077372622486458542e-02
9.96778829415697813034e+08 9.85347820578779898248e-01 -1.42355786386109045560e-01 -6.80093923896259340556e-03 -6.60757028489929731929e-02 -6.80093923896259340556e-03 -6.60757028489929731929e-02 9.96843283637035226796e-01 -3.06696244517001871677e-02
9.96785471004531502724e+08 9.85287752632960311949e-01 -1.42644190542046023218e-01 -6.82882030962006416480e-03 -6.62095681999694402053e-02 -6.82882030962006416480e-03 -6.62095681999694402053e-02 9.96830342390411905384e-01 -3.07317592435301864540e-02
9.96792112593365073204e+08 9.85227316273300068872e-01 -1.42933750796674863270e-01 -6.85687238283437267700e-03 -6.63439701644237683764e-02 -6.85687238283437267700e-03 -6.63439701644237683764e-02 9.96817321771432784949e-01 -3.07941431092728680474e-02
9.96798754182198643684e+08 9.85166508492626991078e-01 -1.43224474033804199946e-01 -6.88509685441124601873e-03 -6.64789119375368969811e-02 -6.88509685441124601873e-03 -6.64789119375368969811e-02 9.96804221132222223467e-01 -3.08567775319998488515e-02
9.96805395771032333374e+08 9.85105326253140844983e-01 -1.43516367191305699302e-01 -6.91349513437269393157e-03 -6.66143967395835812084e-02 -6.91349513437269393157e-03 -6.66143967395835812084e-02 9.96791039818305968367e-01 -3.09196640064302655238e-02
9.96812037359865903854e+08 9.85043766486040972552e-01 -1.43809437261630840288e-01 -6.94206864712973003434e-03 -6.67504278161723113572e-02 -6.94206864712973003434e-03 -6.67504278161723113572e-02 9.96777777168530887408e-01 -3.09828040390421229067e-02
9.96818678948699474335e+08 9.84981826091145817870e-01 -1.44103691292350954978e-01 -6.97081883165920866696e-03 -6.68870084384959179280e-02 -6.97081883165920866696e-03 -6.68870084384959179280e-02 9.96764432514983256262e-01 -3.10461991481886315225e-02
9.96825320537533164024e+08 9.84919501936505681350e-01 -1.44399136386705873036e-01 -6.99974714168344943482e-03 -6.70241419035862706632e-02 -6.99974714168344943482e-03 -6.70241419035862706632e-02 9.96751005182904936675e-01 -3.11098508642164324478e-02
9.96831962126366734505e+08 9.84856790858021358126e-01 -1.44695779704104771080e-01 -7.02885504584709486925e-03 -6.71618315345467314925e-02 -7.02885504584709486925e-03 -6.71618315345467314925e-02 9.96737494490611330988e-01 -3.11737607295734658885e-02
9.96838603715200424194e+08 9.84793689659037574380e-01 -1.44993628460731355245e-01 -7.05814402790617880651e-03 -6.73000806808330548359e-02 -7.05814402790617880651e-03 -6.73000806808330548359e-02 9.96723899749404007586e-01 -3.12379302989393807521e-02
9.96845245304033994675e+08 9.84730195109953632127e-01 -1.45292689930039881085e-01 -7.08761558690848818970e-03 -6.74388927184836894924e-02 -7.08761558690848818970e-03 -6.74388927184836894924e-02 9.96710220263486545988e-01 -3.13023611393324005525e-02
9.96851886892867565155e+08 9.84666303947806187402e-01 -1.45592971443368579543e-01 -7.11727123738749387766e-03 -6.75782710504043704347e-02 -7.11727123738749387766e-03 -6.75782710504043704347e-02 9.96696455329874830831e-01 -3.13670548302414642361e-02
9.96858528481701254845e+08 9.84602012875860910235e-01 -1.45894480390485636878e-01 -7.14711250955173300892e-03 -6.77182191066216659925e-02 -7.14711250955173300892e-03 -6.77182191066216659925e-02 9.96682604238309011180e-01 -3.14320129637438577808e-02
9.96865170070534825325e+08 9.84537318563198149413e-01 -1.46197224220143362494e-01 -7.17714094947709529276e-03 -6.78587403445401193824e-02 -7.17714094947709529276e-03 -6.78587403445401193824e-02 9.96668666271164238601e-01 -3.14972371446246360294e-02
9.96871811659368395805e+08 9.84472217644281166748e-01 -1.46501210440694890069e-01 -7.20735811930742036047e-03 -6.79998382492285197154e-02 -7.20735811930742036047e-03 -6.79998382492285197154e-02 9.96654640703357408427e-01 -3.15627289905094227107e-02
9.96878453248202085495e+08 9.84406706718526369748e-01 -1.46806446620674657666e-01 -7.23776559745373422594e-03 -6.81415163336893947577e-02 -7.23776559745373422594e-03 -6.81415163336893947577e-02 9.96640526802255233285e-01 -3.16284901319895464522e-02
9.96885094837035655975e+08 9.84340782349873766321e-01 -1.47112940389360402627e-01 -7.26836497879381534387e-03 -6.82837781391197606862e-02 -7.26836497879381534387e-03 -6.82837781391197606862e-02 9.96626323827580873349e-01 -3.16945222127430620285e-02
9.96891736425869226456e+08 9.84274441066331995387e-01 -1.47420699437428442957e-01 -7.29915787488332086508e-03 -6.84266272352153509528e-02 -7.29915787488332086508e-03 -6.84266272352153509528e-02 9.96612031031316458751e-01 -3.17608268896759637911e-02
9.96898378014702916145e+08 9.84207679359537679353e-01 -1.47729731517519169426e-01 -7.33014591416025502318e-03 -6.85700672204330730075e-02 -7.33014591416025502318e-03 -6.85700672204330730075e-02 9.96597647657608165517e-01 -3.18274058330439771347e-02
9.96905019603536486626e+08 9.84140493684297568144e-01 -1.48040044444860879880e-01 -7.36133074215758378273e-03 -6.87141017222805683407e-02 -7.36133074215758378273e-03 -6.87141017222805683407e-02 9.96583172942667072647e-01 -3.18942607265870065048e-02
9.96911661192370057106e+08 9.84072880458118581792e-01 -1.48351646097923672851e-01 -7.39271402172124794672e-03 -6.88587343976197197026e-02 -7.39271402172124794672e-03 -6.88587343976197197026e-02 9.96568606114668575913e-01 -3.19613932676699810664e-02
9.96918302781203746796e+08 9.84004836060746734816e-01 -1.48664544419011779297e-01 -7.42429743322439543440e-03 -6.90039689329415978358e-02 -7.42429743322439543440e-03 -6.90039689329415978358e-02 9.96553946393652578806e-01 -3.20288051674104817801e-02
9.96924944370037317276e+08 9.83936356833686853740e-01 -1.48978747414914208802e-01 -7.45608267478992722127e-03 -6.91498090446684421373e-02 -7.45608267478992722127e-03 -6.91498090446684421373e-02 9.96539192991420130774e-01 -3.20964981508188931802e-02
9.96931585958870887756e+08 9.83867439079716410433e-01 -1.49294263157566053923e-01 -7.48807146251662288094e-03 -6.92962584794606234473e-02 -7.48807146251662288094e-03 -6.92962584794606234473e-02 9.96524345111428844213e-01 -3.21644739569409213176e-02
9.96938227547704577446e+08 9.83798079062398911354e-01 -1.49611099784678208691e-01 -7.52026553070461387107e-03 -6.94433210145089518939e-02 -7.52026553070461387107e-03 -6.94433210145089518939e-02 9.96509401948687867367e-01 -3.22327343389932352569e-02
9.96944869136538147926e+08 9.83728273005585851507e-01 -1.49929265500400810129e-01 -7.55266663208681212488e-03 -6.95910004578426111266e-02 -7.55266663208681212488e-03 -6.95910004578426111266e-02 9.96494362689650636788e-01 -3.23012810645064013526e-02
9.96951510725371837616e+08 9.83658017092903347312e-01 -1.50248768576026425769e-01 -7.58527653806704855316e-03 -6.97393006486554806189e-02 -7.58527653806704855316e-03 -6.97393006486554806189e-02 9.96479226512104299118e-01 -3.23701159154763662418e-02
9.96958152314205408096e+08 9.83587307467250981929e-01 -1.50569617350613721429e-01 -7.61809703895277492286e-03 -6.98882254575957512222e-02 -7.61809703895277492286e-03 -6.98882254575957512222e-02 9.96463992585061797413e-01 -3.24392406884988770965e-02
9.96964793903038978577e+08 9.83516140230271007638e-01 -1.50891820231717543876e-01 -7.65112994420130091561e-03 -7.00377787871046958434e-02 -7.65112994420130091561e-03 -7.00377787871046958434e-02 9.96448660068647518173e-01 -3.25086571949267030823e-02
9.96971435491872668266e+08 9.83444511441826985099e-01 -1.51215385696052390108e-01 -7.68437708266201790347e-03 -7.01879645717246175574e-02 -7.68437708266201790347e-03 -7.01879645717246175574e-02 9.96433228113984603702e-01 -3.25783672610126320834e-02
9.96978077080706238747e+08 9.83372417119465880297e-01 -1.51540322290198953281e-01 -7.71784030282582095978e-03 -7.03387867784269066318e-02 -7.71784030282582095978e-03 -7.03387867784269066318e-02 9.96417695863079710961e-01 -3.26483727280616475852e-02
9.96984718669539809227e+08 9.83299853237869503353e-01 -1.51866638631335260090e-01 -7.75152147307992759467e-03 -7.04902494069512691732e-02 -7.75152147307992759467e-03 -7.04902494069512691732e-02 9.96402062448704217701e-01 -3.27186754525884831990e-02
9.96991360258373498917e+08 9.83226815728306169362e-01 -1.52194343407935972490e-01 -7.78542248196233827029e-03 -7.06423564901304257280e-02 -7.78542248196233827029e-03 -7.06423564901304257280e-02 9.96386326994276538827e-01 -3.27892773064682591100e-02
9.96998001847207069397e+08 9.83153300478073033375e-01 -1.52523445380485400680e-01 -7.81954523842062071415e-03 -7.07951120942209577436e-02 -7.81954523842062071415e-03 -7.07951120942209577436e-02 9.96370488613741667194e-01 -3.28601801770900953104e-02
9.97004643436040639877e+08 9.83079303329920106691e-01 -1.52853953382242807590e-01 -7.85389167207916315261e-03 -7.09485203192586344478e-02 -7.85389167207916315261e-03 -7.09485203192586344478e-02 9.96354546411447272725e-01 -3.29313859675220213519e-02
9.97011285024874329567e+08 9.83004820081475272353e-01 -1.53185876319978792059e-01 -7.88846373350646570821e-03 -7.11025852994001811291e-02 -7.88846373350646570821e-03 -7.11025852994001811291e-02 9.96338499482019690490e-01 -3.30028965966695925216e-02
9.97017926613707900047e+08 9.82929846484663638506e-01 -1.53519223174697988510e-01 -7.92326339448411708088e-03 -7.12573112032586358788e-02 -7.92326339448411708088e-03 -7.12573112032586358788e-02 9.96322346910238909601e-01 -3.30747139994315986211e-02
9.97024568202541470528e+08 9.82854378245100801514e-01 -1.53854003002456801719e-01 -7.95829264828885364624e-03 -7.14127022342830458657e-02 -7.95829264828885364624e-03 -7.14127022342830458657e-02 9.96306087770908010981e-01 -3.31468401268762494216e-02
9.97031209791375160217e+08 9.82778411021497322331e-01 -1.54190224935093656011e-01 -7.99355350996871355518e-03 -7.15687626310973351584e-02 -7.99355350996871355518e-03 -7.15687626310973351584e-02 9.96289721128724270471e-01 -3.32192769463984863276e-02
9.97037851380208730698e+08 9.82701940425046216454e-01 -1.54527898181006623224e-01 -8.02904801662741168800e-03 -7.17254966678612659869e-02 -8.02904801662741168800e-03 -7.17254966678612659869e-02 9.96273246038148152515e-01 -3.32920264418875427870e-02
9.97044492969042420387e+08 9.82624962018792014184e-01 -1.54867032025980677634e-01 -8.06477822771726679529e-03 -7.18829086546544510083e-02 -8.06477822771726679529e-03 -7.18829086546544510083e-02 9.96256661543266419656e-01 -3.33650906139051489641e-02
9.97051134557875990868e+08 9.82547471317010034930e-01 -1.55207635833936791192e-01 -8.10074622532730263813e-03 -7.20410029378239641362e-02 -8.10074622532730263813e-03 -7.20410029378239641362e-02 9.96239966677659016803e-01 -3.34384714798469026564e-02
9.97057776146709561348e+08 9.82469463784550467444e-01 -1.55549719047801127125e-01 -8.13695411448748726069e-03 -7.21997839003878649766e-02 -8.13695411448748726069e-03 -7.21997839003878649766e-02 9.96223160464257517788e-01 -3.35121710741295986136e-02
9.97064417735543251038e+08 9.82390934836196993984e-01 -1.55893291190282501368e-01 -8.17340402346678276957e-03 -7.23592559623960629445e-02 -8.17340402346678276957e-03 -7.23592559623960629445e-02 9.96206241915207124649e-01 -3.35861914483586432301e-02
9.97071059324376821518e+08 9.82311879836005097388e-01 -1.56238361864698638293e-01 -8.21009810407995026249e-03 -7.25194235813137744184e-02 -8.21009810407995026249e-03 -7.25194235813137744184e-02 9.96189210031723670902e-01 -3.36605346715061204410e-02
9.97077700913210391998e+08 9.82232294096624158897e-01 -1.56584940755844892468e-01 -8.24703853200249061006e-03 -7.26802912524248112547e-02 -8.24703853200249061006e-03 -7.26802912524248112547e-02 9.96172063803948293348e-01 -3.37352028300979545072e-02
9.97084342502044081688e+08 9.82152172878616558371e-01 -1.56933037630835880982e-01 -8.28422750708644566042e-03 -7.28418635092221850025e-02 -8.28422750708644566042e-03 -7.28418635092221850025e-02 9.96154802210799994455e-01 -3.38101980283951816797e-02
9.97090984090877652168e+08 9.82071511389771223399e-01 -1.57282662339939899310e-01 -8.32166725367919184186e-03 -7.30041449237954082063e-02 -8.32166725367919184186e-03 -7.30041449237954082063e-02 9.96137424219828204741e-01 -3.38855223885737785738e-02
9.97097625679711222649e+08 9.81990304784389644865e-01 -1.57633824817493606307e-01 -8.35936002095465265083e-03 -7.31671401072551269573e-02 -8.35936002095465265083e-03 -7.31671401072551269573e-02 9.96119928787058794839e-01 -3.39611780509217059398e-02
9.97104267268544912338e+08 9.81908548162581995555e-01 -1.57986535082740409131e-01 -8.39730808324026800626e-03 -7.33308537101221291632e-02 -8.39730808324026800626e-03 -7.33308537101221291632e-02 9.96102314856842530055e-01 -3.40371671740195072542e-02
9.97110908857378482819e+08 9.81826236569533827847e-01 -1.58340803240755001458e-01 -8.43551374035718046218e-03 -7.34952904227566400364e-02 -8.43551374035718046218e-03 -7.34952904227566400364e-02 9.96084581361697085633e-01 -3.41134919349395451804e-02
9.97117550446212053299e+08 9.81743364994773326515e-01 -1.58696639483330070863e-01 -8.47397931796043356323e-03 -7.36604549757697707468e-02 -8.47397931796043356323e-03 -7.36604549757697707468e-02 9.96066727222148950993e-01 -3.41901545294369807459e-02
9.97124192035045742989e+08 9.81659928371418577520e-01 -1.59054054089908830649e-01 -8.51270716788822198740e-03 -7.38263521404563666239e-02 -8.51270716788822198740e-03 -7.38263521404563666239e-02 9.96048751346571448195e-01 -3.42671571721507167707e-02
9.97130833623879313469e+08 9.81575921575425391907e-01 -1.59413057428478666111e-01 -8.55169966851116077067e-03 -7.39929867292099113785e-02 -8.55169966851116077067e-03 -7.39929867292099113785e-02 9.96030652631022861421e-01 -3.43445020967959244174e-02
9.97137475212712883949e+08 9.81491339424805597780e-01 -1.59773659956550767580e-01 -8.59095922509514782484e-03 -7.41603635959771217978e-02 -8.59095922509514782484e-03 -7.41603635959771217978e-02 9.96012429959077572050e-01 -3.44221915563751035272e-02
9.97144116801546573639e+08 9.81406176678850217243e-01 -1.60135872222077146887e-01 -8.63048827016178222993e-03 -7.43284876366836072537e-02 -8.63048827016178222993e-03 -7.43284876366836072537e-02 9.95994082201659081122e-01 -3.45002278233756121129e-02
9.97150758390380144119e+08 9.81320428037329772764e-01 -1.60499704864426495643e-01 -8.67028926385965230395e-03 -7.44973637896868545738e-02 -8.67028926385965230395e-03 -7.44973637896868545738e-02 9.95975608216867591693e-01 -3.45786131899799425993e-02
9.97157399979213833809e+08 9.81234088139685822760e-01 -1.60865168615354908743e-01 -8.71036469433956669906e-03 -7.46669970362268259345e-02 -8.71036469433956669906e-03 -7.46669970362268259345e-02 9.95957006849805814852e-01 -3.46573499682748809025e-02
9.97164041568047404289e+08 9.81147151564209285546e-01 -1.61232274299991679145e-01 -8.75071707813602876758e-03 -7.48373924008833985022e-02 -8.75071707813602876758e-03 -7.48373924008833985022e-02 9.95938276932401889141e-01 -3.47364404904638157667e-02
9.97170683156880974770e+08 9.81059612827205884678e-01 -1.61601032837833696876e-01 -8.79134896055439561680e-03 -7.50085549520380784339e-02 -8.79134896055439561680e-03 -7.50085549520380784339e-02 9.95919417283229746474e-01 -3.48158871090810395632e-02
9.97177324745714664459e+08 9.80971466382143164608e-01 -1.61971455243777900934e-01 -8.83226291606694323411e-03 -7.51804898023531453788e-02 -8.83226291606694323411e-03 -7.51804898023531453788e-02 9.95900426707325148179e-01 -3.48956921972141745347e-02
9.97183966334548234940e+08 9.80882706618803057452e-01 -1.62343552629085702277e-01 -8.87346154870632779221e-03 -7.53532021092192666467e-02 -8.87346154870632779221e-03 -7.53532021092192666467e-02 9.95881303996003275358e-01 -3.49758581487119024622e-02
9.97190607923381805420e+08 9.80793327862386710159e-01 -1.62717336202499285314e-01 -8.91494749248076916170e-03 -7.55266970752736938044e-02 -8.91494749248076916170e-03 -7.55266970752736938044e-02 9.95862047926665661102e-01 -3.50563873784245291776e-02
9.97197249512215495110e+08 9.80703324372638074458e-01 -1.63092817271238504917e-01 -8.95672341178109163162e-03 -7.57009799488630036324e-02 -8.95672341178109163162e-03 -7.57009799488630036324e-02 9.95842657262611896662e-01 -3.51372823224187363911e-02
