! File generated for n1 = 3, n2 = 9
! b1 = 21.544347
! b2 = 0.046416
! Q0 = 10000.000000
! f0 = 1000000000.000000
! n = 1001
! rel_span = 10.000000
# Hz S RI R 50
9.88704618605672478676e+08 9.81327076339042703168e-01 -1.87795873654291595178e-01 -8.66720339556034625669e-04 -8.71671230152315859585e-03 -8.66720339556034625669e-04 -8.71671230152315859585e-03 9.99959770405500547596e-01 -4.04593944845650253447e-04
9.88727209368461132050e+08 9.81252469764315127243e-01 -1.88166946801004902889e-01 -8.70183269997728669337e-04 -8.73393599126554009970e-03 -8.70183269997728669337e-04 -8.73393599126554009970e-03 9.99959609670507787449e-01 -4.05393397705468749772e-04
9.88749800131249785423e+08 9.81177418396176226345e-01 -1.88539465575617182225e-01 -8.73666845920739536767e-04 -8.75122678111105514742e-03 -8.73666845920739536767e-04 -8.75122678111105514742e-03 9.99959447977236792759e-01 -4.06195965076181603973e-04
9.88772390894038438797e+08 9.81101918707327769198e-01 -1.88913438349872730981e-01 -8.77171231047741101032e-04 -8.76858505964165160784e-03 -8.77171231047741101032e-04 -8.76858505964165160784e-03 9.99959285318087975902e-01 -4.07001664994165190687e-04
9.88794981656827092171e+08 9.81025967135572884992e-01 -1.89288873559512127454e-01 -8.80696590721267080423e-04 -8.78601121840972415500e-03 -8.80696590721267080423e-04 -8.78601121840972415500e-03 9.99959121685387031242e-01 -4.07810515633671706419e-04
9.88817572419615745544e+08 9.80949560083401617128e-01 -1.89665779704880133050e-01 -8.84243091922940881860e-04 -8.80350565196632607601e-03 -8.84243091922940881860e-04 -8.80350565196632607601e-03 9.99958957071383269799e-01 -4.08622535308138777350e-04
9.88840163182404398918e+08 9.80872693917570370736e-01 -1.90044165351542920783e-01 -8.87810903292992541040e-04 -8.82106875788981996400e-03 -8.87810903292992541040e-04 -8.82106875788981996400e-03 9.99958791468249175161e-01 -4.09437742471519179090e-04
9.88862753945193052292e+08 9.80795364968679250772e-01 -1.90424039130893507643e-01 -8.91400195149871289214e-04 -8.83870093681398023844e-03 -8.91400195149871289214e-04 -8.83870093681398023844e-03 9.99958624868079071213e-01 -4.10256155719585619782e-04
9.88885344707981705666e+08 9.80717569530738852990e-01 -1.90805409740789938544e-01 -8.95011139510372465480e-04 -8.85640259245761354845e-03 -8.95011139510372465480e-04 -8.85640259245761354845e-03 9.99958457262888900097e-01 -4.11077793791305128989e-04
9.88907935470770359039e+08 9.80639303860734390383e-01 -1.91188285946180147601e-01 -8.98643910109852791547e-04 -8.87417413165356508409e-03 -8.98643910109852791547e-04 -8.87417413165356508409e-03 9.99958288644614445850e-01 -4.11902675570185582577e-04
9.88930526233559012413e+08 9.80560564178183047268e-01 -1.91572676579739586966e-01 -9.02298682422777954468e-04 -8.89201596437831469355e-03 -9.02298682422777954468e-04 -8.89201596437831469355e-03 9.99958119005110779298e-01 -4.12730820085649332662e-04
9.88953116996347665787e+08 9.80481346664683006686e-01 -1.91958590542527118838e-01 -9.05975633683663754761e-04 -8.90992850378241260656e-03 -9.05975633683663754761e-04 -8.90992850378241260656e-03 9.99957948336151702939e-01 -4.13562246514446465138e-04
9.88975707759136319160e+08 9.80401647463459036125e-01 -1.92346036804631609352e-01 -9.09674942908150936660e-04 -8.92791216622050402829e-03 -9.09674942908150936660e-04 -8.92791216622050402829e-03 9.99957776629427752546e-01 -4.14396974182047565793e-04
9.88998298521924972534e+08 9.80321462678901300869e-01 -1.92735024405833149652e-01 -9.13396790914442358728e-04 -8.94596737128201466294e-03 -9.13396790914442358728e-04 -8.94596737128201466294e-03 9.99957603876546308186e-01 -4.15235022564068470378e-04
9.89020889284713625908e+08 9.80240788376095295575e-01 -1.93125562456275823298e-01 -9.17141360345081146054e-04 -8.96409454182236879738e-03 -9.17141360345081146054e-04 -8.96409454182236879738e-03 9.99957430069029817865e-01 -4.16076411287719571865e-04
9.89043480047502279282e+08 9.80159620580347890062e-01 -1.93517660137142194499e-01 -9.20908835688977992114e-04 -8.98229410399431667245e-03 -9.20908835688977992114e-04 -8.98229410399431667245e-03 9.99957255198314909350e-01 -4.16921160133259085037e-04
9.89066070810290932655e+08 9.80077955276706602739e-01 -1.93911326701333652789e-01 -9.24699403303730544691e-04 -9.00056648727949604183e-03 -9.24699403303730544691e-04 -9.00056648727949604183e-03 9.99957079255751724034e-01 -4.17769289035458887827e-04
9.89088661573079586029e+08 9.79995788409468437941e-01 -1.94306571474171879688e-01 -9.28513251438384495766e-04 -9.01891212452099293173e-03 -9.28513251438384495766e-04 -9.01891212452099293173e-03 9.99956902232602584668e-01 -4.18620818085115357042e-04
9.89111252335868239403e+08 9.79913115881687057929e-01 -1.94703403854091128267e-01 -9.32350570256353723859e-04 -9.03733145195548433215e-03 -9.32350570256353723859e-04 -9.03733145195548433215e-03 9.99956724120040885140e-01 -4.19475767530541284768e-04
9.89133843098656892776e+08 9.79829933554670406970e-01 -1.95101833313342132303e-01 -9.36211551858698331520e-04 -9.05582490924590303993e-03 -9.36211551858698331520e-04 -9.05582490924590303993e-03 9.99956544909149980249e-01 -4.20334157779082243523e-04
9.89156433861445546150e+08 9.79746237247468565457e-01 -1.95501869398723521210e-01 -9.40096390307921907226e-04 -9.07439293951538793193e-03 -9.40096390307921907226e-04 -9.07439293951538793193e-03 9.99956364590922297531e-01 -4.21196009398692474118e-04
9.89179024624234199524e+08 9.79662022736360382780e-01 -1.95903521732290558655e-01 -9.44005281651804457541e-04 -9.09303598938017952624e-03 -9.44005281651804457541e-04 -9.09303598938017952624e-03 9.99956183156258116007e-01 -4.22061343119461550733e-04
9.89201615387022852898e+08 9.79577285754327453660e-01 -1.96306800012093329855e-01 -9.47938423947784704511e-04 -9.11175450898389117926e-03 -9.47938423947784704511e-04 -9.11175450898389117926e-03 9.99956000595964566990e-01 -4.22930179835205068140e-04
9.89224206149811506271e+08 9.79492021990523764607e-01 -1.96711714012915872551e-01 -9.51896017287611156781e-04 -9.13054895203180456875e-03 -9.51896017287611156781e-04 -9.13054895203180456875e-03 9.99955816900753968746e-01 -4.23802540605056738375e-04
9.89246796912600159645e+08 9.79406227089734349178e-01 -1.97118273587035208738e-01 -9.55878263822464266548e-04 -9.14941977582611233599e-03 -9.55878263822464266548e-04 -9.14941977582611233599e-03 9.99955632061243493425e-01 -4.24678446655104018144e-04
9.89269387675388813019e+08 9.79319896651831611756e-01 -1.97526488664962113218e-01 -9.59885367788166190064e-04 -9.16836744130028989674e-03 -9.59885367788166190064e-04 -9.16836744130028989674e-03 9.99955446067953279687e-01 -4.25557919379983837574e-04
9.89291978438177466393e+08 9.79233026231217551505e-01 -1.97936369256225347391e-01 -9.63917535531100808967e-04 -9.18739241305551075645e-03 -9.63917535531100808967e-04 -9.18739241305551075645e-03 9.99955258911305544522e-01 -4.26440980344572058251e-04
9.89314569200966119766e+08 9.79145611336263654856e-01 -1.98347925450133827363e-01 -9.67974975534195659563e-04 -9.20649515939600884828e-03 -9.67974975534195659563e-04 -9.20649515939600884828e-03 9.99955070581623473025e-01 -4.27327651285625985302e-04
9.89337159963754773140e+08 9.79057647428738020423e-01 -1.98761167416571210564e-01 -9.72057898443513508993e-04 -9.22567615236596742789e-03 -9.72057898443513508993e-04 -9.22567615236596742789e-03 9.99954881069129553062e-01 -4.28217954113495726312e-04
9.89359750726543426514e+08 9.78969129923227820989e-01 -1.99176105406784070828e-01 -9.76166517095070638069e-04 -9.24493586778610612620e-03 -9.76166517095070638069e-04 -9.24493586778610612620e-03 9.99954690363945020160e-01 -4.29111910913822431398e-04
9.89382341489332079887e+08 9.78880054186550552231e-01 -1.99592749754188614197e-01 -9.80301046542139545639e-04 -9.26427478529111454730e-03 -9.80301046542139545639e-04 -9.26427478529111454730e-03 9.99954498456087859104e-01 -4.30009543949276486132e-04
9.89404932252120733261e+08 9.78790415537160507498e-01 -2.00011110875175479595e-01 -9.84461704082830292920e-04 -9.28369338836701647744e-03 -9.84461704082830292920e-04 -9.28369338836701647744e-03 9.99954305335472137806e-01 -4.30910875661291150815e-04
9.89427523014909386635e+08 9.78700209244540486608e-01 -2.00431199269945681252e-01 -9.88648709288292770400e-04 -9.30319216438997391438e-03 -9.88648709288292770400e-04 -9.30319216438997391438e-03 9.99954110991906008898e-01 -4.31815928671863908175e-04
9.89450113777698040009e+08 9.78609430528592283416e-01 -2.00853025523328149182e-01 -9.92862284031046033253e-04 -9.32277160466422200047e-03 -9.92862284031046033253e-04 -9.32277160466422200047e-03 9.99953915415091265650e-01 -4.32724725785317261909e-04
9.89472704540486693382e+08 9.78518074559011519220e-01 -2.01276600305629244092e-01 -9.97102652513944280252e-04 -9.34243220446150969549e-03 -9.97102652513944280252e-04 -9.34243220446150969549e-03 9.99953718594621232540e-01 -4.33637289990129466254e-04
9.89495295303275346756e+08 9.78426136454656814045e-01 -2.01701934373485991525e-01 -1.00137004129950560674e-03 -9.36217446306069830952e-03 -1.00137004129950560674e-03 -9.36217446306069830952e-03 9.99953520519979877079e-01 -4.34553644460772411310e-04
9.89517886066064000130e+08 9.78333611282912074536e-01 -2.02129038570711877520e-01 -1.00566467933949337671e-03 -9.38199888378702696878e-03 -1.00566467933949337671e-03 -9.38199888378702696878e-03 9.99953321180540144475e-01 -4.35473812559534112672e-04
9.89540476828852653503e+08 9.78240494059030796237e-01 -2.02557923829193131660e-01 -1.00998679800533720102e-03 -9.40190597405370434569e-03 -1.00998679800533720102e-03 -9.40190597405370434569e-03 9.99953120565562847410e-01 -4.36397817838449404455e-04
9.89563067591641426086e+08 9.78146779745480920987e-01 -2.02988601169751869957e-01 -1.01433663111856454085e-03 -9.42189624540197903646e-03 -1.01433663111856454085e-03 -9.42189624540197903646e-03 9.99952918664194778664e-01 -4.37325684041159779697e-04
9.89585658354430079460e+08 9.78052463251275816525e-01 -2.03421081703035827593e-01 -1.01871441498184336742e-03 -9.44197021354243638813e-03 -1.01871441498184336742e-03 -9.44197021354243638813e-03 9.99952715465467822931e-01 -4.38257435104830205593e-04
9.89608249117218732834e+08 9.77957539431291600351e-01 -2.03855376630436763152e-01 -1.02312038841066666947e-03 -9.46212839839762585858e-03 -1.02312038841066666947e-03 -9.46212839839762585858e-03 9.99952510958297069443e-01 -4.39193095162127738248e-04
9.89630839880007386208e+08 9.77862003085580355766e-01 -2.04291497244993708327e-01 -1.02755479276524165806e-03 -9.48237132414398407876e-03 -1.02755479276524165806e-03 -9.48237132414398407876e-03 9.99952305131479701750e-01 -4.40132688543167231894e-04
9.89653430642796039581e+08 9.77765848958670025226e-01 -2.04729454932318810645e-01 -1.03201787198297333104e-03 -9.50269951925481436150e-03 -1.03201787198297333104e-03 -9.50269951925481436150e-03 9.99952097973693110333e-01 -4.41076239777506541942e-04
9.89676021405584692955e+08 9.77669071738855088860e-01 -2.05169261171529754284e-01 -1.03650987261138388673e-03 -9.52311351654356284813e-03 -1.03650987261138388673e-03 -9.52311351654356284813e-03 9.99951889473493560345e-01 -4.42023773596155063713e-04
9.89698612168373346329e+08 9.77571666057474364386e-01 -2.05610927536206522515e-01 -1.04103104384165620448e-03 -9.54361385320822222522e-03 -1.04103104384165620448e-03 -9.54361385320822222522e-03 9.99951679619314637293e-01 -4.42975314933634963400e-04
9.89721202931161999702e+08 9.77473626488183033878e-01 -2.06054465695332200692e-01 -1.04558163754240132128e-03 -9.56420107087501206178e-03 -1.04558163754240132128e-03 -9.56420107087501206178e-03 9.99951468399465581705e-01 -4.43930888930008256659e-04
9.89743793693950653076e+08 9.77374947546206906956e-01 -2.06499887414281352305e-01 -1.05016190829429630592e-03 -9.58487571564424142845e-03 -1.05016190829429630592e-03 -9.58487571564424142845e-03 9.99951255802129734818e-01 -4.44890520933005856417e-04
9.89766384456739306450e+08 9.77275623687592354116e-01 -2.06947204555782249269e-01 -1.05477211342485765848e-03 -9.60563833813498149650e-03 -1.05477211342485765848e-03 -9.60563833813498149650e-03 9.99951041815363206311e-01 -4.45854236500101272153e-04
9.89788975219527959824e+08 9.77175649308440696927e-01 -2.07396429080920485788e-01 -1.05941251304403805285e-03 -9.62648949353164806730e-03 -1.05941251304403805285e-03 -9.62648949353164806730e-03 9.99950826427092653859e-01 -4.46822061400672237985e-04
9.89811565982316613197e+08 9.77075018744129941695e-01 -2.07847573050147643725e-01 -1.06408337008028863573e-03 -9.64742974163081482009e-03 -1.06408337008028863573e-03 -9.64742974163081482009e-03 9.99950609625114061885e-01 -4.47794021618173887500e-04
9.89834156745105266571e+08 9.76973726268531295069e-01 -2.08300648624282547239e-01 -1.06878495031696219876e-03 -9.66845964688768655382e-03 -1.06878495031696219876e-03 -9.66845964688768655382e-03 9.99950391397090743162e-01 -4.48770143352296261869e-04
9.89856747507893919945e+08 9.76871766093207138937e-01 -2.08755668065551069912e-01 -1.07351752242953947698e-03 -9.68957977846437307212e-03 -1.07351752242953947698e-03 -9.68957977846437307212e-03 9.99950171730552006544e-01 -4.49750453021204054695e-04
9.89879338270682573318e+08 9.76769132366598569206e-01 -2.09212643738629383572e-01 -1.07828135802332490678e-03 -9.71079071027830358076e-03 -1.07828135802332490678e-03 -9.71079071027830358076e-03 9.99949950612891047541e-01 -4.50734977263784705216e-04
9.89901929033471226692e+08 9.76665819173203386683e-01 -2.09671588111689288780e-01 -1.08307673167160273611e-03 -9.73209302105074690326e-03 -1.08307673167160273611e-03 -9.73209302105074690326e-03 9.99949728031363282987e-01 -4.51723742941899852540e-04
9.89924519796259880066e+08 9.76561820532738988909e-01 -2.10132513757468913917e-01 -1.08790392095450784080e-03 -9.75348729435651130848e-03 -1.08790392095450784080e-03 -9.75348729435651130848e-03 9.99949503973084574682e-01 -4.52716777142692843126e-04
9.89947110559048533440e+08 9.76457130399292827505e-01 -2.10595433354352407074e-01 -1.09276320649844232817e-03 -9.77497411867406067187e-03 -1.09276320649844232817e-03 -9.77497411867406067187e-03 9.99949278425029342010e-01 -4.53714107180914181811e-04
9.89969701321837186813e+08 9.76351742660459098744e-01 -2.11060359687467113954e-01 -1.09765487201614374627e-03 -9.79655408743643728309e-03 -1.09765487201614374627e-03 -9.79655408743643728309e-03 9.99949051374028896610e-01 -4.54715760601285797285e-04
9.89992292084625840187e+08 9.76245651136466441322e-01 -2.11527305649778396557e-01 -1.10257920434719673165e-03 -9.81822779908208403965e-03 -1.10257920434719673165e-03 -9.81822779908208403965e-03 9.99948822806769332949e-01 -4.55721765180859615489e-04
9.90014882847414493561e+08 9.76138849579286649316e-01 -2.11996284243218008347e-01 -1.10753649349937970982e-03 -9.83999585710721227927e-03 -1.10753649349937970982e-03 -9.83999585710721227927e-03 9.99948592709789529920e-01 -4.56732148931448286681e-04
9.90037473610203146935e+08 9.76031331671731838817e-01 -2.12467308579819519343e-01 -1.11252703269057603118e-03 -9.86185887011850614847e-03 -1.11252703269057603118e-03 -9.86185887011850614847e-03 9.99948361069479707552e-01 -4.57746940102071796057e-04
9.90060064372991800308e+08 9.75923091026540956427e-01 -2.12940391882854268557e-01 -1.11755111839118730956e-03 -9.88381745188585299211e-03 -1.11755111839118730956e-03 -9.88381745188585299211e-03 9.99948127872078873501e-01 -4.58766167181404724892e-04
9.90082655135780453682e+08 9.75814121185446414763e-01 -2.13415547488003676246e-01 -1.12260905036743667378e-03 -9.90587222139675295518e-03 -1.12260905036743667378e-03 -9.90587222139675295518e-03 9.99947893103673046689e-01 -4.59789858900301682664e-04
9.90105245898569107056e+08 9.75704415618231735152e-01 -2.13892788844525311154e-01 -1.12770113172512608316e-03 -9.92802380291044409000e-03 -1.12770113172512608316e-03 -9.92802380291044409000e-03 9.99947656750193369923e-01 -4.60818044234309782958e-04
9.90127836661357760429e+08 9.75593967721769095292e-01 -2.14372129516454679177e-01 -1.13282766895429461498e-03 -9.95027282601368238957e-03 -1.13282766895429461498e-03 -9.95027282601368238957e-03 9.99947418797413778435e-01 -4.61850752406257609832e-04
9.90150427424146413803e+08 9.75482770819049216371e-01 -2.14853583183793300782e-01 -1.13798897197426641427e-03 -9.97261992567589038161e-03 -1.13798897197426641427e-03 -9.97261992567589038161e-03 9.99947179230949112494e-01 -4.62888012888815019146e-04
9.90173018186935067177e+08 9.75370818158187047331e-01 -2.15337163643746637431e-01 -1.14318535417977634044e-03 -9.99506574230661810898e-03 -1.14318535417977634044e-03 -9.99506574230661810898e-03 9.99946938036252896964e-01 -4.63929855407160059069e-04
9.90195608949723720551e+08 9.75258102911421231873e-01 -2.15822884811942283800e-01 -1.14841713248743865564e-03 -1.00176109218120812372e-02 -1.14841713248743865564e-03 -1.00176109218120812372e-02 9.99946695198615120859e-01 -4.64976309941603606693e-04
9.90218199712512373924e+08 9.75144618174090260787e-01 -2.16310760723691763996e-01 -1.15368462738324505448e-03 -1.00402561156537305231e-02 -1.15368462738324505448e-03 -1.00402561156537305231e-02 9.99946450703160238938e-01 -4.66027406730307571306e-04
9.90240790475301027298e+08 9.75030356963598743292e-01 -2.16800805535245860733e-01 -1.15898816297057140161e-03 -1.00630019809065246461e-02 -1.15898816297057140161e-03 -1.00630019809065246461e-02 9.99946204534844618195e-01 -4.67083176271989816176e-04
9.90263381238089680672e+08 9.74915312218361806984e-01 -2.17293033525085388380e-01 -1.16432806701914962587e-03 -1.00858491803188336788e-02 -1.16432806701914962587e-03 -1.00858491803188336788e-02 9.99945956678454650479e-01 -4.68143649328704811868e-04
9.90285972000878334045e+08 9.74799476796738173512e-01 -2.17787459095208829618e-01 -1.16970467101459949660e-03 -1.01087983823722089849e-02 -1.16970467101459949660e-03 -1.01087983823722089849e-02 9.99945707118603976937e-01 -4.69208856928617567498e-04
9.90308562763666987419e+08 9.74682843475942028988e-01 -2.18284096772454555557e-01 -1.17511831020894572282e-03 -1.01318502613427612047e-02 -1.17511831020894572282e-03 -1.01318502613427612047e-02 9.99945455839731600634e-01 -4.70278830368852588783e-04
9.90331153526455640793e+08 9.74565404950941460704e-01 -2.18782961209821297244e-01 -1.18056932367173071305e-03 -1.01550054973624410970e-02 -1.18056932367173071305e-03 -1.01550054973624410970e-02 9.99945202826099444060e-01 -4.71353601218338716123e-04
9.90353744289244294167e+08 9.74447153833336354722e-01 -2.19284067187821202216e-01 -1.18605805434211114026e-03 -1.01782647764818504066e-02 -1.18605805434211114026e-03 -1.01782647764818504066e-02 9.99944948061789462557e-01 -4.72433201320724110561e-04
9.90376335052032947540e+08 9.74328082650220195227e-01 -2.19787429615840579356e-01 -1.19158484908168092221e-03 -1.02016287907333996765e-02 -1.19158484908168092221e-03 -1.02016287907333996765e-02 9.99944691530701978976e-01 -4.73517662797307719615e-04
9.90398925814821600914e+08 9.74208183843022990089e-01 -2.20293063533522598396e-01 -1.19715005872818368131e-03 -1.02250982381954878125e-02 -1.19715005872818368131e-03 -1.02250982381954878125e-02 9.99944433216552464039e-01 -4.74607018050018556431e-04
9.90421516577610254288e+08 9.74087449766338209223e-01 -2.20800984112154985439e-01 -1.20275403814994793356e-03 -1.02486738230569088964e-02 -1.20275403814994793356e-03 -1.02486738230569088964e-02 9.99944173102869426906e-01 -4.75701299764405224641e-04
9.90444107340398907661e+08 9.73965872686726630292e-01 -2.21311206656097297918e-01 -1.20839714630143098273e-03 -1.02723562556831099490e-02 -1.20839714630143098273e-03 -1.02723562556831099490e-02 9.99943911172991528602e-01 -4.76800540912710878357e-04
9.90466698103187561035e+08 9.73843444781503531082e-01 -2.21823746604211835542e-01 -1.21407974627949334992e-03 -1.02961462526825996144e-02 -1.21407974627949334992e-03 -1.02961462526825996144e-02 9.99943647410065583614e-01 -4.77904774756955988413e-04
