! File generated for n1 = 2, n2 = 15
! b1 = 46.415888
! b2 = 0.001000
! Q0 = 10000.000000
! f0 = 1000000000.000000
! n = 1001
! rel_span = 10.000000
# Hz S RI R 50
9.76291555831936120987e+08 9.81073869666743481055e-01 -1.91559331527334036904e-01 -8.78473152183433311909e-05 -8.89139654191601659650e-04 -8.78473152183433311909e-05 -8.89139654191601659650e-04 9.99999592248882573919e-01 -4.12702069041806404422e-06
9.76338972720272302628e+08 9.80997749530258200679e-01 -1.91940398998777517203e-01 -8.82006335938665298087e-05 -8.90908412711906901732e-04 -8.82006335938665298087e-05 -8.90908412711906901732e-04 9.99999590608923960566e-01 -4.13523054021527009330e-06
9.76386389608608365059e+08 9.80921174572311205253e-01 -1.92322951144563908388e-01 -8.85560630636075693739e-05 -8.92684062480063474608e-04 -8.85560630636075693739e-05 -8.92684062480063474608e-04 9.99999588959166518798e-01 -4.14347237635155336930e-06
9.76433806496944546700e+08 9.80844141181921203021e-01 -1.92706996564277366346e-01 -8.89136203882573346617e-05 -8.94466643411805724558e-04 -8.89136203882573346617e-05 -8.94466643411805724558e-04 9.99999587299532421980e-01 -4.15174638409933844448e-06
9.76481223385280609131e+08 9.80766645712354279141e-01 -1.93092543923251480642e-01 -8.92733224944549389130e-05 -8.96256195728048791690e-04 -8.92733224944549389130e-05 -8.96256195728048791690e-04 9.99999585629943177345e-01 -4.16005275014757866417e-06
9.76528640273616790771e+08 9.80688684480698236179e-01 -1.93479601953199714659e-01 -8.96351864767641972904e-05 -8.98052759957816714755e-04 -8.96351864767641972904e-05 -8.98052759957816714755e-04 9.99999583950319403947e-01 -4.16839166261533747304e-06
9.76576057161952853203e+08 9.80610253767433603933e-01 -1.93868179452840794230e-01 -8.99992295996656857396e-05 -8.99856376941143864569e-04 -8.99992295996656857396e-05 -8.99856376941143864569e-04 9.99999582260580832660e-01 -4.17676331106526301526e-06
9.76623474050289034843e+08 9.80531349815997543828e-01 -1.94258285288533893986e-01 -9.03654692995794014574e-05 -9.01667087832024190773e-04 -9.03654692995794014574e-05 -9.01667087832024190773e-04 9.99999580560646750271e-01 -4.18516788651727449284e-06
9.76670890938625097275e+08 9.80451968832342646287e-01 -1.94649928394918597663e-01 -9.07339231869128207955e-05 -9.03484934101380743159e-04 -9.07339231869128207955e-05 -9.03484934101380743159e-04 9.99999578850435333344e-01 -4.19360558146234423869e-06
9.76718307826961278915e+08 9.80372106984488289605e-01 -1.95043117775570040706e-01 -9.11046090481452237268e-05 -9.05309957540107726123e-04 -9.11046090481452237268e-05 -9.05309957540107726123e-04 9.99999577129863981284e-01 -4.20207658987662114404e-06
9.76765724715297341347e+08 9.80291760402066891800e-01 -1.95437862503651638146e-01 -9.14775448479315881614e-05 -9.07142200262098783760e-04 -9.14775448479315881614e-05 -9.07142200262098783760e-04 9.99999575398849316343e-01 -4.21058110723548293498e-06
9.76813141603633522987e+08 9.80210925175862834990e-01 -1.95834171722582300879e-01 -9.18527487312426152996e-05 -9.08981704707345107563e-04 -9.18527487312426152996e-05 -9.08981704707345107563e-04 9.99999573657307183616e-01 -4.21911933052791963896e-06
9.76860558491969704628e+08 9.80129597357346171727e-01 -1.96232054646707981815e-01 -9.22302390255316838566e-05 -9.10828513645052083997e-04 -9.22302390255316838566e-05 -9.10828513645052083997e-04 9.99999571905152428997e-01 -4.22769145827099667237e-06
9.76907975380305767059e+08 9.80047772958199336912e-01 -1.96631520561977357620e-01 -9.26100342429286789480e-05 -9.12682670176775240854e-04 -9.26100342429286789480e-05 -9.12682670176775240854e-04 9.99999570142299232245e-01 -4.23629769052441279581e-06
9.76955392268641948700e+08 9.79965447949835533059e-01 -1.97032578826638576919e-01 -9.29921530824774736660e-05 -9.14544217739654856023e-04 -9.29921530824774736660e-05 -9.14544217739654856023e-04 9.99999568368660662898e-01 -4.24493822890551462007e-06
9.77002809156978011131e+08 9.79882618262913895890e-01 -1.97435238871922491555e-01 -9.33766144323843204399e-05 -9.16413200109586706735e-04 -9.33766144323843204399e-05 -9.16413200109586706735e-04 9.99999566584149124360e-01 -4.25361327660400872147e-06
9.77050226045314192772e+08 9.79799279786844112827e-01 -1.97839510202757196122e-01 -9.37634373723204389518e-05 -9.18289661404538860856e-04 -9.37634373723204389518e-05 -9.18289661404538860856e-04 9.99999564788676131855e-01 -4.26232303839736578294e-06
9.77097642933650255203e+08 9.79715428369287266719e-01 -1.98245402398467579497e-01 -9.41526411757348904216e-05 -9.20173646087798753970e-04 -9.41526411757348904216e-05 -9.20173646087798753970e-04 9.99999562982152090385e-01 -4.27106772066588253397e-06
9.77145059821986436844e+08 9.79631059815645688360e-01 -1.98652925113509126742e-01 -9.45442453122253482871e-05 -9.22065198971379210505e-04 -9.45442453122253482871e-05 -9.22065198971379210505e-04 9.99999561164486627796e-01 -4.27984753140849754976e-06
9.77192476710322499275e+08 9.79546169888551698790e-01 -1.99062088078177767958e-01 -9.49382694499113625498e-05 -9.23964365219313008872e-04 -9.49382694499113625498e-05 -9.23964365219313008872e-04 9.99999559335588594777e-01 -4.28866268025808104297e-06
9.77239893598658680916e+08 9.79460754307341363578e-01 -1.99472901099361582533e-01 -9.53347334578738011103e-05 -9.25871190351142603001e-04 -9.53347334578738011103e-05 -9.25871190351142603001e-04 9.99999557495365731796e-01 -4.29751337849763352178e-06
9.77287310486994862556e+08 9.79374808747527358932e-01 -1.99885374061276488433e-01 -9.57336574086050789154e-05 -9.27785720245334058140e-04 -9.57336574086050789154e-05 -9.27785720245334058140e-04 9.99999555643724780118e-01 -4.30639983907613038824e-06
9.77334727375330924988e+08 9.79288328840261734776e-01 -2.00299516926217363588e-01 -9.61350615805010611263e-05 -9.29708001142764061883e-04 -9.61350615805010611263e-05 -9.29708001142764061883e-04 9.99999553780571703854e-01 -4.31532227662470873784e-06
9.77382144263667106628e+08 9.79201310171788796843e-01 -2.00715339735330067228e-01 -9.65389664604006440774e-05 -9.31638079650302995509e-04 -9.65389664604006440774e-05 -9.31638079650302995509e-04 9.99999551905811245867e-01 -4.32428090747329715740e-06
9.77429561152003169060e+08 9.79113748282895546282e-01 -2.01132852609368140140e-01 -9.69453927461377367976e-05 -9.33576002744327749019e-04 -9.69453927461377367976e-05 -9.33576002744327749019e-04 9.99999550019347593910e-01 -4.33327594966692280338e-06
9.77476978040339350700e+08 9.79025638668348463511e-01 -2.01552065749482367529e-01 -9.73543613491535377242e-05 -9.35521817774385673963e-04 -9.73543613491535377242e-05 -9.35521817774385673963e-04 9.99999548121083492447e-01 -4.34230762298271558825e-06
9.77524394928675413132e+08 9.78936976776326739369e-01 -2.01972989438001265805e-01 -9.77658933971285438970e-05 -9.37475572466818095514e-04 -9.77658933971285438970e-05 -9.37475572466818095514e-04 9.99999546210920908784e-01 -4.35137614894672856080e-06
9.77571811817011594772e+08 9.78847758007843404826e-01 -2.02395634039237853896e-01 -9.81800102366691090743e-05 -9.39437314928504496256e-04 -9.81800102366691090743e-05 -9.39437314928504496256e-04 9.99999544288760811028e-01 -4.36048175085131648111e-06
9.77619228705347657204e+08 9.78757977716163019011e-01 -2.02820010000283768026e-01 -9.85967334360113355305e-05 -9.41407093650549020407e-04 -9.85967334360113355305e-05 -9.41407093650549020407e-04 9.99999542354503057062e-01 -4.36962465377224588606e-06
9.77666645593683838844e+08 9.78667631206205146377e-01 -2.03246127851836988487e-01 -9.90160847877878224754e-05 -9.43384957512121368438e-04 -9.90160847877878224754e-05 -9.43384957512121368438e-04 9.99999540408046505569e-01 -4.37880508458652682697e-06
9.77714062482019901276e+08 9.78576713733944392182e-01 -2.03673998209017909078e-01 -9.94380863118136861661e-05 -9.45370955784246300505e-04 -9.94380863118136861661e-05 -9.45370955784246300505e-04 9.99999538449288905007e-01 -4.38802327198999557949e-06
9.77761479370356082916e+08 9.78485220505797559376e-01 -2.04103631772213911511e-01 -9.98627602579313573307e-05 -9.47365138133722159940e-04 -9.98627602579313573307e-05 -9.47365138133722159940e-04 9.99999536478127115657e-01 -4.39727944651551060540e-06
9.77808896258692264557e+08 9.78393146678005920513e-01 -2.04535039327913309437e-01 -1.00290129108876723820e-04 -9.49367554626992667631e-04 -1.00290129108876723820e-04 -9.49367554626992667631e-04 9.99999534494456554512e-01 -4.40657384055091727435e-06
9.77856313147028326988e+08 9.78300487356005166184e-01 -2.04968231749567714184e-01 -1.00720215583205487142e-04 -9.51378255734149471182e-04 -1.00720215583205487142e-04 -9.51378255734149471182e-04 9.99999532498172083450e-01 -4.41590668835762922568e-06
9.77903730035364508629e+08 9.78207237593787359842e-01 -2.05403219998455177642e-01 -1.01153042638252790440e-04 -9.53397292332938271937e-04 -1.01153042638252790440e-04 -9.53397292332938271937e-04 9.99999530489166787994e-01 -4.42527822608922243562e-06
9.77951146923700571060e+08 9.78113392393254121870e-01 -2.05840015124553521453e-01 -1.01588633473136228129e-04 -9.55424715712812873750e-04 -1.01588633473136228129e-04 -9.55424715712812873750e-04 9.99999528467333198556e-01 -4.43468869181025374831e-06
9.77998563812036752701e+08 9.78018946703559044487e-01 -2.06278628267428681964e-01 -1.02027011531807509080e-04 -9.57460577579057970157e-04 -1.02027011531807509080e-04 -9.57460577579057970157e-04 9.99999526432562513278e-01 -4.44413832551539535008e-06
9.78045980700372815132e+08 9.77923895420443001214e-01 -2.06719070657124054380e-01 -1.02468200506139681658e-04 -9.59504930056917786259e-04 -1.02468200506139681658e-04 -9.59504930056917786259e-04 9.99999524384744709060e-01 -4.45362736914859804285e-06
9.78093397588708996773e+08 9.77828233385555800616e-01 -2.07161353615073873247e-01 -1.02912224339072905666e-04 -9.61557825695834875526e-04 -1.02912224339072905666e-04 -9.61557825695834875526e-04 9.99999522323768652576e-01 -4.46315606662276781946e-06
9.78140814477045059204e+08 9.77731955385771178690e-01 -2.07605488555015982310e-01 -1.03359107227795515068e-04 -9.63619317473687398735e-04 -1.03359107227795515068e-04 -9.63619317473687398735e-04 9.99999520249521989257e-01 -4.47272466383943312172e-06
9.78188231365381240845e+08 9.77635056152490244941e-01 -2.08051486983921701812e-01 -1.03808873626978179520e-04 -9.65689458801105115975e-04 -1.03808873626978179520e-04 -9.65689458801105115975e-04 9.99999518161891365331e-01 -4.48233340870877547553e-06
9.78235648253717303276e+08 9.77537530360935380536e-01 -2.08499360502929276251e-01 -1.04261548252048357561e-04 -9.67768303525801424844e-04 -1.04261548252048357561e-04 -9.67768303525801424844e-04 9.99999516060761872716e-01 -4.49198255116974059413e-06
9.78283065142053484917e+08 9.77439372629431701966e-01 -2.08949120808303162589e-01 -1.04717156082528406024e-04 -9.69855905937027262982e-04 -1.04717156082528406024e-04 -9.69855905937027262982e-04 9.99999513946017604127e-01 -4.50167234321070937016e-06
9.78330482030389666557e+08 9.77340577518680753144e-01 -2.09400779692387600806e-01 -1.05175722365405659858e-04 -9.71952320769995520289e-04 -1.05175722365405659858e-04 -9.71952320769995520289e-04 9.99999511817541542058e-01 -4.51140303889003503650e-06
9.78377898918725728989e+08 9.77241139531021651976e-01 -2.09854349044579585604e-01 -1.05637272618561085975e-04 -9.74057603210398692539e-04 -1.05637272618561085975e-04 -9.74057603210398692539e-04 9.99999509675215003668e-01 -4.52117489435701146687e-06
9.78425315807061910629e+08 9.77141053109680246536e-01 -2.10309840852319906990e-01 -1.06101832634255603097e-04 -9.76171808899008392260e-04 -1.06101832634255603097e-04 -9.76171808899008392260e-04 9.99999507518918417937e-01 -4.53098816787322264128e-06
9.78472732695397973061e+08 9.77040312638010610691e-01 -2.10767267202078584232e-01 -1.06569428482650350684e-04 -9.78294993936248621913e-04 -1.06569428482650350684e-04 -9.78294993936248621913e-04 9.99999505348530770554e-01 -4.54084311983377098573e-06
9.78520149583734154701e+08 9.76938912438719775366e-01 -2.11226640280376048997e-01 -1.07040086515404708712e-04 -9.80427214886936231053e-04 -1.07040086515404708712e-04 -9.80427214886936231053e-04 9.99999503163929714944e-01 -4.55074001278927820602e-06
9.78567566472070217133e+08 9.76836846773087574825e-01 -2.11687972374787924945e-01 -1.07513833369298590029e-04 -9.82568528784945804597e-04 -1.07513833369298590029e-04 -9.82568528784945804597e-04 9.99999500964991572260e-01 -4.56067911146753799095e-06
9.78614983360406398773e+08 9.76734109840167286087e-01 -2.12151275874992772952e-01 -1.07990695969941021643e-04 -9.84718993138070141161e-04 -1.07990695969941021643e-04 -9.84718993138070141161e-04 9.99999498751591442414e-01 -4.57066068279608351112e-06
9.78662400248742461205e+08 9.76630695775981494400e-01 -2.12616563273802877676e-01 -1.08470701535504272534e-04 -9.86878665932808089856e-04 -1.08470701535504272534e-04 -9.86878665932808089856e-04 9.99999496523602982023e-01 -4.58068499592439577582e-06
9.78709817137078642845e+08 9.76526598652698973879e-01 -2.13083847168236001357e-01 -1.08953877580543497905e-04 -9.89047605639335834088e-04 -1.08953877580543497905e-04 -9.89047605639335834088e-04 9.99999494280898404419e-01 -4.59075232224699459818e-06
9.78757234025414824486e+08 9.76421812477805572961e-01 -2.13553140260572149600e-01 -1.09440251919845860182e-04 -9.91225871216414857953e-04 -1.09440251919845860182e-04 -9.91225871216414857953e-04 9.99999492023348701686e-01 -4.60086293542620768782e-06
9.78804650913750886917e+08 9.76316331193258113430e-01 -2.14024455359441562186e-01 -1.09929852672356492848e-04 -9.93413522116440208393e-04 -1.09929852672356492848e-04 -9.93413522116440208393e-04 9.99999489750823311596e-01 -4.61101711141560805250e-06
9.78852067802087068558e+08 9.76210148674625188825e-01 -2.14497805380928913133e-01 -1.10422708265167781672e-04 -9.95610618290566386224e-04 -1.10422708265167781672e-04 -9.95610618290566386224e-04 9.99999487463190339653e-01 -4.62121512848380545956e-06
9.78899484690423130989e+08 9.76103258730219969230e-01 -2.14973203349667602025e-01 -1.10918847437544709224e-04 -9.97817220193785965957e-04 -1.10918847437544709224e-04 -9.97817220193785965957e-04 9.99999485160316337051e-01 -4.63145726723801851580e-06
9.78946901578759312630e+08 9.75995655100212244903e-01 -2.15450662399978648542e-01 -1.11418299245044741816e-04 -1.00003338879021703295e-03 -1.11418299245044741816e-04 -1.00003338879021703295e-03 9.99999482842066411692e-01 -4.64174381064861660008e-06
9.78994318467095375061e+08 9.75887331455734696739e-01 -2.15930195776992683854e-01 -1.11921093063668033443e-04 -1.00225918555831017276e-03 -1.11921093063668033443e-04 -1.00225918555831017276e-03 9.99999480508304228188e-01 -4.65207504407328825441e-06
9.79041735355431556702e+08 9.75778281397967961475e-01 -2.16411816837815490500e-01 -1.12427258594102890440e-04 -1.00449467249625798947e-03 -1.12427258594102890440e-04 -1.00449467249625798947e-03 9.99999478158891896840e-01 -4.66245125528215486384e-06
9.79089152243767619133e+08 9.75668498457219146580e-01 -2.16895539052676611380e-01 -1.12936825866003518262e-04 -1.00673991212732786248e-03 -1.12936825866003518262e-04 -1.00673991212732786248e-03 9.99999475793690195680e-01 -4.67287273448251333583e-06
9.79136569132103800774e+08 9.75557976091978251709e-01 -2.17381376006126808553e-01 -1.13449825242370238914e-04 -1.00899496750541869949e-03 -1.13449825242370238914e-04 -1.00899496750541869949e-03 9.99999473412558015362e-01 -4.68333977434463841791e-06
9.79183986020439863205e+08 9.75446707687968039835e-01 -2.17869341398212956751e-01 -1.13966287423957965408e-04 -1.01125990222051512397e-03 -1.13966287423957965408e-04 -1.01125990222051512397e-03 9.99999471015352914272e-01 -4.69385267002709204214e-06
9.79231402908776044846e+08 9.75334686557172592103e-01 -2.18359449045699177683e-01 -1.14486243453786577665e-04 -1.01353478040435546724e-03 -1.14486243453786577665e-04 -1.01353478040435546724e-03 9.99999468601930785461e-01 -4.70441171920303470957e-06
9.79278819797112226486e+08 9.75221905936854982500e-01 -2.18851712883284088562e-01 -1.15009724721700765148e-04 -1.01581966673608089548e-03 -1.15009724721700765148e-04 -1.01581966673608089548e-03 9.99999466172145967668e-01 -4.71501722208644624213e-06
9.79326236685448288918e+08 9.75108358988557633040e-01 -2.19346146964840171822e-01 -1.15536762969008555461e-04 -1.01811462644798927067e-03 -1.15536762969008555461e-04 -1.01811462644798927067e-03 9.99999463725851134299e-01 -4.72566948145883103740e-06
9.79373653573784470558e+08 9.74994038797087569925e-01 -2.19842765464669132047e-01 -1.16067390293192579365e-04 -1.02041972533136100255e-03 -1.16067390293192579365e-04 -1.02041972533136100255e-03 9.99999461262897293423e-01 -4.73636880269626213657e-06
9.79421070462120532990e+08 9.74878938369487357818e-01 -2.20341582678764497105e-01 -1.16601639152685791615e-04 -1.02273502974231981187e-03 -1.16601639152685791615e-04 -1.02273502974231981187e-03 9.99999458783133676754e-01 -4.74711549379658284047e-06
9.79468487350456714630e+08 9.74763050633986494198e-01 -2.20842613026106193708e-01 -1.17139542371739592921e-04 -1.02506060660784224618e-03 -1.17139542371739592921e-04 -1.02506060660784224618e-03 9.99999456286408183736e-01 -4.75790986540729950454e-06
9.79515904238792777061e+08 9.74646368438940702283e-01 -2.21345871049950099207e-01 -1.17681133145345186240e-04 -1.02739652343174204217e-03 -1.17681133145345186240e-04 -1.02739652343174204217e-03 9.99999453772566493370e-01 -4.76875223085336167841e-06
9.79563321127128958702e+08 9.74528884551750573806e-01 -2.21851371419155868336e-01 -1.18226445044256183998e-04 -1.02974284830083468237e-03 -1.18226445044256183998e-04 -1.02974284830083468237e-03 9.99999451241452841366e-01 -4.77964290616576979666e-06
9.79610738015465021133e+08 9.74410591657767000129e-01 -2.22359128929508848005e-01 -1.18775512020066225023e-04 -1.03209964989107224470e-03 -1.18775512020066225023e-04 -1.03209964989107224470e-03 9.99999448692909687075e-01 -4.79058221011005666166e-06
9.79658154903801202774e+08 9.74291482359175509131e-01 -2.22869158505078795995e-01 -1.19328368410387937264e-04 -1.03446699747384977287e-03 -1.19328368410387937264e-04 -1.03446699747384977287e-03 9.99999446126777602473e-01 -4.80157046421555836114e-06
9.79705571792137265205e+08 9.74171549173866391236e-01 -2.23381475199580903368e-01 -1.19885048944098606067e-04 -1.03684496092232422346e-03 -1.19885048944098606067e-04 -1.03684496092232422346e-03 9.99999443542895494197e-01 -4.81260799280473600771e-06
9.79752988680473446846e+08 9.74050784534283731197e-01 -2.23896094197765377354e-01 -1.20445588746680547492e-04 -1.03923361071786221621e-03 -1.20445588746680547492e-04 -1.03923361071786221621e-03 9.99999440941100270486e-01 -4.82369512302311750652e-06
9.79800405568809628487e+08 9.73929180786260562108e-01 -2.24413030816809522250e-01 -1.21010023345630545323e-04 -1.04163301795650318007e-03 -1.21010023345630545323e-04 -1.04163301795650318007e-03 9.99999438321226841175e-01 -4.83483218486928252160e-06
9.79847822457145690918e+08 9.73806730187830482670e-01 -2.24932300507743793139e-01 -1.21578388675972734511e-04 -1.04404325435557732323e-03 -1.21578388675972734511e-04 -1.04404325435557732323e-03 9.99999435683108672812e-01 -4.84601951122559198416e-06
9.79895239345481872559e+08 9.73683424908022954192e-01 -2.25453918856889312661e-01 -1.22150721085852826883e-04 -1.04646439226037846378e-03 -1.22150721085852826883e-04 -1.04646439226037846378e-03 9.99999433026577011496e-01 -4.85725743788915392303e-06
9.79942656233817934990e+08 9.73559257025640722993e-01 -2.25977901587304852438e-01 -1.22727057342211510723e-04 -1.04889650465088131275e-03 -1.22727057342211510723e-04 -1.04889650465088131275e-03 9.99999430351461104927e-01 -4.86854630360300274751e-06
9.79990073122154116631e+08 9.73434218528013928129e-01 -2.26504264560269341633e-01 -1.23307434636567937519e-04 -1.05133966514862052001e-03 -1.23307434636567937519e-04 -1.05133966514862052001e-03 9.99999427657588313423e-01 -4.87988645008803323649e-06
