! File generated for n1 = 8, n2 = 4
! b1 = 0.464159
! b2 = 0.046416
! Q0 = 10000.000000
! f0 = 1000000000.000000
! n = 1001
! rel_span = 10.000000
# Hz S RI R 50
9.99244712614151239395e+08 9.93919936618504307191e-01 -6.08236121460941706052e-02 -1.92268486037114826569e-03 -1.92341149900339680734e-02 -1.92268486037114826569e-03 -1.92341149900339680734e-02 9.99391993661850386310e-01 -6.08236121460941671357e-03
9.99246223188922882080e+08 9.93895776366435779181e-01 -6.09431292817279174345e-02 -1.93032500290921137966e-03 -1.92719096268361596291e-02 -1.93032500290921137966e-03 -1.92719096268361596291e-02 9.99389577636643600123e-01 -6.09431292817279139651e-03
9.99247733763694643974e+08 9.93871472342201078831e-01 -6.10631119726100027312e-02 -1.93801061019816651086e-03 -1.93098514851344910115e-02 -1.93801061019816651086e-03 -1.93098514851344910115e-02 9.99387147234220063474e-01 -6.10631119726099975270e-03
9.99249244338466286659e+08 9.93847023406774887633e-01 -6.11835629143162654242e-02 -1.94574204242945478574e-03 -1.93479414173448847902e-02 -1.94574204242945478574e-03 -1.93479414173448847902e-02 9.99384702340677444354e-01 -6.11835629143162636895e-03
9.99250754913238048553e+08 9.93822428409854019549e-01 -6.13044848231011837991e-02 -1.95351966336093207238e-03 -1.93861802824224285779e-02 -1.95351966336093207238e-03 -1.93861802824224285779e-02 9.99382242840985424159e-01 -6.13044848231011733908e-03
9.99252265488009691238e+08 9.93797686189751505736e-01 -6.14258804359554475005e-02 -1.96134384035026674425e-03 -1.94245689458795792182e-02 -1.96134384035026674425e-03 -1.94245689458795792182e-02 9.99379768618975150574e-01 -6.14258804359554475005e-03
9.99253776062781453133e+08 9.93772795573240719236e-01 -6.15477525109047532426e-02 -1.96921494440426871064e-03 -1.94631082798806358258e-02 -1.96921494440426871064e-03 -1.94631082798806358258e-02 9.99377279557324027515e-01 -6.15477525109047515078e-03
9.99255286637553095818e+08 9.93747755375433694525e-01 -6.16701038271330534424e-02 -1.97713335021737187172e-03 -1.95017991632807329017e-02 -1.97713335021737187172e-03 -1.95017991632807329017e-02 9.99374775537543391657e-01 -6.16701038271330517077e-03
9.99256797212324857712e+08 9.93722564399629804122e-01 -6.17929371852463729664e-02 -1.98509943621964085603e-03 -1.95406424817092527757e-02 -1.98509943621964085603e-03 -1.95406424817092527757e-02 9.99372256439962969310e-01 -6.17929371852463712317e-03
9.99258307787096500397e+08 9.93697221437180200354e-01 -6.19162554074451365604e-02 -1.99311358461933549671e-03 -1.95796391276243340884e-02 -1.99311358461933549671e-03 -1.95796391276243340884e-02 9.99369722143717997831e-01 -6.19162554074451261521e-03
9.99259818361868262291e+08 9.93671725267344707611e-01 -6.20400613377343757016e-02 -2.00117618144839181163e-03 -1.96187900003793359860e-02 -2.00117618144839181163e-03 -1.96187900003793359860e-02 9.99367172526734459659e-01 -6.20400613377343652932e-03
9.99261328936639904976e+08 9.93646074657153377530e-01 -6.21643578420999487477e-02 -2.00928761660616652523e-03 -1.96580960062785643772e-02 -2.00928761660616652523e-03 -1.96580960062785643772e-02 9.99364607465715315548e-01 -6.21643578420999487477e-03
9.99262839511411666870e+08 9.93620268361237735100e-01 -6.22891478088239206046e-02 -2.01744828391274381996e-03 -1.96975580586770011859e-02 -2.01744828391274381996e-03 -1.96975580586770011859e-02 9.99362026836123740203e-01 -6.22891478088239206046e-03
9.99264350086183309555e+08 9.93594305121713872175e-01 -6.24144341485421902394e-02 -2.02565858114592224279e-03 -1.97371770779985362954e-02 -2.02565858114592224279e-03 -1.97371770779985362954e-02 9.99359430512171353911e-01 -6.24144341485421798310e-03
9.99265860660954952240e+08 9.93568183668005144860e-01 -6.25402197945876953122e-02 -2.03391891009734255072e-03 -1.97769539918444918480e-02 -2.03391891009734255072e-03 -1.97769539918444918480e-02 9.99356818366800569997e-01 -6.25402197945876866386e-03
9.99267371235726714134e+08 9.93541902716694291797e-01 -6.26665077031811623698e-02 -2.04222967661918863511e-03 -1.98168897350539420510e-02 -2.04222967661918863511e-03 -1.98168897350539420510e-02 9.99354190271669384771e-01 -6.26665077031811606351e-03
9.99268881810498356819e+08 9.93515460971385322431e-01 -6.27933008535677822382e-02 -2.05059129066781581710e-03 -1.98569852497469390151e-02 -2.05059129066781581710e-03 -1.98569852497469390151e-02 9.99351546097138498936e-01 -6.27933008535677770340e-03
9.99270392385270118713e+08 9.93488857122519442022e-01 -6.29206022483696503222e-02 -2.05900416636211084850e-03 -1.98972414854359652692e-02 -2.05900416636211084850e-03 -1.98972414854359652692e-02 9.99348885712251999713e-01 -6.29206022483696537917e-03
9.99271902960041761398e+08 9.93462089847238161155e-01 -6.30484149136996130380e-02 -2.06746872202667091381e-03 -1.99376593990619119245e-02 -2.06746872202667091381e-03 -1.99376593990619119245e-02 9.99346208984723816116e-01 -6.30484149136996060991e-03
9.99273413534813523293e+08 9.93435157809204660850e-01 -6.31767418994682583566e-02 -2.07598538024827972137e-03 -1.99782399550912093122e-02 -2.07598538024827972137e-03 -1.99782399550912093122e-02 9.99343515780920510494e-01 -6.31767418994682531524e-03
9.99274924109585165977e+08 9.93408059658450470764e-01 -6.33055862795629670225e-02 -2.08455456792446458189e-03 -2.00189841255723824376e-02 -2.08455456792446458189e-03 -2.00189841255723824376e-02 9.99340805965845069281e-01 -6.33055862795629635531e-03
9.99276434684356927872e+08 9.93380794031201719285e-01 -6.34349511521139219905e-02 -2.09317671631839303387e-03 -2.00598928902202232327e-02 -2.09317671631839303387e-03 -2.00598928902202232327e-02 9.99338079403120138622e-01 -6.34349511521139185211e-03
9.99277945259128570557e+08 9.93353359549717151999e-01 -6.35648396396966963717e-02 -2.10185226111011180458e-03 -2.01009672364798261390e-02 -2.10185226111011180458e-03 -2.01009672364798261390e-02 9.99335335954971704098e-01 -6.35648396396966842287e-03
9.99279455833900332451e+08 9.93325754822108386577e-01 -6.36952548896086573338e-02 -2.11058164245330219175e-03 -2.01422081596140147008e-02 -2.11058164245330219175e-03 -2.01422081596140147008e-02 9.99332575482210883067e-01 -6.36952548896086486602e-03
9.99280966408671975136e+08 9.93297978442177931235e-01 -6.38262000740577040148e-02 -2.11936530502675017640e-03 -2.01836166627630021753e-02 -2.11936530502675017640e-03 -2.01836166627630021753e-02 9.99329797844217826430e-01 -6.38262000740576988106e-03
9.99282476983443617821e+08 9.93270028989221454019e-01 -6.39576783905022178134e-02 -2.12820369809656358140e-03 -2.02251937570519027543e-02 -2.12820369809656358140e-03 -2.02251937570519027543e-02 9.99327002898922178709e-01 -6.39576783905022091398e-03
9.99283987558215379715e+08 9.93241905027876126333e-01 -6.40896930617729093660e-02 -2.13709727556436962850e-03 -2.02669404616292805899e-02 -2.13709727556436962850e-03 -2.02669404616292805899e-02 9.99324190502787645940e-01 -6.40896930617729058965e-03
9.99285498132987022400e+08 9.93213605107918007242e-01 -6.42222473364188334299e-02 -2.14604649603116490533e-03 -2.03088578037765449258e-02 -2.14604649603116490533e-03 -2.03088578037765449258e-02 9.99321360510791789622e-01 -6.42222473364188316952e-03
9.99287008707758784294e+08 9.93185127764085962099e-01 -6.43553444889262415973e-02 -2.15505182285328231520e-03 -2.03509468189771655644e-02 -2.15505182285328231520e-03 -2.03509468189771655644e-02 9.99318512776408596210e-01 -6.43553444889262329237e-03
9.99288519282530426979e+08 9.93156471515903471747e-01 -6.44889878199299826367e-02 -2.16411372419845170201e-03 -2.03932085509835291093e-02 -2.16411372419845170201e-03 -2.03932085509835291093e-02 9.99315647151590380481e-01 -6.44889878199299791672e-03
9.99290029857302188873e+08 9.93127634867461472901e-01 -6.46231806566043426310e-02 -2.17323267311468268370e-03 -2.04356440519405241352e-02 -2.17323267311468268370e-03 -2.04356440519405241352e-02 9.99312763486746136188e-01 -6.46231806566043443657e-03
9.99291540432073831558e+08 9.93098616307266812697e-01 -6.47579263527330029060e-02 -2.18240914757805454932e-03 -2.04782543824076727901e-02 -2.18240914757805454932e-03 -2.04782543824076727901e-02 9.99309861630726659065e-01 -6.47579263527330029060e-03
9.99293051006845593452e+08 9.93069414308006326308e-01 -6.48932282891655914936e-02 -2.19164363056742212549e-03 -2.05210406115035048913e-02 -2.19164363056742212549e-03 -2.05210406115035048913e-02 9.99306941430800677040e-01 -6.48932282891655914936e-03
9.99294561581617236137e+08 9.93040027326382745976e-01 -6.50290898739273176554e-02 -2.20093661011621722148e-03 -2.05640038169402107615e-02 -2.20093661011621722148e-03 -2.05640038169402107615e-02 9.99304002732638307904e-01 -6.50290898739273089818e-03
9.99296072156388998032e+08 9.93010453802886328134e-01 -6.51655145426187354385e-02 -2.21028857938472544920e-03 -2.06071450851500817536e-02 -2.21028857938472544920e-03 -2.06071450851500817536e-02 9.99301045380288632813e-01 -6.51655145426187267649e-03
9.99297582731160640717e+08 9.92980692161617106706e-01 -6.53025057585699952867e-02 -2.21970003671629473319e-03 -2.06504655113342837358e-02 -2.21970003671629473319e-03 -2.06504655113342837358e-02 9.99298069216161710671e-01 -6.53025057585699883478e-03
9.99299093305932402611e+08 9.92950740810053078533e-01 -6.54400670132332801243e-02 -2.22917148571057316744e-03 -2.06939661995869279842e-02 -2.22917148571057316744e-03 -2.06939661995869279842e-02 9.99295074081005263444e-01 -6.54400670132332818590e-03
9.99300603880704045296e+08 9.92920598138859356041e-01 -6.55782018263779270528e-02 -2.23870343528396109276e-03 -2.07376482629568099914e-02 -2.23870343528396109276e-03 -2.07376482629568099914e-02 9.99292059813885913400e-01 -6.55782018263779183792e-03
9.99302114455475687981e+08 9.92890262521670785567e-01 -6.57169137463939484478e-02 -2.24829639973822895116e-03 -2.07815128235433847770e-02 -2.24829639973822895116e-03 -2.07815128235433847770e-02 9.99289026252167089659e-01 -6.57169137463939519173e-03
9.99303625030247449875e+08 9.92859732314863130398e-01 -6.58562063506406003555e-02 -2.25795089883303393141e-03 -2.08255610126069704013e-02 -2.25795089883303393141e-03 -2.08255610126069704013e-02 9.99285973231486268631e-01 -6.58562063506405899471e-03
9.99305135605019092560e+08 9.92829005857361668319e-01 -6.59960832456091134324e-02 -2.26766745784635513281e-03 -2.08697939706202345578e-02 -2.26766745784635513281e-03 -2.08697939706202345578e-02 9.99282900585736211241e-01 -6.59960832456091012893e-03
9.99306646179790854454e+08 9.92798081470384952141e-01 -6.61365480673701960912e-02 -2.27744660765542231845e-03 -2.09142128474096959667e-02 -2.27744660765542231845e-03 -2.09142128474096959667e-02 9.99279808147038539623e-01 -6.61365480673701926218e-03
9.99308156754562497139e+08 9.92766957457248189201e-01 -6.62776044817433712675e-02 -2.28728888479916856249e-03 -2.09588188022092683505e-02 -2.28728888479916856249e-03 -2.09588188022092683505e-02 9.99276695745724863329e-01 -6.62776044817433608591e-03
9.99309667329334259033e+08 9.92735632103118548208e-01 -6.64192561846645435075e-02 -2.29719483155525110510e-03 -2.10036130037765111922e-02 -2.29719483155525110510e-03 -2.10036130037765111922e-02 9.99273563210311910332e-01 -6.64192561846645330992e-03
9.99311177904105901718e+08 9.92704103674785010014e-01 -6.65615069024858146962e-02 -2.30716499601319987092e-03 -2.10485966304874254351e-02 -2.30716499601319987092e-03 -2.10485966304874254351e-02 9.99270410367478545410e-01 -6.65615069024858094920e-03
9.99312688478877663612e+08 9.92672370420428551441e-01 -6.67043603922522349015e-02 -2.31719993214678319365e-03 -2.10937708704239668123e-02 -2.31719993214678319365e-03 -2.10937708704239668123e-02 9.99267237042042899553e-01 -6.67043603922522210237e-03
9.99314199053649306297e+08 9.92640430569375342706e-01 -6.68478204420503013816e-02 -2.32730019989225425311e-03 -2.11391369214842771151e-02 -2.32730019989225425311e-03 -2.11391369214842771151e-02 9.99264043056937500964e-01 -6.68478204420503048511e-03
9.99315709628421068192e+08 9.92608282331854496761e-01 -6.69918908713186544990e-02 -2.33746636522482939546e-03 -2.11846959914808938286e-02 -2.33746636522482939546e-03 -2.11846959914808938286e-02 9.99260828233185405267e-01 -6.69918908713186544990e-03
9.99317220203192710876e+08 9.92575923898765033471e-01 -6.71365755311090633972e-02 -2.34769900023253010740e-03 -2.12304492982233194986e-02 -2.34769900023253010740e-03 -2.12304492982233194986e-02 9.99257592389876547756e-01 -6.71365755311090564583e-03
9.99318730777964353561e+08 9.92543353441401321469e-01 -6.72818783045156798561e-02 -2.35799868320280730030e-03 -2.12763980696537464976e-02 -2.35799868320280730030e-03 -2.12763980696537464976e-02 9.99254335344140098840e-01 -6.72818783045156781214e-03
9.99320241352736115456e+08 9.92510569111219709271e-01 -6.74278031069121264185e-02 -2.36836599869650861819e-03 -2.13225435439220248335e-02 -2.36836599869650861819e-03 -2.13225435439220248335e-02 9.99251056911121926518e-01 -6.74278031069121264185e-03
9.99321751927507758141e+08 9.92477569039573181975e-01 -6.75743538863143172746e-02 -2.37880153763166384689e-03 -2.13688869695004036997e-02 -2.37880153763166384689e-03 -2.13688869695004036997e-02 9.99247756903957284891e-01 -6.75743538863143086010e-03
9.99323262502279520035e+08 9.92444351337442798311e-01 -6.77215346237479837166e-02 -2.38930589736857960578e-03 -2.14154296052997648869e-02 -2.38930589736857960578e-03 -2.14154296052997648869e-02 9.99244435133744279831e-01 -6.77215346237479767777e-03
9.99324773077051162720e+08 9.92410914095194440776e-01 -6.78693493334852071541e-02 -2.39987968178654448304e-03 -2.14621727207443928342e-02 -2.39987968178654448304e-03 -2.14621727207443928342e-02 9.99241091409519444078e-01 -6.78693493334852054194e-03
9.99326283651822924614e+08 9.92377255382274059414e-01 -6.80178020635446023423e-02 -2.41052350138035078458e-03 -2.15091175959301744713e-02 -2.41052350138035078458e-03 -2.15091175959301744713e-02 9.99237725538227428146e-01 -6.80178020635445901992e-03
9.99327794226594567299e+08 9.92343373246968085688e-01 -6.81668968958869664343e-02 -2.42123797333604557150e-03 -2.15562655216864594576e-02 -2.42123797333604557150e-03 -2.15562655216864594576e-02 9.99234337324696797467e-01 -6.81668968958869594954e-03
9.99329304801366329193e+08 9.92309265716104227373e-01 -6.83166379468592571689e-02 -2.43202372162546658421e-03 -2.16036177997164374753e-02 -2.43202372162546658421e-03 -2.16036177997164374753e-02 9.99230926571610389431e-01 -6.83166379468592554342e-03
9.99330815376137971878e+08 9.92274930794778131649e-01 -6.84670293675123109445e-02 -2.44288137709277285159e-03 -2.16511757426976515772e-02 -2.44288137709277285159e-03 -2.16511757426976515772e-02 9.99227493079477779858e-01 -6.84670293675123092098e-03
9.99332325950909733772e+08 9.92240366466057843731e-01 -6.86180753439998292187e-02 -2.45381157754787689734e-03 -2.16989406744081299305e-02 -2.45381157754787689734e-03 -2.16989406744081299305e-02 9.99224036646605751066e-01 -6.86180753439998188103e-03
9.99333836525681376457e+08 9.92205570690708915649e-01 -6.87697800978710471753e-02 -2.46481496785327242049e-03 -2.17469139298189576004e-02 -2.46481496785327242049e-03 -2.17469139298189576004e-02 9.99220557069070869360e-01 -6.87697800978710315628e-03
9.99335347100453138351e+08 9.92170541406879324953e-01 -6.89221478865287423554e-02 -2.47589220002390362693e-03 -2.17950968552391086130e-02 -2.47589220002390362693e-03 -2.17950968552391086130e-02 9.99217054140687954700e-01 -6.89221478865287371512e-03
9.99336857675224781036e+08 9.92135276529820142599e-01 -6.90751830035079839032e-02 -2.48704393331516645030e-03 -2.18434908084035803166e-02 -2.48704393331516645030e-03 -2.18434908084035803166e-02 9.99213527652981992055e-01 -6.90751830035079769643e-03
9.99338368249996423721e+08 9.92099773951558794316e-01 -6.92288897789552631901e-02 -2.49827083432659254048e-03 -2.18920971586249249463e-02 -2.49827083432659254048e-03 -2.18920971586249249463e-02 9.99209977395155934943e-01 -6.92288897789552527817e-03
9.99339878824768185616e+08 9.92064031540606849902e-01 -6.93832725799328198235e-02 -2.50957357709397435586e-03 -2.19409172868894816744e-02 -2.50957357709397435586e-03 -2.19409172868894816744e-02 9.99206403154060729399e-01 -6.93832725799328146193e-03
9.99341389399539828300e+08 9.92028047141635949124e-01 -6.95383358108515176044e-02 -2.52095284319202046081e-03 -2.19899525859942532313e-02 -2.52095284319202046081e-03 -2.19899525859942532313e-02 9.99202804714163561606e-01 -6.95383358108515176044e-03
9.99342899974311590195e+08 9.91991818575167494387e-01 -6.96940839138232848260e-02 -2.53240932183233574335e-03 -2.20392044606583757671e-02 -2.53240932183233574335e-03 -2.20392044606583757671e-02 9.99199181857516771643e-01 -6.96940839138232830913e-03
9.99344410549083232880e+08 9.91955343637239694843e-01 -6.98505213690984172459e-02 -2.54394370996882581565e-03 -2.20886743276613901898e-02 -2.54394370996882581565e-03 -2.20886743276613901898e-02 9.99195534363723991689e-01 -6.98505213690984137764e-03
9.99345921123854994774e+08 9.91918620099082493091e-01 -7.00076526954506034306e-02 -2.55555671240052274806e-03 -2.21383636159650058761e-02 -2.55555671240052274806e-03 -2.21383636159650058761e-02 9.99191862009908282616e-01 -7.00076526954505982264e-03
9.99347431698626637459e+08 9.91881645706786829741e-01 -7.01654824505668212042e-02 -2.56724904187600327932e-03 -2.21882737668363874683e-02 -2.56724904187600327932e-03 -2.21882737668363874683e-02 9.99188164570678716281e-01 -7.01654824505668073265e-03
9.99348942273398399353e+08 9.91844418180953479869e-01 -7.03240152315116329174e-02 -2.57902141920460540800e-03 -2.22384062339950061560e-02 -2.57902141920460540800e-03 -2.22384062339950061560e-02 9.99184441818095403498e-01 -7.03240152315116277132e-03
9.99350452848170042038e+08 9.91806935216369867092e-01 -7.04832556750516758814e-02 -2.59087457335858105389e-03 -2.22887624837152034663e-02 -2.59087457335858105389e-03 -2.22887624837152034663e-02 9.99180693521636964505e-01 -7.04832556750516724120e-03
9.99351963422941803932e+08 9.91769194481629479121e-01 -7.06432084582063052336e-02 -2.60280924159338048277e-03 -2.23393439950003644401e-02 -2.60280924159338048277e-03 -2.23393439950003644401e-02 9.99176919448162892401e-01 -7.06432084582062948253e-03
9.99353473997713446617e+08 9.91731193618803685830e-01 -7.08038782985588449614e-02 -2.61482616955149111890e-03 -2.23901522596813354338e-02 -2.61482616955149111890e-03 -2.23901522596813354338e-02 9.99173119361880357481e-01 -7.08038782985588414920e-03
9.99354984572485208511e+08 9.91692930243065262630e-01 -7.09652699547541621072e-02 -2.62692611138151720443e-03 -2.24411887825737323132e-02 -2.62692611138151720443e-03 -2.24411887825737323132e-02 9.99169293024306570672e-01 -7.09652699547541534336e-03
9.99356495147256851196e+08 9.91654401942330898656e-01 -7.11273882268957380326e-02 -2.63910982985117795185e-03 -2.24924550816035760670e-02 -2.63910982985117795185e-03 -2.24924550816035760670e-02 9.99165440194233034354e-01 -7.11273882268957310937e-03
9.99358005722028493881e+08 9.91615606276874061997e-01 -7.12902379570494598715e-02 -2.65137809646972220923e-03 -2.25439526879665334824e-02 -2.65137809646972220923e-03 -2.25439526879665334824e-02 9.99161560627687350689e-01 -7.12902379570494546673e-03
9.99359516296800255775e+08 9.91576540778954629296e-01 -7.14538240296579002520e-02 -2.66373169160510599521e-03 -2.25956831462589650961e-02 -2.66373169160510599521e-03 -2.25956831462589650961e-02 9.99157654077895474032e-01 -7.14538240296578881089e-03
9.99361026871571898460e+08 9.91537202952446961035e-01 -7.16181513719412188301e-02 -2.67617140460160414864e-03 -2.26476480146047057240e-02 -2.67617140460160414864e-03 -2.26476480146047057240e-02 9.99153720295244740512e-01 -7.16181513719412170954e-03
9.99362537446343660355e+08 9.91497590272422457680e-01 -7.17832249544666928243e-02 -2.68869803391166839468e-03 -2.26998488648351322283e-02 -2.68869803391166839468e-03 -2.26998488648351322283e-02 9.99149759027242234666e-01 -7.17832249544666893548e-03
