! File generated for n1 = 10, n2 = 7
! b1 = 0.100000
! b2 = 0.001000
! Q0 = 10000.000000
! f0 = 1000000000.000000
! n = 1001
! rel_span = 10.000000
# Hz S RI R 50
9.99449500000000000000e+08 9.98202435459193737621e-01 -1.79805959297234252414e-02 -1.79756454080626091501e-04 -1.79805959297234230730e-03 -1.79756454080626091501e-04 -1.79805959297234230730e-03 9.99982024354591936266e-01 -1.79805959297234209046e-04
9.99450601000000000000e+08 9.98195293253095750075e-01 -1.80159236591753042778e-02 -1.80470674690422601882e-04 -1.80159236591753029767e-03 -1.80470674690422601882e-04 -1.80159236591753029767e-03 9.99981952932531004130e-01 -1.80159236591753018925e-04
9.99451702000000000000e+08 9.98188108546884556027e-01 -1.80513890003448501664e-02 -1.81189145311543996133e-04 -1.80513890003448484317e-03 -1.81189145311543996133e-04 -1.80513890003448484317e-03 9.99981881085468815584e-01 -1.80513890003448446370e-04
9.99452803000000000000e+08 9.98180881003858933020e-01 -1.80869927500204898119e-02 -1.81911899614109104882e-04 -1.80869927500204911129e-03 -1.81911899614109104882e-04 -1.80869927500204911129e-03 9.99981808810038619306e-01 -1.80869927500204873182e-04
9.99453904000000000000e+08 9.98173610283989876102e-01 -1.81227357110735967649e-02 -1.82638971601017626508e-04 -1.81227357110735941628e-03 -1.82638971601017626508e-04 -1.81227357110735941628e-03 9.99981736102839913194e-01 -1.81227357110735925365e-04
9.99455005000000000000e+08 9.98166296043879963662e-01 -1.81586186925213090293e-02 -1.83370395612000570930e-04 -1.81586186925213098967e-03 -1.83370395612000570930e-04 -1.81586186925213098967e-03 9.99981662960438777432e-01 -1.81586186925213066441e-04
9.99456106000000000000e+08 9.98158937936720502826e-01 -1.81946425096010389044e-02 -1.84106206327952108071e-04 -1.81946425096010363023e-03 -1.84106206327952108071e-04 -1.81946425096010363023e-03 9.99981589379367208359e-01 -1.81946425096010335918e-04
9.99457207000000000000e+08 9.98151535612257556629e-01 -1.82308079837930694933e-02 -1.84846438774244244954e-04 -1.82308079837930681923e-03 -1.84846438774244244954e-04 -1.82308079837930681923e-03 9.99981515356122563354e-01 -1.82308079837930649397e-04
9.99458308000000000000e+08 9.98144088716744204426e-01 -1.82671159429162940913e-02 -1.85591128325576218069e-04 -1.82671159429162953923e-03 -1.85591128325576218069e-04 -1.82671159429162953923e-03 9.99981440887167449816e-01 -1.82671159429162905134e-04
9.99459409000000000000e+08 9.98136596892901573064e-01 -1.83035672211738983939e-02 -1.86340310709846531702e-04 -1.83035672211738953581e-03 -1.86340310709846531702e-04 -1.83035672211738953581e-03 9.99981365968929059029e-01 -1.83035672211738921055e-04
9.99460510000000000000e+08 9.98129059779877758629e-01 -1.83401626592068420218e-02 -1.87094022012226657856e-04 -1.83401626592068407208e-03 -1.87094022012226657856e-04 -1.83401626592068407208e-03 9.99981290597798722075e-01 -1.83401626592068380103e-04
9.99461611000000000000e+08 9.98121477013203306505e-01 -1.83769031041663352677e-02 -1.87852298679669013366e-04 -1.83769031041663348340e-03 -1.87852298679669013366e-04 -1.83769031041663348340e-03 9.99981214770132020853e-01 -1.83769031041663321235e-04
9.99462712000000000000e+08 9.98113848224748245741e-01 -1.84137894097724345854e-02 -1.88615177525176520943e-04 -1.84137894097724324170e-03 -1.88615177525176520943e-04 -1.84137894097724324170e-03 9.99981138482247455812e-01 -1.84137894097724286223e-04
9.99463813000000000000e+08 9.98106173042677125018e-01 -1.84508224363806733193e-02 -1.89382695732283752284e-04 -1.84508224363806724519e-03 -1.89382695732283752284e-04 -1.84508224363806724519e-03 9.99981061730426779022e-01 -1.84508224363806697414e-04
9.99464914000000000000e+08 9.98098451091407046221e-01 -1.84880030510345197414e-02 -1.90154890859291442282e-04 -1.84880030510345210425e-03 -1.90154890859291442282e-04 -1.84880030510345210425e-03 9.99980984510914105989e-01 -1.84880030510345177899e-04
9.99466015000000000000e+08 9.98090681991559702801e-01 -1.85253321275408895652e-02 -1.90931800844025702886e-04 -1.85253321275408882642e-03 -1.90931800844025702886e-04 -1.85253321275408882642e-03 9.99980906819915582595e-01 -1.85253321275408860958e-04
9.99467116000000000000e+08 9.98082865359914861436e-01 -1.85628105465390873252e-02 -1.91713464008511937347e-04 -1.85628105465390877589e-03 -1.91713464008511937347e-04 -1.85628105465390877589e-03 9.99980828653599163047e-01 -1.85628105465390834221e-04
9.99468217000000000000e+08 9.98075000809369172750e-01 -1.86004391955402192949e-02 -1.92499919063080497010e-04 -1.86004391955402192949e-03 -1.92499919063080497010e-04 -1.86004391955402192949e-03 9.99980750008093721704e-01 -1.86004391955402138738e-04
9.99469318000000000000e+08 9.98067087948881215276e-01 -1.86382189690314920005e-02 -1.93291205111876542543e-04 -1.86382189690314906995e-03 -1.93291205111876542543e-04 -1.86382189690314906995e-03 9.99980670879488831027e-01 -1.86382189690314879890e-04
9.99470419000000000000e+08 9.98059126383429862095e-01 -1.86761507685133387735e-02 -1.94087361657018772415e-04 -1.86761507685133387735e-03 -1.94087361657018772415e-04 -1.86761507685133387735e-03 9.99980591263834317495e-01 -1.86761507685133349788e-04
9.99471520000000000000e+08 9.98051115713961101150e-01 -1.87142355025884388198e-02 -1.94888428603894530789e-04 -1.87142355025884379524e-03 -1.94888428603894530789e-04 -1.87142355025884379524e-03 9.99980511157139595468e-01 -1.87142355025884346998e-04
9.99472621000000000000e+08 9.98043055537343515304e-01 -1.87524740870095504852e-02 -1.95694446265644555593e-04 -1.87524740870095504852e-03 -1.95694446265644555593e-04 -1.87524740870095504852e-03 9.99980430555373445145e-01 -1.87524740870095472326e-04
9.99473722000000000000e+08 9.98034945446313992434e-01 -1.87908674447703240296e-02 -1.96505455368603342394e-04 -1.87908674447703240296e-03 -1.96505455368603342394e-04 -1.87908674447703240296e-03 9.99980349454463124381e-01 -1.87908674447703202348e-04
9.99474823000000000000e+08 9.98026785029429208684e-01 -1.88294165061623254565e-02 -1.97321497057084080948e-04 -1.88294165061623250228e-03 -1.97321497057084080948e-04 -1.88294165061623250228e-03 9.99980267850294257670e-01 -1.88294165061623206860e-04
9.99475924000000000000e+08 9.98018573871014780252e-01 -1.88681222088462573205e-02 -1.98142612898516770614e-04 -1.88681222088462577542e-03 -1.98142612898516770614e-04 -1.88681222088462577542e-03 9.99980185738710170007e-01 -1.88681222088462534174e-04
9.99477025000000000000e+08 9.98010311551110085304e-01 -1.89069854979397530825e-02 -1.98968844888994158410e-04 -1.89069854979397543836e-03 -1.98968844888994158410e-04 -1.89069854979397543836e-03 9.99980103115511109735e-01 -1.89069854979397516731e-04
9.99478126000000000000e+08 9.98001997645421079497e-01 -1.89460073260589653699e-02 -1.99800235457894749969e-04 -1.89460073260589649362e-03 -1.99800235457894749969e-04 -1.89460073260589649362e-03 9.99980019976454248543e-01 -1.89460073260589616836e-04
9.99479227000000000000e+08 9.97993631725257457354e-01 -1.89851886534395247752e-02 -2.00636827474250545745e-04 -1.89851886534395260762e-03 -2.00636827474250545745e-04 -1.89851886534395260762e-03 9.99979936317252571243e-01 -1.89851886534395206552e-04
9.99480328000000000000e+08 9.97985213357490685837e-01 -1.90245304479521246122e-02 -2.01478664250930272457e-04 -1.90245304479521237448e-03 -2.01478664250930272457e-04 -1.90245304479521237448e-03 9.99979852133574875772e-01 -1.90245304479521204922e-04
9.99481429000000000000e+08 9.97976742104485725626e-01 -1.90640336852372395404e-02 -2.02325789551423344511e-04 -1.90640336852372378057e-03 -2.02325789551423344511e-04 -1.90640336852372378057e-03 9.99979767421044885012e-01 -1.90640336852372334689e-04
9.99482530000000000000e+08 9.97968217524055734025e-01 -1.91036993487340503450e-02 -2.03178247594425063398e-04 -1.91036993487340512124e-03 -2.03178247594425063398e-04 -1.91036993487340512124e-03 9.99979682175240580655e-01 -1.91036993487340468756e-04
9.99483631000000000000e+08 9.97959639169397116909e-01 -1.91435284297935374986e-02 -2.04036083060285208281e-04 -1.91435284297935366313e-03 -2.04036083060285208281e-04 -1.91435284297935366313e-03 9.99979596391693981161e-01 -1.91435284297935317524e-04
9.99484732000000000000e+08 9.97951006589038236427e-01 -1.91835219277286840589e-02 -2.04899341096171467517e-04 -1.91835219277286831915e-03 -2.04899341096171467517e-04 -1.91835219277286831915e-03 9.99979510065890364601e-01 -1.91835219277286793968e-04
9.99485833000000000000e+08 9.97942319326777349531e-01 -1.92236808499096495373e-02 -2.05768067322261452795e-04 -1.92236808499096504046e-03 -2.05768067322261452795e-04 -1.92236808499096504046e-03 9.99979423193267824566e-01 -1.92236808499096482362e-04
9.99486934000000000000e+08 9.97933576921624987399e-01 -1.92640062118356741871e-02 -2.06642307837500680033e-04 -1.92640062118356746208e-03 -2.06642307837500680033e-04 -1.92640062118356746208e-03 9.99979335769216270968e-01 -1.92640062118356708261e-04
9.99488035000000000000e+08 9.97924778907739340461e-01 -1.93044990372364562436e-02 -2.07522109226065037740e-04 -1.93044990372364549426e-03 -2.07522109226065037740e-04 -1.93044990372364549426e-03 9.99979247789077430042e-01 -1.93044990372364511479e-04
9.99489136000000000000e+08 9.97915924814375077112e-01 -1.93451603581092507200e-02 -2.08407518562494890879e-04 -1.93451603581092502863e-03 -2.08407518562494890879e-04 -1.93451603581092502863e-03 9.99979159248143734118e-01 -1.93451603581092470337e-04
9.99490237000000000000e+08 9.97907014165808181616e-01 -1.93859912148609640770e-02 -2.09298583419179165836e-04 -1.93859912148609619086e-03 -2.09298583419179165836e-04 -1.93859912148609619086e-03 9.99979070141658099580e-01 -1.93859912148609575717e-04
9.99491338000000000000e+08 9.97898046481284661802e-01 -1.94269926563409023323e-02 -2.10195351871531900794e-04 -1.94269926563409023323e-03 -2.10195351871531900794e-04 -1.94269926563409023323e-03 9.99978980464812816642e-01 -1.94269926563408985376e-04
9.99492439000000000000e+08 9.97889021274949605811e-01 -1.94681657399564042588e-02 -2.11097872505043435880e-04 -1.94681657399564059935e-03 -2.11097872505043435880e-04 -1.94681657399564059935e-03 9.99978890212749549349e-01 -1.94681657399564027409e-04
9.99493540000000000000e+08 9.97879938055786452900e-01 -1.95095115317401313071e-02 -2.12006194421349180614e-04 -1.95095115317401321745e-03 -2.12006194421349180614e-04 -1.95095115317401321745e-03 9.99978799380557892285e-01 -1.95095115317401272955e-04
9.99494641000000000000e+08 9.97870796327550158011e-01 -1.95510311064451929031e-02 -2.12920367244980778204e-04 -1.95510311064451929031e-03 -2.12920367244980778204e-04 -1.95510311064451929031e-03 9.99978707963275481596e-01 -1.95510311064451896505e-04
9.99495742000000000000e+08 9.97861595588695915460e-01 -1.95927255476498786424e-02 -2.13840441130405288159e-04 -1.95927255476498803771e-03 -2.13840441130405288159e-04 -1.95927255476498803771e-03 9.99978615955886995792e-01 -1.95927255476498744140e-04
9.99496843000000000000e+08 9.97852335332320428130e-01 -1.96345959478089471251e-02 -2.14766466767962521320e-04 -1.96345959478089453903e-03 -2.14766466767962521320e-04 -1.96345959478089453903e-03 9.99978523353323156542e-01 -1.96345959478089405114e-04
9.99497944000000000000e+08 9.97843015046086190267e-01 -1.96766434083729055415e-02 -2.15698495391377314092e-04 -1.96766434083729029395e-03 -2.15698495391377314092e-04 -1.96766434083729029395e-03 9.99978430150460839698e-01 -1.96766434083728996868e-04
9.99499045000000000000e+08 9.97833634212153541831e-01 -1.97188690398750858523e-02 -2.16636578784641935409e-04 -1.97188690398750849850e-03 -2.16636578784641935409e-04 -1.97188690398750849850e-03 9.99978336342121520985e-01 -1.97188690398750833587e-04
9.99500146000000000000e+08 9.97824192307110946487e-01 -1.97612739620152966236e-02 -2.17580769288901556581e-04 -1.97612739620152974909e-03 -2.17580769288901556581e-04 -1.97612739620152974909e-03 9.99978241923071164976e-01 -1.97612739620152915278e-04
9.99501247000000000000e+08 9.97814688801903715287e-01 -1.98038593037530782914e-02 -2.18531119809632645452e-04 -1.98038593037530748220e-03 -2.18531119809632645452e-04 -1.98038593037530748220e-03 9.99978146888019003846e-01 -1.98038593037530721115e-04
9.99502348000000000000e+08 9.97805123161758844574e-01 -1.98466262034106138978e-02 -2.19487683824120437736e-04 -1.98466262034106138978e-03 -2.19487683824120437736e-04 -1.98466262034106138978e-03 9.99978051231617537375e-01 -1.98466262034106090189e-04
9.99503449000000000000e+08 9.97795494846111408194e-01 -1.98895758087684476623e-02 -2.20450515388860920777e-04 -1.98895758087684485296e-03 -2.20450515388860920777e-04 -1.98895758087684485296e-03 9.99977954948461089657e-01 -1.98895758087684436507e-04
9.99504550000000000000e+08 9.97785803308530283573e-01 -1.99327092771578520680e-02 -2.21419669146973821950e-04 -1.99327092771578494659e-03 -2.21419669146973821950e-04 -1.99327092771578494659e-03 9.99977858033085253986e-01 -1.99327092771578489238e-04
9.99505651000000000000e+08 9.97776047996645654159e-01 -1.99760277755412253564e-02 -2.22395200335431282709e-04 -1.99760277755412244891e-03 -2.22395200335431282709e-04 -1.99760277755412244891e-03 9.99977760479966448770e-01 -1.99760277755412228627e-04
9.99506752000000000000e+08 9.97766228352062300999e-01 -2.00195324806547066132e-02 -2.23377164793775250624e-04 -2.00195324806547040111e-03 -2.23377164793775250624e-04 -2.00195324806547040111e-03 9.99977662283520585262e-01 -2.00195324806547018427e-04
9.99507853000000000000e+08 9.97756343810291101981e-01 -2.00632245790604291091e-02 -2.24365618970892360604e-04 -2.00632245790604299765e-03 -2.24365618970892360604e-04 -2.00632245790604299765e-03 9.99977563438102956539e-01 -2.00632245790604245555e-04
9.99508954000000000000e+08 9.97746393800662767504e-01 -2.01071052672807878969e-02 -2.25360619933726881708e-04 -2.01071052672807887643e-03 -2.25360619933726881708e-04 -2.01071052672807887643e-03 9.99977463938006572164e-01 -2.01071052672807833433e-04
9.99510055000000000000e+08 9.97736377746247682374e-01 -2.01511757518946441059e-02 -2.26362225375231957726e-04 -2.01511757518946449733e-03 -2.26362225375231957726e-04 -2.01511757518946449733e-03 9.99977363777462491257e-01 -2.01511757518946417207e-04
9.99511156000000000000e+08 9.97726295063778634287e-01 -2.01954372496212855581e-02 -2.27370493622133822880e-04 -2.01954372496212846907e-03 -2.27370493622133822880e-04 -2.01954372496212846907e-03 9.99977262950637824090e-01 -2.01954372496212814381e-04
9.99512257000000000000e+08 9.97716145163560663711e-01 -2.02398909874544619125e-02 -2.28385483643931221955e-04 -2.02398909874544619125e-03 -2.28385483643931221955e-04 -2.02398909874544619125e-03 9.99977161451635621070e-01 -2.02398909874544559494e-04
9.99513358000000000000e+08 9.97705927449390350681e-01 -2.02845382027511365874e-02 -2.29407255060965289701e-04 -2.02845382027511383222e-03 -2.29407255060965289701e-04 -2.02845382027511383222e-03 9.99977059274493873531e-01 -2.02845382027511323591e-04
9.99514459000000000000e+08 9.97695641318467774106e-01 -2.03293801433482475283e-02 -2.30435868153226335346e-04 -2.03293801433482475283e-03 -2.30435868153226335346e-04 -2.03293801433482475283e-03 9.99976956413184625561e-01 -2.03293801433482410231e-04
9.99515560000000000000e+08 9.97685286161313245046e-01 -2.03744180676537142705e-02 -2.31471383868673495068e-04 -2.03744180676537160052e-03 -2.31471383868673495068e-04 -2.03744180676537160052e-03 9.99976852861613085821e-01 -2.03744180676537105842e-04
9.99516661000000000000e+08 9.97674861361672715709e-01 -2.04196532447840188584e-02 -2.32513863832725892027e-04 -2.04196532447840179911e-03 -2.32513863832725892027e-04 -2.04196532447840179911e-03 9.99976748613616739370e-01 -2.04196532447840125701e-04
9.99517762000000000000e+08 9.97664366296431404102e-01 -2.04650869546579225466e-02 -2.33563370356854884367e-04 -2.04650869546579199446e-03 -2.33563370356854884367e-04 -2.04650869546579199446e-03 9.99976643662964348458e-01 -2.04650869546579177762e-04
9.99518863000000000000e+08 9.97653800335520535292e-01 -2.05107204881188193157e-02 -2.34619966447940919707e-04 -2.05107204881188175810e-03 -2.34619966447940919707e-04 -2.05107204881188175810e-03 9.99976538003355175377e-01 -2.05107204881188132442e-04
9.99519964000000000000e+08 9.97643162841827635390e-01 -2.05565551470354886121e-02 -2.35683715817241106827e-04 -2.05565551470354886121e-03 -2.35683715817241106827e-04 -2.05565551470354886121e-03 9.99976431628418316322e-01 -2.05565551470354869858e-04
9.99521065000000000000e+08 9.97632453171098609879e-01 -2.06025922444318491944e-02 -2.36754682890139201866e-04 -2.06025922444318500618e-03 -2.36754682890139201866e-04 -2.06025922444318500618e-03 9.99976324531711036059e-01 -2.06025922444318473513e-04
9.99522166000000000000e+08 9.97621670671843818745e-01 -2.06488331045998202429e-02 -2.37832932815619421110e-04 -2.06488331045998193755e-03 -2.37832932815619421110e-04 -2.06488331045998193755e-03 9.99976216706718434857e-01 -2.06488331045998155808e-04
9.99523267000000000000e+08 9.97610814685238933563e-01 -2.06952790632228787737e-02 -2.38918531476104166250e-04 -2.06952790632228787737e-03 -2.38918531476104166250e-04 -2.06952790632228787737e-03 9.99976108146852338265e-01 -2.06952790632228760632e-04
9.99524368000000000000e+08 9.97599884545029902405e-01 -2.07419314674824120659e-02 -2.40011545497007336295e-04 -2.07419314674824094638e-03 -2.40011545497007336295e-04 -2.07419314674824094638e-03 9.99975998845450297914e-01 -2.07419314674824067533e-04
9.99525469000000000000e+08 9.97588879577429032963e-01 -2.07887916761935326315e-02 -2.41112042257095993527e-04 -2.07887916761935334989e-03 -2.41112042257095993527e-04 -2.07887916761935334989e-03 9.99975888795774259243e-01 -2.07887916761935297042e-04
9.99526570000000000000e+08 9.97577799101013074079e-01 -2.08358610599285697107e-02 -2.42220089898687257826e-04 -2.08358610599285697107e-03 -2.42220089898687257826e-04 -2.08358610599285697107e-03 9.99975777991010117418e-01 -2.08358610599285664581e-04
9.99527671000000000000e+08 9.97566642426623850781e-01 -2.08831410011253715275e-02 -2.43335757337611203067e-04 -2.08831410011253671907e-03 -2.43335757337611203067e-04 -2.08831410011253671907e-03 9.99975666424266274035e-01 -2.08831410011253661065e-04
9.99528772000000000000e+08 9.97555408857256575850e-01 -2.09306328942398672810e-02 -2.44459114274342957131e-04 -2.09306328942398655463e-03 -2.44459114274342957131e-04 -2.09306328942398655463e-03 9.99975554088572526901e-01 -2.09306328942398633779e-04
9.99529873000000000000e+08 9.97544097687958153386e-01 -2.09783381458527873331e-02 -2.45590231204183089258e-04 -2.09783381458527847310e-03 -2.45590231204183089258e-04 -2.09783381458527847310e-03 9.99975440976879625943e-01 -2.09783381458527831047e-04
9.99530974000000000000e+08 9.97532708205718376959e-01 -2.10262581748015577043e-02 -2.46729179428162217341e-04 -2.10262581748015594391e-03 -2.46729179428162217341e-04 -2.10262581748015594391e-03 9.99975327082057163786e-01 -2.10262581748015523917e-04
9.99532075000000000000e+08 9.97521239689355909697e-01 -2.10743944123260723567e-02 -2.47876031064409680857e-04 -2.10743944123260688872e-03 -2.47876031064409680857e-04 -2.10743944123260688872e-03 9.99975212396893575750e-01 -2.10743944123260661767e-04
9.99533176000000000000e+08 9.97509691409411036744e-01 -2.11227483021822794174e-02 -2.49030859058895002837e-04 -2.11227483021822785500e-03 -2.49030859058895002837e-04 -2.11227483021822785500e-03 9.99975096914094141454e-01 -2.11227483021822763816e-04
9.99534277000000000000e+08 9.97498062628027315490e-01 -2.11713213007962523793e-02 -2.50193737197270033891e-04 -2.11713213007962532466e-03 -2.50193737197270033891e-04 -2.11713213007962532466e-03 9.99974980626280318674e-01 -2.11713213007962489098e-04
9.99535378000000000000e+08 9.97486352598839220995e-01 -2.12201148773858740137e-02 -2.51364740116082258960e-04 -2.12201148773858740137e-03 -2.51364740116082258960e-04 -2.12201148773858740137e-03 9.99974863525988411084e-01 -2.12201148773858707611e-04
