! File generated for n1 = 6, n2 = 6
! b1 = 2.154435
! b2 = 0.046416
! Q0 = 10000.000000
! f0 = 1000000000.000000
! n = 1001
! rel_span = 10.000000
# Hz S RI R 50
9.98399574710816025734e+08 9.86692773542191647884e-01 -1.33178921383088483266e-01 -1.95323372488521085008e-03 -1.95479923268794437974e-02 -1.95323372488521085008e-03 -1.95479923268794437974e-02 9.99713304496911869812e-01 -2.86925288208754805663e-03
9.98402775561394453049e+08 9.86639871944309576612e-01 -1.33440730567812665397e-01 -1.96099861754794576110e-03 -1.95864206598389302416e-02 -1.96099861754794576110e-03 -1.95864206598389302416e-02 9.99712164766535571481e-01 -2.87489338998493529700e-03
9.98405976411972761154e+08 9.86586655494276154599e-01 -1.33703559590868409357e-01 -1.96880972418639246108e-03 -1.96249986845940388447e-02 -1.96880972418639246108e-03 -1.96249986845940388447e-02 9.99711018252875227574e-01 -2.88055586963312021051e-03
9.98409177262551188469e+08 9.86533121697480530621e-01 -1.33967414357331116026e-01 -1.97666741095936385544e-03 -1.96637272678912913837e-02 -1.97666741095936385544e-03 -1.96637272678912913837e-02 9.99709864902186162716e-01 -2.88624044825309521850e-03
9.98412378113129496574e+08 9.86479268034653911101e-01 -1.34232300817361094314e-01 -1.98457204764493399043e-03 -1.97026072830947911185e-02 -1.98457204764493399043e-03 -1.97026072830947911185e-02 9.99708704660192348790e-01 -2.89194725403717819295e-03
9.98415578963707923889e+08 9.86425091961560029930e-01 -1.34498224966716622975e-01 -1.99252400768591122690e-03 -1.97416396102614959129e-02 -1.99252400768591122690e-03 -1.97416396102614959129e-02 9.99707537472079965646e-01 -2.89767641616006611446e-03
9.98418779814286231995e+08 9.86370590908711042388e-01 -1.34765192847125597764e-01 -2.00052366823155313574e-03 -1.97808251361957891656e-02 -2.00052366823155313574e-03 -1.97808251361957891656e-02 9.99706363282490961808e-01 -2.90342806478683995372e-03
9.98421980664864659309e+08 9.86315762281060215422e-01 -1.35033210546753795755e-01 -2.00857141018261292978e-03 -1.98201647545181887378e-02 -2.00857141018261292978e-03 -1.98201647545181887378e-02 9.99705182035516726202e-01 -2.90920233108305512429e-03
9.98425181515442967415e+08 9.86260603457699613905e-01 -1.35302284200636335765e-01 -2.01666761823576356355e-03 -1.98596593657287129320e-02 -2.01666761823576356355e-03 -1.98596593657287129320e-02 9.99703993674691648863e-01 -2.91499934722403743204e-03
9.98428382366021394730e+08 9.86205111791551347622e-01 -1.35572419991123793714e-01 -2.02481268092892172095e-03 -1.98993098772723107925e-02 -2.02481268092892172095e-03 -1.98993098772723107925e-02 9.99702798142986015506e-01 -2.92081924640449084110e-03
9.98431583216599702835e+08 9.86149284609056153705e-01 -1.35843624148323516287e-01 -2.03300699068690790550e-03 -1.99391172036036921911e-02 -2.03300699068690790550e-03 -1.99391172036036921911e-02 9.99701595382799901301e-01 -2.92666216284801026376e-03
9.98434784067178130150e+08 9.86093119209848545381e-01 -1.36115902950593142817e-01 -2.04125094386917605577e-03 -1.99790822662597282455e-02 -2.04125094386917605577e-03 -1.99790822662597282455e-02 9.99700385335955621358e-01 -2.93252823181771021116e-03
9.98437984917756438255e+08 9.86036612866448280990e-01 -1.36389262724935983462e-01 -2.04954494081506077147e-03 -2.00192059939175055761e-02 -2.04954494081506077147e-03 -2.00192059939175055761e-02 9.99699167943691291427e-01 -2.93841758962474532135e-03
9.98441185768334865570e+08 9.85979762823922745163e-01 -1.36663709847523739960e-01 -2.05788938589338476701e-03 -2.00594893224710323076e-02 -2.05788938589338476701e-03 -2.00594893224710323076e-02 9.99697943146653833502e-01 -2.94433037363957001570e-03
9.98444386618913173676e+08 9.85922566299557656677e-01 -1.36939250744158746986e-01 -2.06628468755075444044e-03 -2.00999331950991108608e-02 -2.06628468755075444044e-03 -2.00999331950991108608e-02 9.99696710884891426296e-01 -2.95026672230189971474e-03
9.98447587469491600990e+08 9.85865020482527221191e-01 -1.37215891890722613278e-01 -2.07473125835994261223e-03 -2.01405385623311672383e-02 -2.07473125835994261223e-03 -2.01405385623311672383e-02 9.99695471097846621866e-01 -2.95622677513037368166e-03
9.98450788320069909096e+08 9.85807122533550628241e-01 -1.37493639813677320793e-01 -2.08322951507041234653e-03 -2.01813063821208171777e-02 -2.08322951507041234653e-03 -2.01813063821208171777e-02 9.99694223724349129157e-01 -2.96221067273335280853e-03
9.98453989170648336411e+08 9.85748869584538112143e-01 -1.37772501090591803496e-01 -2.09177987866014788651e-03 -2.02222376199231411442e-02 -2.09177987866014788651e-03 -2.02222376199231411442e-02 9.99692968702607598352e-01 -2.96821855682026470788e-03
9.98457190021226644516e+08 9.85690258738263769267e-01 -1.38052482350529498456e-01 -2.10038277438377458256e-03 -2.02633332487515832598e-02 -2.10038277438377458256e-03 -2.02633332487515832598e-02 9.99691705970203403631e-01 -2.97425057020995033466e-03
9.98460390871805071831e+08 9.85631287067981864958e-01 -1.38333590274682338706e-01 -2.10903863182879776003e-03 -2.03045942492710157490e-02 -2.10903863182879776003e-03 -2.03045942492710157490e-02 9.99690435464081539330e-01 -2.98030685684432796942e-03
9.98463591722383379936e+08 9.85571951617091657205e-01 -1.38615831596759830902e-01 -2.11774788496486713121e-03 -2.03460216098548182795e-02 -2.11774788496486713121e-03 -2.03460216098548182795e-02 9.99689157120544069635e-01 -2.98638756179676976427e-03
9.98466792572961807251e+08 9.85512249398753703566e-01 -1.38899213103586632867e-01 -2.12651097220004688809e-03 -2.03876163266726202761e-02 -2.12651097220004688809e-03 -2.03876163266726202761e-02 9.99687870875241468838e-01 -2.99249283128498163101e-03
9.98469993423540115356e+08 9.85452177395538364557e-01 -1.39183741635531571523e-01 -2.13532833643245278238e-03 -2.04293794037532575047e-02 -2.13532833643245278238e-03 -2.04293794037532575047e-02 9.99686576663165182843e-01 -2.99862281268024194469e-03
9.98473194274118542671e+08 9.85391732559029454031e-01 -1.39469424087127646938e-01 -2.14420042510839311753e-03 -2.04713118530757756663e-02 -2.14420042510839311753e-03 -2.04713118530757756663e-02 9.99685274418639080451e-01 -3.00477765452076108280e-03
9.98476395124696850777e+08 9.85330911809459752959e-01 -1.39756267407522144497e-01 -2.15312769027585200823e-03 -2.05134146946355094832e-02 -2.15312769027585200823e-03 -2.05134146946355094832e-02 9.99683964075311681796e-01 -3.01095750652137939679e-03
9.98479595975275278091e+08 9.85269712035316880261e-01 -1.40044278601050481425e-01 -2.16211058864241049624e-03 -2.05556889565282931154e-02 -2.16211058864241049624e-03 -2.05556889565282931154e-02 9.99682645566147276561e-01 -3.01716251958592885166e-03
9.98482796825853586197e+08 9.85208130092952938384e-01 -1.40333464727767004421e-01 -2.17114958163246727155e-03 -2.05981356750283908785e-02 -2.17114958163246727155e-03 -2.05981356750283908785e-02 9.99681318823418152419e-01 -3.02339284581866875670e-03
9.98485997676432013512e+08 9.85146162806187164485e-01 -1.40623832903992163068e-01 -2.18024513544558653025e-03 -2.06407558946687941237e-02 -2.18024513544558653025e-03 -2.06407558946687941237e-02 9.99679983778695602226e-01 -3.02964863853607668104e-03
9.98489198527010321617e+08 9.85083806965903141517e-01 -1.40915390302865539685e-01 -2.18939772111568066795e-03 -2.06835506683224097657e-02 -2.18939772111568066795e-03 -2.06835506683224097657e-02 9.99678640362841264277e-01 -3.03593005227875949864e-03
9.98492399377588748932e+08 9.85021059329638792867e-01 -1.41208144154905929080e-01 -2.19860781457106163606e-03 -2.07265210572842514813e-02 -2.19860781457106163606e-03 -2.07265210572842514813e-02 9.99677288505998462576e-01 -3.04223724282352185957e-03
9.98495600228167057037e+08 9.84957916621174489613e-01 -1.41502101748567143957e-01 -2.20787589669502312337e-03 -2.07696681313530376323e-02 -2.20787589669502312337e-03 -2.07696681313530376323e-02 9.99675928137583102995e-01 -3.04857036719534228719e-03
9.98498801078745484352e+08 9.84894375530104948524e-01 -1.41797270430841643174e-01 -2.21720245338859851467e-03 -2.08129929689197870624e-02 -2.21720245338859851467e-03 -2.08129929689197870624e-02 9.99674559186274680478e-01 -3.05492958368037406322e-03
9.98502001929323792458e+08 9.84830432711421233094e-01 -1.42093657607799073173e-01 -2.22658797563196576494e-03 -2.08564966570468565688e-02 -2.22658797563196576494e-03 -2.08564966570468565688e-02 9.99673181580007175207e-01 -3.06131505183755182886e-03
9.98505202779902219772e+08 9.84766084785068329666e-01 -1.42391270745213932569e-01 -2.23603295954934644038e-03 -2.09001802915600790045e-02 -2.23603295954934644038e-03 -2.09001802915600790045e-02 9.99671795245959504683e-01 -3.06772693251210898380e-03
9.98508403630480527878e+08 9.84701328335516823387e-01 -1.42690117369106861389e-01 -2.24553790647189898538e-03 -2.09440449771282170832e-02 -2.24553790647189898538e-03 -2.09440449771282170832e-02 9.99670400110546308881e-01 -3.07416538784724803837e-03
9.98511604481058955193e+08 9.84636159911301045433e-01 -1.42990205066417602753e-01 -2.25510332300549003193e-03 -2.09880918273617281256e-02 -2.25510332300549003193e-03 -2.09880918273617281256e-02 9.99668996099408069256e-01 -3.08063058129862815671e-03
9.98514805331637263298e+08 9.84570576024584753760e-01 -1.43291541485529028144e-01 -2.26472972109449275854e-03 -2.10323219648896886369e-02 -2.26472972109449275854e-03 -2.10323219648896886369e-02 9.99667583137401560833e-01 -3.08712267764566471173e-03
9.98518006182215690613e+08 9.84504573150683293115e-01 -1.43594134336964884824e-01 -2.27441761809183675899e-03 -2.10767365214622089120e-02 -2.27441761809183675899e-03 -2.10767365214622089120e-02 9.99666161148589860197e-01 -3.09364184300655545995e-03
9.98521207032793998718e+08 9.84438147727616508220e-01 -1.43897991393927893178e-01 -2.28416753682473888318e-03 -2.11213366380294184643e-02 -2.28416753682473888318e-03 -2.11213366380294184643e-02 9.99664730056232242461e-01 -3.10018824484987630050e-03
9.98524407883372426033e+08 9.84371296155619135426e-01 -1.44203120493001990532e-01 -2.29398000566645183379e-03 -2.11661234648445328865e-02 -2.29398000566645183379e-03 -2.11661234648445328865e-02 9.99663289782774300285e-01 -3.10676205200971023226e-03
9.98527608733950734138e+08 9.84304014796673065746e-01 -1.44509529534736308465e-01 -2.30385555860500475245e-03 -2.12110981615495769459e-02 -2.30385555860500475245e-03 -2.12110981615495769459e-02 9.99661840249837285732e-01 -3.11336343469822886959e-03
9.98530809584529161453e+08 9.84236299974011186187e-01 -1.44817226484331373904e-01 -2.31379473531602994699e-03 -2.12562618972760922209e-02 -2.31379473531602994699e-03 -2.12562618972760922209e-02 9.99660381378207563152e-01 -3.11999256452047488836e-03
9.98534010435107469559e+08 9.84168147971632212290e-01 -1.45126219372248260742e-01 -2.32379808123392428421e-03 -2.13016158507345794437e-02 -2.32379808123392428421e-03 -2.13016158507345794437e-02 9.99658913087826284105e-01 -3.12664961448748781117e-03
9.98537211285685896873e+08 9.84099555033792205982e-01 -1.45436516294899925716e-01 -2.33386614762647395804e-03 -2.13471612103159243123e-02 -2.33386614762647395804e-03 -2.13471612103159243123e-02 9.99657435297778618200e-01 -3.13333475903119617473e-03
9.98540412136264204979e+08 9.84030517364498646948e-01 -1.45748125415307766550e-01 -2.34399949166922121763e-03 -2.13928991741878238297e-02 -2.34399949166922121763e-03 -2.13928991741878238297e-02 9.99655947926282095750e-01 -3.14004817401856593448e-03
9.98543612986842632294e+08 9.83961031126990737228e-01 -1.46061054963787823047e-01 -2.35419867652162393204e-03 -2.14388309503954592461e-02 -2.35419867652162393204e-03 -2.14388309503954592461e-02 9.99654450890676504748e-01 -3.14679003676638074233e-03
9.98546813837420940399e+08 9.83891092443225034891e-01 -1.46375313238590487597e-01 -2.36446427140258414942e-03 -2.14849577569554105183e-02 -2.36446427140258414942e-03 -2.14849577569554105183e-02 9.99652944107411678409e-01 -3.15356052605502475833e-03
9.98550014687999367714e+08 9.83820697393328336133e-01 -1.46690908606662590019e-01 -2.37479685167084602487e-03 -2.15312808219675251575e-02 -2.37479685167084602487e-03 -2.15312808219675251575e-02 9.99651427492036614986e-01 -3.16035982214490397679e-03
9.98553215538577675819e+08 9.83749842015074871249e-01 -1.47007849504265514229e-01 -2.38519699890159557129e-03 -2.15778013837056303892e-02 -2.38519699890159557129e-03 -2.15778013837056303892e-02 9.99649900959187820426e-01 -3.16718810678975979528e-03
9.98556416389156103134e+08 9.83678522303313207509e-01 -1.47326144437798289832e-01 -2.39566530097068582095e-03 -2.16245206907383531736e-02 -2.39566530097068582095e-03 -2.16245206907383531736e-02 9.99648364422576762855e-01 -3.17404556325440396006e-03
9.98559617239734411240e+08 9.83606734209447330919e-01 -1.47645801984343988389e-01 -2.40620235213071442457e-03 -2.16714400020093164723e-02 -2.40620235213071442457e-03 -2.16714400020093164723e-02 9.99646817794979214433e-01 -3.18093237632648953225e-03
9.98562818090312838554e+08 9.83534473640828021956e-01 -1.47966830792593373456e-01 -2.41680875310045124860e-03 -2.17185605869727217654e-02 -2.41680875310045124860e-03 -2.17185605869727217654e-02 9.99645260988221706633e-01 -3.18784873233641033452e-03
9.98566018940891146660e+08 9.83461736460218727274e-01 -1.48289239583402177036e-01 -2.42748511114316677800e-03 -2.17658837256751308553e-02 -2.42748511114316677800e-03 -2.17658837256751308553e-02 9.99643693913170094945e-01 -3.19479481916930740590e-03
9.98569219791469573975e+08 9.83388518485183826812e-01 -1.48613037150667343100e-01 -2.43823204015646693987e-03 -2.18134107088840921429e-02 -2.43823204015646693987e-03 -2.18134107088840921429e-02 9.99642116479716569266e-01 -3.20177082628394713004e-03
9.98572420642047882080e+08 9.83314815487520199611e-01 -1.48938232361978395435e-01 -2.44905016075569427134e-03 -2.18611428381837481771e-02 -2.44905016075569427134e-03 -2.18611428381837481771e-02 9.99640528596767330427e-01 -3.20877694472675514814e-03
9.98575621492626309395e+08 9.83240623192637053229e-01 -1.49264834159468562369e-01 -2.45994010036495970237e-03 -2.19090814260997600316e-02 -2.45994010036495970237e-03 -2.19090814260997600316e-02 9.99638930172229045468e-01 -3.21581336715015108502e-03
9.98578822343204617500e+08 9.83165937278967616564e-01 -1.49592851560494816132e-01 -2.47090249330353742274e-03 -2.19572277961991232931e-02 -2.47090249330353742274e-03 -2.19572277961991232931e-02 9.99637321112996302119e-01 -3.22288028782720175833e-03
9.98582023193783044815e+08 9.83090753377329762408e-01 -1.49922293658508232195e-01 -2.48193798087963839530e-03 -2.20055832832179200376e-02 -2.48193798087963839530e-03 -2.20055832832179200376e-02 9.99635701324938175105e-01 -3.22997790267037137094e-03
9.98585224044361352921e+08 9.83015067070321935105e-01 -1.50253169623740800986e-01 -2.49304721147914146173e-03 -2.20541492331621305500e-02 -2.49304721147914146173e-03 -2.20541492331621305500e-02 9.99634070712884348353e-01 -3.23710640924631956952e-03
9.98588424894939780235e+08 9.82938873891659681270e-01 -1.50585488704118614089e-01 -2.50423084066297551437e-03 -2.21029270034416719382e-02 -2.50423084066297551437e-03 -2.21029270034416719382e-02 9.99632429180611792319e-01 -3.24426600679557450985e-03
9.98591625745518088341e+08 9.82862169325548706844e-01 -1.50919260225979012802e-01 -2.51548953125905897302e-03 -2.21519179629756507444e-02 -2.51548953125905897302e-03 -2.21519179629756507444e-02 9.99630776630830664153e-01 -3.25145689624798230402e-03
9.98594826596096515656e+08 9.82784948806015523637e-01 -1.51254493594946443080e-01 -2.52682395346068853006e-03 -2.22011234923209371805e-02 -2.52682395346068853006e-03 -2.22011234923209371805e-02 9.99629112965170096849e-01 -3.25867928024157907721e-03
9.98598027446674823761e+08 9.82707207716252195695e-01 -1.51591198296703671966e-01 -2.53823478492255566116e-03 -2.22505449837853558348e-02 -2.53823478492255566116e-03 -2.22505449837853558348e-02 9.99627438084163766341e-01 -3.26593336313920528172e-03
9.98601228297253251076e+08 9.82628941387918342087e-01 -1.51929383897923236946e-01 -2.54972271086335508516e-03 -2.23001838415643957592e-02 -2.54972271086335508516e-03 -2.23001838415643957592e-02 9.99625751887235569626e-01 -3.27321935104857254448e-03
9.98604429147831559181e+08 9.82550145100484217942e-01 -1.52269060046976878464e-01 -2.56128842416205671287e-03 -2.23500414818453563282e-02 -2.56128842416205671287e-03 -2.23500414818453563282e-02 9.99624054272684636757e-01 -3.28053745183754831560e-03
9.98607629998409986496e+08 9.82470814080494969645e-01 -1.52610236474958943509e-01 -2.57293262546605915053e-03 -2.24001193329575534752e-02 -2.57293262546605915053e-03 -2.24001193329575534752e-02 9.99622345137670009763e-01 -3.28788787515620550481e-03
9.98610830848988294601e+08 9.82390943500895175156e-01 -1.52952922996404033773e-01 -2.58465602329016911828e-03 -2.24504188354776625103e-02 -2.58465602329016911828e-03 -2.24504188354776625103e-02 9.99620624378195987703e-01 -3.29527083245228233702e-03
9.98614031699566721916e+08 9.82310528480273004170e-01 -1.53297129510321816781e-01 -2.59645933412766668699e-03 -2.25009414423815862216e-02 -2.59645933412766668699e-03 -2.25009414423815862216e-02 9.99618891889095695369e-01 -3.30268653699347615113e-03
9.98617232550145030022e+08 9.82229564082172212913e-01 -1.53642866000898825618e-01 -2.60834328255125837831e-03 -2.25516886191475009193e-02 -2.60834328255125837831e-03 -2.25516886191475009193e-02 9.99617147564016428340e-01 -3.31013520388256585192e-03
9.98620433400723457336e+08 9.82148045314297890584e-01 -1.53990142538616203716e-01 -2.62030860132958466277e-03 -2.26026618439198918875e-02 -2.62030860132958466277e-03 -2.26026618439198918875e-02 9.99615391295402444527e-01 -3.31761705008149073923e-03
9.98623634251301765442e+08 9.82065967127806915826e-01 -1.54338969280972737597e-01 -2.63235603153151457093e-03 -2.26538626076156837663e-02 -2.63235603153151457093e-03 -2.26538626076156837663e-02 9.99613622974479754113e-01 -3.32513229442692832480e-03
9.98626835101880192757e+08 9.81983324416502934007e-01 -1.54689356473566907990e-01 -2.64448632264414071683e-03 -2.27052924140830718336e-02 -2.64448632264414071683e-03 -2.27052924140830718336e-02 9.99611842491238689057e-01 -3.33268115765360598002e-03
9.98630035952458500862e+08 9.81900112016094950285e-01 -1.55041314450876877018e-01 -2.65670023268173120801e-03 -2.27569527802160068153e-02 -2.65670023268173120801e-03 -2.27569527802160068153e-02 9.99610049734417804856e-01 -3.34026386241110693695e-03
9.98633236803036928177e+08 9.81816324703362219850e-01 -1.55394853637391888723e-01 -2.66899852830823928682e-03 -2.28088452361202460861e-02 -2.66899852830823928682e-03 -2.28088452361202460861e-02 9.99608244591486450048e-01 -3.34788063328824228582e-03
9.98636437653615236282e+08 9.81731957195396409688e-01 -1.55749984548377962135e-01 -2.68138198494857022888e-03 -2.28609713252257776284e-02 -2.68138198494857022888e-03 -2.28609713252257776284e-02 9.99606426948627779794e-01 -3.35553169682955253206e-03
9.98639638504193663597e+08 9.81647004148741064711e-01 -1.56106717791034549370e-01 -2.69385138691487658474e-03 -2.29133326044565592550e-02 -2.69385138691487658474e-03 -2.29133326044565592550e-02 9.99604596690720326180e-01 -3.36321728156022212858e-03
9.98642839354771971703e+08 9.81561460158599352610e-01 -1.56465064065320097475e-01 -2.70640752752281414303e-03 -2.29659306443516994523e-02 -2.70640752752281414303e-03 -2.29659306443516994523e-02 9.99602753701321566915e-01 -3.37093761800386646291e-03
9.98646040205350399017e+08 9.81475319757953212907e-01 -1.56825034165110316353e-01 -2.71905120922093018407e-03 -2.30187670292354915058e-02 -2.71905120922093018407e-03 -2.30187670292354915058e-02 9.99600897862647830294e-01 -3.37869293870748932385e-03
9.98649241055928707123e+08 9.81388577416753338234e-01 -1.57186638979009696282e-01 -2.73178324370943175631e-03 -2.30718433573365057365e-02 -2.73178324370943175631e-03 -2.30718433573365057365e-02 9.99599029055558085943e-01 -3.38648347825896284258e-03
