! File generated for n1 = 12, n2 = 2
! b1 = 0.021544
! b2 = 0.010000
! Q0 = 10000.000000
! f0 = 1000000000.000000
! n = 1001
! rel_span = 10.000000
# Hz S RI R 50
9.99484227826549887657e+08 9.99586636442456599738e-01 -4.13470213263650385876e-03 -2.81621313391889932683e-04 -2.81693977088228863365e-03 -2.81621313391889932683e-04 -2.81693977088228863365e-03 9.99808133632708373462e-01 -1.91915872491605406930e-03
9.99485259370896816254e+08 9.99584994067313159505e-01 -4.14282572306334286039e-03 -2.82740250551581835149e-04 -2.82247430861236933003e-03 -2.82740250551581835149e-04 -2.82247430861236933003e-03 9.99807371309695769312e-01 -1.92292936157746011810e-03
9.99486290915243744850e+08 9.99583341919180079493e-01 -4.15098095720739957565e-03 -2.83865845971495933068e-04 -2.82803040495602535029e-03 -2.83865845971495933068e-04 -2.82803040495602535029e-03 9.99806604450463209943e-01 -1.92671468595131500749e-03
9.99487322459590554237e+08 9.99581679920633292546e-01 -4.15916801828694875781e-03 -2.84998152400243369518e-04 -2.83360818473841558421e-03 -2.84998152400243369518e-04 -2.83360818473841558421e-03 9.99805833019073553203e-01 -1.93051478308000918488e-03
9.99488354003937482834e+08 9.99580007993482122508e-01 -4.16738709092331991585e-03 -2.86137223108373303388e-04 -2.83920777374058663431e-03 -2.86137223108373303388e-04 -2.83920777374058663431e-03 9.99805056979233941483e-01 -1.93432973865717235985e-03
9.99489385548284411430e+08 9.99578326058761512662e-01 -4.17563836115149127071e-03 -2.87283111894190196136e-04 -2.84482929870669403599e-03 -2.87283111894190196136e-04 -2.84482929870669403599e-03 9.99804276294292249005e-01 -1.93815963903259274627e-03
9.99490417092631340027e+08 9.99576634036723254972e-01 -4.18392201642990829019e-03 -2.88435873089521713133e-04 -2.85047288735068961654e-03 -2.88435873089521713133e-04 -2.85047288735068961654e-03 9.99803490927232307861e-01 -1.94200457121677266294e-03
9.99491448636978149414e+08 9.99574931846825665005e-01 -4.19223824565931671438e-03 -2.89595561566805014854e-04 -2.85613866836915367836e-03 -2.89595561566805014854e-04 -2.85613866836915367836e-03 9.99802700840670133253e-01 -1.94586462288967110626e-03
9.99492480181325078011e+08 9.99573219407723700947e-01 -4.20058723919782255746e-03 -2.90762232745721098393e-04 -2.86182677145155371992e-03 -2.90762232745721098393e-04 -2.86182677145155371992e-03 9.99801905996848705449e-01 -1.94973988240769446900e-03
9.99493511725672006607e+08 9.99571496637261081020e-01 -4.20896918886756211953e-03 -2.91935942598723252757e-04 -2.86753732728479071232e-03 -2.91935942598723252757e-04 -2.86753732728479071232e-03 9.99801106357634528088e-01 -1.95363043880679128697e-03
9.99494543270018935204e+08 9.99569763452459070230e-01 -4.21738428797496615885e-03 -2.93116747658531281127e-04 -2.87327046756700142660e-03 -2.93116747658531281127e-04 -2.87327046756700142660e-03 9.99800301884512188089e-01 -1.95753638181185834338e-03
9.99495574814365744591e+08 9.99568019769508153693e-01 -4.22583273131856354543e-03 -2.94304705023953612313e-04 -2.87902632501287969805e-03 -2.94304705023953612313e-04 -2.87902632501287969805e-03 9.99799492538580691914e-01 -1.96145780184036342200e-03
9.99496606358712673187e+08 9.99566265503755602140e-01 -4.23431471521373316291e-03 -2.95499872368158462282e-04 -2.88480503337053620361e-03 -2.95499872368158462282e-04 -2.88480503337053620361e-03 9.99798678280547914454e-01 -1.96539479001383394705e-03
9.99497637903059601784e+08 9.99564500569697811372e-01 -4.24283043749719684240e-03 -2.96702307944173341268e-04 -2.89060672742455981518e-03 -2.96702307944173341268e-04 -2.89060672742455981518e-03 9.99797859070726491204e-01 -1.96934743815994081975e-03
9.99498669447406530380e+08 9.99562724880968533903e-01 -4.25138009754618285269e-03 -2.97912070592518270738e-04 -2.89643154300907616425e-03 -2.97912070592518270738e-04 -2.89643154300907616425e-03 9.99797034869028711235e-01 -1.97331583882139711614e-03
9.99499700991753339767e+08 9.99560938350329886148e-01 -4.25996389628955328399e-03 -2.99129219747779951689e-04 -2.90227961701532404665e-03 -2.99129219747779951689e-04 -2.90227961701532404665e-03 9.99796205634962298348e-01 -1.97730008526111758829e-03
9.99500732536100268364e+08 9.99559140889659691886e-01 -4.26858203622967023738e-03 -3.00353815446784589045e-04 -2.90815108740655756461e-03 -3.00353815446784589045e-04 -2.90815108740655756461e-03 9.99795371327624859958e-01 -1.98130027147237373561e-03
9.99501764080447196960e+08 9.99557332409942600471e-01 -4.27723472145202874423e-03 -3.01585918335114380393e-04 -2.91404609322460511622e-03 -3.01585918335114380393e-04 -2.91404609322460511622e-03 9.99794531905698669050e-01 -1.98531649218326028405e-03
9.99502795624794125557e+08 9.99555512821258318468e-01 -4.28592215764147122653e-03 -3.02825589674634481144e-04 -2.91996477460091958395e-03 -3.02825589674634481144e-04 -2.91996477460091958395e-03 9.99793687327446889412e-01 -1.98934884286422431973e-03
9.99503827169140934944e+08 9.99553682032771839694e-01 -4.29464455209484664150e-03 -3.04072891350590300379e-04 -2.92590727276519904296e-03 -3.04072891350590300379e-04 -2.92590727276519904296e-03 9.99792837550707358396e-01 -1.99339741973393949626e-03
9.99504858713487863541e+08 9.99551839952719678450e-01 -4.30340211374745547357e-03 -3.05327885880760823475e-04 -2.93187373006340793596e-03 -3.05327885880760823475e-04 -2.93187373006340793596e-03 9.99791982532887257840e-01 -1.99746231977158180543e-03
9.99505890257834792137e+08 9.99549986488400987739e-01 -4.31219505317578626069e-03 -3.06590636421302244977e-04 -2.93786428995963669678e-03 -3.06590636421302244977e-04 -2.93786428995963669678e-03 9.99791122230958784201e-01 -2.00154364071809939482e-03
9.99506921802181720734e+08 9.99548121546165457829e-01 -4.32102358262102630160e-03 -3.07861206775647479501e-04 -2.94387909705212322264e-03 -3.07861206775647479501e-04 -2.94387909705212322264e-03 9.99790256601453153351e-01 -2.00564148108712397844e-03
9.99507953346528649330e+08 9.99546245031401214831e-01 -4.32988791600197146792e-03 -3.09139661401971544211e-04 -2.94991829708204705493e-03 -3.09139661401971544211e-04 -2.94991829708204705493e-03 9.99789385600455604575e-01 -2.00975594017096560739e-03
9.99508984890875458717e+08 9.99544356848523718462e-01 -4.33878826893235002016e-03 -3.10426065421377068380e-04 -2.95598203694533070290e-03 -3.10426065421377068380e-04 -2.95598203694533070290e-03 9.99788509183599516383e-01 -2.01388711804865137844e-03
9.99510016435222387314e+08 9.99542456900961884259e-01 -4.34772485874317538707e-03 -3.11720484626897996125e-04 -2.96207046470787008219e-03 -3.11720484626897996125e-04 -2.96207046470787008219e-03 9.99787627306060744381e-01 -2.01803511559630211619e-03
9.99511047979569315910e+08 9.99540545091148757706e-01 -4.35669790448802753124e-03 -3.13022985490123194317e-04 -2.96818372960913233125e-03 -3.13022985490123194317e-04 -2.96818372960913233125e-03 9.99786739922552736282e-01 -2.02220003448958223630e-03
9.99512079523916244507e+08 9.99538621320507081336e-01 -4.36570762696960462668e-03 -3.14333635170986418726e-04 -2.97432198208024420674e-03 -3.14333635170986418726e-04 -2.97432198208024420674e-03 9.99785846987319870571e-01 -2.02638197721602582313e-03
9.99513111068263053894e+08 9.99536685489437970453e-01 -4.37475424875062145896e-03 -3.15652501525382454817e-04 -2.98048537375141756739e-03 -3.15652501525382454817e-04 -2.98048537375141756739e-03 9.99784948454132460505e-01 -2.03058104708009464975e-03
9.99514142612609982491e+08 9.99534737497306813303e-01 -4.38383799417895077266e-03 -3.16979653114948085012e-04 -2.98667405746908020195e-03 -3.16979653114948085012e-04 -2.98667405746908020195e-03 9.99784044276280092767e-01 -2.03479734821484636170e-03
9.99515174156956911087e+08 9.99532777242432057818e-01 -4.39295908939546161931e-03 -3.18315159214417207813e-04 -2.99288818730121140496e-03 -3.18315159214417207813e-04 -2.99288818730121140496e-03 9.99783134406566298402e-01 -2.03903098558557349315e-03
9.99516205701303839684e+08 9.99530804622071000765e-01 -4.40211776235958744674e-03 -3.19659089821659465717e-04 -2.99912791855476597302e-03 -3.19659089821659465717e-04 -2.99912791855476597302e-03 9.99782218797302224544e-01 -2.04328206500167374599e-03
9.99517237245650649071e+08 9.99528819532407353243e-01 -4.41131424286192366097e-03 -3.21011515665921265926e-04 -3.00539340778425371342e-03 -3.21011515665921265926e-04 -3.00539340778425371342e-03 9.99781297400300528189e-01 -2.04755069312249167110e-03
9.99518268789997577667e+08 9.99526821868536141658e-01 -4.42054876254932820751e-03 -3.22372508218003619822e-04 -3.01168481280884208287e-03 -3.22372508218003619822e-04 -3.01168481280884208287e-03 9.99780370166868714854e-01 -2.05183697746897514280e-03
9.99519300334344506264e+08 9.99524811524452716505e-01 -4.42982155493342692060e-03 -3.23742139698100003103e-04 -3.01800229271814929657e-03 -3.23742139698100003103e-04 -3.01800229271814929657e-03 9.99779437047803809513e-01 -2.05614102642761925263e-03
9.99520331878691434860e+08 9.99522788393036765164e-01 -4.43913285541765786218e-03 -3.25120483086466639886e-04 -3.02434600789067142834e-03 -3.25120483086466639886e-04 -3.02434600789067142834e-03 9.99778497993384918097e-01 -2.06046294926302093684e-03
9.99521363423038244247e+08 9.99520752366038989223e-01 -4.44848290131213703474e-03 -3.26507612132405551381e-04 -3.03071612000390799152e-03 -3.26507612132405551381e-04 -3.03071612000390799152e-03 9.99777552953367121269e-01 -2.06480285612477927268e-03
9.99522394967385172844e+08 9.99518703334066671573e-01 -4.45787193185573447224e-03 -3.27903601364421199219e-04 -3.03711279204940415993e-03 -3.27903601364421199219e-04 -3.03711279204940415993e-03 9.99776601876974924110e-01 -2.06916085805774032161e-03
9.99523426511732101440e+08 9.99516641186569243516e-01 -4.46730018823236242620e-03 -3.29308526099627565595e-04 -3.04353618834384605923e-03 -3.29308526099627565595e-04 -3.04353618834384605923e-03 9.99775644712895150690e-01 -2.07353706700956008993e-03
9.99524458056079030037e+08 9.99514565811824517994e-01 -4.47676791358892975370e-03 -3.30722462453510634896e-04 -3.04998647454129447054e-03 -3.30722462453510634896e-04 -3.04998647454129447054e-03 9.99774681409271059884e-01 -2.07793159583903553830e-03
9.99525489600425958633e+08 9.99512477096922369313e-01 -4.48627535306067755372e-03 -3.32145487350905778065e-04 -3.05646381765044446166e-03 -3.32145487350905778065e-04 -3.05646381765044446166e-03 9.99773711913694462794e-01 -2.08234455832786687426e-03
9.99526521144772768021e+08 9.99510374927750633312e-01 -4.49582275378556089213e-03 -3.33577678535456603401e-04 -3.06296838604442614104e-03 -3.33577678535456603401e-04 -3.06296838604442614104e-03 9.99772736173199061405e-01 -2.08677606918733146713e-03
9.99527552689119696617e+08 9.99508259188978454013e-01 -4.50541036493164789162e-03 -3.35019114581138128302e-04 -3.06950034947946637925e-03 -3.35019114581138128302e-04 -3.06950034947946637925e-03 9.99771754134253010093e-01 -2.09122624407100110577e-03
9.99528584233466625214e+08 9.99506129764042849928e-01 -4.51503843770781430195e-03 -3.36469874901394164126e-04 -3.07605987910218202017e-03 -3.36469874901394164126e-04 -3.07605987910218202017e-03 9.99770765742752809402e-01 -2.09569519957970807830e-03
9.99529615777813553810e+08 9.99503986535131061508e-01 -4.52470722539267695278e-03 -3.37930039761132386920e-04 -3.08264714746928417122e-03 -3.37930039761132386920e-04 -3.08264714746928417122e-03 9.99769770944014313230e-01 -2.10018305327497106436e-03
9.99530647322160363197e+08 9.99501829383165785181e-01 -4.53441698335037279843e-03 -3.39399690286866344020e-04 -3.08926232855833479002e-03 -3.39399690286866344020e-04 -3.08926232855833479002e-03 9.99768769682766844653e-01 -2.10468992368632347445e-03
9.99531678866507291794e+08 9.99499658187787520802e-01 -4.54416796905592230982e-03 -3.40878908478427710641e-04 -3.09590559778502322913e-03 -3.40878908478427710641e-04 -3.09590559778502322913e-03 9.99767761903144536184e-01 -2.10921593032308311508e-03
9.99532710410854220390e+08 9.99497472827339583645e-01 -4.55396044211302773730e-03 -3.42367777219662486419e-04 -3.10257713201529282052e-03 -3.42367777219662486419e-04 -3.10257713201529282052e-03 9.99766747548679224344e-01 -2.11376119368261467663e-03
9.99533741955201148987e+08 9.99495273178850229812e-01 -4.56379466427787438415e-03 -3.43866380290164773414e-04 -3.10927710958155663692e-03 -3.43866380290164773414e-04 -3.10927710958155663692e-03 9.99765726562292678103e-01 -2.11832583526137645247e-03
9.99534773499547958374e+08 9.99493059118016335951e-01 -4.57367089948004790223e-03 -3.45374802376705839109e-04 -3.11600571029694824524e-03 -3.45374802376705839109e-04 -3.11600571029694824524e-03 9.99764698886288272206e-01 -2.12290997756463045362e-03
9.99535805043894886971e+08 9.99490830519185302627e-01 -4.58358941384743451275e-03 -3.46893129085405912092e-04 -3.12276311547228643470e-03 -3.46893129085405912092e-04 -3.12276311547228643470e-03 9.99763664462343437656e-01 -2.12751374411799957023e-03
9.99536836588241815567e+08 9.99488587255338511994e-01 -4.59355047572447203197e-03 -3.48421446953025280326e-04 -3.12954950792850798008e-03 -3.48421446953025280326e-04 -3.12954950792850798008e-03 9.99762623231501224019e-01 -2.13213725947593779261e-03
9.99537868132588744164e+08 9.99486329198073120139e-01 -4.60355435569703881626e-03 -3.49959843459408655262e-04 -3.13636507201362543101e-03 -3.49959843459408655262e-04 -3.13636507201362543101e-03 9.99761575134162305822e-01 -2.13678064923328477065e-03
9.99538899676935553551e+08 9.99484056217583960446e-01 -4.61360132661550736977e-03 -3.51508407039790703869e-04 -3.14320999361843416570e-03 -3.51508407039790703869e-04 -3.14320999361843416570e-03 9.99760520110076544853e-01 -2.14144404003596428715e-03
9.99539931221282482147e+08 9.99481768182644669807e-01 -4.62369166362079034999e-03 -3.53067227097709059134e-04 -3.15008446019425557630e-03 -3.53067227097709059134e-04 -3.15008446019425557630e-03 9.99759458098333997356e-01 -2.14612755959307571416e-03
9.99540962765629410744e+08 9.99479464960590147093e-01 -4.63382564416146489061e-03 -3.54636394016685351643e-04 -3.15698866076460438537e-03 -3.54636394016685351643e-04 -3.15698866076460438537e-03 9.99758389037357142470e-01 -2.15083133668483991383e-03
9.99541994309976339340e+08 9.99477146417297013237e-01 -4.64400354802416929362e-03 -3.56215999174104732111e-04 -3.16392278594589907575e-03 -3.56215999174104732111e-04 -3.16392278594589907575e-03 9.99757312864891112270e-01 -2.15555550117671121391e-03
9.99543025854323148727e+08 9.99474812417164848455e-01 -4.65422565735124429964e-03 -3.57806134953272362165e-04 -3.17088702795947875376e-03 -3.57806134953272362165e-04 -3.17088702795947875376e-03 9.99756229517996031220e-01 -2.16030018402756313414e-03
9.99544057398670077324e+08 9.99472462823095653128e-01 -4.66449225667454892008e-03 -3.59406894758136879857e-04 -3.17788158065464244537e-03 -3.59406894758136879857e-04 -3.17788158065464244537e-03 9.99755138933036580084e-01 -2.16506551730538589901e-03
9.99545088943017005920e+08 9.99470097496474974008e-01 -4.67480363293258302515e-03 -3.61018373025577174983e-04 -3.18490663952031381051e-03 -3.61018373025577174983e-04 -3.18490663952031381051e-03 9.99754041045673447208e-01 -2.16985163419523320594e-03
9.99546120487363934517e+08 9.99467716297151809179e-01 -4.68516007549664523918e-03 -3.62640665239250578177e-04 -3.19196240170286369212e-03 -3.62640665239250578177e-04 -3.19196240170286369212e-03 9.99752935790854557752e-01 -2.17465866901136355496e-03
9.99547152031710863113e+08 9.99465319083418846091e-01 -4.69556187619564815994e-03 -3.64273867943394266677e-04 -3.19904906602301586371e-03 -3.64273867943394266677e-04 -3.19904906602301586371e-03 9.99751823102805081689e-01 -2.17948675720875924625e-03
9.99548183576057672501e+08 9.99462905711989590962e-01 -4.70600932934742057639e-03 -3.65918078757813004104e-04 -3.20616683299717285249e-03 -3.65918078757813004104e-04 -3.20616683299717285249e-03 9.99750702915017330774e-01 -2.18433603539765512289e-03
9.99549215120404601097e+08 9.99460476037979161923e-01 -4.71650273178030217391e-03 -3.67573396391513904351e-04 -3.21331590485212856279e-03 -3.67573396391513904351e-04 -3.21331590485212856279e-03 9.99749575160241765737e-01 -2.18920664135356180316e-03
9.99550246664751529694e+08 9.99458029914882750688e-01 -4.72704238285832998440e-03 -3.69239920657073194578e-04 -3.22049648554222685964e-03 -3.69239920657073194578e-04 -3.22049648554222685964e-03 9.99748439770476782229e-01 -2.19409871402895684939e-03
9.99551278209098458290e+08 9.99455567194553640142e-01 -4.73762858450902692165e-03 -3.70917752485585520018e-04 -3.22770878076829520822e-03 -3.70917752485585520018e-04 -3.22770878076829520822e-03 9.99747296676958718820e-01 -2.19901239356618156962e-03
9.99552309753445267677e+08 9.99453087727181443967e-01 -4.74826164125095786378e-03 -3.72606993941758315048e-04 -3.23495299799641611652e-03 -3.72606993941758315048e-04 -3.23495299799641611652e-03 9.99746145810151976008e-01 -2.20394782131023330221e-03
9.99553341297792196274e+08 9.99450591361267903778e-01 -4.75894186022682557508e-03 -3.74307748240070427108e-04 -3.24222934648047723949e-03 -3.74307748240070427108e-04 -3.24222934648047723949e-03 9.99744987099737136838e-01 -2.20890513982412595856e-03
9.99554372842139124870e+08 9.99448077943607904317e-01 -4.76966955121739533130e-03 -3.76020119758065031641e-04 -3.24953803727165641338e-03 -3.76020119758065031641e-04 -3.24953803727165641338e-03 9.99743820474602640225e-01 -2.21388449289535360273e-03
9.99555404386486053467e+08 9.99445547319262939112e-01 -4.78044502668211086782e-03 -3.77744214054074494476e-04 -3.25687928324609613298e-03 -3.77744214054074494476e-04 -3.25687928324609613298e-03 9.99742645862832457482e-01 -2.21888602555474299255e-03
9.99556435930832862854e+08 9.99442999331539461139e-01 -4.79126860178115746014e-03 -3.79480137882184747049e-04 -3.26425329911992972640e-03 -3.79480137882184747049e-04 -3.26425329911992972640e-03 9.99741463191695878265e-01 -2.22390988408669321857e-03
9.99557467475179791451e+08 9.99440433821964235861e-01 -4.80214059440647617755e-03 -3.81227999208822441232e-04 -3.27166030147041635850e-03 -3.81227999208822441232e-04 -3.27166030147041635850e-03 9.99740272387636186302e-01 -2.22895621604357347528e-03
9.99558499019526720047e+08 9.99437850630260582463e-01 -4.81306132521204955294e-03 -3.82987907229425750353e-04 -3.27910050875657036254e-03 -3.82987907229425750353e-04 -3.27910050875657036254e-03 9.99739073376259446135e-01 -2.23402517025977735698e-03
9.99559530563873648643e+08 9.99435249594324170985e-01 -4.82403111763746346441e-03 -3.84759972384233930702e-04 -3.28657414133521697322e-03 -3.84759972384233930702e-04 -3.28657414133521697322e-03 9.99737866082323622940e-01 -2.23911689686266245775e-03
9.99560562108220458031e+08 9.99432630550197376174e-01 -4.83505029794416632538e-03 -3.86544306376326385691e-04 -3.29408142148569348800e-03 -3.86544306376326385691e-04 -3.29408142148569348800e-03 9.99736650429726259048e-01 -2.24423154728937849015e-03
9.99561593652567386627e+08 9.99429993332043187237e-01 -4.84611919524689880451e-03 -3.88341022189101034868e-04 -3.30162257343126182632e-03 -3.88341022189101034868e-04 -3.30162257343126182632e-03 9.99735426341492705582e-01 -2.24936927430145544235e-03
9.99562625196914315224e+08 9.99427337772122337256e-01 -4.85723814153356508311e-03 -3.90150234102085884721e-04 -3.30919782335264891365e-03 -3.90150234102085884721e-04 -3.30919782335264891365e-03 9.99734193739765131248e-01 -2.25453023199402840387e-03
9.99563656741261243820e+08 9.99424663700763882268e-01 -4.86840747170805450417e-03 -3.91972057710690319123e-04 -3.31680739941721865888e-03 -3.91972057710690319123e-04 -3.31680739941721865888e-03 9.99732952545789421706e-01 -2.25971457581571272613e-03
9.99564688285608053207e+08 9.99421970946340554320e-01 -4.87962752361504291387e-03 -3.93806609943255750590e-04 -3.32445153179586859460e-03 -3.93806609943255750590e-04 -3.32445153179586859460e-03 9.99731702679903078135e-01 -2.26492246258011608109e-03
