! File generated for n1 = 16, n2 = 1
! b1 = 0.001000
! b2 = 0.001000
! Q0 = 10000.000000
! f0 = 1000000000.000000
! n = 1001
! rel_span = 10.000000
# Hz S RI R 50
9.99499000000000000000e+08 9.99980247348949524699e-01 -1.97576015697898364765e-04 -1.97526510504919329038e-05 -1.97576015697898364765e-04 -1.97526510504919329038e-05 -1.97576015697898364765e-04 9.99980247348949524699e-01 -1.97576015697898364765e-04
9.99500002000000000000e+08 9.99980168868353946898e-01 -1.97964197054928219260e-04 -1.98311316460813113322e-05 -1.97964197054928219260e-04 -1.98311316460813113322e-05 -1.97964197054928219260e-04 9.99980168868353946898e-01 -1.97964197054928219260e-04
9.99501004000000000000e+08 9.99980089920759041000e-01 -1.98353890489403776121e-04 -1.99100792409595149426e-05 -1.98353890489403776121e-04 -1.99100792409595149426e-05 -1.98353890489403776121e-04 9.99980089920759041000e-01 -1.98353890489403776121e-04
9.99502006000000000000e+08 9.99980010502465099798e-01 -1.98745104756478159101e-04 -1.99894975348561228299e-05 -1.98745104756478159101e-04 -1.99894975348561228299e-05 -1.98745104756478159101e-04 9.99980010502465099798e-01 -1.98745104756478159101e-04
9.99503008000000000000e+08 9.99979930609736000768e-01 -1.99137848678027703109e-04 -2.00693902640434704862e-05 -1.99137848678027703109e-04 -2.00693902640434704862e-05 -1.99137848678027703109e-04 9.99979930609736000768e-01 -1.99137848678027703109e-04
9.99504010000000000000e+08 9.99979850238798206874e-01 -1.99532131143586780432e-04 -2.01497612018313746395e-05 -1.99532131143586780432e-04 -2.01497612018313746395e-05 -1.99532131143586780432e-04 9.99979850238798206874e-01 -1.99532131143586780432e-04
9.99505012000000000000e+08 9.99979769385840988605e-01 -1.99927961110900743839e-04 -2.02306141589890877992e-05 -1.99927961110900743839e-04 -2.02306141589890877992e-05 -1.99927961110900743839e-04 9.99979769385840988605e-01 -1.99927961110900743839e-04
9.99506014000000000000e+08 9.99979688047015868868e-01 -2.00325347606485158064e-04 -2.03119529841728804873e-05 -2.00325347606485158064e-04 -2.03119529841728804873e-05 -2.00325347606485158064e-04 9.99979688047015868868e-01 -2.00325347606485158064e-04
9.99507016000000000000e+08 9.99979606218435623788e-01 -2.00724299726322182860e-04 -2.03937815643862952256e-05 -2.00724299726322182860e-04 -2.03937815643862952256e-05 -2.00724299726322182860e-04 9.99979606218435623788e-01 -2.00724299726322182860e-04
9.99508018000000000000e+08 9.99979523896174504749e-01 -2.01124826636654534251e-04 -2.04761038254652931261e-05 -2.01124826636654534251e-04 -2.04761038254652931261e-05 -2.01124826636654534251e-04 9.99979523896174504749e-01 -2.01124826636654534251e-04
9.99509020000000000000e+08 9.99979441076267461241e-01 -2.01526937574432799243e-04 -2.05589237324971658939e-05 -2.01526937574432799243e-04 -2.05589237324971658939e-05 -2.01526937574432799243e-04 9.99979441076267461241e-01 -2.01526937574432799243e-04
9.99510022000000000000e+08 9.99979357754709696771e-01 -2.01930641848168784249e-04 -2.06422452903275866897e-05 -2.01930641848168784249e-04 -2.06422452903275866897e-05 -2.01930641848168784249e-04 9.99979357754709696771e-01 -2.01930641848168784249e-04
9.99511024000000000000e+08 9.99979273927456002724e-01 -2.02335948838530281296e-04 -2.07260725440196511655e-05 -2.02335948838530281296e-04 -2.07260725440196511655e-05 -2.02335948838530281296e-04 9.99979273927456002724e-01 -2.02335948838530281296e-04
9.99512026000000000000e+08 9.99979189590420647349e-01 -2.02742867999031948752e-04 -2.08104095793376857434e-05 -2.02742867999031948752e-04 -2.08104095793376857434e-05 -2.02742867999031948752e-04 9.99979189590420647349e-01 -2.02742867999031948752e-04
9.99513028000000000000e+08 9.99979104739476709618e-01 -2.03151408856779561911e-04 -2.08952605232472376118e-05 -2.03151408856779561911e-04 -2.08952605232472376118e-05 -2.03151408856779561911e-04 9.99979104739476709618e-01 -2.03151408856779561911e-04
9.99514030000000000000e+08 9.99979019370455524118e-01 -2.03561581013268582101e-04 -2.09806295444318122569e-05 -2.03561581013268582101e-04 -2.09806295444318122569e-05 -2.03561581013268582101e-04 9.99979019370455524118e-01 -2.03561581013268582101e-04
9.99515032000000000000e+08 9.99978933479146236962e-01 -2.03973394144690281168e-04 -2.10665208537123309547e-05 -2.03973394144690281168e-04 -2.10665208537123309547e-05 -2.03973394144690281168e-04 9.99978933479146236962e-01 -2.03973394144690281168e-04
9.99516034000000000000e+08 9.99978847061295361698e-01 -2.04386858003291439420e-04 -2.11529387046913433729e-05 -2.04386858003291439420e-04 -2.11529387046913433729e-05 -2.04386858003291439420e-04 9.99978847061295361698e-01 -2.04386858003291439420e-04
9.99517036000000000000e+08 9.99978760112605891130e-01 -2.04801982417514207707e-04 -2.12398873941486292271e-05 -2.04801982417514207707e-04 -2.12398873941486292271e-05 -2.04801982417514207707e-04 9.99978760112605891130e-01 -2.04801982417514207707e-04
9.99518038000000000000e+08 9.99978672628737408346e-01 -2.05218777293100638386e-04 -2.13273712626436013360e-05 -2.05218777293100638386e-04 -2.13273712626436013360e-05 -2.05218777293100638386e-04 9.99978672628737408346e-01 -2.05218777293100638386e-04
9.99519040000000000000e+08 9.99978584605304976485e-01 -2.05637252613704419289e-04 -2.14153946950204692953e-05 -2.05637252613704419289e-04 -2.14153946950204692953e-05 -2.05637252613704419289e-04 9.99978584605304976485e-01 -2.05637252613704419289e-04
9.99520042000000000000e+08 9.99978496037879027725e-01 -2.06057418441693860961e-04 -2.15039621209592513506e-05 -2.06057418441693860961e-04 -2.15039621209592513506e-05 -2.06057418441693860961e-04 9.99978496037879027725e-01 -2.06057418441693860961e-04
9.99521044000000000000e+08 9.99978406921984475098e-01 -2.06479284918871264795e-04 -2.15930780155150802747e-05 -2.06479284918871264795e-04 -2.15930780155150802747e-05 -2.06479284918871264795e-04 9.99978406921984475098e-01 -2.06479284918871264795e-04
9.99522046000000000000e+08 9.99978317253100379425e-01 -2.06902862267247151812e-04 -2.16827468996749106900e-05 -2.06902862267247151812e-04 -2.16827468996749106900e-05 -2.06902862267247151812e-04 9.99978317253100379425e-01 -2.06902862267247151812e-04
9.99523048000000000000e+08 9.99978227026659061139e-01 -2.07328160789870165207e-04 -2.17729733409322275353e-05 -2.07328160789870165207e-04 -2.17729733409322275353e-05 -2.07328160789870165207e-04 9.99978227026659061139e-01 -2.07328160789870165207e-04
9.99524050000000000000e+08 9.99978136238046100281e-01 -2.07755190871620137134e-04 -2.18637619538600740186e-05 -2.07755190871620137134e-04 -2.18637619538600740186e-05 -2.07755190871620137134e-04 9.99978136238046100281e-01 -2.07755190871620137134e-04
9.99525052000000000000e+08 9.99978044882599337306e-01 -2.08183962979915124052e-04 -2.19551174006720923606e-05 -2.08183962979915124052e-04 -2.19551174006720923606e-05 -2.08183962979915124052e-04 9.99978044882599337306e-01 -2.08183962979915124052e-04
9.99526054000000000000e+08 9.99977952955608095920e-01 -2.08614487665759721800e-04 -2.20470443918625622179e-05 -2.08614487665759721800e-04 -2.20470443918625622179e-05 -2.08614487665759721800e-04 9.99977952955608095920e-01 -2.08614487665759721800e-04
9.99527056000000000000e+08 9.99977860452313294104e-01 -2.09046775564137058898e-04 -2.21395476867130110892e-05 -2.09046775564137058898e-04 -2.21395476867130110892e-05 -2.09046775564137058898e-04 9.99977860452313294104e-01 -2.09046775564137058898e-04
9.99528058000000000000e+08 9.99977767367906000828e-01 -2.09480837395314934898e-04 -2.22326320940004592197e-05 -2.09480837395314934898e-04 -2.22326320940004592197e-05 -2.09480837395314934898e-04 9.99977767367906000828e-01 -2.09480837395314934898e-04
9.99529060000000000000e+08 9.99977673697527436047e-01 -2.09916683965448040488e-04 -2.23263024725622245587e-05 -2.09916683965448040488e-04 -2.23263024725622245587e-05 -2.09916683965448040488e-04 9.99977673697527436047e-01 -2.09916683965448040488e-04
9.99530062000000000000e+08 9.99977579436268082524e-01 -2.10354326167329661957e-04 -2.24205637318991084738e-05 -2.10354326167329661957e-04 -2.24205637318991084738e-05 -2.10354326167329661957e-04 9.99977579436268082524e-01 -2.10354326167329661957e-04
9.99531064000000000000e+08 9.99977484579167130718e-01 -2.10793774981443465723e-04 -2.25154208328500981509e-05 -2.10793774981443465723e-04 -2.25154208328500981509e-05 -2.10793774981443465723e-04 9.99977484579167130718e-01 -2.10793774981443465723e-04
9.99532066000000000000e+08 9.99977389121211812650e-01 -2.11235041476785269376e-04 -2.26108787882247851098e-05 -2.11235041476785269376e-04 -2.26108787882247851098e-05 -2.11235041476785269376e-04 9.99977389121211812650e-01 -2.11235041476785269376e-04
9.99533068000000000000e+08 9.99977293057336513726e-01 -2.11678136811694055531e-04 -2.27069426634448232548e-05 -2.11678136811694055531e-04 -2.27069426634448232548e-05 -2.11678136811694055531e-04 9.99977293057336513726e-01 -2.11678136811694055531e-04
9.99534070000000000000e+08 9.99977196382422772736e-01 -2.12123072234790457230e-04 -2.28036175772159715916e-05 -2.12123072234790457230e-04 -2.28036175772159715916e-05 -2.12123072234790457230e-04 9.99977196382422772736e-01 -2.12123072234790457230e-04
9.99535072000000000000e+08 9.99977099091297838562e-01 -2.12569859085778471242e-04 -2.29009087021777481686e-05 -2.12569859085778471242e-04 -2.29009087021777481686e-05 -2.12569859085778471242e-04 9.99977099091297838562e-01 -2.12569859085778471242e-04
9.99536074000000000000e+08 9.99977001178734337117e-01 -2.13018508796554054780e-04 -2.29988212656274569005e-05 -2.13018508796554054780e-04 -2.29988212656274569005e-05 -2.13018508796554054780e-04 9.99977001178734337117e-01 -2.13018508796554054780e-04
9.99537076000000000000e+08 9.99976902639449827248e-01 -2.13469032891829110961e-04 -2.30973605501463075454e-05 -2.13469032891829110961e-04 -2.30973605501463075454e-05 -2.13469032891829110961e-04 9.99976902639449827248e-01 -2.13469032891829110961e-04
9.99538078000000000000e+08 9.99976803468105579498e-01 -2.13921442990462265651e-04 -2.31965318943875324295e-05 -2.13921442990462265651e-04 -2.31965318943875324295e-05 -2.13921442990462265651e-04 9.99976803468105579498e-01 -2.13921442990462265651e-04
9.99539080000000000000e+08 9.99976703659306354055e-01 -2.14375750805902875367e-04 -2.32963406936785794379e-05 -2.14375750805902875367e-04 -2.32963406936785794379e-05 -2.14375750805902875367e-04 9.99976703659306354055e-01 -2.14375750805902875367e-04
9.99540082000000000000e+08 9.99976603207599179512e-01 -2.14831968147747399489e-04 -2.33967924008751007971e-05 -2.14831968147747399489e-04 -2.33967924008751007971e-05 -2.14831968147747399489e-04 9.99976603207599179512e-01 -2.14831968147747399489e-04
9.99541084000000000000e+08 9.99976502107473019798e-01 -2.15290106922051758913e-04 -2.34978925269500136673e-05 -2.15290106922051758913e-04 -2.34978925269500136673e-05 -2.15290106922051758913e-04 9.99976502107473019798e-01 -2.15290106922051758913e-04
9.99542086000000000000e+08 9.99976400353358108042e-01 -2.15750179132863178187e-04 -2.35996466418590763352e-05 -2.15750179132863178187e-04 -2.35996466418590763352e-05 -2.15750179132863178187e-04 9.99976400353358108042e-01 -2.15750179132863178187e-04
9.99543088000000000000e+08 9.99976297939624725331e-01 -2.16212196882907000490e-04 -2.37020603752289466296e-05 -2.16212196882907000490e-04 -2.37020603752289466296e-05 -2.16212196882907000490e-04 9.99976297939624725331e-01 -2.16212196882907000490e-04
9.99544090000000000000e+08 9.99976194860582867641e-01 -2.16676172374688860451e-04 -2.38051394171454341702e-05 -2.16676172374688860451e-04 -2.38051394171454341702e-05 -2.16676172374688860451e-04 9.99976194860582867641e-01 -2.16676172374688860451e-04
9.99545092000000000000e+08 9.99976091110481135615e-01 -2.17142117911353209640e-04 -2.39088895188964770111e-05 -2.17142117911353209640e-04 -2.39088895188964770111e-05 -2.17142117911353209640e-04 9.99976091110481135615e-01 -2.17142117911353209640e-04
9.99546094000000000000e+08 9.99975986683506179453e-01 -2.17610045898069116681e-04 -2.40133164938413770162e-05 -2.17610045898069116681e-04 -2.40133164938413770162e-05 -2.17610045898069116681e-04 9.99975986683506179453e-01 -2.17610045898069116681e-04
9.99547096000000000000e+08 9.99975881573781921752e-01 -2.18079968842603457834e-04 -2.41184262181082569520e-05 -2.18079968842603457834e-04 -2.41184262181082569520e-05 -2.18079968842603457834e-04 9.99975881573781921752e-01 -2.18079968842603457834e-04
9.99548098000000000000e+08 9.99975775775368447285e-01 -2.18551899356784752560e-04 -2.42242246314992270000e-05 -2.18551899356784752560e-04 -2.42242246314992270000e-05 -2.18551899356784752560e-04 9.99975775775368447285e-01 -2.18551899356784752560e-04
9.99549100000000000000e+08 9.99975669282261780957e-01 -2.19025850157254054840e-04 -2.43307177382458297257e-05 -2.19025850157254054840e-04 -2.43307177382458297257e-05 -2.19025850157254054840e-04 9.99975669282261780957e-01 -2.19025850157254054840e-04
9.99550102000000000000e+08 9.99975562088392111448e-01 -2.19501834066801530506e-04 -2.44379116079051907724e-05 -2.19501834066801530506e-04 -2.44379116079051907724e-05 -2.19501834066801530506e-04 9.99975562088392111448e-01 -2.19501834066801530506e-04
9.99551104000000000000e+08 9.99975454187623902236e-01 -2.19979864015139412077e-04 -2.45458123761392688436e-05 -2.19979864015139412077e-04 -2.45458123761392688436e-05 -2.19979864015139412077e-04 9.99975454187623902236e-01 -2.19979864015139412077e-04
9.99552106000000000000e+08 9.99975345573754337281e-01 -2.20459953040372583482e-04 -2.46544262456610965373e-05 -2.20459953040372583482e-04 -2.46544262456610965373e-05 -2.20459953040372583482e-04 9.99975345573754337281e-01 -2.20459953040372583482e-04
9.99553108000000000000e+08 9.99975236240512987962e-01 -2.20942114289849705867e-04 -2.47637594870515877698e-05 -2.20942114289849705867e-04 -2.47637594870515877698e-05 -2.20942114289849705867e-04 9.99975236240512987962e-01 -2.20942114289849705867e-04
9.99554110000000000000e+08 9.99975126181560369787e-01 -2.21426361021343696923e-04 -2.48738184396607605025e-05 -2.21426361021343696923e-04 -2.48738184396607605025e-05 -2.21426361021343696923e-04 9.99975126181560369787e-01 -2.21426361021343696923e-04
9.99555112000000000000e+08 9.99975015390487498301e-01 -2.21912706604193422878e-04 -2.49846095125106433706e-05 -2.21912706604193422878e-04 -2.49846095125106433706e-05 -2.21912706604193422878e-04 9.99975015390487498301e-01 -2.21912706604193422878e-04
9.99556114000000000000e+08 9.99974903860814778866e-01 -2.22401164520675810555e-04 -2.50961391852615403760e-05 -2.22401164520675810555e-04 -2.50961391852615403760e-05 -2.22401164520675810555e-04 9.99974903860814778866e-01 -2.22401164520675810555e-04
9.99557116000000000000e+08 9.99974791585991007459e-01 -2.22891748366744514315e-04 -2.52084140090446270053e-05 -2.22891748366744514315e-04 -2.52084140090446270053e-05 -2.22891748366744514315e-04 9.99974791585991007459e-01 -2.22891748366744514315e-04
9.99558118000000000000e+08 9.99974678559392482491e-01 -2.23384471853591926125e-04 -2.53214406074932704411e-05 -2.23384471853591926125e-04 -2.53214406074932704411e-05 -2.23384471853591926125e-04 9.99974678559392482491e-01 -2.23384471853591926125e-04
9.99559120000000000000e+08 9.99974564774322338678e-01 -2.23879348808741265300e-04 -2.54352256776785571235e-05 -2.23879348808741265300e-04 -2.54352256776785571235e-05 -2.23879348808741265300e-04 9.99974564774322338678e-01 -2.23879348808741265300e-04
9.99560122000000000000e+08 9.99974450224008992727e-01 -2.24376393177095164637e-04 -2.55497759910458841848e-05 -2.24376393177095164637e-04 -2.55497759910458841848e-05 -2.24376393177095164637e-04 9.99974450224008992727e-01 -2.24376393177095164637e-04
9.99561124000000000000e+08 9.99974334901605477199e-01 -2.24875619022438347520e-04 -2.56650983944676079509e-05 -2.24875619022438347520e-04 -2.56650983944676079509e-05 -2.24875619022438347520e-04 9.99974334901605477199e-01 -2.24875619022438347520e-04
9.99562126000000000000e+08 9.99974218800188774381e-01 -2.25377040528517384862e-04 -2.57811998112103725076e-05 -2.25377040528517384862e-04 -2.57811998112103725076e-05 -2.25377040528517384862e-04 9.99974218800188774381e-01 -2.25377040528517384862e-04
9.99563128000000000000e+08 9.99974101912758039923e-01 -2.25880672000187211800e-04 -2.58980872419294315130e-05 -2.25880672000187211800e-04 -2.58980872419294315130e-05 -2.25880672000187211800e-04 9.99974101912758039923e-01 -2.25880672000187211800e-04
9.99564130000000000000e+08 9.99973984232234158753e-01 -2.26386527865075567762e-04 -2.60157677657954832320e-05 -2.26386527865075567762e-04 -2.60157677657954832320e-05 -2.26386527865075567762e-04 9.99973984232234158753e-01 -2.26386527865075567762e-04
9.99565132000000000000e+08 9.99973865751458523832e-01 -2.26894622674371482501e-04 -2.61342485414307300351e-05 -2.26894622674371482501e-04 -2.61342485414307300351e-05 -2.26894622674371482501e-04 9.99973865751458523832e-01 -2.26894622674371482501e-04
9.99566134000000000000e+08 9.99973746463191925926e-01 -2.27404971104578891789e-04 -2.62535368080818597874e-05 -2.27404971104578891789e-04 -2.62535368080818597874e-05 -2.27404971104578891789e-04 9.99973746463191925926e-01 -2.27404971104578891789e-04
9.99567136000000000000e+08 9.99973626360113332368e-01 -2.27917587958559124915e-04 -2.63736398866405951898e-05 -2.27917587958559124915e-04 -2.63736398866405951898e-05 -2.27917587958559124915e-04 9.99973626360113332368e-01 -2.27917587958559124915e-04
9.99568138000000000000e+08 9.99973505434819220916e-01 -2.28432488166867997013e-04 -2.64945651807457751225e-05 -2.28432488166867997013e-04 -2.64945651807457751225e-05 -2.28432488166867997013e-04 9.99973505434819220916e-01 -2.28432488166867997013e-04
9.99569140000000000000e+08 9.99973383679822025449e-01 -2.28949686789338879758e-04 -2.66163201779567053413e-05 -2.28949686789338879758e-04 -2.66163201779567053413e-05 -2.28949686789338879758e-04 9.99973383679822025449e-01 -2.28949686789338879758e-04
9.99570142000000000000e+08 9.99973261087549136761e-01 -2.29469199016343303231e-04 -2.67389124508648655040e-05 -2.29469199016343303231e-04 -2.67389124508648655040e-05 -2.29469199016343303231e-04 9.99973261087549136761e-01 -2.29469199016343303231e-04
9.99571144000000000000e+08 9.99973137650341792337e-01 -2.29991040169891448235e-04 -2.68623496581811064513e-05 -2.29991040169891448235e-04 -2.68623496581811064513e-05 -2.29991040169891448235e-04 9.99973137650341792337e-01 -2.29991040169891448235e-04
9.99572146000000000000e+08 9.99973013360453966136e-01 -2.30515225705557201454e-04 -2.69866395460318003513e-05 -2.30515225705557201454e-04 -2.69866395460318003513e-05 -2.30515225705557201454e-04 9.99973013360453966136e-01 -2.30515225705557201454e-04
9.99573148000000000000e+08 9.99972888210050925295e-01 -2.31041771213616106955e-04 -2.71117899490838698605e-05 -2.31041771213616106955e-04 -2.71117899490838698605e-05 -2.31041771213616106955e-04 9.99972888210050925295e-01 -2.31041771213616106955e-04
9.99574150000000000000e+08 9.99972762191208230931e-01 -2.31570692420428808156e-04 -2.72378087917420387012e-05 -2.31570692420428808156e-04 -2.72378087917420387012e-05 -2.31570692420428808156e-04 9.99972762191208230931e-01 -2.31570692420428808156e-04
9.99575152000000000000e+08 9.99972635295910627917e-01 -2.32102005189958659820e-04 -2.73647040893929333256e-05 -2.32102005189958659820e-04 -2.73647040893929333256e-05 -2.32102005189958659820e-04 9.99972635295910627917e-01 -2.32102005189958659820e-04
9.99576154000000000000e+08 9.99972507516050268528e-01 -2.32635725525368568115e-04 -2.74924839496835673417e-05 -2.32635725525368568115e-04 -2.74924839496835673417e-05 -2.32635725525368568115e-04 9.99972507516050268528e-01 -2.32635725525368568115e-04
9.99577156000000000000e+08 9.99972378843426268347e-01 -2.33171869570401640772e-04 -2.76211565737638338144e-05 -2.33171869570401640772e-04 -2.76211565737638338144e-05 -2.33171869570401640772e-04 9.99972378843426268347e-01 -2.33171869570401640772e-04
