! File generated for n1 = 2, n2 = 7
! b1 = 46.415888
! b2 = 0.464159
! Q0 = 10000.000000
! f0 = 1000000000.000000
! n = 1001
! rel_span = 10.000000
# Hz S RI R 50
9.76059976390255451202e+08 9.81261404144836091312e-01 -1.89683985507140523419e-01 -1.87385958551639021825e-03 -1.89683985507140481785e-02 -1.87385958551639021825e-03 -1.89683985507140481785e-02 9.99812614041448388669e-01 -1.89683985507140429744e-03
9.76107856437474966049e+08 9.81186028816882216397e-01 -1.90061370516140665243e-01 -1.88139711831177610518e-03 -1.90061370516140630549e-02 -1.88139711831177610518e-03 -1.90061370516140630549e-02 9.99811860288168818833e-01 -1.90061370516140582844e-03
9.76155736484694480896e+08 9.81110203099063493681e-01 -1.90440225853101330333e-01 -1.88897969009364438686e-03 -1.90440225853101309517e-02 -1.88897969009364438686e-03 -1.90440225853101309517e-02 9.99811102030990661582e-01 -1.90440225853101248801e-03
9.76203616531913876534e+08 9.81033923415505770826e-01 -1.90820560034539427052e-01 -1.89660765844942022854e-03 -1.90820560034539385419e-02 -1.89660765844942022854e-03 -1.90820560034539385419e-02 9.99810339234155076582e-01 -1.90820560034539346388e-03
9.76251496579133391380e+08 9.80957186154928661992e-01 -1.91202381642089774827e-01 -1.90428138450713171914e-03 -1.91202381642089740132e-02 -1.90428138450713171914e-03 -1.91202381642089740132e-02 9.99809571861549284399e-01 -1.91202381642089692428e-03
9.76299376626352906227e+08 9.80879987670224995355e-01 -1.91585699323125413507e-01 -1.91200123297749491336e-03 -1.91585699323125364935e-02 -1.91200123297749491336e-03 -1.91585699323125364935e-02 9.99808799876702236631e-01 -1.91585699323125338914e-03
9.76347256673572421074e+08 9.80802324278036041783e-01 -1.91970521791375553500e-01 -1.91976757219639005379e-03 -1.91970521791375511866e-02 -1.91976757219639005379e-03 -1.91970521791375511866e-02 9.99808023242780397055e-01 -1.91970521791375481509e-03
9.76395136720791816711e+08 9.80724192258319749094e-01 -1.92356857827554988960e-01 -1.92758077416802062372e-03 -1.92356857827554947327e-02 -1.92758077416802062372e-03 -1.92356857827554947327e-02 9.99807241922583189719e-01 -1.92356857827554903959e-03
9.76443016768011331558e+08 9.80645587853912092946e-01 -1.92744716280007055698e-01 -1.93544121460879491210e-03 -1.92744716280007014064e-02 -1.93544121460879491210e-03 -1.92744716280007014064e-02 9.99806455878539113158e-01 -1.92744716280006953349e-03
9.76490896815230846405e+08 9.80566507270085097048e-01 -1.93134106065337374236e-01 -1.94334927299149098912e-03 -1.93134106065337325664e-02 -1.94334927299149098912e-03 -1.93134106065337325664e-02 9.99805665072700855411e-01 -1.93134106065337277959e-03
9.76538776862450361252e+08 9.80486946674095749543e-01 -1.93525036169073905157e-01 -1.95130533259042261707e-03 -1.93525036169073863523e-02 -1.95130533259042261707e-03 -1.93525036169073863523e-02 9.99804869466740964157e-01 -1.93525036169073824492e-03
9.76586656909669876099e+08 9.80406902194731255662e-01 -1.93917515646317151212e-01 -1.95930978052687859714e-03 -1.93917515646317116518e-02 -1.95930978052687859714e-03 -1.93917515646317116518e-02 9.99804069021947294793e-01 -1.93917515646317055802e-03
9.76634536956889271736e+08 9.80326369921845408584e-01 -1.94311553622410121411e-01 -1.96736300781545983551e-03 -1.94311553622410065900e-02 -1.96736300781545983551e-03 -1.94311553622410065900e-02 9.99803263699218458527e-01 -1.94311553622410031206e-03
9.76682417004108786583e+08 9.80245345905890075322e-01 -1.94707159293612763751e-01 -1.97546540941098821773e-03 -1.94707159293612715179e-02 -1.97546540941098821773e-03 -1.94707159293612715179e-02 9.99802453459058937391e-01 -1.94707159293612671810e-03
9.76730297051328301430e+08 9.80163826157440021269e-01 -1.95104341927779728616e-01 -1.98361738425599769958e-03 -1.95104341927779673105e-02 -1.98361738425599769958e-03 -1.95104341927779673105e-02 9.99801638261574421307e-01 -1.95104341927779625400e-03
9.76778177098547816277e+08 9.80081806646710629316e-01 -1.95503110865048485012e-01 -1.99181933532894010416e-03 -1.95503110865048422562e-02 -1.99181933532894010416e-03 -1.95503110865048422562e-02 9.99800818066467145151e-01 -1.95503110865048387867e-03
9.76826057145767331123e+08 9.79999283303068846607e-01 -1.95903475518537595335e-01 -2.00007166969311343113e-03 -1.95903475518537546762e-02 -2.00007166969311343113e-03 -1.95903475518537546762e-02 9.99799992833030670702e-01 -1.95903475518537486047e-03
9.76873937192986726761e+08 9.79916252014537914050e-01 -1.96305445375048931433e-01 -2.00837479854620989603e-03 -1.96305445375048910617e-02 -2.00837479854620989603e-03 -1.96305445375048910617e-02 9.99799162520145334732e-01 -1.96305445375048867249e-03
9.76921817240206241608e+08 9.79832708627293214043e-01 -1.96709029995784046019e-01 -2.01672913727067755485e-03 -1.96709029995783997447e-02 -2.01672913727067755485e-03 -1.96709029995783997447e-02 9.99798327086272919928e-01 -1.96709029995783971426e-03
9.76969697287425756454e+08 9.79748648945153566281e-01 -1.97114239017061210202e-01 -2.02513510548464831587e-03 -1.97114239017061147752e-02 -2.02513510548464831587e-03 -1.97114239017061147752e-02 9.99797486489451547875e-01 -1.97114239017061104384e-03
9.77017577334645271301e+08 9.79664068729063863827e-01 -1.97521082151041998953e-01 -2.03359312709361318358e-03 -1.97521082151041957320e-02 -2.03359312709361318358e-03 -1.97521082151041957320e-02 9.99796640687290683047e-01 -1.97521082151041896605e-03
9.77065457381864666939e+08 9.79578963696570048647e-01 -1.97929569186474085818e-01 -2.04210363034299392099e-03 -1.97929569186474051123e-02 -2.04210363034299392099e-03 -1.97929569186474051123e-02 9.99795789636965692715e-01 -1.97929569186473981734e-03
9.77113337429084181786e+08 9.79493329521287314776e-01 -1.98339709989432899651e-01 -2.05066704787126461926e-03 -1.98339709989432851078e-02 -2.05066704787126461926e-03 -1.98339709989432851078e-02 9.99794933295212850943e-01 -1.98339709989432807710e-03
9.77161217476303696632e+08 9.79407161832360650955e-01 -1.98751514504076631784e-01 -2.05928381676393195548e-03 -1.98751514504076562395e-02 -2.05928381676393195548e-03 -1.98751514504076562395e-02 9.99794071618323565431e-01 -1.98751514504076545048e-03
9.77209097523523211479e+08 9.79320456213917389654e-01 -1.99164992753408848225e-01 -2.06795437860826181523e-03 -1.99164992753408792714e-02 -2.06795437860826181523e-03 -1.99164992753408792714e-02 9.99793204562139159464e-01 -1.99164992753408758019e-03
9.77256977570742726326e+08 9.79233208204512539652e-01 -1.99580154840047929721e-01 -2.07667917954874881037e-03 -1.99580154840047901965e-02 -2.07667917954874881037e-03 -1.99580154840047901965e-02 9.99792332082045098751e-01 -1.99580154840047841250e-03
9.77304857617962121964e+08 9.79145413296564237626e-01 -1.99997010947014303150e-01 -2.08545867034357328834e-03 -1.99997010947014254578e-02 -2.08545867034357328834e-03 -1.99997010947014254578e-02 9.99791454132965662360e-01 -1.99997010947014193863e-03
9.77352737665181636810e+08 9.79057066935784314765e-01 -2.00415571338512843447e-01 -2.09429330642157181946e-03 -2.00415571338512787936e-02 -2.09429330642157181946e-03 -2.00415571338512787936e-02 9.99790570669357836486e-01 -2.00415571338512753241e-03
9.77400617712401151657e+08 9.78968164520597095013e-01 -2.00835846360736619554e-01 -2.10318354794028841703e-03 -2.00835846360736570981e-02 -2.10318354794028841703e-03 -2.00835846360736570981e-02 9.99789681645205985383e-01 -2.00835846360736518940e-03
9.77448497759620666504e+08 9.78878701401553863448e-01 -2.01257846442668170139e-01 -2.11212985984461512970e-03 -2.01257846442668107689e-02 -2.11212985984461512970e-03 -2.01257846442668107689e-02 9.99788787014015523091e-01 -2.01257846442668081668e-03
9.77496377806840181351e+08 9.78788672880733456871e-01 -2.01681582096907646706e-01 -2.12113271192665474654e-03 -2.01681582096907598134e-02 -2.12113271192665474654e-03 -2.01681582096907598134e-02 9.99787886728807362324e-01 -2.01681582096907520071e-03
9.77544257854059576988e+08 9.78698074211140189860e-01 -2.02107063920488688735e-01 -2.13019257888598118750e-03 -2.02107063920488640163e-02 -2.13019257888598118750e-03 -2.02107063920488640163e-02 9.99786980742111364151e-01 -2.02107063920488588121e-03
9.77592137901279091835e+08 9.78606900596088347122e-01 -2.02534302595722165430e-01 -2.13930994039116927768e-03 -2.02534302595722137674e-02 -2.13930994039116927768e-03 -2.02534302595722137674e-02 9.99786069005960897904e-01 -2.02534302595722094306e-03
9.77640017948498606682e+08 9.78515147188579459403e-01 -2.02963308891042082394e-01 -2.14848528114205397296e-03 -2.02963308891042047699e-02 -2.14848528114205397296e-03 -2.02963308891042047699e-02 9.99785151471885846775e-01 -2.02963308891041969637e-03
9.77687897995718121529e+08 9.78422809090672029875e-01 -2.03394093661856678601e-01 -2.15771909093279970135e-03 -2.03394093661856643906e-02 -2.15771909093279970135e-03 -2.03394093661856643906e-02 9.99784228090906723629e-01 -2.03394093661856583191e-03
9.77735778042937517166e+08 9.78329881352838603981e-01 -2.03826667851421533539e-01 -2.16701186471614411222e-03 -2.03826667851421464150e-02 -2.16701186471614411222e-03 -2.03826667851421464150e-02 9.99783298813528342741e-01 -2.03826667851421438130e-03
9.77783658090157032013e+08 9.78236358973316399990e-01 -2.04261042491712480063e-01 -2.17636410266836043473e-03 -2.04261042491712431490e-02 -2.17636410266836043473e-03 -2.04261042491712431490e-02 9.99782363589733158449e-01 -2.04261042491712388122e-03
9.77831538137376546860e+08 9.78142236897447281407e-01 -2.04697228704313477499e-01 -2.18577631025527671649e-03 -2.04697228704313442804e-02 -2.18577631025527671649e-03 -2.04697228704313442804e-02 9.99781422368974492798e-01 -2.04697228704313382089e-03
9.77879418184596061707e+08 9.78047510017007737382e-01 -2.05135237701313560832e-01 -2.19524899829922964453e-03 -2.05135237701313533076e-02 -2.19524899829922964453e-03 -2.05135237701313533076e-02 9.99780475100170096248e-01 -2.05135237701313489708e-03
9.77927298231815576553e+08 9.77952173169529759278e-01 -2.05575080786214753337e-01 -2.20478268304701800068e-03 -2.05575080786214690887e-02 -2.20478268304701800068e-03 -2.05575080786214690887e-02 9.99779521731695264286e-01 -2.05575080786214638845e-03
9.77975178279034972191e+08 9.77856221137611392180e-01 -2.06016769354850831641e-01 -2.21437788623885922074e-03 -2.06016769354850810825e-02 -2.21437788623885922074e-03 -2.06016769354850810825e-02 9.99778562211376065072e-01 -2.06016769354850758783e-03
9.78023058326254487038e+08 9.77759648648215740074e-01 -2.06460314896319857558e-01 -2.22403513517842842118e-03 -2.06460314896319795108e-02 -2.22403513517842842118e-03 -2.06460314896319795108e-02 9.99777596486482122984e-01 -2.06460314896319760414e-03
9.78070938373474001884e+08 9.77662450371961977424e-01 -2.06905728993921483871e-01 -2.23375496280379861463e-03 -2.06905728993921449177e-02 -2.23375496280379861463e-03 -2.06905728993921449177e-02 9.99776624503719624215e-01 -2.06905728993921414482e-03
9.78118818420693516731e+08 9.77564620922405036474e-01 -2.07353023326108165669e-01 -2.24353790775949635261e-03 -2.07353023326108110158e-02 -2.24353790775949635261e-03 -2.07353023326108110158e-02 9.99775646209224100325e-01 -2.07353023326108066790e-03
9.78166698467912912369e+08 9.77466154855302971072e-01 -2.07802209667451304176e-01 -2.25338451446970705616e-03 -2.07802209667451269481e-02 -2.25338451446970705616e-03 -2.07802209667451269481e-02 9.99774661548552989743e-01 -2.07802209667451226113e-03
9.78214578515132427216e+08 9.77367046667874661559e-01 -2.08253299889617216056e-01 -2.26329533321253245637e-03 -2.08253299889617146667e-02 -2.26329533321253245637e-03 -2.08253299889617146667e-02 9.99773670466678754387e-01 -2.08253299889617085952e-03
9.78262458562351942062e+08 9.77267290798047527645e-01 -2.08706305962349403238e-01 -2.27327092019524680186e-03 -2.08706305962349375482e-02 -2.27327092019524680186e-03 -2.08706305962349375482e-02 9.99772672907980441970e-01 -2.08706305962349332114e-03
9.78310338609571456909e+08 9.77166881623692251679e-01 -2.09161239954467309543e-01 -2.28331183763077778109e-03 -2.09161239954467267910e-02 -2.28331183763077778109e-03 -2.09161239954467267910e-02 9.99771668816236913635e-01 -2.09161239954467215868e-03
9.78358218656790971756e+08 9.77065813461846066623e-01 -2.09618114034879815533e-01 -2.29341865381539698060e-03 -2.09618114034879760021e-02 -2.29341865381539698060e-03 -2.09618114034879760021e-02 9.99770658134618406265e-01 -2.09618114034879716653e-03
9.78406098704010367393e+08 9.76964080567925385878e-01 -2.10076940473605450199e-01 -2.30359194320746028459e-03 -2.10076940473605394688e-02 -2.30359194320746028459e-03 -2.10076940473605394688e-02 9.99769640805679205009e-01 -2.10076940473605342646e-03
9.78453978751229882240e+08 9.76861677134925776578e-01 -2.10537731642808617627e-01 -2.31383228650741852583e-03 -2.10537731642808575994e-02 -2.31383228650741852583e-03 -2.10537731642808575994e-02 9.99768616771349205585e-01 -2.10537731642808497931e-03
9.78501858798449397087e+08 9.76758597292610719620e-01 -2.11000500017843872769e-01 -2.32414027073893185438e-03 -2.11000500017843803380e-02 -2.32414027073893185438e-03 -2.11000500017843803380e-02 9.99767585972926142723e-01 -2.11000500017843742664e-03
9.78549738845668911934e+08 9.76654835106686491919e-01 -2.11465258178318765703e-01 -2.33451648933134976727e-03 -2.11465258178318710192e-02 -2.33451648933134976727e-03 -2.11465258178318710192e-02 9.99766548351066819400e-01 -2.11465258178318658150e-03
9.78597618892888426781e+08 9.76550384577966612554e-01 -2.11932018809164957052e-01 -2.34496154220333735685e-03 -2.11932018809164908479e-02 -2.34496154220333735685e-03 -2.11932018809164908479e-02 9.99765503845779668346e-01 -2.11932018809164865111e-03
9.78645498940107822418e+08 9.76445239641521967044e-01 -2.12400794701723544256e-01 -2.35547603584780173430e-03 -2.12400794701723509561e-02 -2.35547603584780173430e-03 -2.12400794701723509561e-02 9.99764452396415204127e-01 -2.12400794701723440172e-03
9.78693378987327337265e+08 9.76339394165817942017e-01 -2.12871598754847984880e-01 -2.36606058341820666563e-03 -2.12871598754847922430e-02 -2.36606058341820666563e-03 -2.12871598754847922430e-02 9.99763393941658140562e-01 -2.12871598754847896409e-03
9.78741259034546852112e+08 9.76232841951840346617e-01 -2.13344443976009434660e-01 -2.37671580481596230253e-03 -2.13344443976009393027e-02 -2.37671580481596230253e-03 -2.13344443976009393027e-02 9.99762328419518397915e-01 -2.13344443976009332312e-03
9.78789139081766366959e+08 9.76125576732205790798e-01 -2.13819343482427759451e-01 -2.38744232677941996615e-03 -2.13819343482427697001e-02 -2.38744232677941996615e-03 -2.13819343482427697001e-02 9.99761255767322110088e-01 -2.13819343482427644959e-03
9.78837019128985762596e+08 9.76017592170259518092e-01 -2.14296310502207681958e-01 -2.39824078297404654284e-03 -2.14296310502207626447e-02 -2.39824078297404654284e-03 -2.14296310502207626447e-02 9.99760175921702631818e-01 -2.14296310502207600426e-03
9.78884899176205277443e+08 9.75908881859158028327e-01 -2.14775358375498937047e-01 -2.40911181408419352440e-03 -2.14775358375498895414e-02 -2.40911181408419352440e-03 -2.14775358375498895414e-02 9.99759088818591545866e-01 -2.14775358375498843372e-03
9.78932779223424792290e+08 9.75799439320940598108e-01 -2.15256500555654706197e-01 -2.42005606790594201064e-03 -2.15256500555654657625e-02 -2.42005606790594201064e-03 -2.15256500555654657625e-02 9.99757994393209448170e-01 -2.15256500555654605583e-03
9.78980659270644307137e+08 9.75689258005583037736e-01 -2.15739750610419306343e-01 -2.43107419944169804785e-03 -2.15739750610419271648e-02 -2.43107419944169804785e-03 -2.15739750610419271648e-02 9.99756892580055844810e-01 -2.15739750610419210933e-03
9.79028539317863821983e+08 9.75578331290039124646e-01 -2.16225122223122845355e-01 -2.44216687099608857625e-03 -2.16225122223122796783e-02 -2.44216687099608857625e-03 -2.16225122223122796783e-02 9.99755783312900381254e-01 -2.16225122223122736068e-03
9.79076419365083217621e+08 9.75466652477265827592e-01 -2.16712629193893641100e-01 -2.45333475227341385808e-03 -2.16712629193893599466e-02 -2.45333475227341385808e-03 -2.16712629193893599466e-02 9.99754666524772628300e-01 -2.16712629193893538751e-03
9.79124299412302732468e+08 9.75354214795234653046e-01 -2.17202285440882464362e-01 -2.46457852047653495561e-03 -2.17202285440882408851e-02 -2.46457852047653495561e-03 -2.17202285440882408851e-02 9.99753542147952312114e-01 -2.17202285440882365483e-03
9.79172179459522247314e+08 9.75241011395925561089e-01 -2.17694105001508098063e-01 -2.47589886040744432474e-03 -2.17694105001508056429e-02 -2.47589886040744432474e-03 -2.17694105001508056429e-02 9.99752410113959211202e-01 -2.17694105001508013061e-03
9.79220059506741762161e+08 9.75127035354308668857e-01 -2.18188102033706365912e-01 -2.48729646456912747640e-03 -2.18188102033706303462e-02 -2.48729646456912747640e-03 -2.18188102033706303462e-02 9.99751270353543053382e-01 -2.18188102033706242747e-03
9.79267939553961277008e+08 9.75012279667306303033e-01 -2.18684290817209719959e-01 -2.49877203326936926306e-03 -2.18684290817209685265e-02 -2.49877203326936926306e-03 -2.18684290817209685265e-02 9.99750122796673079684e-01 -2.18684290817209615876e-03
9.79315819601180672646e+08 9.74896737252741063529e-01 -2.19182685754830353098e-01 -2.51032627472588896339e-03 -2.19182685754830304525e-02 -2.51032627472588896339e-03 -2.19182685754830304525e-02 9.99748967372527386210e-01 -2.19182685754830235136e-03
9.79363699648400187492e+08 9.74780400948266456673e-01 -2.19683301373768402609e-01 -2.52195990517335103670e-03 -2.19683301373768367915e-02 -2.52195990517335103670e-03 -2.19683301373768367915e-02 9.99747804009482710086e-01 -2.19683301373768289852e-03
9.79411579695619702339e+08 9.74663263510280986068e-01 -2.20186152326930451029e-01 -2.53367364897190286768e-03 -2.20186152326930402456e-02 -2.53367364897190286768e-03 -2.20186152326930402456e-02 9.99746632635102772113e-01 -2.20186152326930359088e-03
9.79459459742839217186e+08 9.74545317612826145215e-01 -2.20691253394262265619e-01 -2.54546823871738651934e-03 -2.20691253394262217047e-02 -2.54546823871738651934e-03 -2.20691253394262217047e-02 9.99745453176128284767e-01 -2.20691253394262156332e-03
9.79507339790058612823e+08 9.74426555846465203281e-01 -2.21198619484106628885e-01 -2.55734441535347516161e-03 -2.21198619484106566435e-02 -2.55734441535347516161e-03 -2.21198619484106566435e-02 9.99744265558464628718e-01 -2.21198619484106514393e-03
9.79555219837278127670e+08 9.74306970717144227301e-01 -2.21708265634577739167e-01 -2.56930292828557935159e-03 -2.21708265634577711412e-02 -2.56930292828557935159e-03 -2.21708265634577711412e-02 9.99743069707171416738e-01 -2.21708265634577633349e-03
9.79603099884497642517e+08 9.74186554645037894318e-01 -2.22220207014937581880e-01 -2.58134453549620571100e-03 -2.22220207014937540246e-02 -2.58134453549620571100e-03 -2.22220207014937540246e-02 9.99741865546450392266e-01 -2.22220207014937496878e-03
9.79650979931717157364e+08 9.74065299963373321113e-01 -2.22734458927012241025e-01 -2.59347000366267179186e-03 -2.22734458927012178575e-02 -2.59347000366267179186e-03 -2.22734458927012178575e-02 9.99740652999633772069e-01 -2.22734458927012143881e-03
9.79698859978936672211e+08 9.73943198917237684675e-01 -2.23251036806605657192e-01 -2.60568010827622780282e-03 -2.23251036806605580864e-02 -2.60568010827622780282e-03 -2.23251036806605580864e-02 9.99739431989172366855e-01 -2.23251036806605554844e-03
9.79746740026156067848e+08 9.73820243662365969683e-01 -2.23769956224945471002e-01 -2.61797563376340355207e-03 -2.23769956224945422429e-02 -2.61797563376340355207e-03 -2.23769956224945422429e-02 9.99738202436623701885e-01 -2.23769956224945370388e-03
9.79794620073375582695e+08 9.73696426263907843790e-01 -2.24291232890143299450e-01 -2.63035737360921718225e-03 -2.24291232890143250878e-02 -2.63035737360921718225e-03 -2.24291232890143250878e-02 9.99736964262639027368e-01 -2.24291232890143181489e-03
