! File generated for n1 = 7, n2 = 10
! b1 = 1.000000
! b2 = 0.001000
! Q0 = 10000.000000
! f0 = 1000000000.000000
! n = 1001
! rel_span = 10.000000
# Hz S RI R 50
9.98999500000000000000e+08 9.90113763431645588220e-01 -9.89118711121610566517e-02 -3.12630250432468972249e-04 -3.12786800343440880151e-03 -3.12630250432468972249e-04 -3.12786800343440880151e-03 9.99990113763431609506e-01 -9.89118711121610177288e-05
9.99001501000000000000e+08 9.90074473721261338888e-01 -9.91062557250087239336e-02 -3.13872700166693428727e-04 -3.13401498462129559155e-03 -3.13872700166693428727e-04 -3.13401498462129559155e-03 9.99990074473721235471e-01 -9.91062557250086832760e-05
9.99003502000000000000e+08 9.90034950196672536293e-01 -9.93013975272276222528e-02 -3.15122543755278795852e-04 -3.14018591023851366753e-03 -3.15122543755278795852e-04 -3.14018591023851366753e-03 9.99990034950196671204e-01 -9.93013975272275835468e-05
9.99005503000000000000e+08 9.89995191005444974408e-01 -9.94973009030521299279e-02 -3.16379839777330398778e-04 -3.14638091892772758448e-03 -3.16379839777330398778e-04 -3.14638091892772758448e-03 9.99989995191005398567e-01 -9.94973009030520813556e-05
9.99007504000000000000e+08 9.89955194276833205791e-01 -9.96939702701996610656e-02 -3.17644647391016673055e-04 -3.15260015038942853494e-03 -3.17644647391016673055e-04 -3.15260015038942853494e-03 9.99989955194276802786e-01 -9.96939702701996163965e-05
9.99009505000000000000e+08 9.89914958121556609605e-01 -9.98914100802199556028e-02 -3.18917026340640385410e-04 -3.15884374539397933326e-03 -3.18917026340640385410e-04 -3.15884374539397933326e-03 9.99989914958121506317e-01 -9.98914100802199132105e-05
9.99011506000000000000e+08 9.89874480631574682477e-01 -1.00089624818837027997e-01 -3.20197036963736905366e-04 -3.16511184579242824816e-03 -3.20197036963736905366e-04 -3.16511184579242824816e-03 9.99989874480631590892e-01 -1.00089624818836992761e-04
9.99013507000000000000e+08 9.89833759879875429988e-01 -1.00288619006218257534e-01 -3.21484740197775604661e-04 -3.17140459452501868864e-03 -3.21484740197775604661e-04 -3.17140459452501868864e-03 9.99989833759879820363e-01 -1.00288619006218217202e-04
9.99015508000000000000e+08 9.89792793920240221439e-01 -1.00488397197345660783e-01 -3.22780197587593201559e-04 -3.17772213563292851152e-03 -3.22780197587593201559e-04 -3.17772213563292851152e-03 9.99989792793920195813e-01 -1.00488397197345615572e-04
9.99017509000000000000e+08 9.89751580787023632624e-01 -1.00688963982302426281e-01 -3.24083471292356615611e-04 -3.18406461426733481887e-03 -3.24083471292356615611e-04 -3.18406461426733481887e-03 9.99989751580787067375e-01 -1.00688963982302397767e-04
9.99019510000000000000e+08 9.89710118494909529829e-01 -1.00890323986663296707e-01 -3.25394624093273054574e-04 -3.19043217670175261250e-03 -3.25394624093273054574e-04 -3.19043217670175261250e-03 9.99989710118494912194e-01 -1.00890323986663253773e-04
9.99021511000000000000e+08 9.89668405038680032426e-01 -1.01092481871811010197e-01 -3.26713719400902036488e-04 -3.19682497034204718411e-03 -3.26713719400902036488e-04 -3.19682497034204718411e-03 9.99989668405038667487e-01 -1.01092481871810967804e-04
9.99023512000000000000e+08 9.89626438392986806925e-01 -1.01295442335228053077e-01 -3.28040821262381055053e-04 -3.20324314373565850744e-03 -3.28040821262381055053e-04 -3.20324314373565850744e-03 9.99989626438392953389e-01 -1.01295442335228014479e-04
9.99025513000000000000e+08 9.89584216512086833895e-01 -1.01499210110949575347e-01 -3.29375994369785320484e-04 -3.20968684658592268155e-03 -3.29375994369785320484e-04 -3.20968684658592268155e-03 9.99989584216512072956e-01 -1.01499210110949538485e-04
9.99027514000000000000e+08 9.89541737329619808250e-01 -1.01703789969801033921e-01 -3.30719304067162659516e-04 -3.21615622975958588559e-03 -3.30719304067162659516e-04 -3.21615622975958588559e-03 9.99989541737329568072e-01 -1.01703789969800984590e-04
9.99029515000000000000e+08 9.89498998758340353454e-01 -1.01909186719842712043e-01 -3.32070816359005308548e-04 -3.22265144530086561359e-03 -3.32070816359005308548e-04 -3.22265144530086561359e-03 9.99989498998758330472e-01 -1.01909186719842661194e-04
9.99031516000000000000e+08 9.89455998689884541619e-01 -1.02115405206636852831e-01 -3.33430597917641299323e-04 -3.22917264643989444101e-03 -3.33430597917641299323e-04 -3.22917264643989444101e-03 9.99989455998689935612e-01 -1.02115405206636819979e-04
9.99033517000000000000e+08 9.89412734994491782636e-01 -1.02322450313712440262e-01 -3.34798716092012268140e-04 -3.23571998760741746937e-03 -3.34798716092012268140e-04 -3.23571998760741746937e-03 9.99989412734994531640e-01 -1.02322450313712399171e-04
9.99035518000000000000e+08 9.89369205520761685335e-01 -1.02530326962851844885e-01 -3.36175238915365870267e-04 -3.24229362444385929218e-03 -3.36175238915365870267e-04 -3.24229362444385929218e-03 9.99989369205520728379e-01 -1.02530326962851795012e-04
9.99037519000000000000e+08 9.89325408095379166262e-01 -1.02739040114518578872e-01 -3.37560235113967235972e-04 -3.24889371381284963389e-03 -3.37560235113967235972e-04 -3.24889371381284963389e-03 9.99989325408095375280e-01 -1.02739040114518538865e-04
9.99039520000000000000e+08 9.89281340522863317233e-01 -1.02948594768151394097e-01 -3.38953774115015326902e-04 -3.25552041381052363611e-03 -3.38953774115015326902e-04 -3.25552041381052363611e-03 9.99989281340522895292e-01 -1.02948594768151346392e-04
9.99041521000000000000e+08 9.89237000585274972586e-01 -1.03158995962647340172e-01 -3.40355926055904407877e-04 -3.26217388378079609784e-03 -3.40355926055904407877e-04 -3.26217388378079609784e-03 9.99989237000585284854e-01 -1.03158995962647292250e-04
9.99043522000000000000e+08 9.89192386041958693355e-01 -1.03370248776664189205e-01 -3.41766761792379632472e-04 -3.26885428432492847542e-03 -3.41766761792379632472e-04 -3.26885428432492847542e-03 9.99989192386042002880e-01 -1.03370248776664153427e-04
9.99045523000000000000e+08 9.89147494629254331322e-01 -1.03582358329054907697e-01 -3.43186352907665157951e-04 -3.27556177731526312197e-03 -3.43186352907665157951e-04 -3.27556177731526312197e-03 9.99989147494629304624e-01 -1.03582358329054862595e-04
9.99047524000000000000e+08 9.89102324060223581093e-01 -1.03795329779212852639e-01 -3.44614771721092442991e-04 -3.28229652590614467272e-03 -3.44614771721092442991e-04 -3.28229652590614467272e-03 9.99989102324060241678e-01 -1.03795329779212812957e-04
9.99049525000000000000e+08 9.89056872024346556138e-01 -1.04009168327551332345e-01 -3.46052091297726119833e-04 -3.28905869454908066085e-03 -3.46052091297726119833e-04 -3.28905869454908066085e-03 9.99989056872024328904e-01 -1.04009168327551292446e-04
9.99051526000000000000e+08 9.89011136187252115626e-01 -1.04223879215798689857e-01 -3.47498385456852592560e-04 -3.29584844900207563079e-03 -3.47498385456852592560e-04 -3.29584844900207563079e-03 9.99989011136187211370e-01 -1.04223879215798644212e-04
9.99053527000000000000e+08 9.88965114190411442863e-01 -1.04439467727463222713e-01 -3.48953728781707824252e-04 -3.30266595634433291970e-03 -3.48953728781707824252e-04 -3.30266595634433291970e-03 9.99988965114190442307e-01 -1.04439467727463186067e-04
9.99055528000000000000e+08 9.88918803650830180452e-01 -1.04655939188280228125e-01 -3.50418196629191192135e-04 -3.30951138499038918436e-03 -3.50418196629191192135e-04 -3.30951138499038918436e-03 9.99988918803650816969e-01 -1.04655939188280186383e-04
9.99057529000000000000e+08 9.88872202160762547862e-01 -1.04873298966543931909e-01 -3.51891865138906378453e-04 -3.31638490470061338133e-03 -3.51891865138906378453e-04 -3.31638490470061338133e-03 9.99988872202160816727e-01 -1.04873298966543887457e-04
9.99059530000000000000e+08 9.88825307287388044486e-01 -1.05091552473599608719e-01 -3.53374811243390275859e-04 -3.32328668659676940492e-03 -3.53374811243390275859e-04 -3.32328668659676940492e-03 9.99988825307287387822e-01 -1.05091552473599570664e-04
9.99061531000000000000e+08 9.88778116572515908267e-01 -1.05310705164190693273e-01 -3.54867112677466020089e-04 -3.33021690317298908052e-03 -3.54867112677466020089e-04 -3.33021690317298908052e-03 9.99988778116572496479e-01 -1.05310705164190650230e-04
9.99063532000000000000e+08 9.88730627532242722921e-01 -1.05530762537003913737e-01 -3.56368847989054545605e-04 -3.33717572831301531600e-03 -3.56368847989054545605e-04 -3.33717572831301531600e-03 9.99988730627532240725e-01 -1.05530762537003877850e-04
9.99065533000000000000e+08 9.88682837656654323055e-01 -1.05751730134995766686e-01 -3.57880096548607361338e-04 -3.34416333730052197162e-03 -3.57880096548607361338e-04 -3.34416333730052197162e-03 9.99988682837656628344e-01 -1.05751730134995728196e-04
9.99067534000000000000e+08 9.88634744409491950101e-01 -1.05973613545868844410e-01 -3.59400938559673347687e-04 -3.35117990683418080083e-03 -3.59400938559673347687e-04 -3.35117990683418080083e-03 9.99988634744409465860e-01 -1.05973613545868797356e-04
9.99069535000000000000e+08 9.88586345227812524072e-01 -1.06196418402554587646e-01 -3.60931455069627641751e-04 -3.35822561504292441473e-03 -3.60931455069627641751e-04 -3.35822561504292441473e-03 9.99988586345227803420e-01 -1.06196418402554543844e-04
9.99071536000000000000e+08 9.88537637521663348217e-01 -1.06420150383614908751e-01 -3.62471727979961420678e-04 -3.36530064149864706000e-03 -3.62471727979961420678e-04 -3.36530064149864706000e-03 9.99988537637521712753e-01 -1.06420150383614863540e-04
9.99073537000000000000e+08 9.88488618673738939080e-01 -1.06644815213710567048e-01 -3.64021840057148155304e-04 -3.37240516723101742269e-03 -3.64021840057148155304e-04 -3.37240516723101742269e-03 9.99988488618673732056e-01 -1.06644815213710519235e-04
9.99075538000000000000e+08 9.88439286039028863762e-01 -1.06870418664087571403e-01 -3.65581874943756357163e-04 -3.37953937474285825288e-03 -3.65581874943756357163e-04 -3.37953937474285825288e-03 9.99988439286038977016e-01 -1.06870418664087527276e-04
9.99077539000000000000e+08 9.88389636944475458158e-01 -1.07096966553006781031e-01 -3.67151917169294364929e-04 -3.38670344802373358625e-03 -3.67151917169294364929e-04 -3.38670344802373358625e-03 9.99988389636944474681e-01 -1.07096966553006732025e-04
9.99079540000000000000e+08 9.88339668688606232116e-01 -1.07324464746266570736e-01 -3.68732052161823721775e-04 -3.39389757256647458736e-03 -3.68732052161823721775e-04 -3.39389757256647458736e-03 9.99988339668688608342e-01 -1.07324464746266526826e-04
9.99081541000000000000e+08 9.88289378541191698702e-01 -1.07552919157592852262e-01 -3.70322366258780543043e-04 -3.40112193537951516820e-03 -3.70322366258780543043e-04 -3.40112193537951516820e-03 9.99988289378541228558e-01 -1.07552919157592814423e-04
9.99083542000000000000e+08 9.88238763742853576488e-01 -1.07782335749236318767e-01 -3.71922946719365832887e-04 -3.40837672500577618800e-03 -3.71922946719365832887e-04 -3.40837672500577618800e-03 9.99988238763742876003e-01 -1.07782335749236280386e-04
9.99085543000000000000e+08 9.88187821504709185128e-01 -1.08012720532386322092e-01 -3.73533881735794515491e-04 -3.41566213153575567660e-03 -3.73533881735794515491e-04 -3.41566213153575567660e-03 9.99988187821504670438e-01 -1.08012720532386273737e-04
9.99087544000000000000e+08 9.88136549007993636451e-01 -1.08244079567666046104e-01 -3.75155260445242367227e-04 -3.42297834662318774951e-03 -3.75155260445242367227e-04 -3.42297834662318774951e-03 9.99988136549007977649e-01 -1.08244079567666002736e-04
9.99089545000000000000e+08 9.88084943403667592676e-01 -1.08476418965671936312e-01 -3.76787172942239856951e-04 -3.43032556350209754184e-03 -3.76787172942239856951e-04 -3.43032556350209754184e-03 9.99988084943403632288e-01 -1.08476418965671884812e-04
9.99091546000000000000e+08 9.88033001812031130839e-01 -1.08709744887468498509e-01 -3.78429710290895224452e-04 -3.43770397700245231715e-03 -3.78429710290895224452e-04 -3.43770397700245231715e-03 9.99988033001812048894e-01 -1.08709744887468457743e-04
9.99093547000000000000e+08 9.87980721322334276557e-01 -1.08944063545075880972e-01 -3.80082964537205108234e-04 -3.44511378356557665392e-03 -3.80082964537205108234e-04 -3.44511378356557665392e-03 9.99987980721322333721e-01 -1.08944063545075836954e-04
9.99095548000000000000e+08 9.87928098992370329334e-01 -1.09179381202014924579e-01 -3.81747028721915351683e-04 -3.45255518126139169383e-03 -3.81747028721915351683e-04 -3.45255518126139169383e-03 9.99987928098992395753e-01 -1.09179381202014879476e-04
9.99097549000000000000e+08 9.87875131848065746176e-01 -1.09415704173846314862e-01 -3.83421996893486434748e-04 -3.46002836980546226928e-03 -3.83421996893486434748e-04 -3.46002836980546226928e-03 9.99987875131848058530e-01 -1.09415704173846276373e-04
9.99099550000000000000e+08 9.87821816883080461302e-01 -1.09653038828643925595e-01 -3.85107964120742752266e-04 -3.46753355057396453129e-03 -3.85107964120742752266e-04 -3.46753355057396453129e-03 9.99987821816883060144e-01 -1.09653038828643874746e-04
9.99101551000000000000e+08 9.87768151058372123607e-01 -1.09891391587604900226e-01 -3.86805026506642089974e-04 -3.47507092662298257973e-03 -3.86805026506642089974e-04 -3.47507092662298257973e-03 9.99987768151058387112e-01 -1.09891391587604853172e-04
9.99103552000000000000e+08 9.87714131301775988270e-01 -1.10130768925569264005e-01 -3.88513281201558402164e-04 -3.48264070270493542730e-03 -3.88513281201558402164e-04 -3.48264070270493542730e-03 9.99987714131301830278e-01 -1.10130768925569217168e-04
9.99105553000000000000e+08 9.87659754507585252448e-01 -1.10371177371517900645e-01 -3.90232826416566053011e-04 -3.49024308528432698762e-03 -3.90232826416566053011e-04 -3.49024308528432698762e-03 9.99987659754507540733e-01 -1.10371177371517854566e-04
9.99107554000000000000e+08 9.87605017536094198505e-01 -1.10612623509210500350e-01 -3.91963761437881714773e-04 -3.49787828255791960821e-03 -3.91963761437881714773e-04 -3.49787828255791960821e-03 9.99987605017536140828e-01 -1.10612623509210452970e-04
9.99109555000000000000e+08 9.87549917213155215023e-01 -1.10855113977737881892e-01 -3.93706186640860333632e-04 -3.50554650447219839915e-03 -3.93706186640860333632e-04 -3.50554650447219839915e-03 9.99987549917213169870e-01 -1.10855113977737832994e-04
9.99111556000000000000e+08 9.87494450329739481553e-01 -1.11098655472040105940e-01 -3.95460203503909671959e-04 -3.51324796273975829830e-03 -3.95460203503909671959e-04 -3.51324796273975829830e-03 9.99987494450329750251e-01 -1.11098655472040061380e-04
9.99113557000000000000e+08 9.87438613641467899384e-01 -1.11343254743525715833e-01 -3.97225914623297040543e-04 -3.52098287085888216053e-03 -3.97225914623297040543e-04 -3.52098287085888216053e-03 9.99987438613641477225e-01 -1.11343254743525679512e-04
9.99115558000000000000e+08 9.87382403868152236370e-01 -1.11588918600630249145e-01 -3.99003423727692732321e-04 -3.52875144413120674786e-03 -3.99003423727692732321e-04 -3.52875144413120674786e-03 9.99987382403868196867e-01 -1.11588918600630203066e-04
9.99117559000000000000e+08 9.87325817693301743816e-01 -1.11835653909491378188e-01 -4.00792835693730817217e-04 -3.53655389968306936924e-03 -4.00792835693730817217e-04 -3.53655389968306936924e-03 9.99987325817693339935e-01 -1.11835653909491322460e-04
9.99119560000000000000e+08 9.87268851763672072863e-01 -1.12083467594426638980e-01 -4.02594256560319255570e-04 -3.54439045648061775567e-03 -4.02594256560319255570e-04 -3.54439045648061775567e-03 9.99987268851763699828e-01 -1.12083467594426602334e-04
9.99121561000000000000e+08 9.87211502688750908163e-01 -1.12332366638650607560e-01 -4.04407793544864333120e-04 -3.55226133535248419712e-03 -4.04407793544864333120e-04 -3.55226133535248419712e-03 9.99987211502688766451e-01 -1.12332366638650559313e-04
9.99123562000000000000e+08 9.87153767040288676604e-01 -1.12582358084779815544e-01 -4.06233555058139301185e-04 -3.56016675900576061095e-03 -4.06233555058139301185e-04 -3.56016675900576061095e-03 9.99987153767040282126e-01 -1.12582358084779778247e-04
9.99125563000000000000e+08 9.87095641351766195370e-01 -1.12833449035580068998e-01 -4.08071650721103171278e-04 -3.56810695204962113891e-03 -4.08071650721103171278e-04 -3.56810695204962113891e-03 9.99987095641351797504e-01 -1.12833449035580022377e-04
9.99127564000000000000e+08 9.87037122117903176211e-01 -1.13085646654513968801e-01 -4.09922191380457227351e-04 -3.57608214101264466206e-03 -4.09922191380457227351e-04 -3.57608214101264466206e-03 9.99987037122117894405e-01 -1.13085646654513931613e-04
9.99129565000000000000e+08 9.86978205794138752083e-01 -1.13338958166378747650e-01 -4.11785289125050468339e-04 -3.58409255436297922645e-03 -4.11785289125050468339e-04 -3.58409255436297922645e-03 9.99986978205794185826e-01 -1.13338958166378696042e-04
9.99131566000000000000e+08 9.86918888796095461480e-01 -1.13593390857994469556e-01 -4.13661057302854527889e-04 -3.59213842253010805228e-03 -4.13661057302854527889e-04 -3.59213842253010805228e-03 9.99986918888796094684e-01 -1.13593390857994415888e-04
9.99133567000000000000e+08 9.86859167499046785466e-01 -1.13848952078844337099e-01 -4.15549610537789841560e-04 -3.60021997792509722627e-03 -4.15549610537789841560e-04 -3.60021997792509722627e-03 9.99986859167499075873e-01 -1.13848952078844282238e-04
9.99135568000000000000e+08 9.86799038237376469063e-01 -1.14105649241722936771e-01 -4.17451064746813377791e-04 -3.60833745496109319431e-03 -4.17451064746813377791e-04 -3.60833745496109319431e-03 9.99986799038237395010e-01 -1.14105649241722889283e-04
9.99137569000000000000e+08 9.86738497304032180502e-01 -1.14363489823384983923e-01 -4.19365537157217408825e-04 -3.61649109007384020331e-03 -4.19365537157217408825e-04 -3.61649109007384020331e-03 9.99986738497304017415e-01 -1.14363489823384939579e-04
9.99139570000000000000e+08 9.86677540949949083426e-01 -1.14622481365288450550e-01 -4.21293146324840691967e-04 -3.62468112174517929913e-03 -4.21293146324840691967e-04 -3.62468112174517929913e-03 9.99986677540949941978e-01 -1.14622481365288410434e-04
9.99141571000000000000e+08 9.86616165383486953822e-01 -1.14882631474253635306e-01 -4.23234012151875731329e-04 -3.63290779052388886072e-03 -4.23234012151875731329e-04 -3.63290779052388886072e-03 9.99986616165383535026e-01 -1.14882631474253586192e-04
9.99143572000000000000e+08 9.86554366769865076492e-01 -1.15143947823101125416e-01 -4.25188255904734152806e-04 -3.64117133904586073520e-03 -4.25188255904734152806e-04 -3.64117133904586073520e-03 9.99986554366769864188e-01 -1.15143947823101084108e-04
9.99145573000000000000e+08 9.86492141230550734221e-01 -1.15406438151457485519e-01 -4.27156000233388708203e-04 -3.64947201205957682049e-03 -4.27156000233388708203e-04 -3.64947201205957682049e-03 9.99986492141230587372e-01 -1.15406438151457443669e-04
9.99147574000000000000e+08 9.86429484842675785572e-01 -1.15670110266411163558e-01 -4.29137369189827697254e-04 -3.65781005644685028658e-03 -4.29137369189827697254e-04 -3.65781005644685028658e-03 9.99986429484842620496e-01 -1.15670110266411123117e-04
9.99149575000000000000e+08 9.86366393638436589342e-01 -1.15934972043205228309e-01 -4.31132488247013652069e-04 -3.66618572124473383195e-03 -4.31132488247013652069e-04 -3.66618572124473383195e-03 9.99986366393638470562e-01 -1.15934972043205182664e-04
9.99151576000000000000e+08 9.86302863604461066416e-01 -1.16201031426041989647e-01 -4.33141484318920694328e-04 -3.67459925767096287283e-03 -4.33141484318920694328e-04 -3.67459925767096287283e-03 9.99986302863604459290e-01 -1.16201031426041952242e-04
9.99153577000000000000e+08 9.86238890681192303944e-01 -1.16468296428780038188e-01 -4.35164485780005071570e-04 -3.68305091914599650599e-03 -4.35164485780005071570e-04 -3.68305091914599650599e-03 9.99986238890681167213e-01 -1.16468296428779983761e-04
9.99155578000000000000e+08 9.86174470762253063683e-01 -1.16736775135683937266e-01 -4.37201622485318462750e-04 -3.69154096131672727552e-03 -4.37201622485318462750e-04 -3.69154096131672727552e-03 9.99986174470762212430e-01 -1.16736775135683885332e-04
