! File generated for n1 = 5, n2 = 4
! b1 = 4.641589
! b2 = 0.464159
! Q0 = 10000.000000
! f0 = 1000000000.000000
! n = 1001
! rel_span = 10.000000
# Hz S RI R 50
9.96947126141512989998e+08 9.84992073954010116665e-01 -1.50309048499272873700e-01 -4.74592292606929554155e-03 -4.75318946190416077857e-02 -4.74592292606929554155e-03 -4.75318946190416077857e-02 9.98499207395400989462e-01 -1.50309048499272842475e-02
9.96953231889230012894e+08 9.84932366886648980042e-01 -1.50604757398882405095e-01 -4.76480395859631058325e-03 -4.76254059837564192037e-02 -4.76480395859631058325e-03 -4.76254059837564192037e-02 9.98493236688664853595e-01 -1.50604757398882359992e-02
9.96959337636946916580e+08 9.84872304372474194345e-01 -1.50901618211800120362e-01 -4.78379739327518867936e-03 -4.77192816154433374631e-02 -4.78379739327518867936e-03 -4.77192816154433374631e-02 9.98487230437247408332e-01 -1.50901618211800089137e-02
9.96965443384663939476e+08 9.84811883594867598646e-01 -1.51199637607967007913e-01 -4.80290412079869416528e-03 -4.78135236233228760883e-02 -4.80290412079869416528e-03 -4.78135236233228760883e-02 9.98481188359486737660e-01 -1.51199637607966966280e-02
9.96971549132380843163e+08 9.84751101709359977221e-01 -1.51498822308293368266e-01 -4.82212504066708690792e-03 -4.79081341327334958580e-02 -4.82212504066708690792e-03 -4.79081341327334958580e-02 9.98475110170936042131e-01 -1.51498822308293312755e-02
9.96977654880097866058e+08 9.84689955843290887216e-01 -1.51799179085183505444e-01 -4.84146106129524928657e-03 -4.80031152852974860035e-02 -4.84146106129524928657e-03 -4.80031152852974860035e-02 9.98468995584329110926e-01 -1.51799179085183467280e-02
9.96983760627814888954e+08 9.84628443095486471925e-01 -1.52100714762968908245e-01 -4.86091310011502446969e-03 -4.80984692390579379739e-02 -4.86091310011502446969e-03 -4.80984692390579379739e-02 9.98462844309548680499e-01 -1.52100714762968877020e-02
9.96989866375531792641e+08 9.84566560535914514496e-01 -1.52403436218422005943e-01 -4.88048208368384393158e-03 -4.81941981686412335151e-02 -4.88048208368384393158e-03 -4.81941981686412335151e-02 9.98456656053591462552e-01 -1.52403436218421957371e-02
9.96995972123248815536e+08 9.84504305205336271989e-01 -1.52707350381281803386e-01 -4.90016894779525796072e-03 -4.82903042654232658726e-02 -4.90016894779525796072e-03 -4.82903042654232658726e-02 9.98450430520533616097e-01 -1.52707350381281747875e-02
9.97002077870965719223e+08 9.84441674114968412468e-01 -1.53012464234700024113e-01 -4.91997463758548064100e-03 -4.83867897376705005663e-02 -4.91997463758548064100e-03 -4.83867897376705005663e-02 9.98444167411496885656e-01 -1.53012464234699996357e-02
9.97008183618682742119e+08 9.84378664246117418557e-01 -1.53318784815813347056e-01 -4.93990010764925289999e-03 -4.84836568107209486822e-02 -4.93990010764925289999e-03 -4.84836568107209486822e-02 9.98437866424611741856e-01 -1.53318784815813322769e-02
9.97014289366399645805e+08 9.84315272549830200255e-01 -1.53626319216211948415e-01 -4.95994632215017265675e-03 -4.85809077271323191960e-02 -4.95994632215017265675e-03 -4.85809077271323191960e-02 9.98431527254982964514e-01 -1.53626319216211906782e-02
9.97020395114116668701e+08 9.84251495946524723735e-01 -1.53935074582490560857e-01 -4.98011425493760737787e-03 -4.86785447468563239881e-02 -4.98011425493760737787e-03 -4.86785447468563239881e-02 9.98425149594652450169e-01 -1.53935074582490540041e-02
9.97026500861833691597e+08 9.84187331325628744771e-01 -1.54245058116739164333e-01 -5.00040488966084929051e-03 -4.87765701473937551835e-02 -5.00040488966084929051e-03 -4.87765701473937551835e-02 9.98418733132562907784e-01 -1.54245058116739119231e-02
9.97032606609550595284e+08 9.84122775545199446334e-01 -1.54556277077109088802e-01 -5.02081921988948784441e-03 -4.88749862239736265757e-02 -5.02081921988948784441e-03 -4.88749862239736265757e-02 9.98412277554519889122e-01 -1.54556277077109050638e-02
9.97038712357267618179e+08 9.84057825431544186401e-01 -1.54868738778351944241e-01 -5.04135824923324267488e-03 -4.89737952897234679606e-02 -5.04135824923324267488e-03 -4.89737952897234679606e-02 9.98405782543154374231e-01 -1.54868738778351899138e-02
9.97044818104984521866e+08 9.83992477778842133951e-01 -1.55182450592336401707e-01 -5.06202299146163957333e-03 -4.90729996758328609885e-02 -5.06202299146163957333e-03 -4.90729996758328609885e-02 9.98399247777884246702e-01 -1.55182450592336353135e-02
9.97050923852701544762e+08 9.83926729348750250814e-01 -1.55497419948621762309e-01 -5.08281447062870414544e-03 -4.91726017317347455227e-02 -5.08281447062870414544e-03 -4.91726017317347455227e-02 9.98392672934874991775e-01 -1.55497419948621724145e-02
9.97057029600418567657e+08 9.83860576870006497963e-01 -1.55813654335021256614e-01 -5.10373372119833374622e-03 -4.92726038252835618625e-02 -5.10373372119833374622e-03 -4.92726038252835618625e-02 9.98386057687000616490e-01 -1.55813654335021211511e-02
9.97063135348135471344e+08 9.83794017038036150424e-01 -1.56131161298131426740e-01 -5.12478178816875261370e-03 -4.93730083429226862535e-02 -5.12478178816875261370e-03 -4.93730083429226862535e-02 9.98379401703803570634e-01 -1.56131161298131392046e-02
9.97069241095852494240e+08 9.83727046514536351829e-01 -1.56449948443948300136e-01 -5.14595972720408544043e-03 -4.94738176898792333946e-02 -5.14595972720408544043e-03 -4.94738176898792333946e-02 9.98372704651453668490e-01 -1.56449948443948272381e-02
9.97075346843569397926e+08 9.83659661927072104248e-01 -1.56770023438400823990e-01 -5.16726860476185694687e-03 -4.95750342903328103383e-02 -5.16726860476185694687e-03 -4.95750342903328103383e-02 9.98365966192707232629e-01 -1.56770023438400768478e-02
9.97081452591286420822e+08 9.83591859868649831533e-01 -1.57091394007977891434e-01 -5.18870949822808694152e-03 -4.96766605876137259945e-02 -5.18870949822808694152e-03 -4.96766605876137259945e-02 9.98359185986865016460e-01 -1.57091394007977842862e-02
9.97087558339003443718e+08 9.83523636897302377946e-01 -1.57414067940271990009e-01 -5.21028349604831398506e-03 -4.97786990443749577384e-02 -5.21028349604831398506e-03 -4.97786990443749577384e-02 9.98352363689730237795e-01 -1.57414067940271941437e-02
9.97093664086720347404e+08 9.83454989535652246424e-01 -1.57738053084610696519e-01 -5.23199169786591096465e-03 -4.98811521427918250216e-02 -5.23199169786591096465e-03 -4.98811521427918250216e-02 9.98345498953565169131e-01 -1.57738053084610641008e-02
9.97099769834437370300e+08 9.83385914270477612398e-01 -1.58063357352646233212e-01 -5.25383521465910049292e-03 -4.99840223847484513287e-02 -5.25383521465910049292e-03 -4.99840223847484513287e-02 9.98338591427047727933e-01 -1.58063357352646177700e-02
9.97105875582154273987e+08 9.83316407552269233783e-01 -1.58389988718972085646e-01 -5.27581516888128709830e-03 -5.00873122920327054630e-02 -5.27581516888128709830e-03 -5.00873122920327054630e-02 9.98331640755226956685e-01 -1.58389988718972037074e-02
9.97111981329871296883e+08 9.83246465794781809855e-01 -1.58717955221737871963e-01 -5.29793269460281709277e-03 -5.01910244065306779260e-02 -5.29793269460281709277e-03 -5.01910244065306779260e-02 9.98324646579478169883e-01 -1.58717955221737809512e-02
9.97118087077588319778e+08 9.83176085374578678788e-01 -1.59047264963274370686e-01 -5.32018893765497883491e-03 -5.02951612904243491875e-02 -5.32018893765497883491e-03 -5.02951612904243491875e-02 9.98317608537457878981e-01 -1.59047264963274315175e-02
9.97124192825305223465e+08 9.83105262630571741234e-01 -1.59377926110716883201e-01 -5.34258505577547577331e-03 -5.03997255263886612120e-02 -5.34258505577547577331e-03 -5.03997255263886612120e-02 9.98310526263057163021e-01 -1.59377926110716855446e-02
9.97130298573022246361e+08 9.83033993863546506908e-01 -1.59709946896674837014e-01 -5.36512221875864222381e-03 -5.05047197178032994391e-02 -5.36512221875864222381e-03 -5.05047197178032994391e-02 9.98303399386354706202e-01 -1.59709946896674816197e-02
9.97136404320739150047e+08 9.82962275335699575685e-01 -1.60043335619818788418e-01 -5.38780160860170918152e-03 -5.06101464889383151347e-02 -5.38780160860170918152e-03 -5.06101464889383151347e-02 9.98296227533569946466e-01 -1.60043335619818732907e-02
9.97142510068456172943e+08 9.82890103270134707358e-01 -1.60378100645634624755e-01 -5.41062441966409096716e-03 -5.07160084851926290517e-02 -5.41062441966409096716e-03 -5.07160084851926290517e-02 9.98289010327013448531e-01 -1.60378100645634583121e-02
9.97148615816173076630e+08 9.82817473850402745228e-01 -1.60714250406952752215e-01 -5.43359185881305689625e-03 -5.08223083732613489794e-02 -5.43359185881305689625e-03 -5.08223083732613489794e-02 9.98281747385040274523e-01 -1.60714250406952703643e-02
9.97154721563890099525e+08 9.82744383219973483001e-01 -1.61051793404760945627e-01 -5.45670514559046249126e-03 -5.09290488413928627009e-02 -5.45670514559046249126e-03 -5.09290488413928627009e-02 9.98274438321997359402e-01 -1.61051793404760890116e-02
9.97160827311607122421e+08 9.82670827481757713784e-01 -1.61390738208766620909e-01 -5.47996551236414400354e-03 -5.10362325995665916389e-02 -5.47996551236414400354e-03 -5.10362325995665916389e-02 9.98267082748175771378e-01 -1.61390738208766586215e-02
9.97166933059324026108e+08 9.82596802697583981967e-01 -1.61731093458137520358e-01 -5.50337420449328006133e-03 -5.11438623797272617910e-02 -5.50337420449328006133e-03 -5.11438623797272617910e-02 9.98259680269758420401e-01 -1.61731093458137471786e-02
9.97173038807041049004e+08 9.82522304887679220897e-01 -1.62072867862199154754e-01 -5.52693248049261186966e-03 -5.12519409360054009617e-02 -5.52693248049261186966e-03 -5.12519409360054009617e-02 9.98252230488767877681e-01 -1.62072867862199099243e-02
9.97179144554757952690e+08 9.82447330030147947255e-01 -1.62416070201112011651e-01 -5.55064161219714479606e-03 -5.13604710449315771115e-02 -5.55064161219714479606e-03 -5.13604710449315771115e-02 9.98244733003014750317e-01 -1.62416070201111990834e-02
9.97185250302474975586e+08 9.82371874060433802889e-01 -1.62760709326604219305e-01 -5.57450288493250515481e-03 -5.14694555056679700633e-02 -5.57450288493250515481e-03 -5.14694555056679700633e-02 9.98237187406043391391e-01 -1.62760709326604177671e-02
9.97191356050191998482e+08 9.82295932870781207669e-01 -1.63106794162671264736e-01 -5.59851759768498300623e-03 -5.15788971402297569124e-02 -5.59851759768498300623e-03 -5.15788971402297569124e-02 9.98229593287078165176e-01 -1.63106794162671230042e-02
9.97197461797908902168e+08 9.82219502309684355801e-01 -1.63454333706313154062e-01 -5.62268706327605401196e-03 -5.16887987937181339615e-02 -5.62268706327605401196e-03 -5.16887987937181339615e-02 9.98221950230968491091e-01 -1.63454333706313098551e-02
9.97203567545625925064e+08 9.82142578181324332753e-01 -1.63803337028289114352e-01 -5.64701260854015129470e-03 -5.17991633345590493653e-02 -5.64701260854015129470e-03 -5.17991633345590493653e-02 9.98214257818132444378e-01 -1.63803337028289065780e-02
9.97209673293342828751e+08 9.82065156245014003744e-01 -1.64153813273812398954e-01 -5.67149557450024113803e-03 -5.19099936547228468786e-02 -5.67149557450024113803e-03 -5.19099936547228468786e-02 9.98206515624501355965e-01 -1.64153813273812364260e-02
9.97215779041059851646e+08 9.81987232214610705761e-01 -1.64505771663363525859e-01 -5.69613731655371508672e-03 -5.20212926699814837139e-02 -5.69613731655371508672e-03 -5.20212926699814837139e-02 9.98198723221461081678e-01 -1.64505771663363484225e-02
9.97221884788776874542e+08 9.81908801757939819765e-01 -1.64859221493418722781e-01 -5.72093920465444917556e-03 -5.21330633201388671250e-02 -5.72093920465444917556e-03 -5.21330633201388671250e-02 9.98190880175793937568e-01 -1.64859221493418688087e-02
9.97227990536493778229e+08 9.81829860496207462717e-01 -1.65214172137202131019e-01 -5.74590262349861883445e-03 -5.22453085692687335673e-02 -5.74590262349861883445e-03 -5.22453085692687335673e-02 9.98182986049620746272e-01 -1.65214172137202082447e-02
9.97234096284210801125e+08 9.81750404003384091745e-01 -1.65570633045537429773e-01 -5.77102897271966272519e-03 -5.23580314059839471708e-02 -5.77102897271966272519e-03 -5.23580314059839471708e-02 9.98175040400338442481e-01 -1.65570633045537402017e-02
9.97240202031927704811e+08 9.81670427805614642658e-01 -1.65928613747548581170e-01 -5.79631966707481755680e-03 -5.24712348436580655608e-02 -5.79631966707481755680e-03 -5.24712348436580655608e-02 9.98167042780561453164e-01 -1.65928613747548525659e-02
9.97246307779644727707e+08 9.81589927380580484773e-01 -1.66288123851543317988e-01 -5.82177613664677535282e-03 -5.25849219207048107494e-02 -5.82177613664677535282e-03 -5.25849219207048107494e-02 9.98158992738058081784e-01 -1.66288123851543283294e-02
9.97252413527361750603e+08 9.81508898156887354958e-01 -1.66649173045751580746e-01 -5.84739982703734624547e-03 -5.26990957008114657700e-02 -5.84739982703734624547e-03 -5.26990957008114657700e-02 9.98150889815688779905e-01 -1.66649173045751546052e-02
9.97258519275078654289e+08 9.81427335513415544099e-01 -1.67011771099197070534e-01 -5.87319219957285233724e-03 -5.28137592732145846885e-02 -5.87319219957285233724e-03 -5.28137592732145846885e-02 9.98142733551341532205e-01 -1.67011771099197028900e-02
9.97264625022795677185e+08 9.81345234778677300014e-01 -1.67375927862506684862e-01 -5.89915473150748933401e-03 -5.29289157529559059490e-02 -5.89915473150748933401e-03 -5.29289157529559059490e-02 9.98134523477867685592e-01 -1.67375927862506643229e-02
9.97270730770512580872e+08 9.81262591230162573019e-01 -1.67741653268733442728e-01 -5.92528891623000236732e-03 -5.30445682811425886505e-02 -5.92528891623000236732e-03 -5.30445682811425886505e-02 9.98126259123016223995e-01 -1.67741653268733380278e-02
9.97276836518229603767e+08 9.81179400093662668070e-01 -1.68108957334248881876e-01 -5.95159626347777429012e-03 -5.31607200252294451182e-02 -5.95159626347777429012e-03 -5.31607200252294451182e-02 9.98117940009366266807e-01 -1.68108957334248861060e-02
9.97282942265946507454e+08 9.81095656542605110140e-01 -1.68477850159546499453e-01 -5.97807829954700303832e-03 -5.32773741792729529920e-02 -5.97807829954700303832e-03 -5.32773741792729529920e-02 9.98109565654260566525e-01 -1.68477850159546478637e-02
9.97289048013663530350e+08 9.81011355697353537586e-01 -1.68848341930168482916e-01 -6.00473656751426138056e-03 -5.33945339642243610445e-02 -6.00473656751426138056e-03 -5.33945339642243610445e-02 9.98101135569735342656e-01 -1.68848341930168434344e-02
9.97295153761380553246e+08 9.80926492624518475694e-01 -1.69220442917543040240e-01 -6.03157262745418476513e-03 -5.35122026281944773718e-02 -6.03157262745418476513e-03 -5.35122026281944773718e-02 9.98092649262451891978e-01 -1.69220442917543019423e-02
9.97301259509097456932e+08 9.80841062336246460873e-01 -1.69594163479889425972e-01 -6.05858805666462021250e-03 -5.36303834467398293784e-02 -6.05858805666462021250e-03 -5.36303834467398293784e-02 9.98084106233624646087e-01 -1.69594163479889377399e-02
9.97307365256814479828e+08 9.80755059789493066624e-01 -1.69969514063147447702e-01 -6.08578444989623431466e-03 -5.37490797231566300174e-02 -6.08578444989623431466e-03 -5.37490797231566300174e-02 9.98075505978949339969e-01 -1.69969514063147385252e-02
9.97313471004531383514e+08 9.80668479885304478216e-01 -1.70346505201836667664e-01 -6.11316341957972037707e-03 -5.38682947887524701813e-02 -6.11316341957972037707e-03 -5.38682947887524701813e-02 9.98066847988530403413e-01 -1.70346505201836619092e-02
9.97319576752248406410e+08 9.80581317468063540232e-01 -1.70725147520035674953e-01 -6.14072659606444606201e-03 -5.39880320031559807203e-02 -6.14072659606444606201e-03 -5.39880320031559807203e-02 9.98058131746806354023e-01 -1.70725147520035640258e-02
9.97325682499965429306e+08 9.80493567324741577274e-01 -1.71105451732290914091e-01 -6.16847562785481293157e-03 -5.41082947546042414277e-02 -6.16847562785481293157e-03 -5.41082947546042414277e-02 9.98049356732474191034e-01 -1.71105451732290851641e-02
9.97331788247682332993e+08 9.80405224184138224253e-01 -1.71487428644543221656e-01 -6.19641218185072728541e-03 -5.42290864602358035906e-02 -6.19641218185072728541e-03 -5.42290864602358035906e-02 9.98040522418413789119e-01 -1.71487428644543186962e-02
9.97337893995399355888e+08 9.80316282716088172045e-01 -1.71871089155156642203e-01 -6.22453794359846199202e-03 -5.43504105664159645195e-02 -6.22453794359846199202e-03 -5.43504105664159645195e-02 9.98031628271608850511e-01 -1.71871089155156593631e-02
9.97343999743116259575e+08 9.80226737530695113598e-01 -1.72256444255788732089e-01 -6.25285461753285164155e-03 -5.44722705490120473470e-02 -6.25285461753285164155e-03 -5.44722705490120473470e-02 9.98022673753069522462e-01 -1.72256444255788690456e-02
9.97350105490833282471e+08 9.80136583177503961650e-01 -1.72643505032488570050e-01 -6.28136392723920803510e-03 -5.45946699137405677682e-02 -6.28136392723920803510e-03 -5.45946699137405677682e-02 9.98013658317750351756e-01 -1.72643505032488500661e-02
9.97356211238550305367e+08 9.80045814144711924243e-01 -1.73032282666580189412e-01 -6.31006761570254443711e-03 -5.47176121964466771752e-02 -6.31006761570254443711e-03 -5.47176121964466771752e-02 9.98004581414471236833e-01 -1.73032282666580154717e-02
9.97362316986267209053e+08 9.79954424858324513181e-01 -1.73422788435747543545e-01 -6.33896744557470130654e-03 -5.48411009634471591223e-02 -6.33896744557470130654e-03 -5.48411009634471591223e-02 9.97995442485832495727e-01 -1.73422788435747508851e-02
9.97368422733984231949e+08 9.79862409681317880761e-01 -1.73815033715044059415e-01 -6.36806519943915964183e-03 -5.49651398118497502843e-02 -6.36806519943915964183e-03 -5.49651398118497502843e-02 9.97986240968131821383e-01 -1.73815033715044031659e-02
9.97374528481701135635e+08 9.79769762912797270715e-01 -1.74209029977875989870e-01 -6.39736268007709118349e-03 -5.50897323698640653533e-02 -6.39736268007709118349e-03 -5.50897323698640653533e-02 9.97976976291279682663e-01 -1.74209029977875941297e-02
9.97380634229418158531e+08 9.79676478787113613755e-01 -1.74604788797122795208e-01 -6.42686171074689088778e-03 -5.52148822971559455342e-02 -6.42686171074689088778e-03 -5.52148822971559455342e-02 9.97967647878711394682e-01 -1.74604788797122732757e-02
9.97386739977135181427e+08 9.79582551472999440989e-01 -1.75002321846124492266e-01 -6.45656413545715908431e-03 -5.53405932851596185640e-02 -6.45656413545715908431e-03 -5.53405932851596185640e-02 9.97958255147299966303e-01 -1.75002321846124443694e-02
9.97392845724852085114e+08 9.79487975072668271004e-01 -1.75401640899785965511e-01 -6.48647181925179980994e-03 -5.54668690574269471205e-02 -6.48647181925179980994e-03 -5.54668690574269471205e-02 9.97948797507266838203e-01 -1.75401640899785944694e-02
9.97398951472569108009e+08 9.79392743620897121559e-01 -1.75802757835698597599e-01 -6.51658664849993473495e-03 -5.55937133699821173227e-02 -6.51658664849993473495e-03 -5.55937133699821173227e-02 9.97939274362089734360e-01 -1.75802757835698542088e-02
9.97405057220286011696e+08 9.79296851084123121112e-01 -1.76205684635159870455e-01 -6.54691053118167890640e-03 -5.57211300116440683139e-02 -6.54691053118167890640e-03 -5.57211300116440683139e-02 9.97929685108412289907e-01 -1.76205684635159821882e-02
9.97411162968003034592e+08 9.79200291359486163500e-01 -1.76610433384369713838e-01 -6.57744539719080662660e-03 -5.58491228044048076962e-02 -6.57744539719080662660e-03 -5.58491228044048076962e-02 9.97920029135948571941e-01 -1.76610433384369672205e-02
9.97417268715719938278e+08 9.79103058273896209585e-01 -1.77017016275477362397e-01 -6.60819319862983138580e-03 -5.59776956037604384031e-02 -6.60819319862983138580e-03 -5.59776956037604384031e-02 9.97910305827389598754e-01 -1.77017016275477327703e-02
9.97423374463436961174e+08 9.79005145583045299773e-01 -1.77425445607806875348e-01 -6.63915591012231853796e-03 -5.61068522990987514354e-02 -6.63915591012231853796e-03 -5.61068522990987514354e-02 9.97900514558304529977e-01 -1.77425445607806812898e-02
