! File generated for n1 = 2, n2 = 1
! b1 = 46.415888
! b2 = 46.415888
! Q0 = 10000.000000
! f0 = 1000000000.000000
! n = 1001
! rel_span = 10.000000
# Hz S RI R 50
9.53084111663872241974e+08 9.90665091742018888432e-01 -9.56466526898347851882e-02 -9.33490825798113064982e-03 -9.56466526898347851882e-02 -9.33490825798113064982e-03 -9.56466526898347851882e-02 9.90665091742018888432e-01 -9.56466526898347851882e-02
9.53177943440544486046e+08 9.90627058699897200533e-01 -9.58394405463832421699e-02 -9.37294130010284630428e-03 -9.58394405463832421699e-02 -9.37294130010284630428e-03 -9.58394405463832421699e-02 9.90627058699897200533e-01 -9.58394405463832421699e-02
9.53271775217216730118e+08 9.90588797453706093599e-01 -9.60329794466968644784e-02 -9.41120254629393415691e-03 -9.60329794466968644784e-02 -9.41120254629393415691e-03 -9.60329794466968644784e-02 9.90588797453706093599e-01 -9.60329794466968644784e-02
9.53365606993888974190e+08 9.90550306187712337191e-01 -9.62272737426645707881e-02 -9.44969381228770617664e-03 -9.62272737426645707881e-02 -9.44969381228770617664e-03 -9.62272737426645707881e-02 9.90550306187712337191e-01 -9.62272737426645707881e-02
9.53459438770561218262e+08 9.90511583068179546352e-01 -9.64223278194639710215e-02 -9.48841693182044497445e-03 -9.64223278194639710215e-02 -9.48841693182044497445e-03 -9.64223278194639710215e-02 9.90511583068179546352e-01 -9.64223278194639710215e-02
9.53553270547233462334e+08 9.90472626243154796732e-01 -9.66181460958768223435e-02 -9.52737375684522755370e-03 -9.66181460958768223435e-02 -9.52737375684522755370e-03 -9.66181460958768223435e-02 9.90472626243154796732e-01 -9.66181460958768223435e-02
9.53647102323905825615e+08 9.90433433842251687018e-01 -9.68147330246060672243e-02 -9.56656615774831645127e-03 -9.68147330246060672243e-02 -9.56656615774831645127e-03 -9.68147330246060672243e-02 9.90433433842251687018e-01 -9.68147330246060672243e-02
9.53740934100578069687e+08 9.90394003976430958858e-01 -9.70120930925989360949e-02 -9.60599602356907236733e-03 -9.70120930925989360949e-02 -9.60599602356907236733e-03 -9.70120930925989360949e-02 9.90394003976430958858e-01 -9.70120930925989360949e-02
9.53834765877250313759e+08 9.90354334737777453057e-01 -9.72102308213720067709e-02 -9.64566526222255388179e-03 -9.72102308213720067709e-02 -9.64566526222255388179e-03 -9.72102308213720067709e-02 9.90354334737777453057e-01 -9.72102308213720067709e-02
9.53928597653922557831e+08 9.90314424199274845328e-01 -9.74091507673393031119e-02 -9.68557580072510262981e-03 -9.74091507673393031119e-02 -9.68557580072510262981e-03 -9.74091507673393031119e-02 9.90314424199274845328e-01 -9.74091507673393031119e-02
9.54022429430594801903e+08 9.90274270414576274213e-01 -9.76088575221472631860e-02 -9.72572958542370497037e-03 -9.76088575221472631860e-02 -9.72572958542370497037e-03 -9.76088575221472631860e-02 9.90274270414576274213e-01 -9.76088575221472631860e-02
9.54116261207267045975e+08 9.90233871417772304468e-01 -9.78093557130090968110e-02 -9.76612858222765910232e-03 -9.78093557130090968110e-02 -9.76612858222765910232e-03 -9.78093557130090968110e-02 9.90233871417772304468e-01 -9.78093557130090968110e-02
9.54210092983939290047e+08 9.90193225223155670811e-01 -9.80106500030469424134e-02 -9.80677477684431184168e-03 -9.80106500030469424134e-02 -9.80677477684431184168e-03 -9.80106500030469424134e-02 9.90193225223155670811e-01 -9.80106500030469424134e-02
9.54303924760611534119e+08 9.90152329824982690987e-01 -9.82127450916340377640e-02 -9.84767017501730554385e-03 -9.82127450916340377640e-02 -9.84767017501730554385e-03 -9.82127450916340377640e-02 9.90152329824982690987e-01 -9.82127450916340377640e-02
9.54397756537283778191e+08 9.90111183197230904085e-01 -9.84156457147457169876e-02 -9.88881680276914622196e-03 -9.84156457147457169876e-02 -9.88881680276914622196e-03 -9.84156457147457169876e-02 9.90111183197230904085e-01 -9.84156457147457169876e-02
9.54491588313956022263e+08 9.90069783293353933296e-01 -9.86193566453087006041e-02 -9.93021670664607017387e-03 -9.86193566453087006041e-02 -9.93021670664607017387e-03 -9.86193566453087006041e-02 9.90069783293353933296e-01 -9.86193566453087006041e-02
9.54585420090628385544e+08 9.90028128046032684928e-01 -9.88238826935592812317e-02 -9.97187195396733241926e-03 -9.88238826935592812317e-02 -9.97187195396733241926e-03 -9.88238826935592812317e-02 9.90028128046032684928e-01 -9.88238826935592812317e-02
9.54679251867300629616e+08 9.89986215366922772674e-01 -9.90292287074019811355e-02 -1.00137846330772828374e-02 -9.90292287074019811355e-02 -1.00137846330772828374e-02 -9.90292287074019811355e-02 9.89986215366922772674e-01 -9.90292287074019811355e-02
9.54773083643972873688e+08 9.89944043146398389155e-01 -9.92353995727750654021e-02 -1.00559568536015605383e-02 -9.92353995727750654021e-02 -1.00559568536015605383e-02 -9.92353995727750654021e-02 9.89944043146398389155e-01 -9.92353995727750654021e-02
9.54866915420645117760e+08 9.89901609253293401913e-01 -9.94424002140183033172e-02 -1.00983907467065495145e-02 -9.94424002140183033172e-02 -1.00983907467065495145e-02 -9.94424002140183033172e-02 9.89901609253293401913e-01 -9.94424002140183033172e-02
9.54960747197317361832e+08 9.89858911534637342378e-01 -9.96502355942458506455e-02 -1.01410884653626853780e-02 -9.96502355942458506455e-02 -1.01410884653626853780e-02 -9.96502355942458506455e-02 9.89858911534637342378e-01 -9.96502355942458506455e-02
9.55054578973989605904e+08 9.89815947815388508246e-01 -9.98589107157231564704e-02 -1.01840521846114535898e-02 -9.98589107157231564704e-02 -1.01840521846114535898e-02 -9.98589107157231564704e-02 9.89815947815388508246e-01 -9.98589107157231564704e-02
9.55148410750661849976e+08 9.89772715898163735204e-01 -1.00068430620248630114e-01 -1.02272841018362769389e-02 -1.00068430620248630114e-01 -1.02272841018362769389e-02 -1.00068430620248630114e-01 9.89772715898163735204e-01 -1.00068430620248630114e-01
9.55242242527334094048e+08 9.89729213562962950590e-01 -1.00278800389538486071e-01 -1.02707864370370528795e-02 -1.00278800389538486071e-01 -1.02707864370370528795e-02 -1.00278800389538486071e-01 9.89729213562962950590e-01 -1.00278800389538486071e-01
9.55336074304006338120e+08 9.89685438566891173551e-01 -1.00490025145617459246e-01 -1.03145614331088542048e-02 -1.00490025145617459246e-01 -1.03145614331088542048e-02 -1.00490025145617459246e-01 9.89685438566891173551e-01 -1.00490025145617459246e-01
9.55429906080678582191e+08 9.89641388643875297149e-01 -1.00702110051213794550e-01 -1.03586113561246664222e-02 -1.00702110051213794550e-01 -1.03586113561246664222e-02 -1.00702110051213794550e-01 9.89641388643875297149e-01 -1.00702110051213794550e-01
9.55523737857350945473e+08 9.89597061504377983887e-01 -1.00915060310158274937e-01 -1.04029384956219623365e-02 -1.00915060310158274937e-01 -1.04029384956219623365e-02 -1.00915060310158274937e-01 9.89597061504377983887e-01 -1.00915060310158274937e-01
9.55617569634023189545e+08 9.89552454835106787279e-01 -1.01128881167786510709e-01 -1.04475451648932283338e-02 -1.01128881167786510709e-01 -1.04475451648932283338e-02 -1.01128881167786510709e-01 9.89552454835106787279e-01 -1.01128881167786510709e-01
9.55711401410695433617e+08 9.89507566298718499453e-01 -1.01343577911350402054e-01 -1.04924337012815439146e-02 -1.01343577911350402054e-01 -1.04924337012815439146e-02 -1.01343577911350402054e-01 9.89507566298718499453e-01 -1.01343577911350402054e-01
9.55805233187367677689e+08 9.89462393533520723210e-01 -1.01559155870428727275e-01 -1.05376064664792767900e-02 -1.01559155870428727275e-01 -1.05376064664792767900e-02 -1.01559155870428727275e-01 9.89462393533520723210e-01 -1.01559155870428727275e-01
9.55899064964039921761e+08 9.89416934153167892951e-01 -1.01775620417347112401e-01 -1.05830658468320792931e-02 -1.01775620417347112401e-01 -1.05830658468320792931e-02 -1.01775620417347112401e-01 9.89416934153167892951e-01 -1.01775620417347112401e-01
9.55992896740712165833e+08 9.89371185746353298818e-01 -1.01992976967600054716e-01 -1.06288142536466751614e-02 -1.01992976967600054716e-01 -1.06288142536466751614e-02 -1.01992976967600054716e-01 9.89371185746353298818e-01 -1.01992976967600054716e-01
9.56086728517384409904e+08 9.89325145876496669928e-01 -1.02211230980278802716e-01 -1.06748541235033179292e-02 -1.02211230980278802716e-01 -1.06748541235033179292e-02 -1.02211230980278802716e-01 9.89325145876496669928e-01 -1.02211230980278802716e-01
9.56180560294056653976e+08 9.89278812081427094682e-01 -1.02430387958504814927e-01 -1.07211879185729469510e-02 -1.02430387958504814927e-01 -1.07211879185729469510e-02 -1.02430387958504814927e-01 9.89278812081427094682e-01 -1.02430387958504814927e-01
9.56274392070728898048e+08 9.89232181873061278132e-01 -1.02650453449867423705e-01 -1.07678181269387530927e-02 -1.02650453449867423705e-01 -1.07678181269387530927e-02 -1.02650453449867423705e-01 9.89232181873061278132e-01 -1.02650453449867423705e-01
9.56368223847401142120e+08 9.89185252737077358454e-01 -1.02871433046867313821e-01 -1.08147472629226068519e-02 -1.02871433046867313821e-01 -1.08147472629226068519e-02 -1.02871433046867313821e-01 9.89185252737077358454e-01 -1.02871433046867313821e-01
9.56462055624073386192e+08 9.89138022132583949464e-01 -1.03093332387364261526e-01 -1.08619778674160782916e-02 -1.03093332387364261526e-01 -1.08619778674160782916e-02 -1.03093332387364261526e-01 9.89138022132583949464e-01 -1.03093332387364261526e-01
9.56555887400745749474e+08 9.89090487491783298957e-01 -1.03316157155032103954e-01 -1.09095125082167045127e-02 -1.03316157155032103954e-01 -1.09095125082167045127e-02 -1.03316157155032103954e-01 9.89090487491783298957e-01 -1.03316157155032103954e-01
9.56649719177417993546e+08 9.89042646219631449434e-01 -1.03539913079815998342e-01 -1.09573537803685817915e-02 -1.03539913079815998342e-01 -1.09573537803685817915e-02 -1.03539913079815998342e-01 9.89042646219631449434e-01 -1.03539913079815998342e-01
9.56743550954090237617e+08 9.88994495693491404431e-01 -1.03764605938397994067e-01 -1.10055043065085660786e-02 -1.03764605938397994067e-01 -1.10055043065085660786e-02 -1.03764605938397994067e-01 9.88994495693491404431e-01 -1.03764605938397994067e-01
9.56837382730762481689e+08 9.88946033262782520090e-01 -1.03990241554667392498e-01 -1.10539667372174660320e-02 -1.03990241554667392498e-01 -1.10539667372174660320e-02 -1.03990241554667392498e-01 9.88946033262782520090e-01 -1.03990241554667392498e-01
9.56931214507434725761e+08 9.88897256248624012542e-01 -1.04216825800194909379e-01 -1.11027437513760394994e-02 -1.04216825800194909379e-01 -1.11027437513760394994e-02 -1.04216825800194909379e-01 9.88897256248624012542e-01 -1.04216825800194909379e-01
9.57025046284106969833e+08 9.88848161943473025204e-01 -1.04444364594715705108e-01 -1.11518380565269505100e-02 -1.04444364594715705108e-01 -1.11518380565269505100e-02 -1.04444364594715705108e-01 9.88848161943473025204e-01 -1.04444364594715705108e-01
9.57118878060779213905e+08 9.88798747610758699267e-01 -1.04672863906614024843e-01 -1.12012523892412504262e-02 -1.04672863906614024843e-01 -1.12012523892412504262e-02 -1.04672863906614024843e-01 9.88798747610758699267e-01 -1.04672863906614024843e-01
9.57212709837451457977e+08 9.88749010484508694674e-01 -1.04902329753418122049e-01 -1.12509895154912515497e-02 -1.04902329753418122049e-01 -1.12509895154912515497e-02 -1.04902329753418122049e-01 9.88749010484508694674e-01 -1.04902329753418122049e-01
9.57306541614123702049e+08 9.88698947768971825312e-01 -1.05132768202297499638e-01 -1.13010522310282145869e-02 -1.05132768202297499638e-01 -1.13010522310282145869e-02 -1.05132768202297499638e-01 9.88698947768971825312e-01 -1.05132768202297499638e-01
9.57400373390795946121e+08 9.88648556638233810823e-01 -1.05364185370568644307e-01 -1.13514433617662412190e-02 -1.05364185370568644307e-01 -1.13514433617662412190e-02 -1.05364185370568644307e-01 9.88648556638233810823e-01 -1.05364185370568644307e-01
9.57494205167468309402e+08 9.88597834235828698546e-01 -1.05596587426203869509e-01 -1.14021657641712546166e-02 -1.05596587426203869509e-01 -1.14021657641712546166e-02 -1.05596587426203869509e-01 9.88597834235828698546e-01 -1.05596587426203869509e-01
9.57588036944140553474e+08 9.88546777674343402076e-01 -1.05829980588349775728e-01 -1.14532223256565944547e-02 -1.05829980588349775728e-01 -1.14532223256565944547e-02 -1.05829980588349775728e-01 9.88546777674343402076e-01 -1.05829980588349775728e-01
9.57681868720812797546e+08 9.88495384035015800528e-01 -1.06064371127850248788e-01 -1.15046159649842185541e-02 -1.06064371127850248788e-01 -1.15046159649842185541e-02 -1.06064371127850248788e-01 9.88495384035015800528e-01 -1.06064371127850248788e-01
9.57775700497485041618e+08 9.88443650367328396911e-01 -1.06299765367774148861e-01 -1.15563496326715701296e-02 -1.06299765367774148861e-01 -1.15563496326715701296e-02 -1.06299765367774148861e-01 9.88443650367328396911e-01 -1.06299765367774148861e-01
9.57869532274157285690e+08 9.88391573688594760050e-01 -1.06536169683952366971e-01 -1.16084263114052642363e-02 -1.06536169683952366971e-01 -1.16084263114052642363e-02 -1.06536169683952366971e-01 9.88391573688594760050e-01 -1.06536169683952366971e-01
9.57963364050829529762e+08 9.88339150983539194151e-01 -1.06773590505520432625e-01 -1.16608490164608526868e-02 -1.06773590505520432625e-01 -1.16608490164608526868e-02 -1.06773590505520432625e-01 9.88339150983539194151e-01 -1.06773590505520432625e-01
9.58057195827501773834e+08 9.88286379203871523380e-01 -1.07012034315465812129e-01 -1.17136207961285043755e-02 -1.07012034315465812129e-01 -1.17136207961285043755e-02 -1.07012034315465812129e-01 9.88286379203871523380e-01 -1.07012034315465812129e-01
9.58151027604174017906e+08 9.88233255267854437953e-01 -1.07251507651183464187e-01 -1.17667447321455620468e-02 -1.07251507651183464187e-01 -1.17667447321455620468e-02 -1.07251507651183464187e-01 9.88233255267854437953e-01 -1.07251507651183464187e-01
9.58244859380846261978e+08 9.88179776059864067861e-01 -1.07492017105039250335e-01 -1.18202239401358939752e-02 -1.07492017105039250335e-01 -1.18202239401358939752e-02 -1.07492017105039250335e-01 9.88179776059864067861e-01 -1.07492017105039250335e-01
9.58338691157518506050e+08 9.88125938429944450370e-01 -1.07733569324938063816e-01 -1.18740615700555079970e-02 -1.07733569324938063816e-01 -1.18740615700555079970e-02 -1.07733569324938063816e-01 9.88125938429944450370e-01 -1.07733569324938063816e-01
9.58432522934190750122e+08 9.88071739193354781072e-01 -1.07976171014899827161e-01 -1.19282608066451894374e-02 -1.07976171014899827161e-01 -1.19282608066451894374e-02 -1.07976171014899827161e-01 9.88071739193354781072e-01 -1.07976171014899827161e-01
9.58526354710863113403e+08 9.88017175130110003600e-01 -1.08219828935642276013e-01 -1.19828248698900258901e-02 -1.08219828935642276013e-01 -1.19828248698900258901e-02 -1.08219828935642276013e-01 9.88017175130110003600e-01 -1.08219828935642276013e-01
9.58620186487535357475e+08 9.87962242984514071864e-01 -1.08464549905170695721e-01 -1.20377570154859385443e-02 -1.08464549905170695721e-01 -1.20377570154859385443e-02 -1.08464549905170695721e-01 9.87962242984514071864e-01 -1.08464549905170695721e-01
9.58714018264207601547e+08 9.87906939464686217889e-01 -1.08710340799376595222e-01 -1.20930605353138098668e-02 -1.08710340799376595222e-01 -1.20930605353138098668e-02 -1.08710340799376595222e-01 9.87906939464686217889e-01 -1.08710340799376595222e-01
9.58807850040879845619e+08 9.87851261242079670133e-01 -1.08957208552641016119e-01 -1.21487387579203021115e-02 -1.08957208552641016119e-01 -1.21487387579203021115e-02 -1.08957208552641016119e-01 9.87851261242079670133e-01 -1.08957208552641016119e-01
9.58901681817552089691e+08 9.87795204950993377402e-01 -1.09205160158447389662e-01 -1.22047950490065792301e-02 -1.09205160158447389662e-01 -1.22047950490065792301e-02 -1.09205160158447389662e-01 9.87795204950993377402e-01 -1.09205160158447389662e-01
9.58995513594224333763e+08 9.87738767188075628134e-01 -1.09454202670000833031e-01 -1.22612328119244030911e-02 -1.09454202670000833031e-01 -1.22612328119244030911e-02 -1.09454202670000833031e-01 9.87738767188075628134e-01 -1.09454202670000833031e-01
9.59089345370896577835e+08 9.87681944511820009147e-01 -1.09704343200855730656e-01 -1.23180554881800029959e-02 -1.09704343200855730656e-01 -1.23180554881800029959e-02 -1.09704343200855730656e-01 9.87681944511820009147e-01 -1.09704343200855730656e-01
9.59183177147568821907e+08 9.87624733442054369981e-01 -1.09955588925549907486e-01 -1.23752665579456039985e-02 -1.09955588925549907486e-01 -1.23752665579456039985e-02 -1.09955588925549907486e-01 9.87624733442054369981e-01 -1.09955588925549907486e-01
9.59277008924241065979e+08 9.87567130459420794431e-01 -1.10207947080248225280e-01 -1.24328695405792541417e-02 -1.10207947080248225280e-01 -1.24328695405792541417e-02 -1.10207947080248225280e-01 9.87567130459420794431e-01 -1.10207947080248225280e-01
9.59370840700913310051e+08 9.87509132004847356434e-01 -1.10461424963393756160e-01 -1.24908679951526487700e-02 -1.10461424963393756160e-01 -1.24908679951526487700e-02 -1.10461424963393756160e-01 9.87509132004847356434e-01 -1.10461424963393756160e-01
9.59464672477585673332e+08 9.87450734479012770528e-01 -1.10716029936366477937e-01 -1.25492655209871965122e-02 -1.10716029936366477937e-01 -1.25492655209871965122e-02 -1.10716029936366477937e-01 9.87450734479012770528e-01 -1.10716029936366477937e-01
9.59558504254257917404e+08 9.87391934241801827454e-01 -1.10971769424149060979e-01 -1.26080657581981239734e-02 -1.10971769424149060979e-01 -1.26080657581981239734e-02 -1.10971769424149060979e-01 9.87391934241801827454e-01 -1.10971769424149060979e-01
9.59652336030930161476e+08 9.87332727611751947983e-01 -1.11228650916004298543e-01 -1.26672723882480173230e-02 -1.11228650916004298543e-01 -1.26672723882480173230e-02 -1.11228650916004298543e-01 9.87332727611751947983e-01 -1.11228650916004298543e-01
9.59746167807602405548e+08 9.87273110865491521082e-01 -1.11486681966158684975e-01 -1.27268891345084754485e-02 -1.11486681966158684975e-01 -1.27268891345084754485e-02 -1.11486681966158684975e-01 9.87273110865491521082e-01 -1.11486681966158684975e-01
9.59839999584274649620e+08 9.87213080237169471332e-01 -1.11745870194493682193e-01 -1.27869197628305199949e-02 -1.11745870194493682193e-01 -1.27869197628305199949e-02 -1.11745870194493682193e-01 9.87213080237169471332e-01 -1.11745870194493682193e-01
9.59933831360946893692e+08 9.87152631917875611478e-01 -1.12006223287247450027e-01 -1.28473680821243746442e-02 -1.12006223287247450027e-01 -1.28473680821243746442e-02 -1.12006223287247450027e-01 9.87152631917875611478e-01 -1.12006223287247450027e-01
9.60027663137619137764e+08 9.87091762055051447078e-01 -1.12267748997725402837e-01 -1.29082379449485130235e-02 -1.12267748997725402837e-01 -1.29082379449485130235e-02 -1.12267748997725402837e-01 9.87091762055051447078e-01 -1.12267748997725402837e-01
9.60121494914291381836e+08 9.87030466751892432420e-01 -1.12530455147017760531e-01 -1.29695332481075918662e-02 -1.12530455147017760531e-01 -1.29695332481075918662e-02 -1.12530455147017760531e-01 9.87030466751892432420e-01 -1.12530455147017760531e-01
9.60215326690963625908e+08 9.86968742066739457286e-01 -1.12794349624728715287e-01 -1.30312579332605166932e-02 -1.12794349624728715287e-01 -1.30312579332605166932e-02 -1.12794349624728715287e-01 9.86968742066739457286e-01 -1.12794349624728715287e-01
9.60309158467635869980e+08 9.86906584012462229083e-01 -1.13059440389712884123e-01 -1.30934159875378142851e-02 -1.13059440389712884123e-01 -1.30934159875378142851e-02 -1.13059440389712884123e-01 9.86906584012462229083e-01 -1.13059440389712884123e-01
9.60402990244308233261e+08 9.86843988555831108656e-01 -1.13325735470821475914e-01 -1.31560114441689225695e-02 -1.13325735470821475914e-01 -1.31560114441689225695e-02 -1.13325735470821475914e-01 9.86843988555831108656e-01 -1.13325735470821475914e-01
