! File generated for n1 = 10, n2 = 1
! b1 = 0.100000
! b2 = 0.100000
! Q0 = 10000.000000
! f0 = 1000000000.000000
! n = 1001
! rel_span = 10.000000
# Hz S RI R 50
9.99400000000000000000e+08 9.98350815432417770801e-01 -1.64967961998408706170e-02 -1.64918456758221402061e-03 -1.64967961998408706170e-02 -1.64918456758221402061e-03 -1.64967961998408706170e-02 9.98350815432417770801e-01 -1.64967961998408706170e-02
9.99401200000000000000e+08 9.98344262613960142794e-01 -1.65292094401128901449e-02 -1.65573738603988452819e-03 -1.65292094401128901449e-02 -1.65573738603988452819e-03 -1.65292094401128901449e-02 9.98344262613960142794e-01 -1.65292094401128901449e-02
9.99402400000000000000e+08 9.98337670802235011003e-01 -1.65617489394212398512e-02 -1.66232919776497555311e-03 -1.65617489394212398512e-02 -1.66232919776497555311e-03 -1.65617489394212398512e-02 9.98337670802235011003e-01 -1.65617489394212398512e-02
9.99403600000000000000e+08 9.98331039688323151893e-01 -1.65944154288180829859e-02 -1.66896031167689017430e-03 -1.65944154288180829859e-02 -1.66896031167689017430e-03 -1.65944154288180829859e-02 9.98331039688323151893e-01 -1.65944154288180829859e-02
9.99404800000000000000e+08 9.98324368960251340432e-01 -1.66272096449387209172e-02 -1.67563103974867561377e-03 -1.66272096449387209172e-02 -1.67563103974867561377e-03 -1.66272096449387209172e-02 9.98324368960251340432e-01 -1.66272096449387209172e-02
9.99406000000000000000e+08 9.98317658302953714333e-01 -1.66601323300695457197e-02 -1.68234169704629542459e-03 -1.66601323300695457197e-02 -1.68234169704629542459e-03 -1.66601323300695457197e-02 9.98317658302953714333e-01 -1.66601323300695457197e-02
9.99407200000000000000e+08 9.98310907398239688604e-01 -1.66931842321770933235e-02 -1.68909260176036625685e-03 -1.66931842321770933235e-02 -1.68909260176036625685e-03 -1.66931842321770933235e-02 9.98310907398239688604e-01 -1.66931842321770933235e-02
9.99408400000000000000e+08 9.98304115924752988320e-01 -1.67263661049802461744e-02 -1.69588407524705201204e-03 -1.67263661049802461744e-02 -1.69588407524705201204e-03 -1.67263661049802461744e-02 9.98304115924752988320e-01 -1.67263661049802461744e-02
9.99409600000000000000e+08 9.98297283557933567977e-01 -1.67596787080079370758e-02 -1.70271644206642812011e-03 -1.67596787080079370758e-02 -1.70271644206642812011e-03 -1.67596787080079370758e-02 9.98297283557933567977e-01 -1.67596787080079370758e-02
9.99410800000000000000e+08 9.98290409969983083549e-01 -1.67931228066359426732e-02 -1.70959003001693835185e-03 -1.67931228066359426732e-02 -1.70959003001693835185e-03 -1.67931228066359426732e-02 9.98290409969983083549e-01 -1.67931228066359426732e-02
9.99412000000000000000e+08 9.98283494829822370953e-01 -1.68266991721595822462e-02 -1.71650517017761538620e-03 -1.68266991721595822462e-02 -1.71650517017761538620e-03 -1.68266991721595822462e-02 9.98283494829822370953e-01 -1.68266991721595822462e-02
9.99413200000000000000e+08 9.98276537803053587439e-01 -1.68604085818456032875e-02 -1.72346219694645896511e-03 -1.68604085818456032875e-02 -1.72346219694645896511e-03 -1.68604085818456032875e-02 9.98276537803053587439e-01 -1.68604085818456032875e-02
9.99414400000000000000e+08 9.98269538551921020719e-01 -1.68942518189830123698e-02 -1.73046144807899099013e-03 -1.68942518189830123698e-02 -1.73046144807899099013e-03 -1.68942518189830123698e-02 9.98269538551921020719e-01 -1.68942518189830123698e-02
9.99415600000000000000e+08 9.98262496735270343784e-01 -1.69282296729454592721e-02 -1.73750326472962412366e-03 -1.69282296729454592721e-02 -1.73750326472962412366e-03 -1.69282296729454592721e-02 9.98262496735270343784e-01 -1.69282296729454592721e-02
9.99416800000000000000e+08 9.98255412008507092558e-01 -1.69623429392511716751e-02 -1.74458799149295341185e-03 -1.69623429392511716751e-02 -1.74458799149295341185e-03 -1.69623429392511716751e-02 9.98255412008507092558e-01 -1.69623429392511716751e-02
9.99418000000000000000e+08 9.98248284023554699473e-01 -1.69965924196220606601e-02 -1.75171597644532828220e-03 -1.69965924196220606601e-02 -1.75171597644532828220e-03 -1.69965924196220606601e-02 9.98248284023554699473e-01 -1.69965924196220606601e-02
9.99419200000000000000e+08 9.98241112428813304192e-01 -1.70309789220418512923e-02 -1.75888757118665287407e-03 -1.70309789220418512923e-02 -1.75888757118665287407e-03 -1.70309789220418512923e-02 9.98241112428813304192e-01 -1.70309789220418512923e-02
9.99420400000000000000e+08 9.98233896869117898198e-01 -1.70655032608117152026e-02 -1.76610313088212218455e-03 -1.70655032608117152026e-02 -1.76610313088212218455e-03 -1.70655032608117152026e-02 9.98233896869117898198e-01 -1.70655032608117152026e-02
9.99421600000000000000e+08 9.98226636985692472592e-01 -1.71001662566208703642e-02 -1.77336301430753412976e-03 -1.71001662566208703642e-02 -1.77336301430753412976e-03 -1.71001662566208703642e-02 9.98226636985692472592e-01 -1.71001662566208703642e-02
9.99422800000000000000e+08 9.98219332416107718586e-01 -1.71349687366036257385e-02 -1.78066758389225062234e-03 -1.71349687366036257385e-02 -1.78066758389225062234e-03 -1.71349687366036257385e-02 9.98219332416107718586e-01 -1.71349687366036257385e-02
9.99424000000000000000e+08 9.98211982794237284722e-01 -1.71699115343970573622e-02 -1.78801720576274888845e-03 -1.71699115343970573622e-02 -1.78801720576274888845e-03 -1.71699115343970573622e-02 9.98211982794237284722e-01 -1.71699115343970573622e-02
9.99425200000000000000e+08 9.98204587750209482166e-01 -1.72049954902170655624e-02 -1.79541224979052563976e-03 -1.72049954902170655624e-02 -1.79541224979052563976e-03 -1.72049954902170655624e-02 9.98204587750209482166e-01 -1.72049954902170655624e-02
9.99426400000000000000e+08 9.98197146910365429306e-01 -1.72402214509062186309e-02 -1.80285308963455139473e-03 -1.72402214509062186309e-02 -1.80285308963455139473e-03 -1.72402214509062186309e-02 9.98197146910365429306e-01 -1.72402214509062186309e-02
9.99427600000000000000e+08 9.98189659897210201933e-01 -1.72755902700080336831e-02 -1.81034010278979156164e-03 -1.72755902700080336831e-02 -1.81034010278979156164e-03 -1.72755902700080336831e-02 9.98189659897210201933e-01 -1.72755902700080336831e-02
9.99428800000000000000e+08 9.98182126329364205475e-01 -1.73111028078390474794e-02 -1.81787367063578390002e-03 -1.73111028078390474794e-02 -1.81787367063578390002e-03 -1.73111028078390474794e-02 9.98182126329364205475e-01 -1.73111028078390474794e-02
9.99430000000000000000e+08 9.98174545821519654254e-01 -1.73467599315353313005e-02 -1.82545417848030584740e-03 -1.73467599315353313005e-02 -1.82545417848030584740e-03 -1.73467599315353313005e-02 9.98174545821519654254e-01 -1.73467599315353313005e-02
9.99431200000000000000e+08 9.98166917984388279983e-01 -1.73825625151374160704e-02 -1.83308201561171741495e-03 -1.73825625151374160704e-02 -1.83308201561171741495e-03 -1.73825625151374160704e-02 9.98166917984388279983e-01 -1.73825625151374160704e-02
9.99432400000000000000e+08 9.98159242424654258308e-01 -1.74185114396464939268e-02 -1.84075757534573128393e-03 -1.74185114396464939268e-02 -1.84075757534573128393e-03 -1.74185114396464939268e-02 9.98159242424654258308e-01 -1.74185114396464939268e-02
9.99433600000000000000e+08 9.98151518744921140147e-01 -1.74546075931095549805e-02 -1.84848125507889519785e-03 -1.74546075931095549805e-02 -1.84848125507889519785e-03 -1.74546075931095549805e-02 9.98151518744921140147e-01 -1.74546075931095549805e-02
9.99434800000000000000e+08 9.98143746543666776638e-01 -1.74908518706603580140e-02 -1.85625345633319213667e-03 -1.74908518706603580140e-02 -1.85625345633319213667e-03 -1.74908518706603580140e-02 9.98143746543666776638e-01 -1.74908518706603580140e-02
9.99436000000000000000e+08 9.98135925415185809584e-01 -1.75272451746212309942e-02 -1.86407458481420147504e-03 -1.75272451746212309942e-02 -1.86407458481420147504e-03 -1.75272451746212309942e-02 9.98135925415185809584e-01 -1.75272451746212309942e-02
9.99437200000000000000e+08 9.98128054949542486973e-01 -1.75637884145472059072e-02 -1.87194505045749025850e-03 -1.75637884145472059072e-02 -1.87194505045749025850e-03 -1.75637884145472059072e-02 9.98128054949542486973e-01 -1.75637884145472059072e-02
9.99438400000000000000e+08 9.98120134732514596720e-01 -1.76004825073162347870e-02 -1.87986526748545857389e-03 -1.76004825073162347870e-02 -1.87986526748545857389e-03 -1.76004825073162347870e-02 9.98120134732514596720e-01 -1.76004825073162347870e-02
9.99439600000000000000e+08 9.98112164345540064936e-01 -1.76373283771967988287e-02 -1.88783565445993094419e-03 -1.76373283771967988287e-02 -1.88783565445993094419e-03 -1.76373283771967988287e-02 9.98112164345540064936e-01 -1.76373283771967988287e-02
9.99440800000000000000e+08 9.98104143365665663623e-01 -1.76743269559110731393e-02 -1.89585663433436760195e-03 -1.76743269559110731393e-02 -1.89585663433436760195e-03 -1.76743269559110731393e-02 9.98104143365665663623e-01 -1.76743269559110731393e-02
9.99442000000000000000e+08 9.98096071365486503524e-01 -1.77114791827297467230e-02 -1.90392863451353876007e-03 -1.77114791827297467230e-02 -1.90392863451353876007e-03 -1.77114791827297467230e-02 9.98096071365486503524e-01 -1.77114791827297467230e-02
9.99443200000000000000e+08 9.98087947913096407149e-01 -1.77487860045197308467e-02 -1.91205208690360803012e-03 -1.77487860045197308467e-02 -1.91205208690360803012e-03 -1.77487860045197308467e-02 9.98087947913096407149e-01 -1.77487860045197308467e-02
9.99444400000000000000e+08 9.98079772572024292998e-01 -1.77862483758512018861e-02 -1.92022742797571936181e-03 -1.77862483758512018861e-02 -1.92022742797571936181e-03 -1.77862483758512018861e-02 9.98079772572024292998e-01 -1.77862483758512018861e-02
9.99445600000000000000e+08 9.98071544901181550991e-01 -1.78238672590504479420e-02 -1.92845509881845724939e-03 -1.78238672590504479420e-02 -1.92845509881845724939e-03 -1.78238672590504479420e-02 9.98071544901181550991e-01 -1.78238672590504479420e-02
9.99446800000000000000e+08 9.98063264454800980197e-01 -1.78616436242898038445e-02 -1.93673554519902002026e-03 -1.78616436242898038445e-02 -1.93673554519902002026e-03 -1.78616436242898038445e-02 9.98063264454800980197e-01 -1.78616436242898038445e-02
9.99448000000000000000e+08 9.98054930782379279286e-01 -1.78995784496577270417e-02 -1.94506921762072331611e-03 -1.78995784496577270417e-02 -1.94506921762072331611e-03 -1.78995784496577270417e-02 9.98054930782379279286e-01 -1.78995784496577270417e-02
9.99449200000000000000e+08 9.98046543428613652793e-01 -1.79376727212525489963e-02 -1.95345657138636325315e-03 -1.79376727212525489963e-02 -1.95345657138636325315e-03 -1.79376727212525489963e-02 9.98046543428613652793e-01 -1.79376727212525489963e-02
9.99450400000000000000e+08 9.98038101933345633832e-01 -1.79759274332402553542e-02 -1.96189806665437137256e-03 -1.79759274332402553542e-02 -1.96189806665437137256e-03 -1.79759274332402553542e-02 9.98038101933345633832e-01 -1.79759274332402553542e-02
9.99451600000000000000e+08 9.98029605831491695156e-01 -1.80143435879696681146e-02 -1.97039416850829270100e-03 -1.80143435879696681146e-02 -1.97039416850829270100e-03 -1.80143435879696681146e-02 9.98029605831491695156e-01 -1.80143435879696681146e-02
9.99452800000000000000e+08 9.98021054652987960054e-01 -1.80529221960196752106e-02 -1.97894534701200308299e-03 -1.80529221960196752106e-02 -1.97894534701200308299e-03 -1.80529221960196752106e-02 9.98021054652987960054e-01 -1.80529221960196752106e-02
9.99454000000000000000e+08 9.98012447922721257498e-01 -1.80916642763058570231e-02 -1.98755207727874033327e-03 -1.80916642763058570231e-02 -1.98755207727874033327e-03 -1.80916642763058570231e-02 9.98012447922721257498e-01 -1.80916642763058570231e-02
9.99455200000000000000e+08 9.98003785160465950455e-01 -1.81305708561561758352e-02 -1.99621483953405474965e-03 -1.81305708561561758352e-02 -1.99621483953405474965e-03 -1.81305708561561758352e-02 9.98003785160465950455e-01 -1.81305708561561758352e-02
9.99456400000000000000e+08 9.97995065880818321702e-01 -1.81696429713965393327e-02 -2.00493411918167179289e-03 -1.81696429713965393327e-02 -2.00493411918167179289e-03 -1.81696429713965393327e-02 9.97995065880818321702e-01 -1.81696429713965393327e-02
9.99457600000000000000e+08 9.97986289593128406139e-01 -1.82088816664428866654e-02 -2.01371040687157781476e-03 -1.82088816664428866654e-02 -2.01371040687157781476e-03 -1.82088816664428866654e-02 9.97986289593128406139e-01 -1.82088816664428866654e-02
9.99458800000000000000e+08 9.97977455801433266380e-01 -1.82482879943834039316e-02 -2.02254419856667940966e-03 -1.82482879943834039316e-02 -2.02254419856667940966e-03 -1.82482879943834039316e-02 9.97977455801433266380e-01 -1.82482879943834039316e-02
9.99460000000000000000e+08 9.97968564004387492794e-01 -1.82878630170708877944e-02 -2.03143599561251674696e-03 -1.82878630170708877944e-02 -2.03143599561251674696e-03 -1.82878630170708877944e-02 9.97968564004387492794e-01 -1.82878630170708877944e-02
9.99461200000000000000e+08 9.97959613695194480698e-01 -1.83276078052052558698e-02 -2.04038630480555226165e-03 -1.83276078052052558698e-02 -2.04038630480555226165e-03 -1.83276078052052558698e-02 9.97959613695194480698e-01 -1.83276078052052558698e-02
9.99462400000000000000e+08 9.97950604361533377684e-01 -1.83675234384353298911e-02 -2.04939563846662448424e-03 -1.83675234384353298911e-02 -2.04939563846662448424e-03 -1.83675234384353298911e-02 9.97950604361533377684e-01 -1.83675234384353298911e-02
9.99463600000000000000e+08 9.97941535485487807300e-01 -1.84076110054472961985e-02 -2.05846451451222349147e-03 -1.84076110054472961985e-02 -2.05846451451222349147e-03 -1.84076110054472961985e-02 9.97941535485487807300e-01 -1.84076110054472961985e-02
9.99464800000000000000e+08 9.97932406543474925797e-01 -1.84478716040465846870e-02 -2.06759345652512320848e-03 -1.84478716040465846870e-02 -2.06759345652512320848e-03 -1.84478716040465846870e-02 9.97932406543474925797e-01 -1.84478716040465846870e-02
9.99466000000000000000e+08 9.97923217006167595500e-01 -1.84883063412687662086e-02 -2.07678299383242401591e-03 -1.84883063412687662086e-02 -2.07678299383242401591e-03 -1.84883063412687662086e-02 9.97923217006167595500e-01 -1.84883063412687662086e-02
9.99467200000000000000e+08 9.97913966338420221902e-01 -1.85289163334694736984e-02 -2.08603366157973429615e-03 -1.85289163334694736984e-02 -2.08603366157973429615e-03 -1.85289163334694736984e-02 9.97913966338420221902e-01 -1.85289163334694736984e-02
9.99468400000000000000e+08 9.97904653999194035663e-01 -1.85697027064133518559e-02 -2.09534600080601551148e-03 -1.85697027064133518559e-02 -2.09534600080601551148e-03 -1.85697027064133518559e-02 9.97904653999194035663e-01 -1.85697027064133518559e-02
9.99469600000000000000e+08 9.97895279441477378590e-01 -1.86106665953773911526e-02 -2.10472055852258194478e-03 -1.86106665953773911526e-02 -2.10472055852258194478e-03 -1.86106665953773911526e-02 9.97895279441477378590e-01 -1.86106665953773911526e-02
9.99470800000000000000e+08 9.97885842112206655763e-01 -1.86518091452555247189e-02 -2.11415788779333946659e-03 -1.86518091452555247189e-02 -2.11415788779333946659e-03 -1.86518091452555247189e-02 9.97885842112206655763e-01 -1.86518091452555247189e-02
9.99472000000000000000e+08 9.97876341452187731740e-01 -1.86931315106473629195e-02 -2.12365854781232290399e-03 -1.86931315106473629195e-02 -2.12365854781232290399e-03 -1.86931315106473629195e-02 9.97876341452187731740e-01 -1.86931315106473629195e-02
9.99473200000000000000e+08 9.97866776896013663034e-01 -1.87346348559652084442e-02 -2.13322310398636732359e-03 -1.87346348559652084442e-02 -2.13322310398636732359e-03 -1.87346348559652084442e-02 9.97866776896013663034e-01 -1.87346348559652084442e-02
9.99474400000000000000e+08 9.97857147871980876275e-01 -1.87763203555424140756e-02 -2.14285212801907428565e-03 -1.87763203555424140756e-02 -2.14285212801907428565e-03 -1.87763203555424140756e-02 9.97857147871980876275e-01 -1.87763203555424140756e-02
9.99475600000000000000e+08 9.97847453802007899881e-01 -1.88181891937257150804e-02 -2.15254619799207366423e-03 -1.88181891937257150804e-02 -2.15254619799207366423e-03 -1.88181891937257150804e-02 9.97847453802007899881e-01 -1.88181891937257150804e-02
9.99476800000000000000e+08 9.97837694101547101333e-01 -1.88602425649919379358e-02 -2.16230589845290820800e-03 -1.88602425649919379358e-02 -2.16230589845290820800e-03 -1.88602425649919379358e-02 9.97837694101547101333e-01 -1.88602425649919379358e-02
9.99478000000000000000e+08 9.97827868179502974755e-01 -1.89024816740349654864e-02 -2.17213182049706254179e-03 -1.89024816740349654864e-02 -2.17213182049706254179e-03 -1.89024816740349654864e-02 9.97827868179502974755e-01 -1.89024816740349654864e-02
9.99479200000000000000e+08 9.97817975438135995603e-01 -1.89449077359085601979e-02 -2.18202456186399528990e-03 -1.89449077359085601979e-02 -2.18202456186399528990e-03 -1.89449077359085601979e-02 9.97817975438135995603e-01 -1.89449077359085601979e-02
9.99480400000000000000e+08 9.97808015272981796429e-01 -1.89875219761003743990e-02 -2.19198472701825648051e-03 -1.89875219761003743990e-02 -2.19198472701825648051e-03 -1.89875219761003743990e-02 9.97808015272981796429e-01 -1.89875219761003743990e-02
9.99481600000000000000e+08 9.97797987072758574278e-01 -1.90303256306480449156e-02 -2.20201292724143049204e-03 -1.90303256306480449156e-02 -2.20201292724143049204e-03 -1.90303256306480449156e-02 9.97797987072758574278e-01 -1.90303256306480449156e-02
9.99482800000000000000e+08 9.97787890219268835956e-01 -1.90733199462806667090e-02 -2.21210978073116751319e-03 -1.90733199462806667090e-02 -2.21210978073116751319e-03 -1.90733199462806667090e-02 9.97787890219268835956e-01 -1.90733199462806667090e-02
9.99484000000000000000e+08 9.97777724087313577783e-01 -1.91165061804964772629e-02 -2.22227591268639793065e-03 -1.91165061804964772629e-02 -2.22227591268639793065e-03 -1.91165061804964772629e-02 9.97777724087313577783e-01 -1.91165061804964772629e-02
9.99485200000000000000e+08 9.97767488044595363128e-01 -1.91598856016871807451e-02 -2.23251195540458569760e-03 -1.91598856016871807451e-02 -2.23251195540458569760e-03 -1.91598856016871807451e-02 9.97767488044595363128e-01 -1.91598856016871807451e-02
9.99486400000000000000e+08 9.97757181451617514156e-01 -1.92034594892720872350e-02 -2.24281854838249798678e-03 -1.92034594892720872350e-02 -2.24281854838249798678e-03 -1.92034594892720872350e-02 9.97757181451617514156e-01 -1.92034594892720872350e-02
9.99487600000000000000e+08 9.97746803661592407408e-01 -1.92472291337875030248e-02 -2.25319633840759215790e-03 -1.92472291337875030248e-02 -2.25319633840759215790e-03 -1.92472291337875030248e-02 9.97746803661592407408e-01 -1.92472291337875030248e-02
9.99488800000000000000e+08 9.97736354020337223858e-01 -1.92911958370277948627e-02 -2.26364597966281387229e-03 -1.92911958370277948627e-02 -2.26364597966281387229e-03 -1.92911958370277948627e-02 9.97736354020337223858e-01 -1.92911958370277948627e-02
9.99490000000000000000e+08 9.97725831866173695772e-01 -1.93353609121598643550e-02 -2.27416813382634542748e-03 -1.93353609121598643550e-02 -2.27416813382634542748e-03 -1.93353609121598643550e-02 9.97725831866173695772e-01 -1.93353609121598643550e-02
9.99491200000000000000e+08 9.97715236529827520506e-01 -1.93797256838369701126e-02 -2.28476347017242875301e-03 -1.93797256838369701126e-02 -2.28476347017242875301e-03 -1.93797256838369701126e-02 9.97715236529827520506e-01 -1.93797256838369701126e-02
9.99492400000000000000e+08 9.97704567334323777494e-01 -1.94242914883241378499e-02 -2.29543266567621036256e-03 -1.94242914883241378499e-02 -2.29543266567621036256e-03 -1.94242914883241378499e-02 9.97704567334323777494e-01 -1.94242914883241378499e-02
9.99493600000000000000e+08 9.97693823594875683902e-01 -1.94690596736418058965e-02 -2.30617640512426579080e-03 -1.94690596736418058965e-02 -2.30617640512426579080e-03 -1.94690596736418058965e-02 9.97693823594875683902e-01 -1.94690596736418058965e-02
