! File generated for n1 = 7, n2 = 5
! b1 = 1.000000
! b2 = 0.046416
! Q0 = 10000.000000
! f0 = 1000000000.000000
! n = 1001
! rel_span = 10.000000
# Hz S RI R 50
9.98976792055831909180e+08 9.90333385290010581592e-01 -9.67156525390791832475e-02 -2.08260900663736168992e-03 -2.08367556899262396097e-02 -2.08260900663736168992e-03 -2.08367556899262396097e-02 9.99551315491032710270e-01 -4.48914292860963255044e-03
9.98978838471720218658e+08 9.90294967950630544706e-01 -9.69057233264999651201e-02 -2.09088577150328422741e-03 -2.08777051997243411063e-02 -2.09088577150328422741e-03 -2.08777051997243411063e-02 9.99549532316097888440e-01 -4.49796523305451539237e-03
9.98980884887608528137e+08 9.90256321987638687965e-01 -9.70965344998284685119e-02 -2.09921179183320070344e-03 -2.09188142208308024139e-02 -2.09921179183320070344e-03 -2.09188142208308024139e-02 9.99547738529395046747e-01 -4.50682190316901726962e-03
9.98982931303496956825e+08 9.90217445589718914256e-01 -9.72880903460159734975e-02 -2.10758745786338757069e-03 -2.09600836768412818190e-02 -2.10758745786338757069e-03 -2.09600836768412818190e-02 9.99545934046850326204e-01 -4.51571313793578885121e-03
9.98984977719385266304e+08 9.90178336927653668376e-01 -9.74803951847339061887e-02 -2.11601316368680058069e-03 -2.10015144984007709472e-02 -2.11601316368680058069e-03 -2.10015144984007709472e-02 9.99544118783558865893e-01 -4.52463913785621733160e-03
9.98987024135273575783e+08 9.90138994154096452327e-01 -9.76734533687609179919e-02 -2.12448930730217006024e-03 -2.10431076232870072074e-02 -2.12448930730217006024e-03 -2.10431076232870072074e-02 9.99542292653774588906e-01 -4.53360010496839122701e-03
9.98989070551161885262e+08 9.90099415403365212818e-01 -9.78672692842545294267e-02 -2.13301629065853733461e-03 -2.10848639964689756054e-02 -2.13301629065853733461e-03 -2.10848639964689756054e-02 9.99540455570900210347e-01 -4.54259624285970661089e-03
9.98991116967050313950e+08 9.90059598791219519498e-01 -9.80618473510884991473e-02 -2.14159451970316041733e-03 -2.11267845701796248836e-02 -2.14159451970316041733e-03 -2.11267845701796248836e-02 9.99538607447476912249e-01 -4.55162775668253166694e-03
9.98993163382938623428e+08 9.90019542414648623385e-01 -9.82571920231307405214e-02 -2.15022440442728121970e-03 -2.11688703039756946633e-02 -2.15022440442728121970e-03 -2.11688703039756946633e-02 9.99536748195174906684e-01 -4.56069485316710175604e-03
9.98995209798826932907e+08 9.89979244351630982557e-01 -9.84533077886461521766e-02 -2.15890635891792482745e-03 -2.12111221648245522331e-02 -2.15890635891792482745e-03 -2.12111221648245522331e-02 9.99534877724781667396e-01 -4.56979774064021973534e-03
9.98997256214715242386e+08 9.89938702660921543419e-01 -9.86501991705500957952e-02 -2.16764080140360382645e-03 -2.12535411271587669491e-02 -2.16764080140360382645e-03 -2.12535411271587669491e-02 9.99532995946192714953e-01 -4.57893662903701911815e-03
9.98999302630603551865e+08 9.89897915381819037961e-01 -9.88478707267549799864e-02 -2.17642815430465434018e-03 -2.12961281729508039584e-02 -2.17642815430465434018e-03 -2.12961281729508039584e-02 9.99531102768400403491e-01 -4.58811172991705276680e-03
9.99001349046491980553e+08 9.89856880533921512644e-01 -9.90463270505532178412e-02 -2.18526884428572312422e-03 -2.13388842917955207090e-02 -2.18526884428572312422e-03 -2.13388842917955207090e-02 9.99529198099482485418e-01 -4.59732325648207120622e-03
9.99003395462380290031e+08 9.89815596116909723889e-01 -9.92455727708592555514e-02 -2.19416330230251749658e-03 -2.13818104809622884510e-02 -2.19416330230251749658e-03 -2.13818104809622884510e-02 9.99527281846592452474e-01 -4.60657142358724715214e-03
9.99005441878268599510e+08 9.89774060110282460911e-01 -9.94456125526700790429e-02 -2.20311196365883523937e-03 -2.14249077454942565835e-02 -2.20311196365883523937e-03 -2.14249077454942565835e-02 9.99525353915946879191e-01 -4.61585644776256204952e-03
9.99007488294156908989e+08 9.89732270473130504307e-01 -9.96464510973256029081e-02 -2.21211526805522142383e-03 -2.14681770982643911616e-02 -2.21211526805522142383e-03 -2.14681770982643911616e-02 9.99523414212815319857e-01 -4.62517854722488234998e-03
9.99009534710045337677e+08 9.89690225143882051917e-01 -9.98480931428965545749e-02 -2.22117365964388628619e-03 -2.15116195600590955073e-02 -2.22117365964388628619e-03 -2.15116195600590955073e-02 9.99521462641507763003e-01 -4.63453794189597201303e-03
9.99011581125933647156e+08 9.89647922040061023274e-01 -1.00050543464494878787e-01 -2.23028758708071050271e-03 -2.15552361596450491044e-02 -2.23028758708071050271e-03 -2.15552361596450491044e-02 9.99519499105364528369e-01 -4.64393485341689331303e-03
9.99013627541821956635e+08 9.89605359058019162788e-01 -1.00253806874697579121e-01 -2.23945750358293211787e-03 -2.15990279338605407899e-02 -2.23945750358293211787e-03 -2.15990279338605407899e-02 9.99517523506742833206e-01 -4.65336950516768294017e-03
9.99015673957710266113e+08 9.89562534072685573427e-01 -1.00457888223876495859e-01 -2.24868386698320659942e-03 -2.16429959276864952722e-02 -2.24868386698320659942e-03 -2.16429959276864952722e-02 9.99515535747005579026e-01 -4.66284212228265746575e-03
9.99017720373598575592e+08 9.89519444937307479648e-01 -1.00662792400553535721e-01 -2.25796713978539988210e-03 -2.16871411943230368857e-02 -2.25796713978539988210e-03 -2.16871411943230368857e-02 9.99513535726509472212e-01 -4.67235293166690449085e-03
9.99019766789487004280e+08 9.89476089483179443995e-01 -1.00868524331799228055e-01 -2.26730778922294620020e-03 -2.17314647952753375870e-02 -2.26730778922294620020e-03 -2.17314647952753375870e-02 9.99511523344591812368e-01 -4.68190216201478173752e-03
9.99021813205375313759e+08 9.89432465519388681940e-01 -1.01075088983540548049e-01 -2.27670628731371782472e-03 -2.17759678004199215551e-02 -2.27670628731371782472e-03 -2.17759678004199215551e-02 9.99509498499559723150e-01 -4.69149004382419729242e-03
9.99023859621263623238e+08 9.89388570832518410292e-01 -1.01282491361051801837e-01 -2.28616311092383903483e-03 -2.18206512881104555679e-02 -2.28616311092383903483e-03 -2.18206512881104555679e-02 9.99507461088675497329e-01 -4.70111680941940734274e-03
9.99025906037151932716e+08 9.89344403186393495098e-01 -1.01490736509237775009e-01 -2.29567874182269376568e-03 -2.18655163452387245326e-02 -2.29567874182269376568e-03 -2.18655163452387245326e-02 9.99505411008144828422e-01 -4.71078269296414716555e-03
9.99027952453040361404e+08 9.89299960321780025296e-01 -1.01699829513111822399e-01 -2.30525366674747033205e-03 -2.19105640673376463046e-02 -2.30525366674747033205e-03 -2.19105640673376463046e-02 9.99503348153103599039e-01 -4.72048793048383038412e-03
9.99029998868928670883e+08 9.89255239956129850398e-01 -1.01909775498052510012e-01 -2.31488837745824280190e-03 -2.19557955586365607936e-02 -2.31488837745824280190e-03 -2.19557955586365607936e-02 9.99501272417605224341e-01 -4.73023275987745610988e-03
9.99032045284816980362e+08 9.89210239783260836255e-01 -1.02120579630348012889e-01 -2.32458337080688982532e-03 -2.20012119321785111492e-02 -2.32458337080688982532e-03 -2.20012119321785111492e-02 9.99499183694606219142e-01 -4.74001742094287865925e-03
9.99034091700705289841e+08 9.89164957473077088856e-01 -1.02332247117535551917e-01 -2.33433914879733247355e-03 -2.20468143098933831714e-02 -2.33433914879733247355e-03 -2.20468143098933831714e-02 9.99497081875953208296e-01 -4.74984215539256404703e-03
9.99036138116593599319e+08 9.89119390671276077498e-01 -1.02544783208790776796e-01 -2.34415621864873325100e-03 -2.20926038226817861299e-02 -2.34415621864873325100e-03 -2.20926038226817861299e-02 9.99494966852368937893e-01 -4.75970720687166407026e-03
9.99038184532482028008e+08 9.89073536999045432871e-01 -1.02758193195344030291e-01 -2.35403509286064233433e-03 -2.21385816105047414371e-02 -2.35403509286064233433e-03 -2.21385816105047414371e-02 9.99492838513438841552e-01 -4.76961282097733418883e-03
9.99040230948370337486e+08 9.89027394052750419284e-01 -1.02972482410931098773e-01 -2.36397628928045966737e-03 -2.21847488224807924684e-02 -2.36397628928045966737e-03 -2.21847488224807924684e-02 9.99490696747596163441e-01 -4.77955924527965949483e-03
9.99042277364258646965e+08 9.88980959403629955595e-01 -1.03187656232185051564e-01 -2.37398033116891253244e-03 -2.22311066169704162065e-02 -2.37398033116891253244e-03 -2.22311066169704162065e-02 9.99488541442107636392e-01 -4.78954672933984155342e-03
9.99044323780146956444e+08 9.88934230597484420500e-01 -1.03403720079050187586e-01 -2.38404774726728519232e-03 -2.22776561616652123143e-02 -2.38404774726728519232e-03 -2.22776561616652123143e-02 9.99486372483059493099e-01 -4.79957552472940699589e-03
9.99046370196035385132e+08 9.88887205154343806868e-01 -1.03620679415271157997e-01 -2.39417907186891334992e-03 -2.23243986336932910552e-02 -2.39417907186891334992e-03 -2.23243986336932910552e-02 9.99484189755341700945e-01 -4.80964588505292112153e-03
9.99048416611923694611e+08 9.88839880568164297792e-01 -1.03838539748734998147e-01 -2.40437484488458669274e-03 -2.23713352196929296523e-02 -2.40437484488458669274e-03 -2.23713352196929296523e-02 9.99481993142634084215e-01 -4.81975806596385020902e-03
9.99050463027812004089e+08 9.88792254306478990422e-01 -1.04057306632005755476e-01 -2.41463561191771966530e-03 -2.24184671159277960906e-02 -2.41463561191771966530e-03 -2.24184671159277960906e-02 9.99479782527389781777e-01 -4.82991232518938801155e-03
9.99052509443700313568e+08 9.88744323810080372184e-01 -1.04276985662699786528e-01 -2.42496192433288345475e-03 -2.24657955283677768232e-02 -2.42496192433288345475e-03 -2.24657955283677768232e-02 9.99477557790821036221e-01 -4.84010892254787064570e-03
9.99054555859588623047e+08 9.88696086492667269852e-01 -1.04497582484002468628e-01 -2.43535433933175522042e-03 -2.25133216728003043849e-02 -2.43535433933175522042e-03 -2.25133216728003043849e-02 9.99475318812882429498e-01 -4.85034811997276087830e-03
9.99056602275477051735e+08 9.88647539740515002293e-01 -1.04719102785065354411e-01 -2.44581342002429076229e-03 -2.25610467749159208928e-02 -2.44581342002429076229e-03 -2.25610467749159208928e-02 9.99473065472255450814e-01 -4.86063018153108129804e-03
9.99058648691365361214e+08 9.88598680912126437370e-01 -1.04941552301467622144e-01 -2.45633973550373916825e-03 -2.26089720704077089264e-02 -2.45633973550373916825e-03 -2.26089720704077089264e-02 9.99470797646332731468e-01 -4.87095537344483468095e-03
9.99060695107253670692e+08 9.88549507337863619938e-01 -1.05164936815755949429e-01 -2.46693386092622498826e-03 -2.26570988050875769815e-02 -2.46693386092622498826e-03 -2.26570988050875769815e-02 9.99468515211200614345e-01 -4.88132396411606120368e-03
9.99062741523141980171e+08 9.88500016319603713733e-01 -1.05389262157845456369e-01 -2.47759637758463617876e-03 -2.27054282349726695156e-02 -2.47759637758463617876e-03 -2.27054282349726695156e-02 9.99466218041623388757e-01 -4.89173622414545202636e-03
9.99064787939030408859e+08 9.88450205130366521544e-01 -1.05614534205540663847e-01 -2.48832787298906192922e-03 -2.27539616263975758015e-02 -2.48832787298906192922e-03 -2.27539616263975758015e-02 9.99463906011025859932e-01 -4.90219242635652353163e-03
9.99066834354918718338e+08 9.88400071013958103627e-01 -1.05840758884958960340e-01 -2.49912894094349693000e-03 -2.28027002561055867902e-02 -2.49912894094349693000e-03 -2.28027002561055867902e-02 9.99461578991476917722e-01 -4.91269284581527868050e-03
9.99068880770807027817e+08 9.88349611184579646128e-01 -1.06067942171093776427e-01 -2.51000018163010730002e-03 -2.28516454113700182016e-02 -2.51000018163010730002e-03 -2.28516454113700182016e-02 9.99459236853670995870e-01 -4.92323775985634756042e-03
9.99070927186695337296e+08 9.88298822826452094681e-01 -1.06296090088286582231e-01 -2.52094220169009038471e-03 -2.29007983900958861367e-02 -2.52094220169009038471e-03 -2.29007983900958861367e-02 9.99456879466911307652e-01 -4.93382744810488826914e-03
9.99072973602583765984e+08 9.88247703093429907817e-01 -1.06525208710728833128e-01 -2.53195561430690288529e-03 -2.29501605009280740255e-02 -2.53195561430690288529e-03 -2.29501605009280740255e-02 9.99454506699091638211e-01 -4.94446219249989552674e-03
9.99075020018472075462e+08 9.88196249108620139445e-01 -1.06755304162920325317e-01 -2.54304103928834493789e-03 -2.29997330633500696173e-02 -2.54304103928834493789e-03 -2.29997330633500696173e-02 9.99452118416678247925e-01 -4.95514227731546665068e-03
9.99077066434360384941e+08 9.88144457963965106018e-01 -1.06986382620270090160e-01 -2.55419910315647083129e-03 -2.30495174078134065776e-02 -2.55419910315647083129e-03 -2.30495174078134065776e-02 9.99449714484691109639e-01 -4.96586798918869851138e-03
9.99079112850248694420e+08 9.88092326719854918693e-01 -1.07218450309542051579e-01 -2.56543043923104004816e-03 -2.30995148758337161266e-02 -2.56543043923104004816e-03 -2.30995148758337161266e-02 9.99447294766685701006e-01 -4.97663961714036890555e-03
9.99081159266137003899e+08 9.88039852404700380539e-01 -1.07451513509456822448e-01 -2.57673568772149187006e-03 -2.31497268201203351690e-02 -2.57673568772149187006e-03 -2.31497268201203351690e-02 9.99444859124733020472e-01 -4.98745745260287341033e-03
9.99083205682025432587e+08 9.87987032014538524294e-01 -1.07685578551130228808e-01 -2.58811549581207086049e-03 -2.32001546046708279070e-02 -2.58811549581207086049e-03 -2.32001546046708279070e-02 9.99442407419401379620e-01 -4.99832178944057715919e-03
9.99085252097913742065e+08 9.87933862512595184491e-01 -1.07920651818675522593e-01 -2.59957051775589831691e-03 -2.32507996049007049921e-02 -2.59957051775589831691e-03 -2.32507996049007049921e-02 9.99439939509736308132e-01 -5.00923292397776904333e-03
9.99087298513802051544e+08 9.87880340828853786839e-01 -1.08156739749762309533e-01 -2.61110141496804712413e-03 -2.33016632077638237430e-02 -2.61110141496804712413e-03 -2.33016632077638237430e-02 9.99437455253240125685e-01 -5.02019115502460016448e-03
9.99089344929690361023e+08 9.87826463859626135999e-01 -1.08393848836137396408e-01 -2.62270885611783858421e-03 -2.33527468118646490403e-02 -2.62270885611783858421e-03 -2.33527468118646490403e-02 9.99434954505852624074e-01 -5.03119678390126761486e-03
9.99091391345578789711e+08 9.87772228467116653050e-01 -1.08631985624158156067e-01 -2.63439351722282409651e-03 -2.34040518275731197761e-02 -2.63439351722282409651e-03 -2.34040518275731197761e-02 9.99432437121929972967e-01 -5.04225011446276290966e-03
9.99093437761467099190e+08 9.87717631478958857372e-01 -1.08871156715422814920e-01 -2.64615608174865839242e-03 -2.34555796771604568862e-02 -2.64615608174865839242e-03 -2.34555796771604568862e-02 9.99429902954224180789e-01 -5.05335145312813330265e-03
9.99095484177355408669e+08 9.87662669687768168814e-01 -1.09111368767304886540e-01 -2.65799724070540921428e-03 -2.35073317949143038852e-02 -2.65799724070540921428e-03 -2.35073317949143038852e-02 9.99427351853861556386e-01 -5.06450110890528399504e-03
9.99097530593243718147e+08 9.87607339850682053317e-01 -1.09352628493520065422e-01 -2.66991769274661956690e-03 -2.35593096272608583386e-02 -2.66991769274661956690e-03 -2.35593096272608583386e-02 9.99424783670321725815e-01 -5.07569939341729215593e-03
9.99099577009132027626e+08 9.87551638688876853855e-01 -1.09594942664771946572e-01 -2.68191814427344576988e-03 -2.36115146329040001549e-02 -2.68191814427344576988e-03 -2.36115146329040001549e-02 9.99422198251415094816e-01 -5.08694662093238120920e-03
9.99101623425020456314e+08 9.87495562887103828231e-01 -1.09838318109287833013e-01 -2.69399930953457449403e-03 -2.36639482829406923303e-02 -2.69399930953457449403e-03 -2.36639482829406923303e-02 9.99419595443261643553e-01 -5.09824310838878549251e-03
9.99103669840908765793e+08 9.87439109093209310686e-01 -1.10082761713399826520e-01 -2.70616191072958539240e-03 -2.37166120609862245139e-02 -2.70616191072958539240e-03 -2.37166120609862245139e-02 9.99416975090268167037e-01 -5.10958917542172867676e-03
9.99105716256797075272e+08 9.87382273917618791259e-01 -1.10328280422259672466e-01 -2.71840667812021583027e-03 -2.37695074633281731857e-02 -2.71840667812021583027e-03 -2.37695074633281731857e-02 9.99414337035104294316e-01 -5.12098514439659775049e-03
9.99107762672685384750e+08 9.87325053932860963180e-01 -1.10574881240349545686e-01 -2.73073435013276421407e-03 -2.38226359990364802699e-02 -2.73073435013276421407e-03 -2.38226359990364802699e-02 9.99411681118681283209e-01 -5.13243134043265495509e-03
9.99109809088573813438e+08 9.87267445673048249510e-01 -1.10822571232159119980e-01 -2.74314567347004167192e-03 -2.38759991901093052147e-02 -2.74314567347004167192e-03 -2.38759991901093052147e-02 9.99409007180126485181e-01 -5.14392809143446490261e-03
9.99111855504462122917e+08 9.87209445633366433626e-01 -1.11071357522797301010e-01 -2.75564140322140513004e-03 -2.39295985716048327518e-02 -2.75564140322140513004e-03 -2.39295985716048327518e-02 9.99406315056761140880e-01 -5.15547572812028592759e-03
9.99113901920350432396e+08 9.87151050269547858385e-01 -1.11321247298645412127e-01 -2.76822230297618741141e-03 -2.39834356917819763177e-02 -2.76822230297618741141e-03 -2.39834356917819763177e-02 9.99403604584074845008e-01 -5.16707458405239131866e-03
9.99115948336238741875e+08 9.87092255997346068597e-01 -1.11572247807977489864e-01 -2.78088914493685585017e-03 -2.40375121122340454360e-02 -2.78088914493685585017e-03 -2.40375121122340454360e-02 9.99400875595701454479e-01 -5.17872499566586052405e-03
9.99117994752127051353e+08 9.87033059191981920755e-01 -1.11824366361677252080e-01 -2.79364271003841764529e-03 -2.40918294080431916182e-02 -2.79364271003841764529e-03 -2.40918294080431916182e-02 9.99398127923393886363e-01 -5.19042730230185461737e-03
9.99120041168015480042e+08 9.86973456187609232693e-01 -1.12077610333840740897e-01 -2.80648378806349274237e-03 -2.41463891679102385379e-02 -2.80648378806349274237e-03 -2.41463891679102385379e-02 9.99395361396998360703e-01 -5.20218184623559218305e-03
9.99122087583903789520e+08 9.86913443276761115364e-01 -1.12331987162434213112e-01 -2.81941317776158604722e-03 -2.42011929942964471030e-02 -2.81941317776158604722e-03 -2.42011929942964471030e-02 9.99392575844429753573e-01 -5.21398897270688565370e-03
9.99124133999792098999e+08 9.86853016709764996328e-01 -1.12587504350057085456e-01 -2.83243168697517189863e-03 -2.42562425035878562185e-02 -2.83243168697517189863e-03 -2.42562425035878562185e-02 9.99389771091643508427e-01 -5.22584902995555048572e-03
9.99126180415680408478e+08 9.86792172694183955528e-01 -1.12844169464562243954e-01 -2.84554013276004918315e-03 -2.43115393262289501697e-02 -2.84554013276004918315e-03 -2.43115393262289501697e-02 9.99386946962610434042e-01 -5.23776236925020156898e-03
9.99128226831568837166e+08 9.86730907394220979612e-01 -1.13101990139802155433e-01 -2.85873934151359551312e-03 -2.43670851068833807518e-02 -2.85873934151359551312e-03 -2.43670851068833807518e-02 9.99384103279288393828e-01 -5.24972934492288177688e-03
9.99130273247457146645e+08 9.86669216930149528544e-01 -1.13360974076237436270e-01 -2.87203014909755745959e-03 -2.44228815045650984872e-02 -2.87203014909755745959e-03 -2.44228815045650984872e-02 9.99381239861596659679e-01 -5.26175031439731280547e-03
9.99132319663345456123e+08 9.86607097377677710881e-01 -1.13621129041791890657e-01 -2.88541340097502301693e-03 -2.44789301928225559724e-02 -2.88541340097502301693e-03 -2.44789301928225559724e-02 9.99378356527385602881e-01 -5.27382563822857784036e-03
9.99134366079233765602e+08 9.86544544767355424675e-01 -1.13882462872493039896e-01 -2.89888995233804043841e-03 -2.45352328598767016610e-02 -2.89888995233804043841e-03 -2.45352328598767016610e-02 9.99375453092409826716e-01 -5.28595568013285471709e-03
9.99136412495122075081e+08 9.86481555083960182095e-01 -1.14144983473176808708e-01 -2.91246066824012335428e-03 -2.45917912087728132708e-02 -2.91246066824012335428e-03 -2.45917912087728132708e-02 9.99372529370298967599e-01 -5.29814080702012586699e-03
