!Agilent Technologies,N5245A,MY49151052,A.09.90.19
!Agilent N5245A: A.09.90.19
!Date: Monday, December 16, 2019 12:52:07
!Correction: S11(Off) 
!S21(Off) 
!S12(Off) 
!S22(Off) 
!S2P File: Measurements: S11, S21, S12, S22:
# Hz S  MA   R 50
26745000000 0.37831828 45.293282 0.034869257 -119.43842 0.034654398 70.930283 0.43997255 -174.99969
26745037500 0.37852758 45.165005 0.03493768 -119.31021 0.034596812 70.851089 0.43998468 -175.11006
26745075000 0.37847045 44.996971 0.034953337 -119.48546 0.034718398 70.743019 0.43987891 -175.21678
26745112500 0.37848163 44.838848 0.035044353 -119.47195 0.034637634 70.549919 0.4398883 -175.33595
26745150000 0.37858316 44.679981 0.035088968 -119.76357 0.034755472 70.514351 0.4398821 -175.46635
26745187500 0.37864771 44.511013 0.035140064 -119.70093 0.034657363 70.433456 0.43992272 -175.56325
26745225000 0.37876558 44.346897 0.035001617 -119.85664 0.034731217 70.448181 0.43976554 -175.67639
26745262500 0.37871042 44.194672 0.035099108 -119.91885 0.034854457 70.233032 0.43983871 -175.7785
26745300000 0.37891108 44.021179 0.035084125 -120.17329 0.034833692 70.240372 0.43971881 -175.90549
26745337500 0.37899876 43.875214 0.035090018 -120.06955 0.034787253 70.071419 0.43965146 -176.01653
26745375000 0.3788029 43.714466 0.035110604 -120.15001 0.034828778 69.824249 0.43962687 -176.13826
26745412500 0.37900215 43.564911 0.035186969 -120.39353 0.034866583 69.77285 0.43962109 -176.25206
26745450000 0.37899533 43.411049 0.035130218 -120.55348 0.03488408 69.62989 0.43959072 -176.37828
26745487500 0.37916818 43.238152 0.035131197 -120.5446 0.034925971 69.654129 0.439619 -176.47125
26745525000 0.37910911 43.103466 0.035139021 -120.67908 0.034895308 69.472809 0.43960044 -176.6053
26745562500 0.37923515 42.928055 0.03525177 -120.88975 0.034959145 69.503738 0.43945488 -176.69896
26745600000 0.37932822 42.787415 0.035291377 -120.82016 0.034993745 69.279823 0.43944025 -176.81929
26745637500 0.37934414 42.615341 0.035226386 -121.02355 0.035032704 69.295334 0.4395059 -176.9312
26745675000 0.37944198 42.4631 0.035289105 -121.00443 0.034975793 68.954956 0.43942153 -177.04013
26745712500 0.37961033 42.296246 0.035287034 -121.26971 0.035004292 68.952194 0.43935344 -177.15515
26745750000 0.37954855 42.140999 0.035330683 -121.55816 0.034972683 68.908859 0.43948889 -177.26927
26745787500 0.37961319 41.9753 0.035335299 -121.56756 0.035121188 68.487953 0.4392837 -177.39175
26745825000 0.37972975 41.818516 0.035287298 -121.48183 0.035081275 68.903786 0.43922183 -177.49263
26745862500 0.37981221 41.681118 0.035472155 -121.49895 0.035080824 68.504555 0.43937087 -177.62122
26745900000 0.3799811 41.502701 0.035407368 -121.74323 0.035052024 68.331726 0.43928033 -177.72781
26745937500 0.38007906 41.353901 0.035442393 -121.79868 0.035111539 68.445435 0.43938836 -177.84724
26745975000 0.38016787 41.200104 0.035447553 -121.88313 0.035237234 68.315689 0.43921268 -177.96252
26746012500 0.3799417 41.011299 0.035432763 -121.90896 0.035080858 68.067436 0.43924323 -178.08546
26746050000 0.38009691 40.876038 0.035516027 -122.06268 0.035173062 68.14872 0.4393262 -178.19373
26746087500 0.38015032 40.709885 0.035476651 -122.25758 0.035169825 67.823433 0.43914455 -178.31282
26746125000 0.3803294 40.549736 0.035517983 -122.32435 0.035269085 67.722 0.4390592 -178.44019
26746162500 0.38027722 40.377468 0.035539221 -122.32385 0.035266515 67.74968 0.43901142 -178.54121
26746200000 0.38054141 40.239197 0.035451967 -122.50249 0.035341959 67.563522 0.43915257 -178.66119
26746237500 0.38056585 40.086861 0.035487615 -122.71062 0.035346761 67.440842 0.43912685 -178.76567
26746275000 0.38047308 39.909729 0.035589606 -122.66046 0.035282835 67.461884 0.43901199 -178.90311
26746312500 0.38077444 39.764496 0.035582554 -122.75454 0.035256967 67.304504 0.43887749 -179.01349
26746350000 0.38069984 39.591908 0.035641633 -122.86104 0.035273839 67.120575 0.43885425 -179.12314
26746387500 0.38079414 39.424091 0.035652477 -123.02829 0.035353094 67.039841 0.438979 -179.23798
26746425000 0.38082018 39.28548 0.035608355 -123.22182 0.035411566 67.027718 0.4389787 -179.35222
26746462500 0.38075158 39.135559 0.035703659 -123.32829 0.035420392 66.941711 0.43895635 -179.47696
26746500000 0.38094476 38.952888 0.035605401 -123.34651 0.035374068 66.780655 0.43892214 -179.60278
26746537500 0.38106918 38.808434 0.035761565 -123.42998 0.035462767 66.872131 0.43890893 -179.70801
26746575000 0.38117528 38.664448 0.035801049 -123.40176 0.035406418 66.653282 0.43894041 -179.80568
26746612500 0.38135073 38.489365 0.035732396 -123.54256 0.035464473 66.319992 0.43901381 -179.9297
26746650000 0.38135079 38.302036 0.035768636 -123.62868 0.035489917 66.344879 0.43879908 179.94502
26746687500 0.38139084 38.165459 0.035717793 -123.81834 0.035563614 66.238892 0.43874666 179.83539
26746725000 0.38137048 38.024311 0.035867821 -123.86617 0.035557978 66.254036 0.43885013 179.71562
26746762500 0.38144642 37.847309 0.035812069 -124.01836 0.035528254 66.242813 0.43879953 179.60321
26746800000 0.38158008 37.696373 0.035853773 -124.09126 0.035665955 66.019592 0.43867704 179.49355
26746837500 0.38170484 37.512363 0.035896778 -124.32703 0.035601713 65.733505 0.43869197 179.39577
26746875000 0.3818312 37.370365 0.03587386 -124.28973 0.035697006 65.866936 0.43881726 179.27469
26746912500 0.38190413 37.218601 0.035903506 -124.50376 0.035596572 65.580399 0.43871373 179.138
26746950000 0.38186148 37.045811 0.035904393 -124.69173 0.035627518 65.537148 0.43867171 179.04012
26746987500 0.38196629 36.911079 0.035872187 -124.58932 0.035718415 65.367867 0.43862748 178.92259
26747025000 0.38208756 36.735809 0.0360195 -124.73823 0.035708096 65.318474 0.43876424 178.80394
26747062500 0.38219512 36.563072 0.035945904 -124.89572 0.035765536 65.271027 0.43869942 178.69489
26747100000 0.38217655 36.403542 0.035931841 -124.9922 0.035846274 65.08606 0.43874305 178.58743
26747137500 0.38219988 36.25256 0.036027972 -125.07173 0.035864398 65.028038 0.43868414 178.46045
26747175000 0.38242993 36.108566 0.036020312 -125.20353 0.035879157 65.094543 0.43856522 178.34183
26747212500 0.38244906 35.950169 0.036059868 -125.30105 0.035803534 64.781807 0.43849474 178.22385
26747250000 0.38242197 35.779343 0.03605568 -125.29739 0.03591574 64.765205 0.43859309 178.11694
26747287500 0.38263553 35.61982 0.036054429 -125.43815 0.03581214 64.526398 0.43854323 177.99605
26747325000 0.38276812 35.458004 0.036082085 -125.56898 0.035899326 64.642776 0.43858275 177.89212
26747362500 0.38279939 35.313778 0.036153913 -125.60455 0.035883334 64.451294 0.43858159 177.7699
26747400000 0.38282332 35.150299 0.036210366 -125.90224 0.035940934 64.251999 0.43847424 177.6496
26747437500 0.38290483 34.974735 0.036154777 -125.80283 0.035963982 64.232292 0.43859652 177.54005
26747475000 0.38311446 34.822338 0.036207471 -125.88267 0.036050048 64.124847 0.43837014 177.42743
26747512500 0.38302276 34.667976 0.036188036 -126.10733 0.035975698 64.015724 0.43836895 177.31604
26747550000 0.38311937 34.49353 0.036224738 -126.13017 0.036068264 63.817989 0.43840921 177.16129
26747587500 0.38329843 34.328041 0.036223032 -126.47649 0.035993487 63.687771 0.43846345 177.0853
26747625000 0.38326544 34.172306 0.036283541 -126.45359 0.036035243 63.662167 0.43851945 176.9453
26747662500 0.3833771 34.024593 0.036342565 -126.42404 0.036116816 63.611786 0.43839088 176.83955
26747700000 0.38352218 33.864155 0.036354799 -126.61586 0.036159769 63.571011 0.43846539 176.72345
26747737500 0.38352257 33.714615 0.036174666 -126.53786 0.036134191 63.231571 0.43853098 176.60835
26747775000 0.38373893 33.55315 0.036340963 -126.84241 0.036223453 63.138851 0.43848526 176.50699
26747812500 0.38364115 33.394047 0.03636742 -126.92104 0.036260545 63.134617 0.43838471 176.38585
26747850000 0.38397765 33.223682 0.036326125 -126.94572 0.036203295 62.991127 0.43842229 176.2644
26747887500 0.38390836 33.075085 0.036428537 -127.019 0.036298424 62.944584 0.43835658 176.14519
26747925000 0.38395125 32.922935 0.036412932 -127.17588 0.036301561 62.85955 0.4383069 176.03864
26747962500 0.3840448 32.77124 0.036399301 -127.22055 0.036272652 62.810974 0.43849221 175.91266
26748000000 0.38417259 32.595181 0.036426555 -127.30714 0.036298908 62.652184 0.43842977 175.79572
26748037500 0.38422668 32.440166 0.036564041 -127.46163 0.036371566 62.574753 0.43839598 175.68803
26748075000 0.3844775 32.294739 0.036590077 -127.59924 0.036375504 62.333244 0.43828112 175.54057
26748112500 0.38450491 32.114613 0.036701299 -127.60755 0.036441442 62.288643 0.4383049 175.4539
26748150000 0.38454375 31.962919 0.036597386 -127.65613 0.036379624 62.155323 0.43826208 175.33347
26748187500 0.38461545 31.811518 0.036492534 -127.94924 0.036555048 62.039249 0.43823025 175.22606
26748225000 0.38457644 31.63064 0.036569517 -127.93438 0.036551796 61.960464 0.43830827 175.10783
26748262500 0.3848927 31.480749 0.036626827 -128.01373 0.036449142 62.033943 0.4382132 175.00479
26748300000 0.38490143 31.322193 0.036620378 -128.1955 0.036477532 61.844517 0.43813968 174.87117
26748337500 0.38497058 31.163931 0.036774807 -128.27002 0.036631003 61.771496 0.43805933 174.7572
26748375000 0.38515177 31.014257 0.03676689 -128.34071 0.036523037 61.538883 0.43815586 174.64691
26748412500 0.38527477 30.847467 0.036714215 -128.51891 0.036657002 61.508198 0.43828341 174.5222
26748450000 0.38517511 30.700508 0.036817629 -128.40276 0.036649518 61.366627 0.43822968 174.41856
26748487500 0.3853378 30.517204 0.036815397 -128.71552 0.03666947 61.132797 0.43821308 174.29813
26748525000 0.38542286 30.375221 0.036807578 -128.76575 0.036605164 61.166039 0.4383015 174.17708
26748562500 0.38539386 30.206505 0.036925897 -128.74661 0.036640786 61.134094 0.43817201 174.06108
26748600000 0.38566121 30.04241 0.036846925 -129.01651 0.036740258 60.881088 0.4380731 173.93755
26748637500 0.38561189 29.90094 0.036839262 -129.11111 0.036693301 60.946159 0.43818328 173.81927
26748675000 0.38592237 29.739157 0.036926322 -129.20399 0.036781117 60.836044 0.43812957 173.70488
26748712500 0.38586256 29.572519 0.036880307 -129.40483 0.036783423 60.709831 0.43800393 173.58618
26748750000 0.3860608 29.425951 0.03700443 -129.26917 0.036729205 60.582146 0.43823403 173.4839
26748787500 0.38612211 29.248917 0.037000008 -129.51498 0.036802713 60.615402 0.43810087 173.36336
26748825000 0.38624278 29.099266 0.036938485 -129.69777 0.036834173 60.267849 0.43808106 173.24054
26748862500 0.38626376 28.946314 0.03701647 -129.55008 0.036835968 60.30851 0.43812656 173.11006
26748900000 0.38629538 28.778217 0.037037965 -129.80724 0.036842234 60.141621 0.437958 173.00821
26748937500 0.38640529 28.620012 0.037071072 -129.97069 0.0369194 59.992447 0.43809307 172.89641
26748975000 0.38647041 28.462255 0.03706453 -129.94766 0.036992744 59.959999 0.43816331 172.79021
26749012500 0.38659903 28.295298 0.037109103 -130.17502 0.0370549 59.751472 0.4379662 172.65912
26749050000 0.38666382 28.129271 0.037106052 -130.38081 0.037052587 59.626808 0.43802515 172.54443
26749087500 0.38688749 27.978252 0.037184011 -130.26534 0.037048362 59.768604 0.43800259 172.41788
26749125000 0.38678926 27.832199 0.037110101 -130.26898 0.037048392 59.574871 0.43798992 172.30818
26749162500 0.38696632 27.652523 0.037208293 -130.4689 0.03710692 59.425728 0.43802676 172.19882
26749200000 0.38701466 27.5144 0.03731503 -130.80684 0.037093192 59.378887 0.43801266 172.07114
26749237500 0.38706467 27.351154 0.037368041 -130.733 0.037133206 59.172489 0.43812659 171.95842
26749275000 0.3873356 27.214792 0.037259974 -130.82463 0.037164673 58.971149 0.43807593 171.85686
26749312500 0.38741499 27.0424 0.037278701 -130.75768 0.037209395 58.919601 0.43802509 171.73033
26749350000 0.38744238 26.89068 0.037294753 -131.09727 0.037245754 58.939323 0.43809709 171.599
26749387500 0.38755786 26.716845 0.03735809 -131.10378 0.037223589 58.915054 0.43815416 171.49792
26749425000 0.3877604 26.548771 0.037398729 -131.16844 0.03726849 58.710339 0.43802571 171.35623
26749462500 0.38772833 26.411596 0.037400983 -131.3868 0.037323337 58.621227 0.43810555 171.26674
26749500000 0.38784504 26.253477 0.037245039 -131.47459 0.037295211 58.44199 0.43804947 171.14436
26749537500 0.38798678 26.092161 0.037405934 -131.52264 0.037391193 58.385162 0.43802351 171.01569
26749575000 0.38812968 25.926624 0.037447296 -131.64754 0.037391167 58.033031 0.43796453 170.88158
26749612500 0.3880825 25.75853 0.037495259 -131.81801 0.037445273 58.115143 0.43810055 170.80765
26749650000 0.38826385 25.624575 0.037399512 -131.8295 0.037354834 58.131084 0.43813494 170.67247
26749687500 0.38836789 25.444317 0.037464704 -131.92383 0.037439637 58.075195 0.43813953 170.56976
26749725000 0.38840401 25.287624 0.037579942 -132.06419 0.037438814 57.902874 0.43803868 170.44521
26749762500 0.38849074 25.117298 0.037599176 -132.1604 0.037545376 57.814354 0.43799517 170.31659
26749800000 0.38863042 24.951029 0.037656218 -132.23238 0.03754355 57.456345 0.43798175 170.2092
26749837500 0.38873076 24.802649 0.037615784 -132.32697 0.037583102 57.620235 0.43812343 170.08199
26749875000 0.38905254 24.656767 0.037630189 -132.38374 0.037669573 57.346973 0.43802515 169.96564
26749912500 0.38891658 24.493492 0.037608106 -132.40352 0.037658162 57.39798 0.43812874 169.85008
26749950000 0.38912299 24.335552 0.037684873 -132.55681 0.037555203 57.281883 0.43808293 169.74544
26749987500 0.38912815 24.157867 0.037787575 -132.64366 0.037621841 57.050636 0.43804285 169.61975
26750025000 0.38931435 24.024935 0.037782535 -132.88947 0.037647773 56.944111 0.43809238 169.49771
26750062500 0.38928998 23.851751 0.037849437 -132.88493 0.037658319 56.9142 0.43805641 169.37912
26750100000 0.3893725 23.686581 0.037864495 -133.14285 0.037698485 56.751595 0.43818837 169.27374
26750137500 0.38960159 23.553654 0.037857383 -133.05624 0.037836332 56.659248 0.43802994 169.13782
26750175000 0.38960946 23.385853 0.037949555 -133.32167 0.037757546 56.631432 0.43815896 169.03209
26750212500 0.38974679 23.243778 0.037918415 -133.2269 0.037796263 56.47039 0.43806341 168.91087
26750250000 0.38991997 23.07098 0.037903629 -133.39229 0.037870068 56.47908 0.43804005 168.80174
26750287500 0.38998115 22.906876 0.037980463 -133.50313 0.037921485 56.312572 0.43808764 168.67789
26750325000 0.38995582 22.743044 0.037940878 -133.66797 0.03789052 56.108887 0.43802151 168.54718
26750362500 0.39017943 22.592054 0.037978925 -133.68343 0.03793351 56.012753 0.43803576 168.43625
26750400000 0.39028174 22.445133 0.037988663 -133.80406 0.037945677 56.025684 0.43802196 168.32846
26750437500 0.39043009 22.278971 0.038068172 -133.82709 0.038023923 55.803413 0.43802375 168.19469
26750475000 0.39063162 22.10828 0.038043771 -133.94556 0.038026311 55.739086 0.43811244 168.07831
26750512500 0.39061907 21.967768 0.038058482 -134.13651 0.038065191 55.674427 0.43801045 167.97565
26750550000 0.39057797 21.793871 0.038193207 -134.21457 0.038026392 55.545189 0.43816826 167.84839
26750587500 0.39066505 21.632797 0.038241077 -134.43327 0.038096182 55.581028 0.43821481 167.7516
26750625000 0.39085683 21.489363 0.038301401 -134.44991 0.038132202 55.40543 0.43806064 167.62045
26750662500 0.39118847 21.32991 0.038168505 -134.56323 0.038225513 55.309883 0.43821272 167.49777
26750700000 0.39089045 21.144865 0.038244579 -134.51622 0.038203023 55.211739 0.43812656 167.37558
26750737500 0.39121497 20.995724 0.038298331 -134.67249 0.038186993 55.074955 0.43820339 167.27185
26750775000 0.39136517 20.851519 0.038318094 -134.80911 0.038211733 54.97588 0.43816248 167.14134
26750812500 0.39140633 20.692945 0.038201809 -135.04791 0.038246177 54.814495 0.43822783 167.02596
26750850000 0.39154112 20.539694 0.038292371 -135.25476 0.038278013 54.704926 0.43813702 166.90892
26750887500 0.39152712 20.35244 0.038331471 -135.1068 0.038294517 54.601692 0.43821472 166.77887
26750925000 0.39170125 20.232224 0.038432732 -135.22585 0.038394492 54.506844 0.43821627 166.66133
26750962500 0.39188656 20.063829 0.038446642 -135.29236 0.038420048 54.281223 0.43805879 166.54652
26751000000 0.39190322 19.889019 0.03851356 -135.44777 0.038390089 54.310009 0.43828762 166.43648
26751037500 0.39206421 19.744577 0.038478862 -135.52281 0.038508944 54.166748 0.43837023 166.31827
26751075000 0.39225274 19.576542 0.038614471 -135.6759 0.038519751 54.02076 0.43831205 166.18985
26751112500 0.39236817 19.422794 0.038514975 -135.81145 0.038506124 54.13398 0.43845043 166.07697
26751150000 0.39242128 19.262106 0.038623355 -135.77444 0.038519792 53.891102 0.43842044 165.94077
26751187500 0.39249912 19.100273 0.038701568 -135.95538 0.038668163 53.876564 0.43828657 165.83734
26751225000 0.39262214 18.953732 0.03855123 -136.07341 0.038599506 53.644596 0.43815723 165.71071
26751262500 0.39278954 18.799459 0.038742349 -136.24821 0.038710061 53.649376 0.43826199 165.5956
26751300000 0.39275494 18.629961 0.03873672 -136.29631 0.03872646 53.423058 0.43830764 165.47783
26751337500 0.39305606 18.475073 0.038705993 -136.32541 0.038778886 53.40617 0.43839481 165.3484
26751375000 0.39320502 18.302311 0.038729534 -136.5291 0.038804751 53.362892 0.43829495 165.23096
26751412500 0.39323261 18.171808 0.038786188 -136.60454 0.038825363 53.155334 0.43836373 165.12459
26751450000 0.39324251 17.984261 0.038785532 -136.6255 0.038837712 53.231392 0.43830216 165.02884
26751487500 0.39344162 17.835966 0.038898595 -136.68321 0.038791195 52.921879 0.43837917 164.89052
26751525000 0.39338174 17.685167 0.038848042 -136.97781 0.038850501 52.861351 0.43845329 164.76418
26751562500 0.39362192 17.526255 0.038969297 -136.8831 0.038874783 52.895611 0.43848389 164.64058
26751600000 0.39366272 17.37257 0.038908005 -136.93568 0.03905075 52.707752 0.43843096 164.52013
26751637500 0.39394897 17.218943 0.038906191 -137.11102 0.039079785 52.574848 0.43860632 164.39774
26751675000 0.39385515 17.040094 0.039003961 -137.17369 0.038937774 52.416035 0.43842325 164.28639
26751712500 0.39401951 16.890495 0.038996179 -137.35976 0.039033052 52.186981 0.43844742 164.17714
26751750000 0.39417219 16.732111 0.039118614 -137.37975 0.039078176 52.176701 0.4385761 164.05699
26751787500 0.39437971 16.57428 0.03903136 -137.5853 0.039137285 52.009636 0.43847093 163.94016
26751825000 0.39442429 16.421654 0.038981751 -137.67468 0.039170276 52.078743 0.43854153 163.80902
26751862500 0.39446026 16.255508 0.039192997 -137.71342 0.039174601 51.876072 0.43855402 163.69281
26751900000 0.3946403 16.122143 0.039143905 -137.80351 0.039213277 51.96487 0.43856615 163.58853
26751937500 0.39466411 15.934985 0.039191395 -137.90317 0.039183982 51.855888 0.43855482 163.44725
26751975000 0.39486551 15.78578 0.039205808 -138.12733 0.039132044 51.60252 0.43866241 163.35678
26752012500 0.39487317 15.621073 0.039270002 -138.30025 0.039290361 51.517971 0.43851936 163.21376
26752050000 0.39502239 15.492548 0.039321221 -138.28069 0.039365601 51.437447 0.43859941 163.08557
26752087500 0.39512694 15.299547 0.039373279 -138.42355 0.039417949 51.22805 0.43862095 162.98616
26752125000 0.39535531 15.158584 0.039271496 -138.4146 0.039387215 51.174091 0.4385829 162.86186
26752162500 0.39536369 15.004599 0.039333824 -138.45773 0.039429698 50.987453 0.43877682 162.73738
26752200000 0.39546633 14.843299 0.039381187 -138.72005 0.039384436 51.004929 0.43867758 162.61792
26752237500 0.39568824 14.683901 0.039424188 -138.65892 0.039518576 51.016998 0.4388614 162.50058
26752275000 0.39571425 14.515486 0.039451234 -138.70454 0.039452389 50.854435 0.43863127 162.38914
26752312500 0.39583349 14.355067 0.039510772 -138.78281 0.03954554 50.657932 0.43870658 162.26778
26752350000 0.39596486 14.198394 0.039568216 -139.04932 0.039580803 50.536507 0.43883067 162.14867
26752387500 0.39608333 14.045212 0.039532021 -139.2236 0.039653081 50.544254 0.43869478 162.00105
26752425000 0.39623362 13.871967 0.03963593 -139.35876 0.039700292 50.366199 0.43879911 161.92534
26752462500 0.39627948 13.728946 0.039660566 -139.32027 0.039722722 50.275375 0.43893182 161.78072
