! Created Tue Mar 24 16:12:56 2020
# hz S db R 50
! 2 Port Network Data from SP1.SP block
! freq  dbS11  angS11  dbS21  angS21  dbS12  angS12  dbS22  angS22  
!     
         1.215e+09       -1.67104876         135.881062        -53.9738269         39.4409103        -53.9738269         39.4409103        -1.81894956         131.845776
    1.21501874e+09       -1.67116572         135.824869         -53.965565         39.3782436         -53.965565         39.3782436        -1.81908348         131.789237
    1.21503748e+09       -1.67128277         135.768672        -53.9572899         39.3155585        -53.9572899         39.3155585         -1.8192175         131.732695
    1.21505621e+09        -1.6713999         135.712472        -53.9490016         39.2528548        -53.9490016         39.2528548         -1.8193516          131.67615
    1.21507495e+09       -1.67151711         135.656269        -53.9407001         39.1901327        -53.9407001         39.1901327         -1.8194858         131.619601
    1.21509369e+09        -1.6716344         135.600062        -53.9323853         39.1273918        -53.9323853         39.1273918        -1.81962008         131.563048
    1.21511243e+09       -1.67175178         135.543853        -53.9240572         39.0646323        -53.9240572         39.0646323        -1.81975446         131.506492
    1.21513117e+09       -1.67186924         135.487641        -53.9157158         39.0018541        -53.9157158         39.0018541        -1.81988892         131.449932
     1.2151499e+09       -1.67198679         135.431425        -53.9073611          38.939057        -53.9073611          38.939057        -1.82002348         131.393369
    1.21516864e+09       -1.67210441         135.375206        -53.8989929          38.876241        -53.8989929          38.876241        -1.82015813         131.336802
    1.21518738e+09       -1.67222212         135.318984        -53.8906113         38.8134061        -53.8906113         38.8134061        -1.82029287         131.280232
    1.21520612e+09       -1.67233991         135.262759        -53.8822162         38.7505521        -53.8822162         38.7505521         -1.8204277         131.223658
    1.21522486e+09       -1.67245779         135.206531        -53.8738076          38.687679        -53.8738076          38.687679        -1.82056262         131.167081
    1.21524359e+09       -1.67257574           135.1503        -53.8653854         38.6247868        -53.8653854         38.6247868        -1.82069763           131.1105
    1.21526233e+09       -1.67269378         135.094065        -53.8569497         38.5618754        -53.8569497         38.5618754        -1.82083274         131.053915
    1.21528107e+09        -1.6728119         135.037828        -53.8485004         38.4989446        -53.8485004         38.4989446        -1.82096793         130.997327
    1.21529981e+09       -1.67293011         134.981587        -53.8400375         38.4359945        -53.8400375         38.4359945        -1.82110322         130.940735
    1.21531855e+09        -1.6730484         134.925343        -53.8315608          38.373025        -53.8315608          38.373025        -1.82123859          130.88414
    1.21533728e+09       -1.67316677         134.869095        -53.8230705          38.310036        -53.8230705          38.310036        -1.82137406         130.827541
    1.21535602e+09       -1.67328522         134.812845        -53.8145664         38.2470273        -53.8145664         38.2470273        -1.82150962         130.770938
    1.21537476e+09       -1.67340376         134.756591        -53.8060485         38.1839991        -53.8060485         38.1839991        -1.82164527         130.714332
     1.2153935e+09       -1.67352237         134.700335        -53.7975168         38.1209511        -53.7975168         38.1209511        -1.82178101         130.657723
    1.21541224e+09       -1.67364107         134.644075        -53.7889712         38.0578833        -53.7889712         38.0578833        -1.82191684         130.601109
    1.21543097e+09       -1.67375986         134.587812        -53.7804117         37.9947957        -53.7804117         37.9947957        -1.82205276         130.544492
    1.21544971e+09       -1.67387872         134.531545        -53.7718383         37.9316882        -53.7718383         37.9316882        -1.82218877         130.487872
    1.21546845e+09       -1.67399767         134.475276         -53.763251         37.8685606         -53.763251         37.8685606        -1.82232487         130.431247
    1.21548719e+09        -1.6741167         134.419003        -53.7546496          37.805413        -53.7546496          37.805413        -1.82246107         130.374619
    1.21550593e+09       -1.67423581         134.362727        -53.7460342         37.7422452        -53.7460342         37.7422452        -1.82259735         130.317988
    1.21552466e+09       -1.67435501         134.306448        -53.7374048         37.6790573        -53.7374048         37.6790573        -1.82273373         130.261353
     1.2155434e+09       -1.67447429         134.250165        -53.7287612          37.615849        -53.7287612          37.615849         -1.8228702         130.204714
    1.21556214e+09       -1.67459365          134.19388        -53.7201034         37.5526204        -53.7201034         37.5526204        -1.82300676         130.148071
    1.21558088e+09       -1.67471309         134.137591        -53.7114315         37.4893713        -53.7114315         37.4893713        -1.82314341         130.091425
    1.21559962e+09       -1.67483261         134.081299        -53.7027454         37.4261017        -53.7027454         37.4261017        -1.82328015         130.034776
    1.21561835e+09       -1.67495222         134.025003         -53.694045         37.3628115         -53.694045         37.3628115        -1.82341698         129.978122
    1.21563709e+09       -1.67507191         133.968705        -53.6853303         37.2995007        -53.6853303         37.2995007         -1.8235539         129.921465
    1.21565583e+09       -1.67519168         133.912403        -53.6766012         37.2361691        -53.6766012         37.2361691        -1.82369092         129.864804
    1.21567457e+09       -1.67531154         133.856098        -53.6678578         37.1728167        -53.6678578         37.1728167        -1.82382802          129.80814
    1.21569331e+09       -1.67543147          133.79979           -53.6591         37.1094434           -53.6591         37.1094434        -1.82396522         129.751472
    1.21571204e+09       -1.67555149         133.743478        -53.6503277         37.0460492        -53.6503277         37.0460492        -1.82410251           129.6948
    1.21573078e+09       -1.67567159         133.687163        -53.6415409         36.9826339        -53.6415409         36.9826339        -1.82423989         129.638124
    1.21574952e+09       -1.67579177         133.630845        -53.6327396         36.9191974        -53.6327396         36.9191974        -1.82437736         129.581445
    1.21576826e+09       -1.67591204         133.574524        -53.6239238         36.8557398        -53.6239238         36.8557398        -1.82451492         129.524762
      1.215787e+09       -1.67603239         133.518199        -53.6150933         36.7922609        -53.6150933         36.7922609        -1.82465258         129.468075
    1.21580573e+09       -1.67615282         133.461871        -53.6062482         36.7287607        -53.6062482         36.7287607        -1.82479032         129.411385
    1.21582447e+09       -1.67627333          133.40554        -53.5973884          36.665239        -53.5973884          36.665239        -1.82492816         129.354691
    1.21584321e+09       -1.67639392         133.349206        -53.5885139         36.6016958        -53.5885139         36.6016958        -1.82506609         129.297993
    1.21586195e+09        -1.6765146         133.292868        -53.5796246          36.538131        -53.5796246          36.538131        -1.82520411         129.241292
    1.21588069e+09       -1.67663536         133.236527        -53.5707205         36.4745445        -53.5707205         36.4745445        -1.82534222         129.184586
    1.21589942e+09        -1.6767562         133.180182        -53.5618016         36.4109362        -53.5618016         36.4109362        -1.82548042         129.127877
    1.21591816e+09       -1.67687712         133.123835        -53.5528678         36.3473061        -53.5528678         36.3473061        -1.82561871         129.071165
     1.2159369e+09       -1.67699812         133.067484        -53.5439191         36.2836541        -53.5439191         36.2836541         -1.8257571         129.014448
    1.21595564e+09       -1.67711921         133.011129        -53.5349554         36.2199801        -53.5349554         36.2199801        -1.82589558         128.957728
    1.21597438e+09       -1.67724038         132.954772        -53.5259768          36.156284        -53.5259768          36.156284        -1.82603414         128.901004
    1.21599311e+09       -1.67736163         132.898411        -53.5169831         36.0925658        -53.5169831         36.0925658         -1.8261728         128.844276
    1.21601185e+09       -1.67748296         132.842047        -53.5079743         36.0288253        -53.5079743         36.0288253        -1.82631156         128.787545
    1.21603059e+09       -1.67760438         132.785679        -53.4989503         35.9650624        -53.4989503         35.9650624         -1.8264504         128.730809
    1.21604933e+09       -1.67772588         132.729308        -53.4899112         35.9012772        -53.4899112         35.9012772        -1.82658934          128.67407
    1.21606807e+09       -1.67784745         132.672934        -53.4808569         35.8374694        -53.4808569         35.8374694        -1.82672837         128.617328
     1.2160868e+09       -1.67796912         132.616556        -53.4717874         35.7736391        -53.4717874         35.7736391        -1.82686748         128.560581
    1.21610554e+09       -1.67809086         132.560176        -53.4627026          35.709786        -53.4627026          35.709786         -1.8270067          128.50383
    1.21612428e+09       -1.67821268         132.503791        -53.4536024         35.6459102        -53.4536024         35.6459102          -1.827146         128.447076
    1.21614302e+09       -1.67833459         132.447404        -53.4444869         35.5820116        -53.4444869         35.5820116         -1.8272854         128.390318
    1.21616176e+09       -1.67845658         132.391013         -53.435356           35.51809         -53.435356           35.51809        -1.82742488         128.333556
    1.21618049e+09       -1.67857865         132.334618        -53.4262096         35.4541454        -53.4262096         35.4541454        -1.82756446         128.276791
    1.21619923e+09        -1.6787008         132.278221        -53.4170477         35.3901777        -53.4170477         35.3901777        -1.82770413         128.220021
    1.21621797e+09       -1.67882304          132.22182        -53.4078702         35.3261868        -53.4078702         35.3261868         -1.8278439         128.163248
    1.21623671e+09       -1.67894536         132.165415        -53.3986772         35.2621726        -53.3986772         35.2621726        -1.82798376         128.106471
    1.21625545e+09       -1.67906776         132.109007        -53.3894686         35.1981351        -53.3894686         35.1981351         -1.8281237          128.04969
    1.21627418e+09       -1.67919024         132.052596        -53.3802443          35.134074        -53.3802443          35.134074        -1.82826374         127.992905
    1.21629292e+09        -1.6793128         131.996182        -53.3710042         35.0699895        -53.3710042         35.0699895        -1.82840388         127.936117
    1.21631166e+09       -1.67943545         131.939764        -53.3617485         35.0058812        -53.3617485         35.0058812         -1.8285441         127.879324
     1.2163304e+09       -1.67955817         131.883342        -53.3524769         34.9417493        -53.3524769         34.9417493        -1.82868442         127.822528
    1.21634914e+09       -1.67968098         131.826918        -53.3431895         34.8775935        -53.3431895         34.8775935        -1.82882483         127.765728
    1.21636787e+09       -1.67980387         131.770489        -53.3338862         34.8134137        -53.3338862         34.8134137        -1.82896534         127.708924
    1.21638661e+09       -1.67992685         131.714058        -53.3245669           34.74921        -53.3245669           34.74921        -1.82910593         127.652116
    1.21640535e+09        -1.6800499         131.657623        -53.3152317         34.6849822        -53.3152317         34.6849822        -1.82924662         127.595304
    1.21642409e+09       -1.68017304         131.601185        -53.3058805         34.6207301        -53.3058805         34.6207301         -1.8293874         127.538488
    1.21644283e+09       -1.68029626         131.544743        -53.2965132         34.5564538        -53.2965132         34.5564538        -1.82952827         127.481669
    1.21646156e+09       -1.68041956         131.488298        -53.2871298         34.4921531        -53.2871298         34.4921531        -1.82966924         127.424846
     1.2164803e+09       -1.68054294         131.431849        -53.2777302         34.4278278        -53.2777302         34.4278278         -1.8298103         127.368018
    1.21649904e+09       -1.68066641         131.375397        -53.2683144          34.363478        -53.2683144          34.363478        -1.82995145         127.311187
    1.21651778e+09       -1.68078995         131.318941        -53.2588824         34.2991036        -53.2588824         34.2991036         -1.8300927         127.254352
    1.21653652e+09       -1.68091358         131.262482        -53.2494341         34.2347043        -53.2494341         34.2347043        -1.83023404         127.197513
    1.21655525e+09        -1.6810373          131.20602        -53.2399695         34.1702802        -53.2399695         34.1702802        -1.83037547          127.14067
    1.21657399e+09       -1.68116109         131.149554        -53.2304885         34.1058311        -53.2304885         34.1058311        -1.83051699         127.083823
    1.21659273e+09       -1.68128496         131.093085         -53.220991          34.041357         -53.220991          34.041357        -1.83065861         127.026972
    1.21661147e+09       -1.68140892         131.036612        -53.2114771         33.9768577        -53.2114771         33.9768577        -1.83080032         126.970118
    1.21663021e+09       -1.68153296         130.980136        -53.2019467         33.9123331        -53.2019467         33.9123331        -1.83094213         126.913259
    1.21664894e+09       -1.68165708         130.923656        -53.1923997         33.8477831        -53.1923997         33.8477831        -1.83108403         126.856397
    1.21666768e+09       -1.68178129         130.867173         -53.182836         33.7832077         -53.182836         33.7832077        -1.83122602          126.79953
    1.21668642e+09       -1.68190557         130.810687        -53.1732558         33.7186067        -53.1732558         33.7186067        -1.83136811          126.74266
    1.21670516e+09       -1.68202994         130.754196        -53.1636588         33.6539801        -53.1636588         33.6539801        -1.83151028         126.685785
     1.2167239e+09       -1.68215439         130.697703         -53.154045         33.5893276         -53.154045         33.5893276        -1.83165256         126.628907
    1.21674263e+09       -1.68227892         130.641206        -53.1444145         33.5246493        -53.1444145         33.5246493        -1.83179492         126.572025
    1.21676137e+09       -1.68240353         130.584705         -53.134767         33.4599451         -53.134767         33.4599451        -1.83193739         126.515138
    1.21678011e+09       -1.68252823         130.528201        -53.1251027         33.3952147        -53.1251027         33.3952147        -1.83207994         126.458248
    1.21679885e+09       -1.68265301         130.471694        -53.1154215         33.3304582        -53.1154215         33.3304582        -1.83222259         126.401354
    1.21681759e+09       -1.68277787         130.415183        -53.1057232         33.2656753        -53.1057232         33.2656753        -1.83236533         126.344456
    1.21683632e+09       -1.68290281         130.358668        -53.0960079         33.2008661        -53.0960079         33.2008661        -1.83250817         126.287554
    1.21685506e+09       -1.68302784          130.30215        -53.0862755         33.1360304        -53.0862755         33.1360304         -1.8326511         126.230647
     1.2168738e+09       -1.68315294         130.245629         -53.076526          33.071168         -53.076526          33.071168        -1.83279412         126.173737
    1.21689254e+09       -1.68327813         130.189103        -53.0667592          33.006279        -53.0667592          33.006279        -1.83293724         126.116823
    1.21691128e+09        -1.6834034         130.132575        -53.0569753         32.9413631        -53.0569753         32.9413631        -1.83308046         126.059905
    1.21693001e+09       -1.68352876         130.076043         -53.047174         32.8764203         -53.047174         32.8764203        -1.83322377         126.002982
    1.21694875e+09       -1.68365419         130.019507        -53.0373554         32.8114504        -53.0373554         32.8114504        -1.83336717         125.946056
    1.21696749e+09       -1.68377971         129.962968        -53.0275194         32.7464534        -53.0275194         32.7464534        -1.83351067         125.889126
    1.21698623e+09       -1.68390531         129.906425        -53.0176659         32.6814291        -53.0176659         32.6814291        -1.83365426         125.832192
    1.21700497e+09       -1.68403099         129.849879        -53.0077949         32.6163774        -53.0077949         32.6163774        -1.83379795         125.775253
     1.2170237e+09       -1.68415676         129.793329        -52.9979065         32.5512983        -52.9979065         32.5512983        -1.83394173         125.718311
    1.21704244e+09       -1.68428261         129.736775        -52.9880004         32.4861916        -52.9880004         32.4861916        -1.83408561         125.661364
    1.21706118e+09       -1.68440854         129.680218        -52.9780766         32.4210571        -52.9780766         32.4210571        -1.83422959         125.604414
    1.21707992e+09       -1.68453455         129.623658        -52.9681352         32.3558948        -52.9681352         32.3558948        -1.83437366         125.547459
    1.21709866e+09       -1.68466064         129.567094         -52.958176         32.2907046         -52.958176         32.2907046        -1.83451782         125.490501
    1.21711739e+09       -1.68478682         129.510526         -52.948199         32.2254863         -52.948199         32.2254863        -1.83466208         125.433538
    1.21713613e+09       -1.68491308         129.453955        -52.9382041         32.1602399        -52.9382041         32.1602399        -1.83480643         125.376571
    1.21715487e+09       -1.68503942          129.39738        -52.9281914         32.0949651        -52.9281914         32.0949651        -1.83495089           125.3196
