!Keysight Technologies,N5245B,MY49151052,A.14.00.23
!Date: Friday, February 19, 2021 17:55:53
!Correction: S11(C* 2-Port  ) 
!S21(C* 2-Port  ) 
!S12(C* 2-Port  ) 
!S22(C* 2-Port  ) 
!S2P File: Measurement: :
# Hz S  dB   R 50
11731000000 0.0063100369 138.40707 -50.82518 41.892445 -50.823601 41.69302 -0.17291632 122.92629
11731031250 0.0063808607 138.40312 -50.795242 41.669319 -50.815399 41.465134 -0.1730828 122.92322
11731062500 0.0062474832 138.40216 -50.808231 41.839695 -50.832607 41.366203 -0.17305396 122.92087
11731093750 0.0057315114 138.39972 -50.806641 41.688648 -50.842934 41.69619 -0.1729015 122.92168
11731125000 0.0063663861 138.39703 -50.785564 41.888016 -50.811348 41.304298 -0.17316496 122.9167
11731156250 0.0065194038 138.39471 -50.786713 41.804554 -50.836319 41.467052 -0.17328565 122.91306
11731187500 0.0060991091 138.3927 -50.810158 41.605831 -50.824249 41.595066 -0.17343974 122.90673
11731218750 0.0058235428 138.39081 -50.828373 41.504082 -50.80983 41.618629 -0.17312078 122.90563
11731250000 0.0062464494 138.38811 -50.799084 41.685364 -50.832333 41.651207 -0.17323177 122.90326
11731281250 0.0063250288 138.38666 -50.769684 41.575195 -50.846184 41.511524 -0.17344864 122.89932
11731312500 0.0068316259 138.38461 -50.82354 41.942539 -50.821125 41.570721 -0.17378244 122.89792
11731343750 0.0063524279 138.3833 -50.801281 41.455727 -50.807907 41.614677 -0.17329912 122.8946
11731375000 0.0065049292 138.38156 -50.829708 41.809734 -50.813976 41.396427 -0.17359008 122.89431
11731406250 0.0067054993 138.37909 -50.827385 41.869255 -50.757107 41.458221 -0.17372425 122.8905
11731437500 0.0064599547 138.37686 -50.775608 41.47715 -50.841335 41.306187 -0.17348096 122.88759
11731468750 0.0066837883 138.37608 -50.817902 41.841862 -50.827671 41.462147 -0.17347449 122.88506
11731500000 0.0067747659 138.37331 -50.793877 42.000134 -50.830242 41.30632 -0.17360893 122.88363
11731531250 0.0066744839 138.37057 -50.826374 41.995872 -50.806351 41.443924 -0.17329589 122.8814
11731562500 0.0066109016 138.36957 -50.802467 41.980942 -50.811607 41.549976 -0.17302164 122.87964
11731593750 0.0067664953 138.36873 -50.808411 41.625931 -50.851974 41.255772 -0.17319298 122.87538
11731625000 0.0063395039 138.36552 -50.767574 41.716988 -50.830261 41.456917 -0.17341846 122.87506
11731656250 0.0065809195 138.36436 -50.773804 41.623375 -50.812115 41.525188 -0.17352487 122.87005
11731687500 0.006637265 138.3618 -50.788963 41.65123 -50.838829 41.365231 -0.17324039 122.86848
11731718750 0.006761326 138.36006 -50.820122 41.467148 -50.792042 41.449436 -0.17356044 122.86571
11731750000 0.0070166741 138.35802 -50.822517 41.525455 -50.816662 41.401207 -0.17351276 122.86602
11731781250 0.0069820429 138.3576 -50.7869 41.589943 -50.807568 41.405075 -0.17348742 122.86358
11731812500 0.0067478865 138.35416 -50.804939 41.918518 -50.782581 41.37405 -0.17359062 122.86008
11731843750 0.0067127361 138.35243 -50.79948 41.674343 -50.821068 41.176929 -0.1734446 122.85691
11731875000 0.0068006115 138.34914 -50.815609 41.768524 -50.832207 41.457893 -0.17371859 122.85532
11731906250 0.0067256591 138.34805 -50.780369 41.67971 -50.834587 41.279831 -0.17339772 122.85315
11731937500 0.0068471329 138.34792 -50.811836 41.322838 -50.810642 41.284271 -0.17309895 122.85221
11731968750 0.0069019245 138.34532 -50.798962 41.638126 -50.814098 41.028385 -0.17337912 122.8491
11732000000 0.0064346241 138.34314 -50.822792 41.477791 -50.808079 41.411415 -0.17325278 122.84694
11732031250 0.0068429979 138.34213 -50.788479 41.396839 -50.821526 41.264187 -0.17408745 122.84497
11732062500 0.0065628267 138.33868 -50.826283 41.889961 -50.857021 41.391884 -0.17350143 122.84222
11732093750 0.006981526 138.33809 -50.807156 41.502953 -50.839077 41.416031 -0.17356905 122.84024
11732125000 0.0066455361 138.33565 -50.784733 41.699436 -50.820461 41.430828 -0.17346884 122.83784
11732156250 0.0068827993 138.33405 -50.786259 41.995071 -50.800579 41.477627 -0.17397724 122.83511
11732187500 0.0065897075 138.33087 -50.79052 41.473457 -50.795177 41.465633 -0.17360947 122.83493
11732218750 0.0063219271 138.3307 -50.803078 41.607269 -50.823967 41.622322 -0.17331016 122.83254
11732250000 0.0064909719 138.32802 -50.77277 41.385651 -50.813847 41.371334 -0.17328672 122.83004
11732281250 0.0065359459 138.32593 -50.784073 41.627663 -50.840408 41.511497 -0.17357202 122.82876
11732312500 0.0064485818 138.32358 -50.809208 41.369221 -50.81216 41.388626 -0.17328134 122.82626
11732343750 0.0062929769 138.32167 -50.82309 41.649265 -50.832039 41.438301 -0.17341226 122.82302
11732375000 0.0064573702 138.3212 -50.82412 41.225269 -50.805561 41.644875 -0.17366174 122.8224
11732406250 0.0065907412 138.31892 -50.787132 41.485088 -50.804764 41.137283 -0.17362213 122.81937
11732437500 0.0064170477 138.31566 -50.765335 41.576736 -50.815125 41.553722 -0.17353997 122.81658
11732468750 0.0066052154 138.31517 -50.807915 41.790176 -50.822643 41.504913 -0.17387836 122.81506
11732500000 0.0067013637 138.31311 -50.785408 41.561306 -50.791443 41.346378 -0.1736666 122.81194
11732531250 0.0067106681 138.31015 -50.797749 41.981182 -50.802189 41.266556 -0.1736224 122.81033
11732562500 0.0069443099 138.30992 -50.783443 41.801167 -50.808208 41.189606 -0.17360489 122.80843
11732593750 0.0067447848 138.3054 -50.796261 41.571033 -50.809822 41.651165 -0.17306206 122.80664
11732625000 0.0063663861 138.30446 -50.797695 41.308533 -50.772709 41.399155 -0.17345105 122.80476
11732656250 0.0065586912 138.30121 -50.778191 41.786495 -50.798965 41.138622 -0.17348015 122.80519
11732687500 0.0066899913 138.30092 -50.861187 41.696358 -50.798695 41.344147 -0.17316334 122.79956
11732718750 0.0064527174 138.29797 -50.833862 41.462879 -50.823723 41.450039 -0.17286998 122.80116
11732750000 0.0065907412 138.29559 -50.794891 41.285252 -50.79826 41.063866 -0.17348501 122.79933
11732781250 0.006458404 138.29416 -50.799435 41.823128 -50.827396 41.383987 -0.17323877 122.79615
11732812500 0.0062909089 138.29207 -50.829517 41.571892 -50.809803 41.357292 -0.17359628 122.79455
11732843750 0.0063705216 138.28835 -50.840912 41.754871 -50.78009 41.299938 -0.17385411 122.79292
11732875000 0.0062542041 138.28618 -50.763355 41.775223 -50.815956 41.512691 -0.17387082 122.79056
11732906250 0.0063674198 138.28525 -50.810101 41.572182 -50.79866 41.229462 -0.17350629 122.78978
11732937500 0.00630952 138.28406 -50.822453 41.602806 -50.776707 41.761585 -0.17367601 122.78742
11732968750 0.0062660943 138.28088 -50.805824 41.407116 -50.824947 41.502373 -0.17326464 122.7856
11733000000 0.0059590014 138.27895 -50.812668 41.814236 -50.828926 41.236679 -0.17374526 122.78231
11733031250 0.0060768779 138.27736 -50.749363 41.619389 -50.774708 41.108009 -0.17353781 122.78239
11733062500 0.006307452 138.27481 -50.76236 41.551582 -50.82328 41.145584 -0.17358172 122.77806
11733093750 0.0059088515 138.27161 -50.792213 41.40332 -50.785797 41.484909 -0.17329562 122.77813
11733125000 0.0059259129 138.27005 -50.822201 41.707062 -50.751251 41.530628 -0.17345861 122.77541
11733156250 0.0064511667 138.26773 -50.863434 41.765102 -50.844688 41.34436 -0.17325924 122.77534
11733187500 0.0060174232 138.26634 -50.799603 41.676537 -50.809738 41.40498 -0.17351572 122.76956
11733218750 0.0061885477 138.26311 -50.813076 41.435394 -50.799953 40.99474 -0.17349525 122.76911
11733250000 0.0059502125 138.26105 -50.832081 41.586311 -50.769688 41.183189 -0.17327002 122.76929
11733281250 0.0061885477 138.25832 -50.798599 41.448021 -50.831127 41.450539 -0.17305693 122.76656
11733312500 0.0061885477 138.25638 -50.782837 41.592922 -50.769058 41.122055 -0.17309491 122.765
11733343750 0.0061756233 138.25511 -50.805168 41.169136 -50.842178 41.521217 -0.17321883 122.76109
11733375000 0.0057925214 138.25339 -50.829945 41.702179 -50.804058 41.697151 -0.17288858 122.76112
11733406250 0.0063896491 138.25127 -50.801739 41.538025 -50.780224 41.381721 -0.17281961 122.75967
11733437500 0.0064966581 138.24951 -50.806866 41.563175 -50.801556 41.385105 -0.17303404 122.75446
11733468750 0.0063586314 138.24605 -50.753529 41.563412 -50.786587 41.214008 -0.17319244 122.755
11733500000 0.0058855857 138.24316 -50.802193 41.671864 -50.793781 41.204319 -0.1733309 122.75119
11733531250 0.0060675722 138.24196 -50.787544 41.310104 -50.789482 41.595791 -0.17296426 122.75043
11733562500 0.0057459883 138.23972 -50.797623 41.353493 -50.807529 41.652222 -0.17305289 122.74813
11733593750 0.0059083342 138.23718 -50.832054 41.389606 -50.802589 41.466511 -0.17328995 122.74711
11733625000 0.0060861842 138.23747 -50.775478 41.326881 -50.809605 41.407581 -0.17308307 122.74514
11733656250 0.0058406047 138.23383 -50.802761 41.675087 -50.777958 41.313084 -0.17311296 122.74203
11733687500 0.005872143 138.23048 -50.817764 41.350056 -50.817768 41.184517 -0.172978 122.73904
11733718750 0.0058514625 138.22871 -50.796276 41.562786 -50.793968 41.222519 -0.173103 122.73895
11733750000 0.0059424574 138.22862 -50.769123 41.752121 -50.812981 41.107418 -0.17307283 122.73695
11733781250 0.0060303481 138.22552 -50.77824 41.391651 -50.815128 41.43977 -0.17311646 122.73466
11733812500 0.005755295 138.22406 -50.742882 41.667664 -50.811058 41.135738 -0.17291066 122.7335
11733843750 0.0058442238 138.22198 -50.776585 41.685699 -50.791454 41.382896 -0.17275012 122.72957
11733875000 0.0054398929 138.22079 -50.798172 41.543228 -50.812412 41.606144 -0.17293571 122.72681
11733906250 0.005845258 138.21902 -50.788712 41.603638 -50.824306 41.339512 -0.17327811 122.72504
11733937500 0.0058618025 138.21736 -50.793877 41.429161 -50.811077 41.020279 -0.17267093 122.72437
11733968750 0.0054404102 138.21365 -50.80312 41.567368 -50.783577 41.333832 -0.17282338 122.72274
11734000000 0.0057956236 138.21092 -50.755405 41.273186 -50.834339 41.337303 -0.17279483 122.71955
11734031250 0.0060096681 138.20981 -50.790375 41.116405 -50.829197 41.151493 -0.17309277 122.71771
11734062500 0.0059455591 138.20737 -50.78775 41.478363 -50.787445 41.818405 -0.17278379 122.71446
11734093750 0.0057263412 138.20708 -50.768524 41.435802 -50.792637 40.87402 -0.17306797 122.71281
11734125000 0.0056322394 138.2032 -50.787704 41.313812 -50.811329 41.163475 -0.17291012 122.70957
11734156250 0.0056813587 138.20192 -50.802441 41.514217 -50.816402 41.02914 -0.17295322 122.70868
11734187500 0.0060474095 138.20122 -50.762756 41.443592 -50.839291 41.422508 -0.17274015 122.70721
11734218750 0.0057366816 138.2 -50.754379 41.384907 -50.818176 41.243458 -0.17269409 122.70446
11734250000 0.0056208642 138.19696 -50.779499 41.628227 -50.797092 41.018276 -0.17252979 122.70252
11734281250 0.0052061705 138.19424 -50.766132 41.199181 -50.822987 41.328773 -0.17238972 122.70245
11734312500 0.0058995453 138.19278 -50.822727 41.33535 -50.771965 41.205978 -0.17247052 122.69855
11734343750 0.0056632622 138.19022 -50.778839 41.602242 -50.742664 41.475227 -0.17235363 122.69848
11734375000 0.0058524963 138.18808 -50.772156 41.464199 -50.811016 41.403629 -0.17276439 122.69674
11734406250 0.0056384439 138.18752 -50.784782 41.444561 -50.821041 41.163998 -0.17246999 122.69237
11734437500 0.0057242732 138.18492 -50.782627 41.679527 -50.796185 41.453327 -0.17261921 122.69141
11734468750 0.0055262432 138.1812 -50.761818 41.416477 -50.816765 41.423187 -0.17269248 122.68977
11734500000 0.0055877729 138.17871 -50.800735 41.654007 -50.797718 41.596138 -0.17260009 122.68687
11734531250 0.005755295 138.17842 -50.781456 41.599628 -50.825638 41.059784 -0.17283362 122.68577
11734562500 0.0055991481 138.17563 -50.761257 41.2542 -50.784752 41.200539 -0.17280291 122.68338
11734593750 0.0054492005 138.17349 -50.809357 41.32745 -50.787052 41.007587 -0.17218341 122.68139
11734625000 0.0054657464 138.17235 -50.765064 41.185326 -50.768044 41.122662 -0.17247564 122.67899
11734656250 0.0059305658 138.16949 -50.785301 41.463207 -50.778946 41.307255 -0.17240238 122.67904
11734687500 0.0053933566 138.16843 -50.817856 41.299881 -50.820164 40.941223 -0.17228818 122.67538
11734718750 0.0057470226 138.16489 -50.747734 41.687832 -50.793728 41.027908 -0.17256211 122.67367
11734750000 0.0054021468 138.1628 -50.778423 41.246567 -50.781109 41.200516 -0.17238918 122.67081
11734781250 0.0056213811 138.16158 -50.776608 41.525848 -50.799599 41.236317 -0.17247942 122.67225
11734812500 0.0055314135 138.15981 -50.752865 41.382454 -50.75597 41.073116 -0.17240049 122.66811
11734843750 0.005898511 138.15698 -50.74847 41.374355 -50.779625 41.173084 -0.17277597 122.66592
11734875000 0.005403698 138.15352 -50.790302 41.452759 -50.760185 41.124634 -0.1732059 122.66461
11734906250 0.0057723573 138.15364 -50.76757 41.382828 -50.770031 41.257813 -0.17280857 122.66225
11734937500 0.0058736941 138.15001 -50.761612 41.364567 -50.841362 41.283806 -0.17250608 122.66038
11734968750 0.0058168215 138.14839 -50.787807 41.482845 -50.770622 41.221123 -0.17233908 122.65924
11735000000 0.0058509451 138.14653 -50.779892 41.277233 -50.822632 41.199619 -0.17189416 122.65651
11735031250 0.0056549893 138.14415 -50.821316 41.60762 -50.792156 41.507793 -0.17242527 122.65376
11735062500 0.0055815685 138.14249 -50.781136 41.407013 -50.795528 40.997555 -0.17291066 122.65136
11735093750 0.0054657464 138.13965 -50.794697 41.477581 -50.796124 41.171215 -0.17227283 122.65115
11735125000 0.005377844 138.13596 -50.770531 41.357151 -50.815987 41.302231 -0.17250851 122.64777
11735156250 0.005328204 138.13689 -50.756851 41.691589 -50.825203 41.302998 -0.17246945 122.64657
11735187500 0.005631722 138.13536 -50.794632 41.219593 -50.842808 41.082935 -0.17234285 122.64372
11735218750 0.0057656355 138.13313 -50.775902 41.259247 -50.786266 41.170525 -0.17219849 122.64182
11735250000 0.0057889023 138.12961 -50.755642 41.364243 -50.789909 40.955658 -0.17232507 122.64038
11735281250 0.0058850688 138.12854 -50.782738 41.407696 -50.777916 40.856441 -0.17241935 122.63841
11735312500 0.0062268041 138.12682 -50.785328 41.329292 -50.807751 41.351128 -0.17252009 122.63573
11735343750 0.0060696402 138.12407 -50.790157 41.363422 -50.762295 41.038754 -0.17215459 122.63458
11735375000 0.0061239246 138.12221 -50.776928 41.304321 -50.77631 41.242031 -0.17258203 122.63139
11735406250 0.0057521928 138.12015 -50.795536 41.501095 -50.791794 41.102566 -0.17216133 122.63124
11735437500 0.0058416389 138.11761 -50.774818 41.422043 -50.788639 40.941444 -0.17241612 122.62907
11735468750 0.0060096681 138.11696 -50.806984 41.395821 -50.78323 40.961838 -0.17192109 122.62689
11735500000 0.0058876537 138.11351 -50.785778 41.482384 -50.782887 41.213245 -0.17260036 122.62369
11735531250 0.0060861842 138.11429 -50.811035 41.150314 -50.802094 41.161407 -0.17187855 122.62399
11735562500 0.0058018276 138.10892 -50.759037 41.56731 -50.76582 41.081882 -0.17215836 122.6197
11735593750 0.0061435699 138.10883 -50.77301 41.201508 -50.752468 41.230171 -0.17161167 122.61665
11735625000 0.0058778306 138.10887 -50.768818 41.32053 -50.804585 41.228294 -0.17178698 122.61479
11735656250 0.0058287131 138.10515 -50.796169 40.959557 -50.796646 41.036404 -0.17196257 122.61411
11735687500 0.0059450422 138.10275 -50.78389 41.240276 -50.814255 41.353786 -0.17235795 122.61337
11735718750 0.0060112192 138.10054 -50.729279 41.343422 -50.771069 40.942429 -0.1719588 122.61124
11735750000 0.005847326 138.09863 -50.727261 41.333679 -50.790878 40.781132 -0.17165934 122.60915
11735781250 0.0058132024 138.09619 -50.787945 41.388641 -50.785484 41.383167 -0.17209588 122.60683
11735812500 0.0057666698 138.09479 -50.810589 41.252178 -50.771729 40.995586 -0.17227767 122.60345
11735843750 0.0059553827 138.09325 -50.765949 41.277294 -50.814758 41.338699 -0.17210099 122.60249
11735875000 0.0061978535 138.09193 -50.754967 41.234467 -50.816208 40.917904 -0.17190681 122.60147
11735906250 0.0057806298 138.08922 -50.792412 41.363037 -50.794426 41.212753 -0.17214812 122.59827
11735937500 0.0060422393 138.08813 -50.763481 41.40099 -50.799187 41.159985 -0.17213331 122.59736
11735968750 0.0060256952 138.08469 -50.781273 41.358799 -50.814796 40.992161 -0.17227876 122.59333
11736000000 0.0060050152 138.08321 -50.760193 41.220631 -50.800236 41.183105 -0.17190763 122.59492
11736031250 0.0062087099 138.08083 -50.742958 41.229435 -50.796494 41.273582 -0.17184839 122.58996
11736062500 0.0058736941 138.07973 -50.764248 41.037643 -50.816952 41.307487 -0.17203636 122.58698
11736093750 0.0058902386 138.07629 -50.770084 41.370209 -50.784142 40.975758 -0.17174765 122.58659
11736125000 0.0055769146 138.07484 -50.759789 41.291859 -50.769642 40.852451 -0.17201912 122.5846
11736156250 0.0059093684 138.07375 -50.790691 41.400192 -50.77446 41.10574 -0.17202289 122.58115
11736187500 0.0059864032 138.07112 -50.781532 41.413757 -50.797394 41.278748 -0.1722661 122.58239
11736218750 0.0063177915 138.0677 -50.80093 41.163841 -50.733067 41.029125 -0.17154649 122.57773
11736250000 0.0057635675 138.06644 -50.764122 41.310345 -50.780605 40.890812 -0.17204498 122.5774
11736281250 0.0058685238 138.06195 -50.772289 41.292286 -50.841667 41.105244 -0.17239241 122.576
11736312500 0.0060117361 138.06091 -50.780457 41.322975 -50.776524 41.209675 -0.17228334 122.57176
11736343750 0.0058917897 138.05952 -50.790752 41.565395 -50.80584 41.110588 -0.17230676 122.57102
11736375000 0.0059796819 138.05557 -50.761539 41.471111 -50.774097 41.013554 -0.17189847 122.56879
11736406250 0.0061585628 138.0546 -50.803207 41.13763 -50.788445 40.948643 -0.17182952 122.56821
11736437500 0.0059088515 138.05122 -50.78817 41.295441 -50.825691 41.182457 -0.17201346 122.56596
11736468750 0.0057883849 138.04958 -50.794262 41.214031 -50.770828 41.091061 -0.17189901 122.56366
11736500000 0.0058824834 138.04698 -50.758041 41.247597 -50.762661 40.913883 -0.17206329 122.56032
11736531250 0.0057511586 138.04358 -50.756298 41.377235 -50.750507 41.182404 -0.17235848 122.55927
11736562500 0.005802345 138.04218 -50.751335 41.173752 -50.783798 41.096985 -0.17242582 122.5556
11736593750 0.0055784658 138.04095 -50.720154 41.259064 -50.759544 40.843143 -0.17237437 122.55519
11736625000 0.0056131086 138.03777 -50.766525 41.556484 -50.763805 40.904305 -0.17231485 122.55208
11736656250 0.0057160002 138.03487 -50.802769 41.243858 -50.826805 40.951496 -0.17232186 122.55184
11736687500 0.0061983704 138.03308 -50.793091 41.030647 -50.779438 41.01263 -0.17257935 122.54723
11736718750 0.0058302642 138.03009 -50.755608 41.229958 -50.769825 41.235931 -0.17252709 122.54797
11736750000 0.0060458584 138.02782 -50.771675 41.065998 -50.802666 40.813423 -0.17282042 122.54617
11736781250 0.0056942846 138.02553 -50.765549 41.492794 -50.763866 41.22279 -0.1729842 122.54481
11736812500 0.0056694667 138.02448 -50.748268 41.273556 -50.777863 41.058681 -0.17266931 122.54176
11736843750 0.0059160898 138.02252 -50.736485 41.456459 -50.79118 40.846275 -0.17252198 122.53841
11736875000 0.0058969599 138.01883 -50.746147 41.075592 -50.781719 41.137383 -0.17267361 122.53653
11736906250 0.0062164646 138.01703 -50.795547 41.265808 -50.778126 40.869793 -0.17276332 122.53555
11736937500 0.0062169814 138.01451 -50.790035 41.192566 -50.780712 40.781548 -0.17246515 122.53328
11736968750 0.0057976916 138.00981 -50.805809 41.2771 -50.762947 41.03915 -0.17227821 122.53215
11737000000 0.0060810139 138.00809 -50.719154 41.238525 -50.772766 41.116974 -0.17269516 122.53105
11737031250 0.005642063 138.00735 -50.776218 41.363251 -50.783485 40.983704 -0.17283739 122.52716
11737062500 0.0058705918 138.00262 -50.742722 41.202183 -50.753201 41.075024 -0.17256103 122.52576
11737093750 0.0057816636 138.00224 -50.765366 41.083523 -50.760368 40.880241 -0.17264883 122.52282
11737125000 0.0058214748 137.99966 -50.765823 41.33091 -50.784138 41.005661 -0.17289019 122.52174
11737156250 0.0060468921 137.99654 -50.780392 41.369698 -50.78672 40.751316 -0.17303269 122.52075
11737187500 0.0059166066 137.99484 -50.737617 41.029831 -50.778694 40.770958 -0.17319325 122.51776
11737218750 0.0060520624 137.99312 -50.766975 41.514114 -50.755466 40.652039 -0.17281315 122.51601
11737250000 0.0061378833 137.99072 -50.763935 41.423691 -50.755836 40.905529 -0.17275739 122.51456
